Title: ** sch_path: /home/andylithia/openmpw/project-yatsuhashi-chip1/xschem/gmid_test/nmos_test.sch
Date: Tue Jul 19 23:15:45  2022
Plotname: DC transfer characteristic
Flags: real
No. Variables: 8
No. Points: 181
Variables:
	0	v(v-sweep)	voltage
	1	@m.xm1.msky130_fd_pr__nfet_01v8[cgb]	capacitance
	2	@m.xm1.msky130_fd_pr__nfet_01v8[cgd]	capacitance
	3	@m.xm1.msky130_fd_pr__nfet_01v8[cgs]	capacitance
	4	@m.xm1.msky130_fd_pr__nfet_01v8[gds]	admittance
	5	@m.xm1.msky130_fd_pr__nfet_01v8[gm]	admittance
	6	i(@m.xm1.msky130_fd_pr__nfet_01v8[id])	current
	7	v(@m.xm1.msky130_fd_pr__nfet_01v8[vth])	voltage
Values:
 0	0.000000000000000e+00
	-1.385972566681383e-15
	1.214289446499135e-19
	-3.202031343230043e-16
	2.769845386335141e-10
	1.674493818613140e-08
	9.889404076829818e-10
	5.240853832981546e-01

 1	1.000000000000000e-02
	-1.375741231778653e-15
	1.258157162745702e-19
	-3.364963636625423e-16
	3.278544731484869e-10
	1.982042997735443e-08
	1.171337777138829e-09
	5.240853833132932e-01

 2	2.000000000000000e-02
	-1.365400695786678e-15
	1.302880176488850e-19
	-3.535080394127314e-16
	3.880207654513677e-10
	2.345680951992063e-08
	1.387216936539575e-09
	5.240853833312112e-01

 3	3.000000000000000e-02
	-1.354946815800915e-15
	1.348409003024599e-19
	-3.712569059385191e-16
	4.591690697542893e-10
	2.775524771664034e-08
	1.642678837930672e-09
	5.240853833524145e-01

 4	4.000000000000000e-02
	-1.344375843547074e-15
	1.394687505322049e-19
	-3.897608541684247e-16
	5.432869130156739e-10
	3.283485281802419e-08
	1.944923443963624e-09
	5.240853833775007e-01

 5	5.000000000000000e-02
	-1.333684465397563e-15
	1.441652675856795e-19
	-4.090367674734513e-16
	6.427166810958035e-10
	3.883576548248484e-08
	2.302444180704884e-09
	5.240853834071753e-01

 6	6.000000000000000e-02
	-1.322869842768995e-15
	1.489234457287028e-19
	-4.291003618571280e-16
	7.602176008818216e-10
	4.592276512246902e-08
	2.725255836128942e-09
	5.240853834422688e-01

 7	7.000000000000001e-02
	-1.311929652478735e-15
	1.537355607943158e-19
	-4.499660216103258e-16
	8.990381596609621e-10
	5.428946611451825e-08
	3.225161401629009e-09
	5.240853834837607e-01

 8	8.000000000000000e-02
	-1.300862126597644e-15
	1.585931618044676e-19
	-4.716466317638761e-16
	1.063000609556504e-09
	6.416319308110296e-08
	3.816064191904589e-09
	5.240853835328069e-01

 9	9.000000000000000e-02
	-1.289666091299438e-15
	1.634870682381026e-19
	-4.941534088471647e-16
	1.256599433958200e-09
	7.581063619274722e-08
	4.514332528416689e-09
	5.240853835907645e-01

 10	9.999999999999999e-02
	-1.278341004175475e-15
	1.684073734887541e-19
	-5.174957316273489e-16
	1.485115904906941e-09
	8.954440034423700e-08
	5.339225344615032e-09
	5.240853836592321e-01

 11	1.100000000000000e-01
	-1.266886989458855e-15
	1.733434550104519e-19
	-5.416809736574899e-16
	1.754751134861552e-09
	1.057305761790608e-07
	6.313388279246227e-09
	5.240853837400914e-01

 12	1.200000000000000e-01
	-1.255304870584302e-15
	1.782839915924149e-19
	-5.667143395978061e-16
	2.072780321594685e-09
	1.247974763220850e-07
	7.463431179638521e-09
	5.240853838355504e-01

 13	1.300000000000000e-01
	-1.243596199501885e-15
	1.832169881305389e-19
	-5.925987073876252e-16
	2.447731198048260e-09
	1.472456968898345e-07
	8.820599452864582e-09
	5.240853839482019e-01

 14	1.400000000000000e-01
	-1.231763282164080e-15
	1.881298081772259e-19
	-6.193344784321746e-16
	2.889590024769325e-09
	1.736596824582875e-07
	1.042155339271090e-08
	5.240853840810915e-01

 15	1.500000000000000e-01
	-1.219809199617784e-15
	1.930092144515867e-19
	-6.469194380234425e-16
	3.410038793450964e-09
	2.047209922957155e-07
	1.230927148897892e-08
	5.240853842377877e-01

 16	1.600000000000000e-01
	-1.207737824156515e-15
	1.978414173804605e-19
	-6.753486282338407e-16
	4.022727635323572e-09
	2.412234869938714e-07
	1.453409580880576e-08
	5.240853844224707e-01

 17	1.700000000000000e-01
	-1.195553830023423e-15
	2.026121316186576e-19
	-7.046142355022883e-16
	4.743586732931649e-09
	2.840906779384320e-07
	1.715493984573633e-08
	5.240853846400323e-01

 18	1.800000000000000e-01
	-1.183262698203141e-15
	2.073066403664326e-19
	-7.347054950713886e-16
	5.591182298617864e-09
	3.343955077818049e-07
	2.024068178301194e-08
	5.240853848961934e-01

 19	1.900000000000000e-01
	-1.170870714899649e-15
	2.119098671657504e-19
	-7.656086143300047e-16
	6.587121382532001e-09
	3.933828588593072e-07
	2.387176894013297e-08
	5.240853851976371e-01

 20	2.000000000000000e-01
	-1.158384963367966e-15
	2.164064547173123e-19
	-7.973067169666637e-16
	7.756510375218669e-09
	4.624951192374186e-07
	2.814206230105995e-08
	5.240853855521599e-01

 21	2.100000000000000e-01
	-1.145813308848383e-15
	2.207808501206794e-19
	-8.297798096460867e-16
	9.128472035274349e-09
	5.434011740544953e-07
	3.316095350408884e-08
	5.240853859688525e-01

 22	2.200000000000001e-01
	-1.133164376442498e-15
	2.250173958032842e-19
	-8.630047726851002e-16
	1.073672565332530e-08
	6.380292346598731e-07
	3.905579056763179e-08
	5.240853864582977e-01

 23	2.300000000000001e-01
	-1.120447521868457e-15
	2.291004252745030e-19
	-8.969553759277280e-16
	1.262023450293391e-08
	7.486039718439888e-07
	4.597465301153479e-08
	5.240853870328056e-01

 24	2.400000000000001e-01
	-1.107672795137208e-15
	2.330143627213261e-19
	-9.316023207063553e-16
	1.482392396141287e-08
	8.776884846264049e-07
	5.408952201158323e-08
	5.240853877066759e-01

 25	2.500000000000001e-01
	-1.094850897299968e-15
	2.367438253563000e-19
	-9.669133084312469e-16
	1.739947253507257e-08
	1.028231715302901e-06
	6.359989692254881e-08
	5.240853884965014e-01

 26	2.600000000000001e-01
	-1.081993130527209e-15
	2.402737273393210e-19
	-1.002853135980810e-15
	2.040617641375042e-08
	1.203622017330574e-06
	7.473691607635898e-08
	5.240853894215157e-01

 27	2.700000000000001e-01
	-1.069111341889000e-15
	2.435893840254956e-19
	-1.039383817676725e-15
	2.391188602448159e-08
	1.407747697077199e-06
	8.776804738356445e-08
	5.240853905039828e-01

 28	2.800000000000001e-01
	-1.056217861312839e-15
	2.466766152442048e-19
	-1.076464733229356e-15
	2.799401027077717e-08
	1.645065483852849e-06
	1.030024231275562e-07
	5.240853917696500e-01

 29	2.900000000000001e-01
	-1.043325434295723e-15
	2.495218462914921e-19
	-1.114052800638530e-15
	3.274058065677871e-08
	1.920678032484458e-06
	1.207969036220067e-07
	5.240853932482534e-01

 30	3.000000000000001e-01
	-1.030447150039645e-15
	2.521122053206201e-19
	-1.152102672641415e-15
	3.825136324586503e-08
	2.240421721813125e-06
	1.415629662360067e-07
	5.240853949741059e-01

 31	3.100000000000001e-01
	-1.017596365761651e-15
	2.544356158441683e-19
	-1.190566954922280e-15
	4.463900136097256e-08
	2.610966166714578e-06
	1.657745297072952e-07
	5.240853969867574e-01

 32	3.200000000000001e-01
	-1.004786627998900e-15
	2.564808831161205e-19
	-1.229396443947067e-15
	5.203016611147614e-08
	3.039926986602127e-06
	1.939768385021228e-07
	5.240853993317501e-01

 33	3.300000000000001e-01
	-9.920315917841267e-16
	2.582377732423923e-19
	-1.268540381967381e-15
	6.056668530093584e-08
	3.535993433103900e-06
	2.267965477801683e-07
	5.240854020614771e-01

 34	3.400000000000001e-01
	-9.793449386059242e-16
	2.596970839722502e-19
	-1.307946726461809e-15
	7.040661418055346e-08
	4.109072421289765e-06
	2.649531653800525e-07
	5.240854052361628e-01

 35	3.500000000000001e-01
	-9.667402940904627e-16
	2.608507062484374e-19
	-1.347562431053552e-15
	8.172520410927061e-08
	4.770450262380971e-06
	3.092720216393617e-07
	5.240854089249792e-01

 36	3.600000000000002e-01
	-9.542311463458828e-16
	2.616916757378662e-19
	-1.387333734768452e-15
	9.471571781849076e-08
	5.532972873419366e-06
	3.606989484961987e-07
	5.240854132073092e-01

 37	3.700000000000002e-01
	-9.418307658977166e-16
	2.622142137240994e-19
	-1.427206456379943e-15
	1.095900331339595e-07
	6.411244338126563e-06
	4.203168529225690e-07
	5.240854181741859e-01

 38	3.800000000000002e-01
	-9.295521281134842e-16
	2.624137569133853e-19
	-1.467126290530549e-15
	1.265789712786319e-07
	7.421842302971588e-06
	4.893643619763405e-07
	5.240854239299221e-01

 39	3.900000000000002e-01
	-9.174078389680341e-16
	2.622869758839454e-19
	-1.507039102323787e-15
	1.459322819779648e-07
	8.583546709073753e-06
	5.692566922044580e-07
	5.240854305939324e-01

 40	4.000000000000002e-01
	-9.054100649395199e-16
	2.618317820890824e-19
	-1.546891217144804e-15
	1.679182163035079e-07
	9.917575705971963e-06
	6.616088484310984e-07
	5.240854383027840e-01

 41	4.100000000000002e-01
	-8.935704677506617e-16
	2.610473235040362e-19
	-1.586629702591189e-15
	1.928226203431148e-07
	1.144781924267616e-05
	7.682611792276367e-07
	5.240854472124713e-01

 42	4.200000000000002e-01
	-8.819001445832952e-16
	2.599339691802726e-19
	-1.626202639572276e-15
	2.209474891548686e-07
	1.320105684529915e-05
	8.913072018432448e-07
	5.240854575009011e-01

 43	4.300000000000002e-01
	-8.704095742982869e-16
	2.584932831353581e-19
	-1.665559379861351e-15
	2.526089316887325e-07
	1.520714164833197e-05
	1.033123452505434e-06
	5.240854693705941e-01

 44	4.400000000000002e-01
	-8.591085700901602e-16
	2.567279881575979e-19
	-1.704650787653872e-15
	2.881345138407587e-07
	1.749912817513733e-05
	1.196400915721858e-06
	5.240854830515579e-01

 45	4.500000000000002e-01
	-8.480062388988484e-16
	2.546419202397619e-19
	-1.743429462988504e-15
	3.278599685735511e-07
	2.011331715201699e-05
	1.384177339546769e-06
	5.240854988042818e-01

 46	4.600000000000002e-01
	-8.371109477922183e-16
	2.522399744725536e-19
	-1.781849945218905e-15
	3.721252886628024e-07
	2.308918743362845e-05
	1.599869459428406e-06
	5.240855169227651e-01

 47	4.700000000000003e-01
	-8.264302974251827e-16
	2.495280433245486e-19
	-1.819868895073646e-15
	4.212702481405842e-07
	2.646918367465144e-05
	1.847303845001393e-06
	5.240855377374970e-01

 48	4.800000000000003e-01
	-8.159711025763352e-16
	2.465129483093161e-19
	-1.857445254201866e-15
	4.756294313640032e-07
	3.029832949939259e-05
	2.130744773667038e-06
	5.240855616182323e-01

 49	4.900000000000003e-01
	-8.057393796635418e-16
	2.432023660925087e-19
	-1.894540381463773e-15
	5.355268817805771e-07
	3.462364031513795e-05
	2.454917251323980e-06
	5.240855889764061e-01

 50	5.000000000000002e-01
	-7.957403410474788e-16
	2.396047501215278e-19
	-1.931118165580891e-15
	6.012705134267772e-07
	3.949331808361549e-05
	2.825023079684956e-06
	5.240856202670102e-01

 51	5.100000000000002e-01
	-7.859783958484243e-16
	2.357292488686972e-19
	-1.967145114103072e-15
	6.731464543225529e-07
	4.495572243458629e-05
	3.246747749995252e-06
	5.240856559897306e-01

 52	5.200000000000002e-01
	-7.764571569278038e-16
	2.315856217669943e-19
	-2.002590418971848e-15
	7.514135096199813e-07
	5.105812810398756e-05
	3.726255962264565e-06
	5.240856966891343e-01

 53	5.300000000000002e-01
	-7.671794536230552e-16
	2.271841538870402e-19
	-2.037425999256685e-15
	8.362979414104684e-07
	5.784529686062538e-05
	4.270173758388011e-06
	5.240857429537128e-01

 54	5.400000000000003e-01
	-7.581473497728254e-16
	2.225355703572580e-19
	-2.071626521907861e-15
	9.279887599453369e-07
	6.535791134139920e-05
	4.885555635484069e-06
	5.240857954136270e-01

 55	5.500000000000003e-01
	-7.493621665294475e-16
	2.176509514678268e-19
	-2.105169401604256e-15
	1.026633707051538e-06
	7.363093658703025e-05
	5.579835573667666e-06
	5.240858547370092e-01

 56	5.600000000000003e-01
	-7.408245094271596e-16
	2.125416493264199e-19
	-2.138034780973157e-15
	1.132336087160764e-06
	8.269199036606270e-05
	6.360761650559514e-06
	5.240859216247691e-01

 57	5.700000000000003e-01
	-7.325342991570072e-16
	2.072192068515872e-19
	-2.170205492622086e-15
	1.245152566131811e-06
	9.255981346445200e-05
	7.236314781497118e-06
	5.240859968039067e-01

 58	5.800000000000003e-01
	-7.244908054923438e-16
	2.016952798008910e-19
	-2.201667004549110e-15
	1.365092015396448e-06
	1.032429342622549e-04
	8.214613058405923e-06
	5.240860810194284e-01

 59	5.900000000000003e-01
	-7.166926838114262e-16
	1.959815624376984e-19
	-2.232407350588989e-15
	1.492115432057767e-06
	1.147386170735358e-04
	9.303804086227158e-06
	5.240861750250235e-01

 60	6.000000000000003e-01
	-7.091380136748528e-16
	1.900897173456453e-19
	-2.262417047609376e-15
	1.626136917918019e-06
	1.270321707574305e-04
	1.051194855227280e-05
	5.240862795727845e-01

 61	6.100000000000003e-01
	-7.018243389343594e-16
	1.840313098043032e-19
	-2.291689001196574e-15
	1.767025655467681e-06
	1.400966738768592e-04
	1.184689893313202e-05
	5.240863954022692e-01

 62	6.200000000000003e-01
	-6.947487088748019e-16
	1.778177470465599e-19
	-2.320218401566309e-15
	1.914608779667369e-06
	1.538931469615193e-04
	1.331617768131889e-05
	5.240865232292997e-01

 63	6.300000000000003e-01
	-6.879077199216982e-16
	1.714602226282097e-19
	-2.348002611405067e-15
	2.068675013233101e-06
	1.683711736882453e-04
	1.492685939674760e-05
	5.240866637348958e-01

 64	6.400000000000003e-01
	-6.812975574814707e-16
	1.649696660552842e-19
	-2.375041047294682e-15
	2.228978911530796e-06
	1.834699438427507e-04
	1.668546136007191e-05
	5.240868175547526e-01

 65	6.500000000000004e-01
	-6.749140375193238e-16
	1.583566977354973e-19
	-2.401335056300651e-15
	2.395245551594906e-06
	1.991196645597024e-04
	1.859784639805136e-05
	5.240869852696549e-01

 66	6.600000000000004e-01
	-6.687526475196320e-16
	1.516315892476761e-19
	-2.426887789216329e-15
	2.567175497823475e-06
	2.152432649445859e-04
	2.066914140368400e-05
	5.240871673971463e-01

 67	6.700000000000004e-01
	-6.628085865146852e-16
	1.448042288583223e-19
	-2.451704071853979e-15
	2.744449883467148e-06
	2.317583044722070e-04
	2.290367400486456e-05
	5.240873643847553e-01

 68	6.800000000000004e-01
	-6.570768039088936e-16
	1.378840921568834e-19
	-2.475790275663168e-15
	2.926735460524383e-06
	2.485789884011377e-04
	2.530492893677276e-05
	5.240875766049403e-01

 69	6.900000000000004e-01
	-6.515520368663109e-16
	1.308802176323214e-19
	-2.499154188839655e-15
	3.113689489215601e-06
	2.656181938380138e-04
	2.787552470128603e-05
	5.240878043518712e-01

 70	7.000000000000004e-01
	-6.462288460689567e-16
	1.238011869721689e-19
	-2.521804888966982e-15
	3.304964359932274e-06
	2.827894172541691e-04
	3.061721016368594e-05
	5.240880478400615e-01

 71	7.100000000000004e-01
	-6.411016496913004e-16
	1.166551098317579e-19
	-2.543752618110751e-15
	3.500211863672552e-06
	3.000085668384488e-04
	3.353087990409914e-05
	5.240883072047791e-01

 72	7.200000000000004e-01
	-6.361647554720331e-16
	1.094496127953751e-19
	-2.565008661164284e-15
	3.699087049970109e-06
	3.171955393571094e-04
	3.661660645424144e-05
	5.240885825041061e-01

 73	7.300000000000004e-01
	-6.314123907975255e-16
	1.021918322319565e-19
	-2.585585228126018e-15
	3.901251633012009e-06
	3.342755393760343e-04
	3.987368703710679e-05
	5.240888737224454e-01

 74	7.400000000000004e-01
	-6.268387307419189e-16
	9.488841073559927e-20
	-2.605495340875152e-15
	4.106376926179262e-06
	3.511801170859694e-04
	4.330070209854033e-05
	5.240891807752496e-01

 75	7.500000000000004e-01
	-6.224379240364229e-16
	8.754549683441982e-20
	-2.624752724904189e-15
	4.314146302109805e-06
	3.678479181341678e-04
	4.689558276973773e-05
	5.240895035147135e-01

 76	7.600000000000005e-01
	-6.182041169650814e-16
	8.016874764992501e-20
	-2.643371706365806e-15
	4.524257189336640e-06
	3.842251537484240e-04
	5.065568441076222e-05
	5.240898417361696e-01

 77	7.700000000000005e-01
	-6.141314752059113e-16
	7.276333419219844e-20
	-2.661367114698304e-15
	4.736422627571991e-06
	4.002658113827516e-04
	5.457786353068547e-05
	5.240901951849244e-01

 78	7.800000000000005e-01
	-6.102142036551524e-16
	6.533394898329174e-20
	-2.678754191008260e-15
	4.950372411937662e-06
	4.159316348364124e-04
	5.865855562884862e-05
	5.240905635633131e-01

 79	7.900000000000005e-01
	-6.064465642881690e-16
	5.788481571130530e-20
	-2.695548502312444e-15
	5.165853862133869e-06
	4.311919083381212e-04
	6.289385182173313e-05
	5.240909465377430e-01

 80	8.000000000000005e-01
	-6.028228921238870e-16
	5.041970063065430e-20
	-2.711765861672227e-15
	5.382632256011028e-06
	4.460230817256921e-04
	6.727957248042653e-05
	5.240913437455611e-01

 81	8.100000000000005e-01
	-5.993376093702457e-16
	4.294192543875617e-20
	-2.727422254193836e-15
	5.600490968605221e-06
	4.604082740278835e-04
	7.181133647777383e-05
	5.240917548015902e-01

 82	8.200000000000005e-01
	-5.959852378366004e-16
	3.545438137574250e-20
	-2.742533768815495e-15
	5.819231357762349e-06
	4.743366909904026e-04
	7.648462500995557e-05
	5.240921793042198e-01

 83	8.300000000000005e-01
	-5.927604097052099e-16
	2.795954431124149e-20
	-2.757116535758163e-15
	6.038672436335200e-06
	4.878029889189271e-04
	8.129483929771974e-05
	5.240926168409820e-01

 84	8.400000000000005e-01
	-5.896578767582986e-16
	2.045949060017613e-20
	-2.771186669479403e-15
	6.258650368889922e-06
	5.008066131433021e-04
	8.623735177637614e-05
	5.240930669935551e-01

 85	8.500000000000005e-01
	-5.866725181598144e-16
	1.295591350772076e-20
	-2.784760216939538e-15
	6.479017828165591e-06
	5.133511348790145e-04
	9.130755064418824e-05
	5.240935293421634e-01

 86	8.600000000000005e-01
	-5.837993468921739e-16
	5.450140021827562e-21
	-2.797853110964849e-15
	6.699643243417100e-06
	5.254436056337657e-04
	9.650087785326090e-05
	5.240940034693834e-01

 87	8.700000000000006e-01
	-5.810335149481301e-16
	-2.056852110487974e-21
	-2.810481128474099e-15
	6.920409969426056e-06
	5.370939438515598e-04
	1.018128607958834e-04
	5.240944889633661e-01

 88	8.800000000000006e-01
	-5.783703173767006e-16
	-9.564417269610252e-21
	-2.822659853320988e-15
	7.141215401537719e-06
	5.483143643949605e-04
	1.072391380652798e-04
	5.240949854205024e-01

 89	8.900000000000006e-01
	-5.758051952798920e-16
	-1.707222490240364e-20
	-2.834404643496125e-15
	7.361970058694058e-06
	5.591188578564357e-04
	1.127754797571483e-04
	5.240954924475655e-01

 90	9.000000000000006e-01
	-5.733337378541582e-16
	-2.458024262777962e-20
	-2.845730602426796e-15
	7.582596653173560e-06
	5.695227236201276e-04
	1.184178028323619e-04
	5.240960096633882e-01

 91	9.100000000000006e-01
	-5.709516835669214e-16
	-3.208871960797088e-20
	-2.856652554111278e-15
	7.803029162685213e-06
	5.795421580778232e-04
	1.241621820873261e-04
	5.240965367001069e-01

 92	9.200000000000006e-01
	-5.686549205546155e-16
	-3.959817027047660e-20
	-2.867185021825460e-15
	8.023211917637204e-06
	5.891938974147961e-04
	1.300048572820705e-04
	5.240970732040360e-01

 93	9.300000000000006e-01
	-5.664394863243526e-16
	-4.710935845284303e-20
	-2.877342210143326e-15
	8.243098713840932e-06
	5.984949128781935e-04
	1.359422369623761e-04
	5.240976188362152e-01

 94	9.400000000000006e-01
	-5.643015668367713e-16
	-5.462328203046340e-20
	-2.887137990018560e-15
	8.462651958626931e-06
	6.074621553646371e-04
	1.419708994856228e-04
	5.240981732726701e-01

 95	9.500000000000006e-01
	-5.622374950429526e-16
	-6.214115807652199e-20
	-2.896585886681943e-15
	8.681841856342433e-06
	6.161123454512186e-04
	1.480875917245213e-04
	5.240987362044490e-01

 96	9.600000000000006e-01
	-5.602437489434876e-16
	-6.966440859333681e-20
	-2.905699070118071e-15
	8.900645637464511e-06
	6.244618045812532e-04
	1.542892258818599e-04
	5.240993073374597e-01

 97	9.700000000000006e-01
	-5.583169492330412e-16
	-7.719464684539295e-20
	-2.914490347894625e-15
	9.119046834081052e-06
	6.325263229422570e-04
	1.605728748054265e-04
	5.240998863921531e-01

 98	9.800000000000006e-01
	-5.564538565890296e-16
	-8.473366431625265e-20
	-2.922972160128121e-15
	9.337034603248727e-06
	6.403210595840210e-04
	1.669357661475829e-04
	5.241004731030796e-01

 99	9.900000000000007e-01
	-5.546513686584160e-16
	-9.228341830426889e-20
	-2.931156576381135e-15
	9.554603098709066e-06
	6.478604704712609e-04
	1.733752756700569e-04
	5.241010672183598e-01

 100	1.000000000000001e+00
	-5.529065167921504e-16
	-9.984602016592058e-20
	-2.939055294297468e-15
	9.771750890611696e-06
	6.551582604077814e-04
	1.798889199526479e-04
	5.241016684990758e-01

 101	1.010000000000001e+00
	-5.512164625724768e-16
	-1.074237242097044e-19
	-2.946679639793348e-15
	9.988480432231273e-06
	6.622273550738047e-04
	1.864743487253665e-04
	5.241022767186285e-01
