Title: ** sch_path: /home/andylithia/openmpw/project-yatsuhashi-chip1/xschem/gmid_test/nmos_test.sch
Date: Sun Jul 17 22:51:45  2022
Plotname: DC transfer characteristic
Flags: real
No. Variables: 8
No. Points: 181
Variables:
	0	v(v-sweep)	voltage
	1	@m.xm1.msky130_fd_pr__nfet_01v8[cgb]	capacitance
	2	@m.xm1.msky130_fd_pr__nfet_01v8[cgd]	capacitance
	3	@m.xm1.msky130_fd_pr__nfet_01v8[cgs]	capacitance
	4	@m.xm1.msky130_fd_pr__nfet_01v8[gds]	admittance
	5	@m.xm1.msky130_fd_pr__nfet_01v8[gm]	admittance
	6	i(@m.xm1.msky130_fd_pr__nfet_01v8[id])	current
	7	v(@m.xm1.msky130_fd_pr__nfet_01v8[vth])	voltage
Values:
 0	0.000000000000000e+00
	-8.961416916613866e-15
	-3.613264048351506e-18
	-1.573388138376003e-14
	4.907069933121992e-08
	1.604753048093667e-06
	1.984568150597640e-07
	2.184138272466332e-01

 1	1.000000000000000e-02
	-8.863682080879712e-15
	-3.712193317844517e-18
	-1.596212060378326e-14
	5.304025203761138e-08
	1.738896525117926e-06
	2.151660192861306e-07
	2.184138291974870e-01

 2	2.000000000000000e-02
	-8.767118969779478e-15
	-3.813871212157830e-18
	-1.619026188672159e-14
	5.731579604167887e-08
	1.884346107190560e-06
	2.332723971269947e-07
	2.184138313114771e-01

 3	3.000000000000000e-02
	-8.671749264667589e-15
	-3.918376248337885e-18
	-1.641822203589243e-14
	6.191925997537605e-08
	2.042093533879739e-06
	2.528938933922729e-07
	2.184138336023710e-01

 4	4.000000000000000e-02
	-8.577594097337838e-15
	-4.025789332339605e-18
	-1.664591809261272e-14
	6.687397350279163e-08
	2.213224607180439e-06
	2.741588328436156e-07
	2.184138360851583e-01

 5	5.000000000000000e-02
	-8.484674009047622e-15
	-4.136193839576390e-18
	-1.687326744507080e-14
	7.220474076399176e-08
	2.398928912867670e-06
	2.972069085933340e-07
	2.184138387761530e-01

 6	6.000000000000000e-02
	-8.393008911233680e-15
	-4.249675698513719e-18
	-1.710018793625104e-14
	7.793791632376956e-08
	2.600510575299481e-06
	3.221902728017113e-07
	2.184138416931197e-01

 7	7.000000000000001e-02
	-8.302618048008429e-15
	-4.366323477433519e-18
	-1.732659797062638e-14
	8.410148361531338e-08
	2.819400145518947e-06
	3.492747405004367e-07
	2.184138448554241e-01

 8	8.000000000000000e-02
	-8.213519960519649e-15
	-4.486228474503454e-18
	-1.755241661933989e-14
	9.072513586299216e-08
	3.057167729253733e-06
	3.786411184021589e-07
	2.184138482841794e-01

 9	9.000000000000000e-02
	-8.125732453249753e-15
	-4.609484811289291e-18
	-1.777756372360100e-14
	9.784035946279693e-08
	3.315537468055903e-06
	4.104866716552591e-07
	2.184138520024273e-01

 10	9.999999999999999e-02
	-8.039272562324339e-15
	-4.736189529857244e-18
	-1.800195999603107e-14
	1.054805197935887e-07
	3.596403493240205e-06
	4.450267426677752e-07
	2.184138560353147e-01

 11	1.100000000000000e-01
	-7.954156525892346e-15
	-4.866442693617105e-18
	-1.822552711969966e-14
	1.136809494271718e-07
	3.901847478312880e-06
	4.824965373512074e-07
	2.184138604103127e-01

 12	1.200000000000000e-01
	-7.870399756632646e-15
	-5.000347492067225e-18
	-1.844818784460465e-14
	1.224790387005225e-07
	4.234157921067513e-06
	5.231530954199058e-07
	2.184138651574405e-01

 13	1.300000000000000e-01
	-7.788016816434754e-15
	-5.138010349606965e-18
	-1.866986608135766e-14
	1.319143286091510e-07
	4.595851291254522e-06
	5.672774627174179e-07
	2.184138703095235e-01

 14	1.400000000000000e-01
	-7.707021393292984e-15
	-5.279541038591610e-18
	-1.889048699185038e-14
	1.420286059768735e-07
	4.989695183487666e-06
	6.151770849200187e-07
	2.184138759024708e-01

 15	1.500000000000000e-01
	-7.627426280445805e-15
	-5.425052796812679e-18
	-1.910997707668783e-14
	1.528660008539834e-07
	5.418733617571005e-06
	6.671884433774752e-07
	2.184138819755838e-01

 16	1.600000000000000e-01
	-7.549243357784276e-15
	-5.574662449594345e-18
	-1.932826425918940e-14
	1.644730860932887e-07
	5.886314629435994e-06
	7.236799552792470e-07
	2.184138885718945e-01

 17	1.700000000000000e-01
	-7.472483575545040e-15
	-5.728490536707219e-18
	-1.954527796577186e-14
	1.768989790515803e-07
	6.396120295048824e-06
	7.850551617632649e-07
	2.184138957385419e-01

 18	1.800000000000000e-01
	-7.397156940295617e-15
	-5.886661444307253e-18
	-1.976094920254444e-14
	1.901954453629783e-07
	6.952199326640093e-06
	8.517562289946050e-07
	2.184139035271735e-01

 19	1.900000000000000e-01
	-7.323272503211830e-15
	-6.049303542122017e-18
	-1.997521062795959e-14
	2.044170047302449e-07
	7.559002375042660e-06
	9.242677886086595e-07
	2.184139119944029e-01

 20	2.000000000000000e-01
	-7.250838350639147e-15
	-6.216549326111943e-18
	-2.018799662138122e-14
	2.196210386807343e-07
	8.221420163397586e-06
	1.003121145210916e-06
	2.184139212022939e-01

 21	2.100000000000000e-01
	-7.179861596922162e-15
	-6.388535566848145e-18
	-2.039924334744670e-14
	2.358679002350526e-07
	8.944824565564321e-06
	1.088898879820456e-06
	2.184139312189040e-01

 22	2.200000000000001e-01
	-7.110348379478917e-15
	-6.565403463860198e-18
	-2.060888881611625e-14
	2.532210254389236e-07
	9.735112726800085e-06
	1.182239879201479e-06
	2.184139421188720e-01

 23	2.300000000000001e-01
	-7.042303856089395e-15
	-6.747298806217039e-18
	-2.081687293832020e-14
	2.717470467122213e-07
	1.059875430417659e-05
	1.283844821905098e-06
	2.184139539840560e-01

 24	2.400000000000001e-01
	-6.975732204360628e-15
	-6.934372139618620e-18
	-2.102313757713075e-14
	2.915159079735826e-07
	1.154284187929415e-05
	1.394482152496652e-06
	2.184139669042332e-01

 25	2.500000000000001e-01
	-6.910636623323930e-15
	-7.126778940288772e-18
	-2.122762659440262e-14
	3.126009815047430e-07
	1.257514456564528e-05
	1.514994575821651e-06
	2.184139809778648e-01

 26	2.600000000000001e-01
	-6.847019337113587e-15
	-7.324679795974466e-18
	-2.143028589284316e-14
	3.350791865256546e-07
	1.370416479698477e-05
	1.646306103210529e-06
	2.184139963129082e-01

 27	2.700000000000001e-01
	-6.784881600670190e-15
	-7.528240594369272e-18
	-2.163106345348870e-14
	3.590311094595687e-07
	1.493919824080967e-05
	1.789429682177589e-06
	2.184140130277216e-01

 28	2.800000000000001e-01
	-6.724223707405923e-15
	-7.737632719297289e-18
	-2.182990936858166e-14
	3.845411258771164e-07
	1.629039673211500e-05
	1.945475440370186e-06
	2.184140312520194e-01

 29	2.900000000000001e-01
	-6.665044998764417e-15
	-7.953033255008033e-18
	-2.202677586985671e-14
	4.116975241194423e-07
	1.776883406656298e-05
	2.115659573198292e-06
	2.184140511279193e-01

 30	3.000000000000001e-01
	-6.607343875602111e-15
	-8.174625198951065e-18
	-2.222161735226248e-14
	4.405926306135701e-07
	1.938657442878222e-05
	2.301313902652880e-06
	2.184140728110488e-01

 31	3.100000000000001e-01
	-6.551117811314650e-15
	-8.402597683415854e-18
	-2.241439039315705e-14
	4.713229369078744e-07
	2.115674316044563e-05
	2.503896132225580e-06
	2.184140964717570e-01

 32	3.200000000000001e-01
	-6.496363366626904e-15
	-8.637146206443605e-18
	-2.260505376703348e-14
	5.039892284725828e-07
	2.309359949395924e-05
	2.725000819497861e-06
	2.184141222963918e-01

 33	3.300000000000001e-01
	-6.443076205962486e-15
	-8.878472872436052e-18
	-2.279356845584250e-14
	5.386967153294985e-07
	2.521261079102098e-05
	2.966371083794572e-06
	2.184141504886682e-01

 34	3.400000000000001e-01
	-6.391251115305107e-15
	-9.126786642907679e-18
	-2.297989765499419e-14
	5.755551645970820e-07
	2.753052773118141e-05
	3.229911061220123e-06
	2.184141812711305e-01

 35	3.500000000000001e-01
	-6.340882021461867e-15
	-9.382303597849390e-18
	-2.316400677513249e-14
	6.146790350620023e-07
	3.006545979421589e-05
	3.517699113340276e-06
	2.184142148866960e-01

 36	3.600000000000002e-01
	-6.291962012636193e-15
	-9.645247208199588e-18
	-2.334586343978802e-14
	6.561876139166473e-07
	3.283695027221165e-05
	3.832001788670110e-06
	2.184142516002764e-01

 37	3.700000000000002e-01
	-6.244483360216872e-15
	-9.915848619932757e-18
	-2.352543747902484e-14
	7.002051558339956e-07
	3.586604993362015e-05
	4.175288527915474e-06
	2.184142917005216e-01

 38	3.800000000000002e-01
	-6.198437541687981e-15
	-1.019434695031560e-17
	-2.370270091920823e-14
	7.468610245881247e-07
	3.917538834330482e-05
	4.550247094544480e-06
	2.184143355016091e-01

 39	3.900000000000002e-01
	-6.153815264564051e-15
	-1.048098959689600e-17
	-2.387762796902800e-14
	7.962898374695574e-07
	4.278924172122122e-05
	4.959799701690077e-06
	2.184143833451271e-01

 40	4.000000000000002e-01
	-6.110606491254650e-15
	-1.077603255982429e-17
	-2.405019500192084e-14
	8.486316127916300e-07
	4.673359609963933e-05
	5.407119794588975e-06
	2.184144356020539e-01

 41	4.100000000000002e-01
	-6.068800464762073e-15
	-1.107974077813751e-17
	-2.422038053504294e-14
	9.040319208372719e-07
	5.103620441689446e-05
	5.895649434741994e-06
	2.184144926747757e-01

 42	4.200000000000002e-01
	-6.028385735117223e-15
	-1.139238848066582e-17
	-2.438816520494886e-14
	9.626420386550717e-07
	5.572663606700252e-05
	6.429117217749891e-06
	2.184145549991968e-01

 43	4.300000000000002e-01
	-5.989350186458624e-15
	-1.171425955225476e-17
	-2.455353174014063e-14
	1.024619109181707e-06
	6.083631731207178e-05
	7.011556641396533e-06
	2.184146230468783e-01

 44	4.400000000000002e-01
	-5.951681064661691e-15
	-1.204564791603583e-17
	-2.471646493065306e-14
	1.090126305243528e-06
	6.639856086144043e-05
	7.647324824081710e-06
	2.184146973272344e-01

 45	4.500000000000002e-01
	-5.915365005426303e-15
	-1.238685793250808e-17
	-2.487695159484684e-14
	1.159332999076255e-06
	7.244858283156988e-05
	8.341121456275101e-06
	2.184147783897406e-01

 46	4.600000000000002e-01
	-5.880388062733083e-15
	-1.273820481623838e-17
	-2.503498054358267e-14
	1.232414938097452e-06
	7.902350522775825e-05
	9.098007849408459e-06
	2.184148668261779e-01

 47	4.700000000000003e-01
	-5.846735737580515e-15
	-1.310001507102836e-17
	-2.519054254195292e-14
	1.309554427774471e-06
	8.616234203699411e-05
	9.923425927749862e-06
	2.184149632728351e-01

 48	4.800000000000003e-01
	-5.814393006918023e-15
	-1.347262694443445e-17
	-2.534363026874666e-14
	1.390940522549783e-06
	9.390596699500384e-05
	1.082321698952776e-05
	2.184150684127165e-01

 49	4.900000000000003e-01
	-5.783344352692430e-15
	-1.385639090257955e-17
	-2.549423827382656e-14
	1.476769225919337e-06
	1.022970610944129e-04
	1.180364004419350e-05
	2.184151829776832e-01

 50	5.000000000000002e-01
	-5.753573790928246e-15
	-1.425167012623800e-17
	-2.564236293359392e-14
	1.567243700906460e-06
	1.113800379392951e-04
	1.287138951353256e-05
	2.184153077505150e-01

 51	5.100000000000002e-01
	-5.725064900765485e-15
	-1.465884102922947e-17
	-2.578800240471801e-14
	1.662574492336185e-06
	1.212009451287050e-04
	1.403361206573726e-05
	2.184154435668849e-01

 52	5.200000000000002e-01
	-5.697800853381872e-15
	-1.507829380020360e-17
	-2.593115657630405e-14
	1.762979762492994e-06
	1.318073399721752e-04
	1.529792233394739e-05
	2.184155913171902e-01

 53	5.300000000000002e-01
	-5.671764440729722e-15
	-1.551043296896423e-17
	-2.607182702067133e-14
	1.868685541939059e-06
	1.432481380072492e-04
	1.667241725459253e-05
	2.184157519482330e-01

 54	5.400000000000003e-01
	-5.646938104021258e-15
	-1.595567799853067e-17
	-2.621001694291112e-14
	1.979925997481137e-06
	1.555734330060547e-04
	1.816568874662587e-05
	2.184159264646839e-01

 55	5.500000000000003e-01
	-5.623303961900060e-15
	-1.641446390419692e-17
	-2.634573112938875e-14
	2.096943719501714e-06
	1.688342874268860e-04
	1.978683444092109e-05
	2.184161159303550e-01

 56	5.600000000000003e-01
	-5.600843838239577e-15
	-1.688724190092149e-17
	-2.647897589535206e-14
	2.219990031115148e-06
	1.830824925891678e-04
	2.154546616026255e-05
	2.184163214691623e-01

 57	5.700000000000003e-01
	-5.579539289513910e-15
	-1.737448008044084e-17
	-2.660975903180272e-14
	2.349325321869589e-06
	1.983702982258830e-04
	2.345171584499568e-05
	2.184165442658267e-01

 58	5.800000000000003e-01
	-5.559371631689249e-15
	-1.787666411957385e-17
	-2.673808975178255e-14
	2.485219408992961e-06
	2.147501114955514e-04
	2.551623861809307e-05
	2.184167855662171e-01

 59	5.900000000000003e-01
	-5.540321966588866e-15
	-1.839429802126390e-17
	-2.686397863622165e-14
	2.627951929471714e-06
	2.322741660129943e-04
	2.775021268659470e-05
	2.184170466773446e-01

 60	6.000000000000003e-01
	-5.522371207687399e-15
	-1.892790488998031e-17
	-2.698743757948970e-14
	2.777812766556388e-06
	2.509941619801914e-04
	3.016533578461589e-05
	2.184173289669148e-01

 61	6.100000000000003e-01
	-5.505500105295073e-15
	-1.947802774318686e-17
	-2.710847973478548e-14
	2.935102514603110e-06
	2.709608790588929e-04
	3.277381787675380e-05
	2.184176338624875e-01

 62	6.200000000000003e-01
	-5.489689271094849e-15
	-2.004523036067628e-17
	-2.722711945949453e-14
	3.100132986486446e-06
	2.922237642174467e-04
	3.558836986015913e-05
	2.184179628501338e-01

 63	6.300000000000003e-01
	-5.474919202000380e-15
	-2.063009817365591e-17
	-2.734337226063752e-14
	3.273227768150926e-06
	3.148304973952428e-04
	3.862218802898021e-05
	2.184183174726147e-01

 64	6.400000000000003e-01
	-5.461170303305208e-15
	-2.123323919557580e-17
	-2.745725474052648e-14
	3.454722825205382e-06
	3.388265384476420e-04
	4.188893409650667e-05
	2.184186993270396e-01

 65	6.500000000000004e-01
	-5.448422911097646e-15
	-2.185528499679310e-17
	-2.756878454273931e-14
	3.644967166803033e-06
	3.642546594488123e-04
	4.540271060815242e-05
	2.184191100619726e-01

 66	6.600000000000004e-01
	-5.436657313919068e-15
	-2.249689172526627e-17
	-2.767798029851571e-14
	3.844323572386367e-06
	3.911544670245656e-04
	4.917803162227498e-05
	2.184195513740091e-01

 67	6.700000000000004e-01
	-5.425853773646231e-15
	-2.315874117560332e-17
	-2.778486157367266e-14
	4.053169387209547e-06
	4.195619199464027e-04
	5.322978858549765e-05
	2.184200250037739e-01

 68	6.800000000000004e-01
	-5.415992545581768e-15
	-2.384154190890141e-17
	-2.788944881612944e-14
	4.271897392876405e-06
	4.495088477245939e-04
	5.757321138418682e-05
	2.184205327313625e-01

 69	6.900000000000004e-01
	-5.407053897739752e-15
	-2.454603042593825e-17
	-2.799176330412684e-14
	4.500916759448913e-06
	4.810224763754978e-04
	6.222382461346600e-05
	2.184210763712283e-01

 70	7.000000000000004e-01
	-5.399018129316089e-15
	-2.527297239642837e-17
	-2.809182709521827e-14
	4.740654085987110e-06
	5.141249678898174e-04
	6.719739916882972e-05
	2.184216577665191e-01

 71	7.100000000000004e-01
	-5.391865588336207e-15
	-2.602316394718043e-17
	-2.818966297610431e-14
	4.991554536675232e-06
	5.488329801781386e-04
	7.250989933210018e-05
	2.184222787828964e-01

 72	7.200000000000004e-01
	-5.385576688475134e-15
	-2.679743301215990e-17
	-2.828529441337617e-14
	5.254083079971088e-06
	5.851572544037018e-04
	7.817742559207519e-05
	2.184229413018482e-01

 73	7.300000000000004e-01
	-5.380131925047356e-15
	-2.759664074761101e-17
	-2.837874550522713e-14
	5.528725838486817e-06
	6.231022366174264e-04
	8.421615350949401e-05
	2.184236472135548e-01

 74	7.400000000000004e-01
	-5.375511890166188e-15
	-2.842168301556300e-17
	-2.847004093418608e-14
	5.815991557572241e-06
	6.626657404772104e-04
	9.064226900458439e-05
	2.184243984093204e-01

 75	7.500000000000004e-01
	-5.371697287074477e-15
	-2.927349193923063e-17
	-2.855920592092011e-14
	6.116413200829792e-06
	7.038386575557761e-04
	9.747190051199676e-05
	2.184251967736645e-01

 76	7.600000000000005e-01
	-5.368668943650353e-15
	-3.015303753399056e-17
	-2.864626617914956e-14
	6.430549681050303e-06
	7.466047213163423e-04
	1.047210485109678e-04
	2.184260441760907e-01

 77	7.700000000000005e-01
	-5.366407825093643e-15
	-3.106132941783909e-17
	-2.873124787171178e-14
	6.758987735325817e-06
	7.909403302639499e-04
	1.124055129965402e-04
	2.184269424626120e-01

 78	7.800000000000005e-01
	-5.364895045800322e-15
	-3.199941860541783e-17
	-2.881417756780645e-14
	7.102343953380487e-06
	8.368144350682199e-04
	1.205408195092091e-04
	2.184278934471291e-01

 79	7.900000000000005e-01
	-5.364111880433501e-15
	-3.296839938993807e-17
	-2.889508220144917e-14
	7.461266968475252e-06
	8.841884936105682e-04
	1.291421443841287e-04
	2.184288989026973e-01

 80	8.000000000000005e-01
	-5.364039774201434e-15
	-3.396941131755679e-17
	-2.897398903115637e-14
	7.836439820594047e-06
	9.330164969491716e-04
	1.382242399156439e-04
	2.184299605527976e-01

 81	8.100000000000005e-01
	-5.364660352353668e-15
	-3.500364125900022e-17
	-2.905092560088005e-14
	8.228582502030697e-06
	9.832450681373449e-04
	1.478013601575028e-04
	2.184310800626712e-01

 82	8.200000000000005e-01
	-5.365955428908101e-15
	-3.607232558350523e-17
	-2.912591970220597e-14
	8.638454695974390e-06
	1.034813634696522e-03
	1.578871880926121e-04
	2.184322590308195e-01

 83	8.300000000000005e-01
	-5.367907014622311e-15
	-3.717675244039904e-17
	-2.919899933782645e-14
	9.066858719260709e-06
	1.087654674359393e-03
	1.684947649081159e-04
	2.184334989807522e-01

 84	8.400000000000005e-01
	-5.370497324223484e-15
	-3.831826415394664e-17
	-2.927019268629358e-14
	9.514642681129527e-06
	1.141694032488905e-03
	1.796364221014487e-04
	2.184348013530513e-01

 85	8.500000000000005e-01
	-5.373708782912138e-15
	-3.949825973738180e-17
	-2.933952806805696e-14
	9.982703870630775e-06
	1.196851308373786e-03
	1.913237171207922e-04
	2.184361674978529e-01

 86	8.600000000000005e-01
	-5.377524032155475e-15
	-4.071819753235741e-17
	-2.940703391278459e-14
	1.047199238626275e-05
	1.253040306430278e-03
	2.035673732092116e-04
	2.184375986678275e-01

 87	8.700000000000006e-01
	-5.381925934786382e-15
	-4.197959798039388e-17
	-2.947273872796501e-14
	1.098351502253728e-05
	1.310169547232175e-03
	2.163772240762254e-04
	2.184390960117139e-01

 88	8.800000000000006e-01
	-5.386897579424797e-15
	-4.328404653324166e-17
	-2.953667106878372e-14
	1.151833942945721e-05
	1.368142832274163e-03
	2.297621639643539e-04
	2.184406605684708e-01

 89	8.900000000000006e-01
	-5.392422284238501e-15
	-4.463319670944173e-17
	-2.959885950926571e-14
	1.207759856238662e-05
	1.426859855472485e-03
	2.437301036124116e-04
	2.184422932621367e-01

 90	9.000000000000006e-01
	-5.398483600060581e-15
	-4.602877330475625e-17
	-2.965933261467199e-14
	1.266249544151140e-05
	1.486216853643994e-03
	2.582879325432331e-04
	2.184439948974199e-01

 91	9.100000000000006e-01
	-5.405065312880288e-15
	-4.747257576454577e-17
	-2.971811891513767e-14
	1.327430824204294e-05
	1.546107287597764e-03
	2.734414880225905e-04
	2.184457661560505e-01

 92	9.200000000000006e-01
	-5.412151445725492e-15
	-4.896648172657352e-17
	-2.977524688053442e-14
	1.391439573852864e-05
	1.606422545035887e-03
	2.891955309499200e-04
	2.184476075939684e-01

 93	9.300000000000006e-01
	-5.419726259953109e-15
	-5.051245074317121e-17
	-2.983074489654057e-14
	1.458420312911612e-05
	1.667052656200885e-03
	3.055537288519202e-04
	2.184495196393244e-01

 94	9.400000000000006e-01
	-5.427774255965174e-15
	-5.211252819215248e-17
	-2.988464124189831e-14
	1.528526826838807e-05
	1.727887013129194e-03
	3.225186460588632e-04
	2.184515025913241e-01

 95	9.500000000000006e-01
	-5.436280173367097e-15
	-5.376884938633657e-17
	-2.993696406683681e-14
	1.601922834045319e-05
	1.788815083471816e-03
	3.400917410524066e-04
	2.184535566199063e-01

 96	9.600000000000006e-01
	-5.445228990584900e-15
	-5.548364389203134e-17
	-2.998774137263820e-14
	1.678782700735932e-05
	1.849727110117372e-03
	3.582733708845222e-04
	2.184556817662622e-01

 97	9.700000000000006e-01
	-5.454605923957591e-15
	-5.725924006735729e-17
	-3.003700099232149e-14
	1.759292207160403e-05
	1.910514788288612e-03
	3.770628024817175e-04
	2.184578779441403e-01

 98	9.800000000000006e-01
	-5.464396426320382e-15
	-5.909806983181896e-17
	-3.008477057241904e-14
	1.843649369555648e-05
	1.971071912364247e-03
	3.964582305682427e-04
	2.184601449419444e-01

 99	9.900000000000007e-01
	-5.474586185094242e-15
	-6.100267367907300e-17
	-3.013107755581790e-14
	1.932065322499333e-05
	2.031294985385899e-03
	4.164568018681385e-04
	2.184624824255525e-01

 100	1.000000000000001e+00
	-5.485161119896442e-15
	-6.297570594543876e-17
	-3.017594916563819e-14
	2.024765266869332e-05
	2.091083785022578e-03
	4.370546451797050e-04
	2.184648899418428e-01

 101	1.010000000000001e+00
	-5.496107379686234e-15
	-6.501994034727469e-17
	-3.021941239011915e-14
