Title: ** sch_path: /home/andylithia/openmpw/project-yatsuhashi-chip1/xschem/gmid_test/nmos_test.sch
Date: Sun Jul 17 22:51:45  2022
Plotname: DC transfer characteristic
Flags: real
No. Variables: 8
No. Points: 181
Variables:
	0	v(v-sweep)	voltage
	1	@m.xm1.msky130_fd_pr__nfet_01v8[cgb]	capacitance
	2	@m.xm1.msky130_fd_pr__nfet_01v8[cgd]	capacitance
	3	@m.xm1.msky130_fd_pr__nfet_01v8[cgs]	capacitance
	4	@m.xm1.msky130_fd_pr__nfet_01v8[gds]	admittance
	5	@m.xm1.msky130_fd_pr__nfet_01v8[gm]	admittance
	6	i(@m.xm1.msky130_fd_pr__nfet_01v8[id])	current
	7	v(@m.xm1.msky130_fd_pr__nfet_01v8[vth])	voltage
Values:
 0	0.000000000000000e+00
	-1.515392060119074e-14
	-8.652085636972146e-18
	-3.112837799815693e-14
	4.663816114853102e-08
	1.463673301739851e-06
	1.950476577996677e-07
	1.661923552695339e-01

 1	1.000000000000000e-02
	-1.499358729643501e-14
	-8.879699292701099e-18
	-3.151311237671499e-14
	5.006633378521798e-08
	1.577842779235033e-06
	2.102479305936096e-07
	1.661923571085240e-01

 2	2.000000000000000e-02
	-1.483554198849421e-14
	-9.113518925715203e-18
	-3.189683410767873e-14
	5.373281862617390e-08
	1.701135058705228e-06
	2.266348942597381e-07
	1.661923590910984e-01

 3	3.000000000000000e-02
	-1.467981083811709e-14
	-9.353723609763251e-18
	-3.227942374007648e-14
	5.765286093900645e-08
	1.834323293827375e-06
	2.443035857513127e-07
	1.661923612287602e-01

 4	4.000000000000000e-02
	-1.452641893392601e-14
	-9.600498057348965e-18
	-3.266076300703550e-14
	6.184256341850826e-08
	1.978251821371757e-06
	2.633571238964951e-07
	1.661923635339879e-01

 5	5.000000000000000e-02
	-1.437539024984011e-14
	-9.854032817493780e-18
	-3.304073495424126e-14
	6.631892499057193e-08
	2.133843121996678e-06
	2.839074554919667e-07
	1.661923660203320e-01

 6	6.000000000000000e-02
	-1.422674760519440e-14
	-1.011452448122370e-17
	-3.341922406548946e-14
	7.109988073166937e-08
	2.302105448847859e-06
	3.060761742976671e-07
	1.661923687025048e-01

 7	7.000000000000001e-02
	-1.408051262761397e-14
	-1.038217589511403e-17
	-3.379611638505733e-14
	7.620434290291908e-08
	2.484141178971097e-06
	3.299954198831012e-07
	1.661923715965016e-01

 8	8.000000000000000e-02
	-1.393670571869428e-14
	-1.065719638323925e-17
	-3.417129963663618e-14
	8.165224309696669e-08
	2.681155945333326e-06
	3.558088638398412e-07
	1.661923747197131e-01

 9	9.000000000000000e-02
	-1.379534602252882e-14
	-1.093980197789458e-17
	-3.454466333857755e-14
	8.746457549522246e-08
	2.894468609891205e-06
	3.836727914660509e-07
	1.661923780910529e-01

 10	9.999999999999999e-02
	-1.365645139711888e-14
	-1.123021565947019e-17
	-3.491609891521734e-14
	9.366344123247884e-08
	3.125522140591173e-06
	4.137572876455699e-07
	1.661923817311106e-01

 11	1.100000000000000e-01
	-1.352003838868955e-14
	-1.152866760588215e-17
	-3.528549980405923e-14
	1.002720938656195e-07
	3.375895457365801e-06
	4.462475362841690e-07
	1.661923856622990e-01

 12	1.200000000000000e-01
	-1.338612220892881e-14
	-1.183539545197414e-17
	-3.565276155860973e-14
	1.073149859429528e-07
	3.647316314030836e-06
	4.813452433254533e-07
	1.661923899090360e-01

 13	1.300000000000000e-01
	-1.325471671515749e-14
	-1.215064455933502e-17
	-3.601778194667598e-14
	1.148178166707768e-07
	3.941675284408193e-06
	5.192701940455691e-07
	1.661923944979279e-01

 14	1.400000000000000e-01
	-1.312583439342852e-14
	-1.247466829699149e-17
	-3.638046104395060e-14
	1.228075806740046e-07
	4.261040921904446e-06
	5.602619560137993e-07
	1.661923994579737e-01

 15	1.500000000000000e-01
	-1.299948634454724e-14
	-1.280772833345579e-17
	-3.674070132272474e-14
	1.313126178481882e-07
	4.607676162066294e-06
	6.045817398004211e-07
	1.661924048207944e-01

 16	1.600000000000000e-01
	-1.287568227299378e-14
	-1.315009494063855e-17
	-3.709840773558892e-14
	1.403626643009362e-07
	4.984056037199788e-06
	6.525144302066820e-07
	1.661924106208833e-01

 17	1.700000000000000e-01
	-1.275443047872213e-14
	-1.350204731015585e-17
	-3.745348779399659e-14
	1.499889043817158e-07
	5.392886770861130e-06
	7.043708014769388e-07
	1.661924168958611e-01

 18	1.800000000000000e-01
	-1.263573785180190e-14
	-1.386387388258652e-17
	-3.780585164158174e-14
	1.602240238001452e-07
	5.837126317769193e-06
	7.604899306201167e-07
	1.661924236867812e-01

 19	1.900000000000000e-01
	-1.251960986986043e-14
	-1.423587269026087e-17
	-3.815541212214311e-14
	1.711022638344359e-07
	6.320006411323003e-06
	8.212418236074872e-07
	1.661924310384448e-01

 20	2.000000000000000e-01
	-1.240605059827675e-14
	-1.461835171419923e-17
	-3.850208484222000e-14
	1.826594766332980e-07
	6.845056176272821e-06
	8.870302698128745e-07
	1.661924389997431e-01

 21	2.100000000000000e-01
	-1.229506269307001e-14
	-1.501162925583399e-17
	-3.884578822820651e-14
	1.949331816167406e-07
	7.416127358045777e-06
	9.582959406077564e-07
	1.661924476240355e-01

 22	2.200000000000001e-01
	-1.218664740641973e-14
	-1.541603432419406e-17
	-3.918644357796542e-14
	2.079626229835164e-07
	8.037421212597288e-06
	1.035519748501465e-06
	1.661924569695534e-01

 23	2.300000000000001e-01
	-1.208080459474774e-14
	-1.583190703925400e-17
	-3.952397510692126e-14
	2.217888283357295e-07
	8.713517091284480e-06
	1.119226483609576e-06
	1.661924670998486e-01

 24	2.400000000000001e-01
	-1.197753272928604e-14
	-1.625959905219349e-17
	-3.985830998862916e-14
	2.364546684342713e-07
	9.449402743967157e-06
	1.209988744523351e-06
	1.661924780842652e-01

 25	2.500000000000001e-01
	-1.187682890904868e-14
	-1.669947398334174e-17
	-4.018937838983256e-14
	2.520049181022909e-07
	1.025050635016217e-05
	1.308431180819262e-06
	1.661924899984492e-01

 26	2.600000000000001e-01
	-1.177868887612128e-14
	-1.715190787862329e-17
	-4.051711350003707e-14
	2.684863182979957e-07
	1.112273027244167e-05
	1.415235064468853e-06
	1.661925029249101e-01

 27	2.700000000000001e-01
	-1.168310703317606e-14
	-1.761728968536535e-17
	-4.084145155564702e-14
	2.859476393827472e-07
	1.207248650821551e-05
	1.531143207262379e-06
	1.661925169536179e-01

 28	2.800000000000001e-01
	-1.159007646311672e-14
	-1.809602174836578e-17
	-4.116233185872302e-14
	3.044397456157154e-07
	1.310673379541179e-05
	1.656965241018932e-06
	1.661925321826348e-01

 29	2.900000000000001e-01
	-1.149958895075280e-14
	-1.858852032716455e-17
	-4.147969679043470e-14
	3.240156609123628e-07
	1.423301630423588e-05
	1.793583276795304e-06
	1.661925487188090e-01

 30	3.000000000000001e-01
	-1.141163500640077e-14
	-1.909521613551638e-17
	-4.179349181929650e-14
	3.447306359110088e-07
	1.545950382102934e-05
	1.941957958498324e-06
	1.661925666785067e-01

 31	3.100000000000001e-01
	-1.132620389130487e-14
	-1.961655490410354e-17
	-4.210366550428782e-14
	3.666422163996228e-07
	1.679503330116652e-05
	2.103134925220845e-06
	1.661925861883980e-01

 32	3.200000000000001e-01
	-1.124328364476917e-14
	-2.015299796758951e-17
	-4.241016949297086e-14
	3.898103131641263e-07
	1.824915163586913e-05
	2.278251695231840e-06
	1.661926073862832e-01

 33	3.300000000000001e-01
	-1.116286111289036e-14
	-2.070502287715975e-17
	-4.271295851473005e-14
	4.142972733298884e-07
	1.983215944275357e-05
	2.468544982824540e-06
	1.661926304219932e-01

 34	3.400000000000001e-01
	-1.108492197877818e-14
	-2.127312403976480e-17
	-4.301199036927060e-14
	4.401679532802969e-07
	2.155515565190281e-05
	2.675358457135933e-06
	1.661926554583208e-01

 35	3.500000000000001e-01
	-1.100945079415046e-14
	-2.185781338533741e-17
	-4.330722591052063e-14
	4.674897932500657e-07
	2.343008261832636e-05
	2.900150949563091e-06
	1.661926826720208e-01

 36	3.600000000000002e-01
	-1.093643101218865e-14
	-2.245962106331849e-17
	-4.359862902609202e-14
	4.963328937070928e-07
	2.546977144801885e-05
	3.144505113492461e-06
	1.661927122548584e-01

 37	3.700000000000002e-01
	-1.086584502153934e-14
	-2.307909616990164e-17
	-4.388616661246343e-14
	5.267700936552966e-07
	2.768798717865121e-05
	3.410136536698418e-06
	1.661927444147176e-01

 38	3.800000000000002e-01
	-1.079767418134756e-14
	-2.371680750747519e-17
	-4.416980854605606e-14
	5.588770510122506e-07
	3.009947340753555e-05
	3.698903302934010e-06
	1.661927793767581e-01

 39	3.900000000000002e-01
	-1.073189885720840e-14
	-2.437334437781607e-17
	-4.444952765037880e-14
	5.927323252403654e-07
	3.271999590929681e-05
	4.012815994910088e-06
	1.661928173846275e-01

 40	4.000000000000002e-01
	-1.066849845792450e-14
	-2.504931741066963e-17
	-4.472529965942580e-14
	6.284174624390370e-07
	3.556638473414816e-05
	4.354048126022714e-06
	1.661928587017346e-01

 41	4.100000000000002e-01
	-1.060745147295795e-14
	-2.574535942944423e-17
	-4.499710317751464e-14
	6.660170831384081e-07
	3.865657422540605e-05
	4.724946982832854e-06
	1.661929036125556e-01

 42	4.200000000000002e-01
	-1.054873551046738e-14
	-2.646212635582299e-17
	-4.526491963575515e-14
	7.056189730736150e-07
	4.200964034259470e-05
	5.128044854421675e-06
	1.661929524240043e-01

 43	4.300000000000002e-01
	-1.049232733582243e-14
	-2.720029815520613e-17
	-4.552873324534543e-14
	7.473141772626496e-07
	4.564583462503139e-05
	5.566070618346502e-06
	1.661930054668246e-01

 44	4.400000000000002e-01
	-1.043820291049097e-14
	-2.796057982498106e-17
	-4.578853094789003e-14
	7.911970977616762e-07
	4.958661408105757e-05
	6.041961646014063e-06
	1.661930630970499e-01

 45	4.500000000000002e-01
	-1.038633743119599e-14
	-2.874370242773937e-17
	-4.604430236294028e-14
	8.373655955302822e-07
	5.385466624120395e-05
	6.558875982898958e-06
	1.661931256974750e-01

 46	4.600000000000002e-01
	-1.033670536924284e-14
	-2.955042417166003e-17
	-4.629603973295543e-14
	8.859210969061371e-07
	5.847392857067718e-05
	7.120204751193349e-06
	1.661931936791516e-01

 47	4.700000000000003e-01
	-1.028928050992026e-14
	-3.038153154039477e-17
	-4.654373786588327e-14
	9.369687052653322e-07
	6.346960139894278e-05
	7.729584714228326e-06
	1.661932674829276e-01

 48	4.800000000000003e-01
	-1.024403599188170e-14
	-3.123784047492193e-17
	-4.678739407555971e-14
	9.906173185328297e-07
	6.886815349326362e-05
	8.390910933422043e-06
	1.661933475809635e-01

 49	4.900000000000003e-01
	-1.020094434641747e-14
	-3.212019760996186e-17
	-4.702700812012339e-14
	1.046979753307460e-06
	7.469731938023425e-05
	9.108349439647923e-06
	1.661934344782797e-01

 50	5.000000000000002e-01
	-1.015997753653134e-14
	-3.302948156768091e-17
	-4.726258213864114e-14
	1.106172876480323e-06
	8.098608750623713e-05
	9.886349831880354e-06
	1.661935287142798e-01

 51	5.100000000000002e-01
	-1.012110699573938e-14
	-3.396660431156652e-17
	-4.749412058613625e-14
	1.168317745355095e-06
	8.776467832584501e-05
	1.072965770685916e-05
	1.661936308642549e-01

 52	5.200000000000002e-01
	-1.008430366651270e-14
	-3.493251256349327e-17
	-4.772163016720898e-14
	1.233539757425884e-06
	9.506451141810263e-05
	1.164332681444427e-05
	1.661937415408569e-01

 53	5.300000000000002e-01
	-1.004953803828918e-14
	-3.592818928717887e-17
	-4.794511976843518e-14
	1.301968811134499e-06
	1.029181607558799e-04
	1.263273082444187e-05
	1.661938613955182e-01

 54	5.400000000000003e-01
	-1.001678018498435e-14
	-3.695465524138478e-17
	-4.816460038972355e-14
	1.373739479116890e-06
	1.113592972945675e-04
	1.370357458212559e-05
	1.661939911198168e-01

 55	5.500000000000003e-01
	-9.985999801934790e-15
	-3.801297060640171e-17
	-4.838008507480894e-14
	1.448991195659633e-06
	1.204226181046411e-04
	1.486190472161446e-05
	1.661941314467583e-01

 56	5.600000000000003e-01
	-9.957166242211646e-15
	-3.910423668755406e-17
	-4.859158884105361e-14
	1.527868460324900e-06
	1.301437613492414e-04
	1.611411949888357e-05
	1.661942831519595e-01

 57	5.700000000000003e-01
	-9.930248552246559e-15
	-4.022959769964780e-17
	-4.879912860872174e-14
	1.610521059968442e-06
	1.405592065038729e-04
	1.746697769966142e-05
	1.661944470547226e-01

 58	5.800000000000003e-01
	-9.905215506715963e-15
	-4.139024263650230e-17
	-4.900272312988852e-14
	1.697104311672757e-06
	1.517061593312930e-04
	1.892760647200633e-05
	1.661946240189863e-01

 59	5.900000000000003e-01
	-9.882035642633310e-15
	-4.258740722993060e-17
	-4.920239291713879e-14
	1.787779329450236e-06
	1.636224212610401e-04
	2.050350792916035e-05
	1.661948149541121e-01

 60	6.000000000000003e-01
	-9.860677292604217e-15
	-4.382237600276729e-17
	-4.939816017220249e-14
	1.882713317941290e-06
	1.763462429797182e-04
	2.220256436554649e-05
	1.661950208155076e-01

 61	6.100000000000003e-01
	-9.841108617201795e-15
	-4.509648442077679e-17
	-4.959004871466994e-14
	1.982079896744953e-06
	1.899161622147643e-04
	2.403304192772145e-05
	1.661952426050681e-01

 62	6.200000000000003e-01
	-9.823297636424720e-15
	-4.641112114856230e-17
	-4.977808391092169e-14
	2.086059459477296e-06
	2.043708258898511e-04
	2.600359258289801e-05
	1.661954813714086e-01

 63	6.300000000000003e-01
	-9.807212260203329e-15
	-4.776773041484442e-17
	-4.996229260340219e-14
	2.194839572161348e-06
	2.197487970429660e-04
	2.812325423050772e-05
	1.661957382098603e-01

 64	6.400000000000003e-01
	-9.792820317923553e-15
	-4.916781449277976e-17
	-5.014270304035834e-14
	2.308615416115505e-06
	2.360883471263435e-04
	3.040144880733281e-05
	1.661960142622425e-01

 65	6.500000000000004e-01
	-9.780089586941449e-15
	-5.061293630130081e-17
	-5.031934480615889e-14
	2.427590281131774e-06
	2.534272345483054e-04
	3.284797824415561e-05
	1.661963107163622e-01

 66	6.600000000000004e-01
	-9.768987820064852e-15
	-5.210472213377176e-17
	-5.049224875230252e-14
	2.551976115426168e-06
	2.718024705672916e-04
	3.547301814174646e-05
	1.661966288052364e-01

 67	6.700000000000004e-01
	-9.759482771982304e-15
	-5.364486452059639e-17
	-5.066144692921480e-14
	2.681994139608722e-06
	2.912500739042265e-04
	3.828710904642391e-05
	1.661969698060332e-01

 68	6.800000000000004e-01
	-9.751542224621172e-15
	-5.523512523277623e-17
	-5.082697251893117e-14
	2.817875532768122e-06
	3.118048156964982e-04
	4.130114522040911e-05
	1.661973350387023e-01

 69	6.900000000000004e-01
	-9.745134011422543e-15
	-5.687733843379371e-17
	-5.098885976875002e-14
	2.959862199704571e-06
	3.334999566702711e-04
	4.452636081973519e-05
	1.661977258643038e-01

 70	7.000000000000004e-01
	-9.740226040520050e-15
	-5.857341398758970e-17
	-5.114714392594050e-14
	3.108207629386252e-06
	3.563669786525697e-04
	4.797431341252478e-05
	1.661981436829989e-01

 71	7.100000000000004e-01
	-9.736786316815567e-15
	-6.032534093083564e-17
	-5.130186117357652e-14
	3.263177855860211e-06
	3.804353127746235e-04
	5.165686479285380e-05
	1.661985899317295e-01

 72	7.200000000000004e-01
	-9.734782962945124e-15
	-6.213519111811790e-17
	-5.145304856756711e-14
	3.425052534135300e-06
	4.057320669280421e-04
	5.558615907006601e-05
	1.661990660815683e-01

 73	7.300000000000004e-01
	-9.734184239132074e-15
	-6.400512304915686e-17
	-5.160074397494304e-14
	3.594126144987263e-06
	4.322817552191532e-04
	5.977459803999084e-05
	1.661995736347293e-01

 74	7.400000000000004e-01
	-9.734958561925928e-15
	-6.593738588762670e-17
	-5.174498601345698e-14
	3.770709344236602e-06
	4.601060323189090e-04
	6.423481387280656e-05
	1.662001141212762e-01

 75	7.500000000000004e-01
	-9.737074521827918e-15
	-6.793432368170649e-17
	-5.188581399254548e-14
	3.955130473841462e-06
	4.892234357204263e-04
	6.897963918190926e-05
	1.662006890954913e-01

 76	7.600000000000005e-01
	-9.740500899806280e-15
	-6.999837979699937e-17
	-5.202326785569733e-14
	4.147737254158954e-06
	5.196491389884713e-04
	7.402207456870226e-05
	1.662013001319627e-01

 77	7.700000000000005e-01
	-9.745206682705283e-15
	-7.213210157304325e-17
	-5.215738812426637e-14
	4.348898678992108e-06
	5.513947191105293e-04
	7.937525376926185e-05
	1.662019488213660e-01

 78	7.800000000000005e-01
	-9.751161077554653e-15
	-7.433814521524884e-17
	-5.228821584276192e-14
	4.559007137595262e-06
	5.844679410337891e-04
	8.505240655987048e-05
	1.662026367659844e-01

 79	7.900000000000005e-01
	-9.758333524786673e-15
	-7.661928093471551e-17
	-5.241579252564441e-14
	4.778480790704633e-06
	6.188725623936755e-04
	9.106681960892486e-05
	1.662033655749801e-01

 80	8.000000000000005e-01
	-9.766693710369739e-15
	-7.897839834904756e-17
	-5.254016010564985e-14
	5.007766230946596e-06
	6.546081613057058e-04
	9.743179549216271e-05
	1.662041368594362e-01

 81	8.100000000000005e-01
	-9.776211576868608e-15
	-8.141851215800022e-17
	-5.266136088366035e-14
	5.247341461718981e-06
	6.916699899029835e-04
	1.041606101159743e-04
	1.662049522272197e-01

 82	8.200000000000005e-01
	-9.786857333442095e-15
	-8.394276810850372e-17
	-5.277943748013571e-14
	5.497719232914808e-06
	7.300488560572561e-04
	1.112664688191966e-04
	1.662058132776671e-01

 83	8.300000000000005e-01
	-9.798601464789739e-15
	-8.655444926439800e-17
	-5.289443278811513e-14
	5.759450776752306e-06
	7.697310354242720e-04
	1.187624614467046e-04
	1.662067215961565e-01

 84	8.400000000000005e-01
	-9.811414739060428e-15
	-8.925698259699789e-17
	-5.300638992779514e-14
	6.033129992594532e-06
	8.106982156075968e-04
	1.266615167077988e-04
	1.662076787485846e-01

 85	8.500000000000005e-01
	-9.825268214735443e-15
	-9.205394591347365e-17
	-5.311535220268520e-14
	6.319398136107887e-06
	8.529274738437346e-04
	1.349763561483655e-04
	1.662086862757981e-01

 86	8.600000000000005e-01
	-9.840133246499728e-15
	-9.494907514089813e-17
	-5.322136305733983e-14
	6.618949075566113e-06
	8.963912891813300e-04
	1.437194480776402e-04
	1.662097456880195e-01

 87	8.700000000000006e-01
	-9.855981490114465e-15
	-9.794627198475000e-17
	-5.332446603666258e-14
	6.932535186724584e-06
	9.410575896654456e-04
	1.529029617977944e-04
	1.662108584592922e-01

 88	8.800000000000006e-01
	-9.872784906305801e-15
	-1.010496119815964e-16
	-5.342470474677321e-14
	7.260973967666358e-06
	9.868898345520994e-04
	1.625387224871758e-04
	1.662120260220291e-01

 89	8.900000000000006e-01
	-9.890515763682319e-15
	-1.042633529667309e-16
	-5.352212281742777e-14
	7.605155466593784e-06
	1.033847131077570e-03
	1.726381670857445e-04
	1.662132497616452e-01

 90	9.000000000000006e-01
	-9.909146640696288e-15
	-1.075919439785285e-16
	-5.361676386597786e-14
	7.966050628978331e-06
	1.081884384799731e-03
	1.832123015238272e-04
	1.662145310113880e-01

 91	9.100000000000006e-01
	-9.928650426661156e-15
	-1.110400346224246e-16
	-5.370867146285318e-14
	8.344720686117639e-06
	1.130952482025212e-03
	1.942716596229379e-04
	1.662158710473350e-01

 92	9.200000000000006e-01
	-9.949000321839600e-15
	-1.146124849185016e-16
	-5.379788909854836e-14
	8.742327725356148e-06
	1.180998502344558e-03
	2.058262639799235e-04
	1.662172710836463e-01

 93	9.300000000000006e-01
	-9.970169836614261e-15
	-1.183143756578589e-16
	-5.388446015209448e-14
	9.160146603462294e-06
	1.231965958827775e-03
	2.178855891235066e-04
	1.662187322680978e-01

 94	9.400000000000006e-01
	-9.992132789754008e-15
	-1.221510192941644e-16
	-5.396842786099180e-14
	9.599578389444621e-06
	1.283795062992080e-03
	2.304585272054859e-04
	1.662202556779033e-01

 95	9.500000000000006e-01
	-1.001486330578732e-14
	-1.261279713979744e-16
	-5.404983529257996e-14
	1.006216555205785e-05
	1.336423011250070e-03
	2.435533564578340e-04
	1.662218423158845e-01

 96	9.600000000000006e-01
	-1.003833581149383e-14
	-1.302510427027561e-16
	-5.412872531681967e-14
	1.054960914113362e-05
	1.389784289185880e-03
	2.571777126121120e-04
	1.662234931069906e-01

 97	9.700000000000006e-01
	-1.006252503152513e-14
	-1.345263117727827e-16
	-5.420514058045717e-14
	1.106378825153200e-05
	1.443810989693968e-03
	2.713385634394079e-04
	1.662252088952171e-01

 98	9.800000000000006e-01
	-1.008740598316286e-14
	-1.389601383244965e-16
	-5.427912348254470e-14
	1.160678210496905e-05
	1.498433140753382e-03
	2.860421865279691e-04
	1.662269904408890e-01

 99	9.900000000000007e-01
	-1.011295397022429e-14
	-1.435591772342024e-16
	-5.435071615128430e-14
	1.218089513942137e-05
	1.553579038400605e-03
	3.012941503722470e-04
	1.662288384183654e-01

 100	1.000000000000001e+00
	-1.013914457612246e-14
	-1.483303932664002e-16
	-5.441996042216458e-14
	1.278868555964630e-05
	1.609175580307114e-03
	3.170992988018955e-04
	1.662307534141584e-01

 101	1.010000000000001e+00
	-1.016595365608668e-14
	-1.532810765584436e-16
	-5.448689781735937e-14
