Title: ** sch_path: /home/andylithia/openmpw/project-yatsuhashi-chip1/xschem/gmid_test/nmos_test.sch
Date: Sun Jul 17 22:51:45  2022
Plotname: DC transfer characteristic
Flags: real
No. Variables: 8
No. Points: 181
Variables:
	0	v(v-sweep)	voltage
	1	@m.xm1.msky130_fd_pr__nfet_01v8[cgb]	capacitance
	2	@m.xm1.msky130_fd_pr__nfet_01v8[cgd]	capacitance
	3	@m.xm1.msky130_fd_pr__nfet_01v8[cgs]	capacitance
	4	@m.xm1.msky130_fd_pr__nfet_01v8[gds]	admittance
	5	@m.xm1.msky130_fd_pr__nfet_01v8[gm]	admittance
	6	i(@m.xm1.msky130_fd_pr__nfet_01v8[id])	current
	7	v(@m.xm1.msky130_fd_pr__nfet_01v8[vth])	voltage
Values:
 0	0.000000000000000e+00
	-1.673088049229969e-14
	-1.005697576070751e-17
	-3.500808918072679e-14
	3.422024333405274e-08
	1.079416244825341e-06
	1.443863538565953e-07
	1.580477238697175e-01

 1	1.000000000000000e-02
	-1.655414913328913e-14
	-1.032199488675618e-17
	-3.543391564726987e-14
	3.671654901578495e-08
	1.163432908638754e-06
	1.555952208203871e-07
	1.580477252362443e-01

 2	2.000000000000000e-02
	-1.637998397646146e-14
	-1.059427712717366e-17
	-3.585850872325420e-14
	3.938483899465918e-08
	1.254167711718003e-06
	1.676773889515327e-07
	1.580477267092533e-01

 3	3.000000000000000e-02
	-1.620841290773207e-14
	-1.087403401452546e-17
	-3.628173799837256e-14
	4.223599531147517e-08
	1.352191880177082e-06
	1.807028537201011e-07
	1.580477282972768e-01

 4	4.000000000000000e-02
	-1.603946259957385e-14
	-1.116148382465379e-17
	-3.670347447765380e-14
	4.528150332783126e-08
	1.458129366597572e-06
	1.947475823760734e-07
	1.580477300095803e-01

 5	5.000000000000000e-02
	-1.587315846656373e-14
	-1.145685181626095e-17
	-3.712359071910336e-14
	4.853347845178641e-08
	1.572661991728962e-06
	2.098940665278546e-07
	1.580477318562281e-01

 6	6.000000000000000e-02
	-1.570952462392370e-14
	-1.176037047997132e-17
	-3.754196096794234e-14
	5.200469359614292e-08
	1.696535074363371e-06
	2.262319285459750e-07
	1.580477338481429e-01

 7	7.000000000000001e-02
	-1.554858384911329e-14
	-1.207227979727793e-17
	-3.795846128715871e-14
	5.570860736619164e-08
	1.830563588820437e-06
	2.438585868690681e-07
	1.580477359972111e-01

 8	8.000000000000000e-02
	-1.539035754652095e-14
	-1.239282750981475e-17
	-3.837296968410418e-14
	5.965939297314442e-08
	1.975638891388861e-06
	2.628799856934017e-07
	1.580477383163540e-01

 9	9.000000000000000e-02
	-1.523486571529320e-14
	-1.272226939940134e-17
	-3.878536623287667e-14
	6.387196786882493e-08
	2.132736058868253e-06
	2.834113949495214e-07
	1.580477408196326e-01

 10	9.999999999999999e-02
	-1.508212692033060e-14
	-1.306086957934236e-17
	-3.919553319224885e-14
	6.836202409674390e-08
	2.302921884003272e-06
	3.055782869095340e-07
	1.580477435223469e-01

 11	1.100000000000000e-01
	-1.493215826647075e-14
	-1.340890079747292e-17
	-3.960335511891466e-14
	7.314605935426031e-08
	2.487363574050780e-06
	3.295172962237632e-07
	1.580477464411665e-01

 12	1.200000000000000e-01
	-1.478497537586844e-14
	-1.376664475147910e-17
	-4.000871897584622e-14
	7.824140876025653e-08
	2.687338199920997e-06
	3.553772706541999e-07
	1.580477495942475e-01

 13	1.300000000000000e-01
	-1.464059236857469e-14
	-1.413439241703797e-17
	-4.041151423556619e-14
	8.366627732257016e-08
	2.904242944225428e-06
	3.833204202511940e-07
	1.580477530013751e-01

 14	1.400000000000000e-01
	-1.449902184630618e-14
	-1.451244438934836e-17
	-4.081163297816123e-14
	8.943977309934023e-08
	3.139606197085102e-06
	4.135235732060423e-07
	1.580477566841216e-01

 15	1.500000000000000e-01
	-1.436027487938843e-14
	-1.490111123866117e-17
	-4.120896998387896e-14
	9.558194104851798e-08
	3.395099548632703e-06
	4.461795471014692e-07
	1.580477606660095e-01

 16	1.600000000000000e-01
	-1.422436099684622e-14
	-1.530071388043390e-17
	-4.160342282016920e-14
	1.021137975599353e-07
	3.672550726703180e-06
	4.814986447694315e-07
	1.580477649726962e-01

 17	1.700000000000000e-01
	-1.409128817960690e-14
	-1.571158396077551e-17
	-4.199489192304885e-14
	1.090573656646379e-07
	3.973957527168696e-06
	5.197102844459107e-07
	1.580477696321691e-01

 18	1.800000000000000e-01
	-1.396106285677283e-14
	-1.613406425787306e-17
	-4.238328067268860e-14
	1.164357109166438e-07
	4.301502782645071e-06
	5.610647743787378e-07
	1.580477746749665e-01

 19	1.900000000000000e-01
	-1.383368990491218e-14
	-1.656850910013219e-17
	-4.276849546313839e-14
	1.242729779428755e-07
	4.657570412784413e-06
	6.058352424898132e-07
	1.580477801344150e-01

 20	2.000000000000000e-01
	-1.370917265030797e-14
	-1.701528480179328e-17
	-4.315044576612773e-14
	1.325944276577280e-07
	5.044762595971036e-06
	6.543197321088323e-07
	1.580477860468779e-01

 21	2.100000000000000e-01
	-1.358751287409921e-14
	-1.747477011682660e-17
	-4.352904418889489e-14
	1.414264751396838e-07
	5.465918097850164e-06
	7.068434751725008e-07
	1.580477924520418e-01

 22	2.200000000000001e-01
	-1.346871082023986e-14
	-1.794735671194898e-17
	-4.390420652601834e-14
	1.507967281684303e-07
	5.924131786633849e-06
	7.637613546109437e-07
	1.580477993932093e-01

 23	2.300000000000001e-01
	-1.335276520619500e-14
	-1.843344965964484e-17
	-4.427585180524153e-14
	1.607340264222629e-07
	6.422775358430521e-06
	8.254605679096343e-07
	1.580478069176323e-01

 24	2.400000000000001e-01
	-1.323967323628724e-14
	-1.893346795212303e-17
	-4.464390232730053e-14
	1.712684813370487e-07
	6.965519287824843e-06
	8.923635040285545e-07
	1.580478150768521e-01

 25	2.500000000000001e-01
	-1.312943061760084e-14
	-1.944784503717889e-17
	-4.500828369978018e-14
	1.824315166298093e-07
	7.556356009473974e-06
	9.649308459659052e-07
	1.580478239270956e-01

 26	2.600000000000001e-01
	-1.302203157834495e-14
	-1.997702937699117e-17
	-4.536892486504420e-14
	1.942559094920776e-07
	8.199624325482208e-06
	1.043664911257681e-06
	1.580478335296668e-01

 27	2.700000000000001e-01
	-1.291746888857354e-14
	-2.052148503092640e-17
	-4.572575812229746e-14
	2.067758324605694e-07
	8.900035020650653e-06
	1.129113242589198e-06
	1.580478439513889e-01

 28	2.800000000000001e-01
	-1.281573388315438e-14
	-2.108169226347781e-17
	-4.607871914385674e-14
	2.200268959755546e-07
	9.662697653285174e-06
	1.221872460444818e-06
	1.580478552650886e-01

 29	2.900000000000001e-01
	-1.271681648687554e-14
	-2.165814817853318e-17
	-4.642774698572231e-14
	2.340461916406509e-07
	1.049314847298987e-05
	1.322592389318806e-06
	1.580478675500843e-01

 30	3.000000000000001e-01
	-1.262070524157541e-14
	-2.225136738121321e-17
	-4.677278409255363e-14
	2.488723362015440e-07
	1.139737939869673e-05
	1.431980468434068e-06
	1.580478808927253e-01

 31	3.100000000000001e-01
	-1.252738733517851e-14
	-2.286188266858963e-17
	-4.711377629716873e-14
	2.645455162657451e-07
	1.238186797004173e-05
	1.550806457148616e-06
	1.580478953869833e-01

 32	3.200000000000001e-01
	-1.243684863251697e-14
	-2.349024575067252e-17
	-4.745067281469996e-14
	2.811075337907794e-07
	1.345360816304915e-05
	1.679907444250804e-06
	1.580479111350477e-01

 33	3.300000000000001e-01
	-1.234907370781672e-14
	-2.413702800310336e-17
	-4.778342623154821e-14
	2.986018523743953e-07
	1.462014193692748e-05
	1.820193169133492e-06
	1.580479282479806e-01

 34	3.400000000000001e-01
	-1.226404587872447e-14
	-2.480282125308470e-17
	-4.811199248929090e-14
	3.170736443877386e-07
	1.588959135264251e-05
	1.972651661375428e-06
	1.580479468464117e-01

 35	3.500000000000001e-01
	-1.218174724175274e-14
	-2.548823860014831e-17
	-4.843633086370817e-14
	3.365698390010315e-07
	1.727069107587894e-05
	2.138355203524873e-06
	1.580479670612659e-01

 36	3.600000000000002e-01
	-1.210215870901724e-14
	-2.619391527344847e-17
	-4.875640393910231e-14
	3.571391711613980e-07
	1.877282104713991e-05
	2.318466619857300e-06
	1.580479890345189e-01

 37	3.700000000000002e-01
	-1.202526004614384e-14
	-2.692050952734784e-17
	-4.907217757809019e-14
	3.788322315942782e-07
	2.040603907021895e-05
	2.514245891548172e-06
	1.580480129200270e-01

 38	3.800000000000002e-01
	-1.195102991122024e-14
	-2.766870357717236e-17
	-4.938362088706118e-14
	4.017015179139400e-07
	2.218111303734083e-05
	2.727057096049905e-06
	1.580480388843581e-01

 39	3.900000000000002e-01
	-1.187944589467025e-14
	-2.843920457708958e-17
	-4.969070617749391e-14
	4.258014869447539e-07
	2.410955247515258e-05
	2.958375665472353e-06
	1.580480671076865e-01

 40	4.000000000000002e-01
	-1.181048455992885e-14
	-2.923274564217814e-17
	-4.999340892333528e-14
	4.511886083741370e-07
	2.620363906081940e-05
	3.209795955432345e-06
	1.580480977847251e-01

 41	4.100000000000002e-01
	-1.174412148479816e-14
	-3.005008691687013e-17
	-5.029170771464676e-14
	4.779214198803979e-07
	2.847645572213991e-05
	3.483039112151999e-06
	1.580481311256688e-01

 42	4.200000000000002e-01
	-1.168033130336695e-14
	-3.089201669204738e-17
	-5.058558420772759e-14
	5.060605839047385e-07
	3.094191390031188e-05
	3.779961221544396e-06
	1.580481673572056e-01

 43	4.300000000000002e-01
	-1.161908774837823e-14
	-3.175935257320784e-17
	-5.087502307192734e-14
	5.356689462671753e-07
	3.361477851934134e-05
	4.102561719636454e-06
	1.580482067235378e-01

 44	4.400000000000002e-01
	-1.156036369393193e-14
	-3.265294270223554e-17
	-5.116001193336290e-14
	5.668115968613869e-07
	3.651069017269209e-05
	4.452992038946470e-06
	1.580482494874470e-01

 45	4.500000000000002e-01
	-1.150413119841361e-14
	-3.357366703545382e-17
	-5.144054131575452e-14
	5.995559327046401e-07
	3.964618400636785e-05
	4.833564460379384e-06
	1.580482959313650e-01

 46	4.600000000000002e-01
	-1.145036154754214e-14
	-3.452243868077229e-17
	-5.171660457859707e-14
	6.339717236662799e-07
	4.303870474895297e-05
	5.246761134844425e-06
	1.580483463584797e-01

 47	4.700000000000003e-01
	-1.139902529743431e-14
	-3.550020529689006e-17
	-5.198819785288125e-14
	6.701311812532790e-07
	4.670661731409503e-05
	5.695243233174398e-06
	1.580484010938563e-01

 48	4.800000000000003e-01
	-1.135009231758615e-14
	-3.650795055768832e-17
	-5.225531997457945e-14
	7.081090308945252e-07
	5.066921238039446e-05
	6.181860177071157e-06
	1.580484604855600e-01

 49	4.900000000000003e-01
	-1.130353183367632e-14
	-3.754669568509265e-17
	-5.251797241610788e-14
	7.479825882382561e-07
	5.494670633862644e-05
	6.709658897767617e-06
	1.580485249057934e-01

 50	5.000000000000002e-01
	-1.125931247009967e-14
	-3.861750105388326e-17
	-5.277615921597493e-14
	7.898318400605667e-07
	5.956023498769060e-05
	7.281893062945773e-06
	1.580485947520087e-01

 51	5.100000000000002e-01
	-1.121740229214463e-14
	-3.972146787209417e-17
	-5.302988690682089e-14
	8.337395304783042e-07
	6.453184035964692e-05
	7.902032206247943e-06
	1.580486704480410e-01

 52	5.200000000000002e-01
	-1.117776884773010e-14
	-4.085973994086742e-17
	-5.327916444205352e-14
	8.797912532690204e-07
	6.988445006172778e-05
	8.573770687552634e-06
	1.580487524451857e-01

 53	5.300000000000002e-01
	-1.114037920862465e-14
	-4.203350549780751e-17
	-5.352400312127582e-14
	9.280755512247566e-07
	7.564184854024720e-05
	9.301036406137190e-06
	1.580488412232669e-01

 54	5.400000000000003e-01
	-1.110520001107295e-14
	-4.324399914812250e-17
	-5.376441651470038e-14
	9.786840236080615e-07
	8.182863969888406e-05
	1.008799918302853e-05
	1.580489372916537e-01

 55	5.500000000000003e-01
	-1.107219749575974e-14
	-4.449250388805359e-17
	-5.400042038673874e-14
	1.031711442938999e-06
	8.847020034269640e-05
	1.093907872334987e-05
	1.580490411902387e-01

 56	5.600000000000003e-01
	-1.104133754704649e-14
	-4.578035322535307e-17
	-5.423203261894701e-14
	1.087255882523858e-06
	9.559262397024386e-05
	1.185895206443172e-05
	1.580491534903393e-01

 57	5.700000000000003e-01
	-1.101258573141883e-14
	-4.710893340182093e-17
	-5.445927313250662e-14
	1.145418856341721e-06
	1.032226544999165e-04
	1.285256041098647e-05
	1.580492747955232e-01

 58	5.800000000000003e-01
	-1.098590733508934e-14
	-4.847968572317738e-17
	-5.468216381040768e-14
	1.206305473137059e-06
	1.113876095934502e-04
	1.392511525488266e-05
	1.580494057423571e-01

 59	5.900000000000003e-01
	-1.096126740070281e-14
	-4.989410900185003e-17
	-5.490072841950090e-14
	1.270024606828167e-06
	1.201152933298508e-04
	1.508210367412874e-05
	1.580495470010477e-01

 60	6.000000000000003e-01
	-1.093863076309638e-14
	-5.135376211854015e-17
	-5.511499253257347e-14
	1.336689085635382e-06
	1.294338980864830e-04
	1.632929270371850e-05
	1.580496992759735e-01

 61	6.100000000000003e-01
	-1.091796208407065e-14
	-5.286026670877593e-17
	-5.532498345060001e-14
	1.406415902664220e-06
	1.393718956006247e-04
	1.767273267013833e-05
	1.580498633060765e-01

 62	6.200000000000003e-01
	-1.089922588613268e-14
	-5.441530998096526e-17
	-5.553073012530992e-14
	1.479326451049996e-06
	1.499579173135920e-04
	1.911875938170760e-05
	1.580500398651332e-01

 63	6.300000000000003e-01
	-1.088238658517500e-14
	-5.602064767285263e-17
	-5.573226308220762e-14
	1.555546787188209e-06
	1.612206242397386e-04
	2.067399506865020e-05
	1.580502297618574e-01

 64	6.400000000000003e-01
	-1.086740852205918e-14
	-5.767810715363019e-17
	-5.592961434417354e-14
	1.635207926042996e-06
	1.731885667527213e-04
	2.234534796996796e-05
	1.580504338398517e-01

 65	6.500000000000004e-01
	-1.085425599307607e-14
	-5.938959067937437e-17
	-5.612281735576608e-14
	1.718446173051943e-06
	1.858900348397944e-04
	2.414001046891394e-05
	1.580506529773640e-01

 66	6.600000000000004e-01
	-1.084289327925841e-14
	-6.115707880987356e-17
	-5.631190690833889e-14
	1.805403497735186e-06
	1.993528995393160e-04
	2.606545568519758e-05
	1.580508880868760e-01

 67	6.700000000000004e-01
	-1.083328467452551e-14
	-6.298263399537644e-17
	-5.649691906607829e-14
	1.896227954779766e-06
	2.136044464447841e-04
	2.812943244006800e-05
	1.580511401144781e-01

 68	6.800000000000004e-01
	-1.082539451264209e-14
	-6.486840434224303e-17
	-5.667789109305986e-14
	1.991074159114825e-06
	2.286712023275705e-04
	3.033995852011041e-05
	1.580514100390431e-01

 69	6.900000000000004e-01
	-1.081918719297724e-14
	-6.681662756696152e-17
	-5.685486138141646e-14
	2.090103822331711e-06
	2.445787560971319e-04
	3.270531217697134e-05
	1.580516988711944e-01

 70	7.000000000000004e-01
	-1.081462720505235e-14
	-6.882963514854574e-17
	-5.702786938070047e-14
	2.193486358748242e-06
	2.613515754783516e-04
	3.523402181324929e-05
	1.580520076520330e-01

 71	7.100000000000004e-01
	-1.081167915186972e-14
	-7.090985668982377e-17
	-5.719695552851833e-14
	2.301399570483078e-06
	2.790128209371749e-04
	3.793485381936411e-05
	1.580523374516679e-01

 72	7.200000000000004e-01
	-1.081030777201548e-14
	-7.305982449875017e-17
	-5.736216118250804e-14
	2.414030422114157e-06
	2.975841585242900e-04
	4.081679854226830e-05
	1.580526893674894e-01

 73	7.300000000000004e-01
	-1.081047796053464e-14
	-7.528217840143927e-17
	-5.752352855372198e-14
	2.531575916864069e-06
	3.170855734282594e-04
	4.388905438419343e-05
	1.580530645222459e-01

 74	7.400000000000004e-01
	-1.081215478857589e-14
	-7.757967079929328e-17
	-5.768110064147404e-14
	2.654244087812989e-06
	3.375351861307895e-04
	4.716101004809881e-05
	1.580534640618680e-01

 75	7.500000000000004e-01
	-1.081530352180871e-14
	-7.995517198321876e-17
	-5.783492116970018e-14
	2.782255119414535e-06
	3.589490731339027e-04
	5.064222496582932e-05
	1.580538891530990e-01

 76	7.600000000000005e-01
	-1.081988963761467e-14
	-8.241167571869289e-17
	-5.798503452487785e-14
	2.915842616620334e-06
	3.813410942786434e-04
	5.434240796499382e-05
	1.580543409808832e-01

 77	7.700000000000005e-01
	-1.082587884105870e-14
	-8.495230511611946e-17
	-5.813148569554312e-14
	3.055255041246050e-06
	4.047227286943710e-04
	5.827139425089817e-05
	1.580548207455796e-01

 78	7.800000000000005e-01
	-1.083323707964587e-14
	-8.758031880175014e-17
	-5.827432021343857e-14
	3.200757337889164e-06
	4.291029214045613e-04
	6.243912080024843e-05
	1.580553296599572e-01

 79	7.900000000000005e-01
	-1.084193055687244e-14
	-9.029911740521661e-17
	-5.841358409631904e-14
	3.352632774795937e-06
	4.544879425670999e-04
	6.685560028338331e-05
	1.580558689460264e-01

 80	8.000000000000005e-01
	-1.085192574457942e-14
	-9.311225038062817e-17
	-5.854932379243871e-14
	3.511185028648354e-06
	4.808812612435120e-04
	7.153089365121359e-05
	1.580564398316998e-01

 81	8.100000000000005e-01
	-1.086318939411951e-14
	-9.602342317904840e-17
	-5.868158612673576e-14
	3.676740546386496e-06
	5.082834354715215e-04
	7.647508154140994e-05
	1.580570435473131e-01

 82	8.200000000000005e-01
	-1.087568854634761e-14
	-9.903650479113742e-17
	-5.881041824872898e-14
	3.849651222005726e-06
	5.366920202593578e-04
	8.169823467537747e-05
	1.580576813220180e-01

 83	8.300000000000005e-01
	-1.088939054044794e-14
	-1.021555356797356e-16
	-5.893586758213261e-14
	4.030297431896524e-06
	5.661014949293236e-04
	8.721038343281252e-05
	1.580583543800790e-01

 84	8.400000000000005e-01
	-1.090426302160879e-14
	-1.053847361231913e-16
	-5.905798177619559e-14
	4.219091478880068e-06
	5.965032110141489e-04
	9.302148680380555e-05
	1.580590639370832e-01

 85	8.500000000000005e-01
	-1.092027394755888e-14
	-1.087285149913294e-16
	-5.917680865876366e-14
	4.416481502816588e-06
	6.278853616552703e-04
	9.914140092922087e-05
	1.580598111961108e-01

 86	8.600000000000005e-01
	-1.093739159397778e-14
	-1.121914789770984e-16
	-5.929239619106146e-14
	4.622955924747117e-06
	6.602329731709333e-04
	1.055798474481845e-04
	1.580605973438618e-01

 87	8.700000000000006e-01
	-1.095558455879392e-14
	-1.157784423080791e-16
	-5.940479242418759e-14
	4.839048502234613e-06
	6.935279191575988e-04
	1.123463818766424e-04
	1.580614235468115e-01

 88	8.800000000000006e-01
	-1.097482176538379e-14
	-1.194944369633385e-16
	-5.951404545731106e-14
	5.065344086219335e-06
	7.277489571654984e-04
	1.194503622429764e-04
	1.580622909473627e-01

 89	8.900000000000006e-01
	-1.099507246468453e-14
	-1.233447234223194e-16
	-5.962020339755728e-14
	5.302485184679138e-06
	7.628717876528589e-04
	1.269009182053581e-04
	1.580632006600803e-01

 90	9.000000000000006e-01
	-1.101630623623444e-14
	-1.273348019738259e-16
	-5.972331432156535e-14
	5.551179456155615e-06
	7.988691345786169e-04
	1.347069208708125e-04
	1.580641537679963e-01

 91	9.100000000000006e-01
	-1.103849298815229e-14
	-1.314704246145488e-16
	-5.982342623869907e-14
	5.812208277337854e-06
	8.357108466455388e-04
	1.428769535277961e-04
	1.580651513190302e-01

 92	9.200000000000006e-01
	-1.106160295606882e-14
	-1.357576075679771e-16
	-5.992058705588921e-14
	6.086436554071522e-06
	8.733640178592936e-04
	1.514192834924238e-04
	1.580661943225417e-01

 93	9.300000000000006e-01
	-1.108560670102116e-14
	-1.402026444560265e-16
	-6.001484454408355e-14
	6.374823975218608e-06
	9.117931257290806e-04
	1.603418352534075e-04
	1.580672837460409e-01

 94	9.400000000000006e-01
	-1.111047510632142e-14
	-1.448121201572299e-16
	-6.010624630627891e-14
	6.678437944745847e-06
	9.509601851055486e-04
	1.696521650823130e-04
	1.580684205120786e-01

 95	9.500000000000006e-01
	-1.113617937340912e-14
	-1.495929253868856e-16
	-6.019483974710727e-14
	6.998468470505145e-06
	9.908249153353801e-04
	1.793574372540764e-04
	1.580696054953360e-01

 96	9.600000000000006e-01
	-1.116269101669703e-14
	-1.545522720361354e-16
	-6.028067204394602e-14
	7.336245339895830e-06
	1.031344918111011e-03
	1.894644019979694e-04
	1.580708395199218e-01

 97	9.700000000000006e-01
	-1.118998185741796e-14
	-1.596977093086004e-16
	-6.036379011952203e-14
	7.693257974804663e-06
	1.072475863109409e-03
	1.999793752715099e-04
	1.580721233568971e-01

 98	9.800000000000006e-01
	-1.121802401647988e-14
	-1.650371406947986e-16
	-6.044424061597655e-14
	8.071178433150574e-06
	1.114171678245155e-03
	2.109082204193941e-04
	1.580734577220193e-01

 99	9.900000000000007e-01
	-1.124678990633607e-14
	-1.705788418262291e-16
	-6.052206987035626e-14
	8.471888114753242e-06
	1.156384741107762e-03
	2.222563317464414e-04
	1.580748432737537e-01

 100	1.000000000000001e+00
	-1.127625222187325e-14
	-1.763314792527451e-16
	-6.059732389149737e-14
	8.897508838434757e-06
	1.199066067907738e-03
	2.340286199980552e-04
	1.580762806114734e-01

 101	1.010000000000001e+00
	-1.130638393032345e-14
	-1.823041301883435e-16
	-6.067004833826433e-14
