Title: ** sch_path: /home/andylithia/openmpw/project-yatsuhashi-chip1/xschem/gmid_test/nmos_test.sch
Date: Tue Jul 19 23:15:45  2022
Plotname: DC transfer characteristic
Flags: real
No. Variables: 8
No. Points: 181
Variables:
	0	v(v-sweep)	voltage
	1	@m.xm1.msky130_fd_pr__nfet_01v8[cgb]	capacitance
	2	@m.xm1.msky130_fd_pr__nfet_01v8[cgd]	capacitance
	3	@m.xm1.msky130_fd_pr__nfet_01v8[cgs]	capacitance
	4	@m.xm1.msky130_fd_pr__nfet_01v8[gds]	admittance
	5	@m.xm1.msky130_fd_pr__nfet_01v8[gm]	admittance
	6	i(@m.xm1.msky130_fd_pr__nfet_01v8[id])	current
	7	v(@m.xm1.msky130_fd_pr__nfet_01v8[vth])	voltage
Values:
 0	0.000000000000000e+00
	-4.046263666660270e-15
	-1.200949778817548e-25
	-5.707077578501897e-18
	8.486374458757339e-26
	3.774728622520720e-23
	4.073492422746779e-25
	6.175984716434756e-01

 1	1.000000000000000e-02
	-4.029249624098676e-15
	-1.576751326285282e-25
	-5.694266027049884e-18
	2.143347417441979e-25
	9.534677374717944e-23
	1.028815014790130e-24
	6.175984716434756e-01

 2	2.000000000000000e-02
	-4.012445471586448e-15
	-2.070136206717546e-25
	-5.685771421142655e-18
	5.415125541419989e-25
	2.408781002893401e-22
	2.599281114519250e-24
	6.175984716434756e-01

 3	3.000000000000000e-02
	-3.995846689175118e-15
	-2.717885674340533e-25
	-5.682858113308986e-18
	1.368029220637247e-24
	6.085150946377120e-22
	6.566592944391451e-24
	6.175984716434756e-01

 4	4.000000000000000e-02
	-3.979448779277648e-15
	-3.568280045133415e-25
	-5.687192413324315e-18
	3.455804785531375e-24
	1.537179588241485e-21
	1.658799606004880e-23
	6.175984716434756e-01

 5	5.000000000000000e-02
	-3.963247233400994e-15
	-4.684689018283072e-25
	-5.700969064241260e-18
	8.729331059425450e-24
	3.882934644693707e-21
	4.190112526826911e-23
	6.175984716434756e-01

 6	6.000000000000000e-02
	-3.947237489704741e-15
	-6.150279629728932e-25
	-5.727077144224846e-18
	2.205131219073869e-23
	9.808344884462031e-21
	1.058471477536855e-22
	6.175984716434756e-01

 7	7.000000000000001e-02
	-3.931414878497542e-15
	-8.074187328312552e-25
	-5.769317410698399e-18
	5.570174237187718e-23
	2.477449934962139e-20
	2.673705085666282e-22
	6.175984716434756e-01

 8	8.000000000000000e-02
	-3.915774551937291e-15
	-1.059960073543883e-24
	-5.832686571693974e-18
	1.406917113494207e-22
	6.257053920690978e-20
	6.753256327895158e-22
	6.175984716434756e-01

 9	9.000000000000000e-02
	-3.900311393139323e-15
	-1.391434644582907e-24
	-5.923748299733402e-18
	3.553270212544703e-22
	1.580055363522676e-19
	1.705583386365690e-21
	6.175984716434756e-01

 10	9.999999999999999e-02
	-3.885019898589096e-15
	-1.826473485452170e-24
	-6.051116107044762e-18
	8.972621722789526e-22
	3.989080486439756e-19
	4.306892982293222e-21
	6.175984716434756e-01

 11	1.100000000000000e-01
	-3.869894026186173e-15
	-2.397365110167997e-24
	-6.226079519795932e-18
	2.265194413887328e-21
	1.006731120451123e-18
	1.087302042385752e-20
	6.175984716434756e-01

 12	1.200000000000000e-01
	-3.854926999434462e-15
	-3.146415780202056e-24
	-6.463412212585912e-18
	5.716361398624004e-21
	2.539206552243949e-18
	2.743875486210546e-20
	6.175984716434756e-01

 13	1.300000000000000e-01
	-3.840111056327765e-15
	-4.129023004533866e-24
	-6.782408493259937e-18
	1.441662330407504e-20
	6.398492943908326e-18
	6.920034707337596e-20
	6.175984716434756e-01

 14	1.400000000000000e-01
	-3.825437129565674e-15
	-5.417667952330295e-24
	-7.208201865564436e-18
	3.632288030461895e-20
	1.609967281075583e-17
	1.743512243318331e-19
	6.175984716434756e-01

 15	1.500000000000000e-01
	-3.810894443268975e-15
	-7.107085210055883e-24
	-7.773424667630715e-18
	9.137361916178997e-20
	4.041521084098071e-17
	4.385968909670199e-19
	6.175984716434756e-01

 16	1.600000000000000e-01
	-3.796470011011428e-15
	-9.320930401767928e-24
	-8.520268212932195e-18
	2.292957746494376e-19
	1.010837796708196e-16
	1.100628548987412e-18
	6.175984716434756e-01

 17	1.700000000000000e-01
	-3.782148021739061e-15
	-1.222033676460229e-23
	-9.502994379414278e-18
	5.731950026724845e-19
	2.513799558532776e-16
	2.751358087817546e-18
	6.175984716434756e-01

 18	1.800000000000000e-01
	-3.767909105265091e-15
	-1.601482847014727e-23
	-1.079092716138831e-17
	1.424340625375398e-18
	6.196222864160492e-16
	6.836889856375192e-18
	6.175984716434756e-01

 19	1.900000000000000e-01
	-3.753729478649494e-15
	-2.097613746645864e-23
	-1.247191196450784e-17
	3.507046747404294e-18
	1.506756764388923e-15
	1.683395945236708e-17
	6.175984716434756e-01

 20	2.000000000000000e-01
	-3.739579988893241e-15
	-2.745554796664343e-23
	-1.465617208460757e-17
	8.516636526291205e-18
	3.590740141513074e-15
	4.088018332524465e-17
	6.175984716434756e-01

 21	2.100000000000000e-01
	-3.725425082742216e-15
	-3.590546885020501e-23
	-1.748043036400760e-17
	2.026791063144231e-17
	8.311232029435592e-15
	9.728675161887523e-17
	6.175984716434756e-01

 22	2.200000000000001e-01
	-3.711221741123773e-15
	-4.690602358897840e-23
	-2.111214150539477e-17
	4.688226255922626e-17
	1.848280911490257e-14
	2.250366659609834e-16
	6.175984716434756e-01

 23	2.300000000000001e-01
	-3.696918393560014e-15
	-6.119759471048229e-23
	-2.575378133810313e-17
	1.044333177145691e-16
	3.905023254589323e-14
	5.012839476608812e-16
	6.175984716434756e-01

 24	2.400000000000001e-01
	-3.682453745284045e-15
	-7.972056122327190e-23
	-3.164749224959158e-17
	2.220899211826038e-16
	7.772229788792437e-14
	1.066040177870234e-15
	6.175984716434756e-01

 25	2.500000000000001e-01
	-3.667755272285458e-15
	-1.036640826298247e-22
	-3.908112541542168e-17
	4.483306775146882e-16
	1.454090563600689e-13
	2.152004530520244e-15
	6.175984716434756e-01

 26	2.600000000000001e-01
	-3.652736853594662e-15
	-1.345269153307607e-22
	-4.839789447174101e-17
	8.584583934559967e-16
	2.572511380112332e-13
	4.120633394470876e-15
	6.175984716434767e-01

 27	2.700000000000001e-01
	-3.637294658660905e-15
	-1.741950607950372e-22
	-6.001326915521533e-17
	1.566164476592745e-15
	4.357143022599049e-13
	7.517649952765975e-15
	6.175984716434767e-01

 28	2.800000000000001e-01
	-3.621300111988204e-15
	-2.250435214357887e-22
	-7.444387921156249e-17
	2.744568484025432e-15
	7.166504569062569e-13
	1.317403487872301e-14
	6.175984716434767e-01

 29	2.900000000000001e-01
	-3.604588687204252e-15
	-2.900722381828946e-22
	-9.235337295032262e-17
	4.663130802419283e-15
	1.158526470777442e-12
	2.238320875447807e-14
	6.175984716434778e-01

 30	3.000000000000001e-01
	-3.586943568452131e-15
	-3.730887166810786e-22
	-1.146188747853767e-16
	7.747855483579660e-15
	1.855879264162740e-12
	3.719000833786148e-14
	6.175984716434791e-01

 31	3.100000000000001e-01
	-3.568073868192874e-15
	-4.789510328150134e-22
	-1.424189178768770e-16
	1.267632246644276e-14
	2.959954889305023e-12
	6.084684574530287e-14
	6.175984716434816e-01

 32	3.200000000000001e-01
	-3.547588020591587e-15
	-6.138839534421986e-22
	-1.773398916748711e-16
	2.052731063951439e-14
	4.711479084553429e-12
	9.853190708769845e-14
	6.175984716434852e-01

 33	3.300000000000001e-01
	-3.524964121211038e-15
	-7.858769336268349e-22
	-2.214934038721014e-16
	3.301750953387881e-14
	7.493010100260060e-12
	1.584853832168048e-13
	6.175984716434914e-01

 34	3.400000000000001e-01
	-3.499520420029735e-15
	-1.005164665922050e-21
	-2.776312703744781e-16
	5.287721241940197e-14
	1.191239032814667e-11
	2.538128249779979e-13
	6.175984716434997e-01

 35	3.500000000000001e-01
	-3.470391027907580e-15
	-1.284777153428420e-21
	-3.492375971018617e-16
	8.444729465592206e-14
	1.893551598095965e-11
	4.053506974869030e-13
	6.175984716435156e-01

 36	3.600000000000002e-01
	-3.436514237391944e-15
	-1.641125169533178e-21
	-4.405683458215906e-16
	1.346280780192419e-13
	3.009740885888316e-11
	6.462210544060395e-13
	6.175984716435378e-01

 37	3.700000000000002e-01
	-3.396643612666996e-15
	-2.094557016721814e-21
	-5.565982159161822e-16
	2.143875186615300e-13
	4.783769609317507e-11
	1.029071123065126e-12
	6.175984716435748e-01

 38	3.800000000000002e-01
	-3.349394825602223e-15
	-2.669783857547631e-21
	-7.028240348015904e-16
	3.411583342283575e-13
	7.603379839874580e-11
	1.637580175009728e-12
	6.175984716436331e-01

 39	3.900000000000002e-01
	-3.293343009501048e-15
	-3.396027572050066e-21
	-8.848675236107424e-16
	5.426478678296061e-13
	1.208483268575139e-10
	2.604748454995125e-12
	6.175984716437262e-01

 40	4.000000000000002e-01
	-3.227183441877414e-15
	-4.306708652896133e-21
	-1.107829119171906e-15
	8.628930190062789e-13
	1.920758171496509e-10
	4.141964708583535e-12
	6.175984716438740e-01

 41	4.100000000000002e-01
	-3.149957955814410e-15
	-5.438484970519650e-21
	-1.375386918247836e-15
	1.371882663062937e-12
	3.052829432363851e-10
	6.585203324775894e-12
	6.175984716441092e-01

 42	4.200000000000002e-01
	-3.061326098811704e-15
	-6.829508311014273e-21
	-1.688728014920327e-15
	2.180848184176819e-12
	4.852094592552143e-10
	1.046844262006903e-11
	6.175984716444829e-01

 43	4.300000000000002e-01
	-2.961825240578852e-15
	-8.516913348768388e-21
	-2.045536304723595e-15
	3.466557736338156e-12
	7.711718562015617e-10
	1.664033666403347e-11
	6.175984716450773e-01

 44	4.400000000000002e-01
	-2.853031933644308e-15
	-1.053378841646607e-20
	-2.439383395073983e-15
	5.509907967766904e-12
	1.225647383615256e-09
	2.644960462654871e-11
	6.175984716460210e-01

 45	4.500000000000002e-01
	-2.737533997421101e-15
	-1.290613107722061e-20
	-2.859874656065169e-15
	8.757207146028367e-12
	1.947905993773939e-09
	4.203956479534991e-11
	6.175984716475210e-01

 46	4.600000000000002e-01
	-2.618669908146588e-15
	-1.565043877484503e-20
	-3.293711019182231e-15
	1.391744071925007e-11
	3.095647902849331e-09
	6.681595373339335e-11
	6.175984716499052e-01

 47	4.700000000000003e-01
	-2.500079404507483e-15
	-1.877250971835890e-20
	-3.726481394212338e-15
	2.211651728210735e-11
	4.919320980901829e-09
	1.061896865222057e-10
	6.175984716536939e-01

 48	4.800000000000003e-01
	-2.385190447805857e-15
	-2.226771961984169e-20
	-4.144685272883728e-15
	3.514154977020085e-11
	7.816479731337747e-09
	1.687554011120193e-10
	6.175984716597143e-01

 49	4.900000000000003e-01
	-2.276791356444162e-15
	-2.612262382134023e-20
	-4.537400562608381e-15
	5.582690646370223e-11
	1.241771685543244e-08
	2.681595931656444e-10
	6.175984716692788e-01

 50	5.000000000000002e-01
	-2.176790090908875e-15
	-3.031740414685364e-20
	-4.897203603455009e-15
	8.866224677601737e-11
	1.972206809898172e-08
	4.260571154299454e-10
	6.175984716844723e-01

 51	5.100000000000002e-01
	-2.086180139247169e-15
	-3.482856410626700e-20
	-5.220275425671988e-15
	1.407450164537223e-10
	3.130927291361049e-08
	6.767782320920031e-10
	6.175984717085984e-01

 52	5.200000000000002e-01
	-2.005163760612318e-15
	-3.963137160765688e-20
	-5.505895810235275e-15
	2.232596360730164e-10
	4.966974870531536e-08
	1.074666040594526e-09
	6.175984717468858e-01

 53	5.300000000000002e-01
	-1.933355405201182e-15
	-4.470175604486886e-20
	-5.755631746549700e-15
	3.537426210548754e-10
	7.871063219282612e-08
	1.705537321760699e-09
	6.175984718075942e-01

 54	5.400000000000003e-01
	-1.869996804097807e-15
	-5.001757569568468e-20
	-5.972488737597889e-15
	5.594726970217440e-10
	1.245145709056076e-07
	2.704397399709844e-09
	6.175984719037166e-01

 55	5.500000000000003e-01
	-1.814141048688082e-15
	-5.555931659344986e-20
	-6.160189901363998e-15
	8.823550707253948e-10
	1.964348274631631e-07
	4.282359850615401e-09
	6.175984720555761e-01

 56	5.600000000000003e-01
	-1.764788667218410e-15
	-6.131035300545590e-20
	-6.322646656815353e-15
	1.385511474489896e-09
	3.085715349740262e-07
	6.766425694080246e-09
	6.175984722946579e-01

 57	5.700000000000003e-01
	-1.720976112514514e-15
	-6.725691095377388e-20
	-6.463617108985404e-15
	2.161152497462852e-09
	4.815116061718422e-07
	1.065556521616091e-08
	6.175984726690219e-01

 58	5.800000000000003e-01
	-1.681825528921864e-15
	-7.338785596188824e-20
	-6.586515962205472e-15
	3.337745495631189e-09
	7.437894877138045e-07
	1.669353369305245e-08
	6.175984732503469e-01

 59	5.900000000000003e-01
	-1.646566820096101e-15
	-7.969439505328190e-20
	-6.694332087813146e-15
	5.081717804069870e-09
	1.131702363441431e-06
	2.594964776745894e-08
	6.175984741417742e-01

 60	6.000000000000003e-01
	-1.614541886883287e-15
	-8.616975294245594e-20
	-6.789614882926274e-15
	7.585985462860459e-09
	1.685117796597773e-06
	3.987992378862894e-08
	6.175984754839154e-01

 61	6.100000000000003e-01
	-1.585198574987896e-15
	-9.280885835615483e-20
	-6.874499954712100e-15
	1.103847735128316e-08
	2.437092826588753e-06
	6.031630963323232e-08
	6.175984774540207e-01

 62	6.200000000000003e-01
	-1.558079519007547e-15
	-9.960805938201545e-20
	-6.950753997120569e-15
	1.557407910518022e-08
	3.398900006155323e-06
	8.932503310283382e-08
	6.175984802525550e-01

 63	6.300000000000003e-01
	-1.532809159382106e-15
	-1.065648756679793e-19
	-7.019826231900133e-15
	2.123075539521917e-08
	4.549013415036727e-06
	1.289253920984648e-07
	6.175984840762746e-01

 64	6.400000000000003e-01
	-1.509080832558283e-15
	-1.136777886684533e-19
	-7.082899155094797e-15
	2.793721019875823e-08
	5.836552358280790e-06
	1.807645059769054e-07
	6.175984890868393e-01

 65	6.500000000000004e-01
	-1.486644921129928e-15
	-1.209460675456110e-19
	-7.140934871209552e-15
	3.554057894275431e-08
	7.199281307091414e-06
	2.459056862725648e-07
	6.175984953901491e-01

 66	6.600000000000004e-01
	-1.465298484055818e-15
	-1.283696266892723e-19
	-7.194715478363778e-15
	4.385478364696327e-08
	8.583626949370909e-06
	3.248195171298733e-07
	6.175985030350996e-01

 67	6.700000000000004e-01
	-1.444876458733353e-15
	-1.359489103221821e-19
	-7.244877220675833e-15
	5.270254438477666e-08
	9.955007259987681e-06
	4.175323139942079e-07
	6.175985120275786e-01

 68	6.800000000000004e-01
	-1.425244352127755e-15
	-1.436847997744966e-19
	-7.291938782108443e-15
	6.193790860646122e-08
	1.129735119500984e-05
	5.238206957379448e-07
	6.175985223490610e-01

 69	6.900000000000004e-01
	-1.406292257499136e-15
	-1.515785394201016e-19
	-7.336324393046455e-15
	7.145146437330506e-08
	1.260734660078237e-05
	6.433698048923548e-07
	6.175985339718265e-01

 70	7.000000000000004e-01
	-1.387930006872108e-15
	-1.596316777920040e-19
	-7.378382511091763e-15
	8.116604129268730e-08
	1.388842947128832e-05
	7.758697744892186e-07
	6.175985468683105e-01

 71	7.100000000000004e-01
	-1.370083272262548e-15
	-1.678460209371131e-19
	-7.418400817462265e-15
	9.102931917372836e-08
	1.514657817726794e-05
	9.210604594447118e-07
	6.175985610154698e-01

 72	7.200000000000004e-01
	-1.352690445751088e-15
	-1.762235955798977e-19
	-7.456618197786394e-15
	1.010067215815976e-07
	1.638798989402443e-05
	1.078743888529187e-06
	6.175985763960512e-01

 73	7.300000000000004e-01
	-1.335700151085441e-15
	-1.847666201144723e-19
	-7.493234284082521e-15
	1.110757763445009e-07
	1.761805518035030e-05
	1.248780507289213e-06
	6.175985929982607e-01

 74	7.400000000000004e-01
	-1.319069262862484e-15
	-1.934774818273496e-19
	-7.528417041174098e-15
	1.212220422530517e-07
	1.884105819813042e-05
	1.431079198024031e-06
	6.175986108148351e-01

 75	7.500000000000004e-01
	-1.302761331102367e-15
	-2.023587190716803e-19
	-7.562308794540858e-15
	1.314363174166623e-07
	2.006021935371906e-05
	1.625586254021869e-06
	6.175986298419970e-01

 76	7.600000000000005e-01
	-1.286745328160787e-15
	-2.114130073736855e-19
	-7.595031021278610e-15
	1.417127843660985e-07
	2.127786655142370e-05
	1.832275546977227e-06
	6.175986500785119e-01

 77	7.700000000000005e-01
	-1.270994651163393e-15
	-2.206431486625362e-19
	-7.626688162240402e-15
	1.520478005964157e-07
	2.249563066933256e-05
	2.051140583844241e-06
	6.175986715249359e-01

 78	7.800000000000005e-01
	-1.255486326606173e-15
	-2.300520629833460e-19
	-7.657370660931431e-15
	1.624391191582841e-07
	2.371462145696654e-05
	2.282188441090589e-06
	6.175986941830270e-01

 79	7.900000000000005e-01
	-1.240200374742908e-15
	-2.396427821877578e-19
	-7.687157392065421e-15
	1.728853901316710e-07
	2.493557020790420e-05
	2.525435295796781e-06
	6.175987180553211e-01

 80	8.000000000000005e-01
	-1.225119300229838e-15
	-2.494184452030387e-19
	-7.716117608404369e-15
	1.833858433475293e-07
	2.615893902019583e-05
	2.780903213617532e-06
	6.175987431448258e-01

 81	8.100000000000005e-01
	-1.210227682570854e-15
	-2.593822945653010e-19
	-7.744312507175627e-15
	1.939400871980722e-07
	2.738500151269173e-05
	3.048617881713446e-06
	6.175987694547996e-01

 82	8.200000000000005e-01
	-1.195511845525787e-15
	-2.695376739692399e-19
	-7.771796495706340e-15
	2.045479814611393e-07
	2.861390101960822e-05
	3.328607031269217e-06
	6.175987969886061e-01

 83	8.300000000000005e-01
	-1.180959589087306e-15
	-2.798880266391899e-19
	-7.798618218834326e-15
	2.152095571819693e-07
	2.984569182241152e-05
	3.620899352889821e-06
	6.175988257496113e-01

 84	8.400000000000005e-01
	-1.166559971133934e-15
	-2.904368943678965e-19
	-7.824821397221739e-15
	2.259249664253038e-07
	3.108036798615855e-05
	3.925523758975183e-06
	6.175988557411144e-01

 85	8.500000000000005e-01
	-1.152303128619540e-15
	-3.011879171020756e-19
	-7.850445515159795e-15
	2.366944509731670e-07
	3.231788332668502e-05
	4.242508887575567e-06
	6.175988869663036e-01

 86	8.600000000000005e-01
	-1.138180130320702e-15
	-3.121448329792661e-19
	-7.875526388196727e-15
	2.475183230379304e-07
	3.355816512942874e-05
	4.571882772820456e-06
	6.175989194282268e-01

 87	8.700000000000006e-01
	-1.124182854857493e-15
	-3.233114787409406e-19
	-7.900096634459975e-15
	2.583969535999158e-07
	3.480112351820334e-05
	4.913672629455062e-06
	6.175989531297759e-01

 88	8.800000000000006e-01
	-1.110303889030835e-15
	-3.346917904626215e-19
	-7.924186068488601e-15
	2.693307655903992e-07
	3.604665782380880e-05
	5.267904715125573e-06
	6.175989880736749e-01

 89	8.900000000000006e-01
	-1.096536442559955e-15
	-3.462898045543306e-19
	-7.947822032436840e-15
	2.803202301623404e-07
	3.729466089915206e-05
	5.634604245428866e-06
	6.175990242624777e-01

 90	9.000000000000006e-01
	-1.082874276118538e-15
	-3.581096589945312e-19
	-7.971029676414707e-15
	2.913658649381201e-07
	3.854502203762364e-05
	6.013795344678332e-06
	6.175990616985658e-01

 91	9.100000000000006e-01
	-1.069311640207783e-15
	-3.701555947686334e-19
	-7.993832197306296e-15
	3.024682335331356e-07
	3.979762894638278e-05
	6.405501020818857e-06
	6.175991003841470e-01

 92	9.200000000000006e-01
	-1.055843222906215e-15
	-3.824319574892541e-19
	-8.016251043505393e-15
	3.136279459133364e-07
	4.105236908292886e-05
	6.809743156680146e-06
	6.175991403212633e-01

 93	9.300000000000006e-01
	-1.042464104930755e-15
	-3.949431991803856e-19
	-8.038306091514342e-15
	3.248456593089199e-07
	4.230913056424589e-05
	7.226542512316695e-06
	6.175991815117916e-01

 94	9.400000000000006e-01
	-1.029169720753963e-15
	-4.076938802114379e-19
	-8.060015799177312e-15
	3.361220795102882e-07
	4.356780278981378e-05
	7.655918734912087e-06
	6.175992239574495e-01

 95	9.500000000000006e-01
	-1.015955824767441e-15
	-4.206886713702981e-19
	-8.081397339392424e-15
	3.474579624382187e-07
	4.482827687345146e-05
	8.097890373893428e-06
	6.175992676597988e-01

 96	9.600000000000006e-01
	-1.002818461674915e-15
	-4.339323560670889e-19
	-8.102466717415080e-15
	3.588541159219761e-07
	4.609044594759707e-05
	8.552474899683032e-06
	6.175993126202524e-01

 97	9.700000000000006e-01
	-9.897539404519929e-16
	-4.474298326621829e-19
	-8.123238874284414e-15
	3.703114016456278e-07
	4.735420538235677e-05
	9.019688725037997e-06
	6.175993588400828e-01

 98	9.800000000000006e-01
	-9.767588113315916e-16
	-4.611861169137910e-19
	-8.143727778443077e-15
	3.818307372397959e-07
	4.861945294764017e-05
	9.499547228276856e-06
	6.175994063204202e-01

 99	9.900000000000007e-01
	-9.638298453712432e-16
	-4.752063445416621e-19
	-8.163946507252397e-15
	3.934130985069144e-07
	4.988608893699032e-05
	9.992064777922770e-06
	6.175994550622683e-01

 100	1.000000000000001e+00
	-9.509640162363273e-16
	-4.894957739044512e-19
	-8.183907319810162e-15
	4.050595217751613e-07
	5.115401626551654e-05
	1.049725475844764e-05
	6.175995050665023e-01

 101	1.010000000000001e+00
	-9.381584838957365e-16
	-5.040597887894989e-19
	-8.203621722240807e-15
