Title: ** sch_path: /home/andylithia/openmpw/project-yatsuhashi-chip1/xschem/gmid_test/nmos_test.sch
Date: Tue Jul 19 23:15:45  2022
Plotname: DC transfer characteristic
Flags: real
No. Variables: 8
No. Points: 181
Variables:
	0	v(v-sweep)	voltage
	1	@m.xm1.msky130_fd_pr__nfet_01v8[cgb]	capacitance
	2	@m.xm1.msky130_fd_pr__nfet_01v8[cgd]	capacitance
	3	@m.xm1.msky130_fd_pr__nfet_01v8[cgs]	capacitance
	4	@m.xm1.msky130_fd_pr__nfet_01v8[gds]	admittance
	5	@m.xm1.msky130_fd_pr__nfet_01v8[gm]	admittance
	6	i(@m.xm1.msky130_fd_pr__nfet_01v8[id])	current
	7	v(@m.xm1.msky130_fd_pr__nfet_01v8[vth])	voltage
Values:
 0	0.000000000000000e+00
	-5.910596078665083e-15
	-2.854406826565438e-19
	-9.085402790177915e-15
	2.268638180466303e-08
	9.615808907073303e-07
	1.099370608503563e-07
	2.529001323490899e-01

 1	1.000000000000000e-02
	-5.844110015415941e-15
	-2.928571844076332e-19
	-9.238056139758006e-15
	2.470549561428234e-08
	1.048076331487052e-06
	1.199791945288796e-07
	2.529001331738732e-01

 2	2.000000000000000e-02
	-5.778278887975638e-15
	-3.004486295428790e-19
	-9.390970849044000e-15
	2.689659786472507e-08
	1.142277767597992e-06
	1.309242588768940e-07
	2.529001340731981e-01

 3	3.000000000000000e-02
	-5.713121410030194e-15
	-3.082184472528178e-19
	-9.544082599967606e-15
	2.927337518169521e-08
	1.244879756376118e-06
	1.428527341887271e-07
	2.529001350537803e-01

 4	4.000000000000000e-02
	-5.648656015154667e-15
	-3.161701158881075e-19
	-9.697326823688187e-15
	3.185048870166298e-08
	1.356642841549228e-06
	1.558523708071877e-07
	2.529001361229473e-01

 5	5.000000000000000e-02
	-5.584900816501229e-15
	-3.243071635769738e-19
	-9.850638800692063e-15
	3.464363058005410e-08
	1.478400434092909e-06
	1.700188827745730e-07
	2.529001372887111e-01

 6	6.000000000000000e-02
	-5.521873567569589e-15
	-3.326331688708112e-19
	-1.000395376125266e-14
	3.766958241501553e-08
	1.611066468297517e-06
	1.854567140997693e-07
	2.529001385598266e-01

 7	7.000000000000001e-02
	-5.459591624174977e-15
	-3.411517614191507e-19
	-1.015720698593780e-14
	4.094627551039382e-08
	1.755643917753577e-06
	2.022798858110174e-07
	2.529001399458725e-01

 8	8.000000000000000e-02
	-5.398071907724260e-15
	-3.498666226753568e-19
	-1.031033390585071e-14
	4.449285288399846e-08
	1.913234263056598e-06
	2.206129328463923e-07
	2.529001414573308e-01

 9	9.000000000000000e-02
	-5.337330869905484e-15
	-3.587814866343584e-19
	-1.046327020229215e-14
	4.832973290863007e-08
	2.085048010182889e-06
	2.405919407877426e-07
	2.529001431056828e-01

 10	9.999999999999999e-02
	-5.277384458890685e-15
	-3.679001406036317e-19
	-1.061595190553347e-14
	5.247867445381610e-08
	2.272416365565242e-06
	2.623656934688233e-07
	2.529001449035033e-01

 11	1.100000000000000e-01
	-5.218248087145116e-15
	-3.772264260086745e-19
	-1.076831549239505e-14
	5.696284337574009e-08
	2.476804180739480e-06
	2.860969435830041e-07
	2.529001468645943e-01

 12	1.200000000000000e-01
	-5.159936600929542e-15
	-3.867642392345188e-19
	-1.092029798233126e-14
	6.180688018160637e-08
	2.699824285848633e-06
	3.119638195772679e-07
	2.529001490040865e-01

 13	1.300000000000000e-01
	-5.102464251575066e-15
	-3.965175325041704e-19
	-1.107183703172846e-14
	6.703696867258391e-08
	2.943253337046634e-06
	3.401613833411313e-07
	2.529001513386000e-01

 14	1.400000000000000e-01
	-5.045844668602018e-15
	-4.064903147954878e-19
	-1.122287102613396e-14
	7.268090534680610e-08
	3.209049307677743e-06
	3.709033544747973e-07
	2.529001538863939e-01

 15	1.500000000000000e-01
	-4.990090834746960e-15
	-4.166866527976892e-19
	-1.137333917014247e-14
	7.876816932053058e-08
	3.499370756705440e-06
	4.044240182384105e-07
	2.529001566675499e-01

 16	1.600000000000000e-01
	-4.935215062952993e-15
	-4.271106719087263e-19
	-1.152318157467972e-14
	8.532999250175162e-08
	3.816598009880711e-06
	4.409803356306024e-07
	2.529001597041511e-01

 17	1.700000000000000e-01
	-4.881228975370832e-15
	-4.377665572746857e-19
	-1.167233934143408e-14
	9.239942972625793e-08
	4.163356389174605e-06
	4.808542754009621e-07
	2.529001630205190e-01

 18	1.800000000000000e-01
	-4.828143484408691e-15
	-4.486585548724959e-19
	-1.182075464420369e-14
	1.000114285415913e-07
	4.542541623623099e-06
	5.243553891467768e-07
	2.529001666434407e-01

 19	1.900000000000000e-01
	-4.775968775860936e-15
	-4.597909726371498e-19
	-1.196837080693936e-14
	1.082028982994888e-07
	4.957347569453808e-06
	5.718236519514522e-07
	2.529001706024401e-01

 20	2.000000000000000e-01
	-4.724714294136060e-15
	-4.711681816345436e-19
	-1.211513237828160e-14
	1.170127781924747e-07
	5.411296358672609e-06
	6.236325922602206e-07
	2.529001749300801e-01

 21	2.100000000000000e-01
	-4.674388729596161e-15
	-4.827946172811746e-19
	-1.226098520240629e-14
	1.264821038453116e-07
	5.908271082622737e-06
	6.801927358203610e-07
	2.529001796622825e-01

 22	2.200000000000001e-01
	-4.625000008011185e-15
	-4.946747806118711e-19
	-1.240587648601129e-14
	1.366540720470794e-07
	6.452551099802960e-06
	7.419553894955016e-07
	2.529001848387042e-01

 23	2.300000000000001e-01
	-4.576555282122446e-15
	-5.068132395965350e-19
	-1.254975486129512e-14
	1.475741031850407e-07
	7.048850034846176e-06
	8.094167915488698e-07
	2.529001905031291e-01

 24	2.400000000000001e-01
	-4.529060925301741e-15
	-5.192146305073025e-19
	-1.269257044479709e-14
	1.592899009169938e-07
	7.702356507388118e-06
	8.831226555224605e-07
	2.529001967039266e-01

 25	2.500000000000001e-01
	-4.482522527283776e-15
	-5.318836593369910e-19
	-1.283427489198825e-14
	1.718515085949888e-07
	8.418777595003034e-06
	9.636731350589370e-07
	2.529002034945301e-01

 26	2.600000000000001e-01
	-4.436944891942205e-15
	-5.448251032700465e-19
	-1.297482144752056e-14
	1.853113619298579e-07
	9.204384992844000e-06
	1.051728236851687e-06
	2.529002109339840e-01

 27	2.700000000000001e-01
	-4.392332037071253e-15
	-5.580438122071716e-19
	-1.311416499106272e-14
	1.997243373635113e-07
	1.006606378357448e-05
	1.148013708295364e-06
	2.529002190875427e-01

 28	2.800000000000001e-01
	-4.348687196128247e-15
	-5.715447103444219e-19
	-1.325226207866933e-14
	2.151477955942978e-07
	1.101136367412731e-05
	1.253327425265359e-06
	2.529002280273139e-01

 29	2.900000000000001e-01
	-4.306012821885142e-15
	-5.853327978083962e-19
	-1.338907097964955e-14
	2.316416196801917e-07
	1.204855249040339e-05
	1.368546303698152e-06
	2.529002378329805e-01

 30	3.000000000000001e-01
	-4.264310591930733e-15
	-5.994131523479537e-19
	-1.352455170892080e-14
	2.492682471255296e-07
	1.318667164698324e-05
	1.494633756191373e-06
	2.529002485925758e-01

 31	3.100000000000001e-01
	-4.223581415959472e-15
	-6.137909310840607e-19
	-1.365866605485070e-14
	2.680926953395026e-07
	1.443559322617852e-05
	1.632647711604282e-06
	2.529002604033324e-01

 32	3.200000000000001e-01
	-4.183825444777122e-15
	-6.284713723185816e-19
	-1.379137760260920e-14
	2.881825798391339e-07
	1.580607820942536e-05
	1.783749211530743e-06
	2.529002733726161e-01

 33	3.300000000000001e-01
	-4.145042080948463e-15
	-6.434597974031297e-19
	-1.392265175307016e-14
	3.096081245563802e-07
	1.730983530448735e-05
	1.949211592453545e-06
	2.529002876189119e-01

 34	3.400000000000001e-01
	-4.107229991008191e-15
	-6.587616126691749e-19
	-1.405245573731734e-14
	3.324421635984555e-07
	1.895957970483084e-05
	2.130430256290104e-06
	2.529003032729201e-01

 35	3.500000000000001e-01
	-4.070387119151673e-15
	-6.743823114202581e-19
	-1.418075862682752e-14
	3.567601338034528e-07
	2.076909100387412e-05
	2.328933024837626e-06
	2.529003204787110e-01

 36	3.600000000000002e-01
	-4.034510702319631e-15
	-6.903274759877627e-19
	-1.430753133941604e-14
	3.826400574297281e-07
	2.275326936791428e-05
	2.546391065257197e-06
	2.529003393949887e-01

 37	3.700000000000002e-01
	-3.999597286586997e-15
	-7.066027798509695e-19
	-1.443274664104692e-14
	4.101625143185485e-07
	2.492818894920241e-05
	2.784630364161480e-06
	2.529003601964179e-01

 38	3.800000000000002e-01
	-3.965642744765101e-15
	-7.232139898228250e-19
	-1.455637914362008e-14
	4.394106028752589e-07
	2.731114739704374e-05
	3.045643717061898e-06
	2.529003830750659e-01

 39	3.900000000000002e-01
	-3.932642295123631e-15
	-7.401669683024178e-19
	-1.467840529886244e-14
	4.704698892259614e-07
	2.992071020264447e-05
	3.331603187893025e-06
	2.529004082419069e-01

 40	4.000000000000002e-01
	-3.900590521138117e-15
	-7.574676755953136e-19
	-1.479880338845964e-14
	5.034283439247072e-07
	3.277674849582929e-05
	3.644872980089670e-06
	2.529004359284303e-01

 41	4.100000000000002e-01
	-3.869481392168046e-15
	-7.751221723030377e-19
	-1.491755351057494e-14
	5.383762656116430e-07
	3.590046880235721e-05
	3.988022646313185e-06
	2.529004663883207e-01

 42	4.200000000000002e-01
	-3.839308284970209e-15
	-7.931366217828030e-19
	-1.503463756291139e-14
	5.754061910562543e-07
	3.931443317342729e-05
	4.363840548507311e-06
	2.529004998992240e-01

 43	4.300000000000002e-01
	-3.810064005952542e-15
	-8.115172926787560e-19
	-1.515003922248052e-14
	6.146127910625355e-07
	4.304256801858222e-05
	4.775347463656580e-06
	2.529005367645763e-01

 44	4.400000000000002e-01
	-3.781740814074174e-15
	-8.302705615260664e-19
	-1.526374392224761e-14
	6.560927517657955e-07
	4.711015991441643e-05
	5.225810213613085e-06
	2.529005773154920e-01

 45	4.500000000000002e-01
	-3.754330444298929e-15
	-8.494029154290749e-19
	-1.537573882482883e-14
	6.999446409144721e-07
	5.154383662935824e-05
	5.718755179891162e-06
	2.529006219127004e-01

 46	4.600000000000002e-01
	-3.727824131510712e-15
	-8.689209548148191e-19
	-1.548601279342041e-14
	7.462687588060333e-07
	5.637153160455098e-05
	6.257981546698158e-06
	2.529006709485292e-01

 47	4.700000000000003e-01
	-3.702212634801636e-15
	-8.888313962635101e-19
	-1.559455636014270e-14
	7.951669736342809e-07
	6.162243016771151e-05
	6.847574098018850e-06
	2.529007248488792e-01

 48	4.800000000000003e-01
	-3.677486262045533e-15
	-9.091410754170133e-19
	-1.570136169198518e-14
	8.467425411069460e-07
	6.732689583577652e-05
	7.491915377693787e-06
	2.529007840752139e-01

 49	4.900000000000003e-01
	-3.653634894672713e-15
	-9.298569499671844e-19
	-1.580642255453845e-14
	9.010999083080557e-07
	7.351637518781269e-05
	8.195697005579689e-06
	2.529008491264954e-01

 50	5.000000000000002e-01
	-3.630648012564260e-15
	-9.509861027252690e-19
	-1.590973427370097e-14
	9.583445019092845e-07
	8.022327996598570e-05
	8.963929928532912e-06
	2.529009205410924e-01

 51	5.100000000000002e-01
	-3.608514718987613e-15
	-9.725357447740537e-19
	-1.601129369554653e-14
	1.018582500978757e-06
	8.748084529250515e-05
	9.801953372646936e-06
	2.529009988985713e-01

 52	5.200000000000002e-01
	-3.587223765498353e-15
	-9.945132187043626e-19
	-1.611109914453808e-14
	1.081920594794094e-06
	9.532296317629242e-05
	1.071544225344302e-05
	2.529010848213764e-01

 53	5.300000000000002e-01
	-3.566763576736905e-15
	-1.016926001937464e-18
	-1.620915038027015e-14
	1.148465726238386e-06
	1.037839908252481e-04
	1.171041279412637e-05
	2.529011789763432e-01

 54	5.400000000000003e-01
	-3.547122275052478e-15
	-1.039781710135298e-18
	-1.630544855292000e-14
	1.218324821542625e-06
	1.128985336773416e-04
	1.279322609913786e-05
	2.529012820760179e-01

 55	5.500000000000003e-01
	-3.528287704890225e-15
	-1.063088100700097e-18
	-1.639999615758362e-14
	1.291604507333755e-06
	1.227012035133152e-04
	1.397058943158824e-05
	2.529013948797153e-01

 56	5.600000000000003e-01
	-3.510247456882140e-15
	-1.086853076365120e-18
	-1.649279698766788e-14
	1.368410816152969e-06
	1.332263525106340e-04
	1.524955494926327e-05
	2.529015181943164e-01

 57	5.700000000000003e-01
	-3.492988891585316e-15
	-1.111084688878981e-18
	-1.658385608750633e-14
	1.448848881820842e-06
	1.445077846352019e-04
	1.663751566516946e-05
	2.529016528747050e-01

 58	5.800000000000003e-01
	-3.476499162816256e-15
	-1.135791142784579e-18
	-1.667317970435939e-14
	1.533022626242040e-06
	1.565784463348791e-04
	1.814219841540479e-05
	2.529017998238386e-01

 59	5.900000000000003e-01
	-3.460765240533080e-15
	-1.160980799295730e-18
	-1.676077523995487e-14
	1.621034439458732e-06
	1.694700990853838e-04
	1.977165363974184e-05
	2.529019599923973e-01

 60	6.000000000000003e-01
	-3.445773933222294e-15
	-1.186662180272600e-18
	-1.684665120171794e-14
	1.712984854974857e-06
	1.832129769309903e-04
	2.153424180881964e-05
	2.529021343779699e-01

 61	6.100000000000003e-01
	-3.431511909750103e-15
	-1.212843972298928e-18
	-1.693081715383338e-14
	1.808972222578198e-06
	1.978354327440440e-04
	2.343861636623589e-05
	2.529023240237256e-01

 62	6.200000000000003e-01
	-3.417965720642988e-15
	-1.239535030862544e-18
	-1.701328366827571e-14
	1.909092381079220e-06
	2.133635774815678e-04
	2.549370309391766e-05
	2.529025300165662e-01

 63	6.300000000000003e-01
	-3.405121818765385e-15
	-1.266744384642177e-18
	-1.709406227593627e-14
	2.013438333559786e-06
	2.298209172261810e-04
	2.770867585457696e-05
	2.529027534846934e-01

 64	6.400000000000003e-01
	-3.392966579366823e-15
	-1.294481239902233e-18
	-1.717316541796866e-14
	2.122099927875427e-06
	2.472279932434054e-04
	3.009292871525512e-05
	2.529029955946165e-01

 65	6.500000000000004e-01
	-3.381486319473973e-15
	-1.322754984999082e-18
	-1.725060639746720e-14
	2.235163545277643e-06
	2.656020306500759e-04
	3.265604451022884e-05
	2.529032575475219e-01

 66	6.600000000000004e-01
	-3.370667316607335e-15
	-1.351575194999683e-18
	-1.732639933158460e-14
	2.352711800110694e-06
	2.849566015511084e-04
	3.540775995892323e-05
	2.529035405751004e-01

 67	6.700000000000004e-01
	-3.360495826804948e-15
	-1.380951636417242e-18
	-1.740055910418951e-14
	2.474823253589042e-06
	3.053013086489780e-04
	3.835792751395029e-05
	2.529038459347171e-01

 68	6.800000000000004e-01
	-3.350958101939642e-15
	-1.410894272065039e-18
	-1.747310131915524e-14
	2.601572144668343e-06
	3.266414953478248e-04
	4.151647417463132e-05
	2.529041749040629e-01

 69	6.900000000000004e-01
	-3.342040406319032e-15
	-1.441413266031729e-18
	-1.754404225436530e-14
	2.733028140986335e-06
	3.489779882525807e-04
	4.489335756113473e-05
	2.529045287752408e-01

 70	7.000000000000004e-01
	-3.333729032560531e-15
	-1.472518988781633e-18
	-1.761339881651366e-14
	2.869256112763347e-06
	3.723068776958830e-04
	4.849851960214216e-05
	2.529049088483522e-01

 71	7.100000000000004e-01
	-3.326010316736879e-15
	-1.504222022381805e-18
	-1.768118849677019e-14
	3.010315932416308e-06
	3.966193415100701e-04
	5.234183824331580e-05
	2.529053164246653e-01

 72	7.200000000000004e-01
	-3.318870652789919e-15
	-1.536533165860395e-18
	-1.774742932737618e-14
	3.156262302455132e-06
	4.219015167010146e-04
	5.643307763331814e-05
	2.529057527993876e-01

 73	7.300000000000004e-01
	-3.312296506213290e-15
	-1.569463440698237e-18
	-1.781213983922682e-14
	3.307144613995239e-06
	4.481344229824455e-04
	6.078183728726563e-05
	2.529062192541551e-01

 74	7.400000000000004e-01
	-3.306274427007009e-15
	-1.603024096458115e-18
	-1.787533902049208e-14
	3.463006837940023e-06
	4.752939413069200e-04
	6.539750076302653e-05
	2.529067170493248e-01

 75	7.500000000000004e-01
	-3.300791061908717e-15
	-1.637226616554479e-18
	-1.793704627632117e-14
	3.623887450563812e-06
	5.033508495999666e-04
	7.028918441249015e-05
	2.529072474161391e-01

 76	7.600000000000005e-01
	-3.295833165909349e-15
	-1.672082724167404e-18
	-1.799728138966897e-14
	3.789819394865831e-06
	5.322709168893917e-04
	7.546568678690473e-05
	2.529078115488952e-01

 77	7.700000000000005e-01
	-3.291387613061732e-15
	-1.707604388305139e-18
	-1.805606448327871e-14
	3.960830078674672e-06
	5.620150559478214e-04
	8.093543928187360e-05
	2.529084105971980e-01

 78	7.800000000000005e-01
	-3.287441406593319e-15
	-1.743803830018248e-18
	-1.811341598284790e-14
	4.136941410068321e-06
	5.925395334618294e-04
	8.670645860315863e-05
	2.529090456584379e-01

 79	7.900000000000005e-01
	-3.283981688335208e-15
	-1.780693528770099e-18
	-1.816935658140127e-14
	4.318169870245393e-06
	6.237962356359025e-04
	9.278630161893593e-05
	2.529097177705499e-01

 80	8.000000000000005e-01
	-3.280995747481286e-15
	-1.818286228968532e-18
	-1.822390720488786e-14
	4.504526623546556e-06
	6.557329860647646e-04
	9.918202313768395e-05
	2.529104279052004e-01

 81	8.100000000000005e-01
	-3.278471028692639e-15
	-1.856594946661334e-18
	-1.827708897901594e-14
	4.696017663891812e-06
	6.882939116941059e-04
	1.059001371139849e-04
	2.529111769614873e-01

 82	8.200000000000005e-01
	-3.276395139563219e-15
	-1.895632976403077e-18
	-1.832892319733469e-14
	4.892643996477562e-06
	7.214198517661484e-04
	1.129465817379093e-04
	2.529119657602114e-01

 83	8.300000000000005e-01
	-3.274755857464055e-15
	-1.935413898295450e-18
	-1.837943129056729e-14
	5.094401853174965e-06
	7.550488038386004e-04
	1.203266888083506e-04
	2.529127950388430e-01

 84	8.400000000000005e-01
	-3.273541135783931e-15
	-1.975951585208707e-18
	-1.842863479719632e-14
	5.301282939698776e-06
	7.891164002959191e-04
	1.280451577280124e-04
	2.529136654472183e-01

 85	8.500000000000005e-01
	-3.272739109585235e-15
	-2.017260210187558e-18
	-1.847655533529902e-14
	5.513274712278130e-06
	8.235564082575546e-04
	1.361060343891525e-04
	2.529145775440289e-01

 86	8.600000000000005e-01
	-3.272338100694232e-15
	-2.059354254049085e-18
	-1.852321457562625e-14
	5.730360681265807e-06
	8.583012454413175e-04
	1.445126951462883e-04
	2.529155317941448e-01

 87	8.700000000000006e-01
	-3.272326622245599e-15
	-2.102248513177393e-18
	-1.856863421591584e-14
	5.952520738874904e-06
	8.932825043678129e-04
	1.532678359966180e-04
	2.529165285667733e-01

 88	8.800000000000006e-01
	-3.272693382701296e-15
	-2.145958107521488e-18
	-1.861283595642830e-14
	6.179731508034162e-06
	9.284314772943793e-04
	1.623734670125794e-04
	2.529175681345122e-01

 89	8.900000000000006e-01
	-3.273427289364255e-15
	-2.190498488803367e-18
	-1.865584147669029e-14
	6.411966709210822e-06
	9.636796744399201e-04
	1.718309119956283e-04
	2.529186506732370e-01

 90	9.000000000000006e-01
	-3.274517451407243e-15
	-2.235885448942490e-18
	-1.869767241342824e-14
	6.649197541959282e-06
	9.989593283943382e-04
	1.816408132474470e-04
	2.529197762628186e-01

 91	9.100000000000006e-01
	-3.275953182437895e-15
	-2.282135128703843e-18
	-1.873835033967307e-14
	6.891393077918119e-06
	1.034203878083754e-03
	1.918031412860413e-04
	2.529209448886657e-01

 92	9.200000000000006e-01
	-3.277724002620302e-15
	-2.329264026577285e-18
	-1.877789674501393e-14
	7.138520661994383e-06
	1.069348426266342e-03
	2.023172092709024e-04
	2.529221564440122e-01

 93	9.300000000000006e-01
	-3.279819640373788e-15
	-2.377289007895036e-18
	-1.881633301697806e-14
	7.390546318538382e-06
	1.104330165241419e-03
	2.131816918446722e-04
	2.529234107328933e-01

 94	9.400000000000006e-01
	-3.282230033669523e-15
	-2.426227314196073e-18
	-1.885368042351144e-14
	7.647435159421196e-06
	1.139088766242498e-03
	2.243946480495270e-04
	2.529247074737951e-01

 95	9.500000000000006e-01
	-3.284945330944917e-15
	-2.476096572844391e-18
	-1.888996009653385e-14
	7.909151791077954e-06
	1.173566728828923e-03
	2.359535479355294e-04
	2.529260463038385e-01

 96	9.600000000000006e-01
	-3.287955891656070e-15
	-2.526914806910810e-18
	-1.892519301654047e-14
	8.175660717763073e-06
	1.207709687464462e-03
	2.478553024457475e-04
	2.529274267834718e-01

 97	9.700000000000006e-01
	-3.291252286487727e-15
	-2.578700445326237e-18
	-1.895939999822129e-14
	8.446926738477335e-06
	1.241466673351468e-03
	2.600962961393707e-04
	2.529288484015677e-01

 98	9.800000000000006e-01
	-3.294825297240299e-15
	-2.631472333315212e-18
	-1.899260167706848e-14
	8.722915335262678e-06
	1.274790330452733e-03
	2.726724222991549e-04
	2.529303105808708e-01

 99	9.900000000000007e-01
	-3.298665916412623e-15
	-2.685249743119549e-18
	-1.902481849694104e-14
	9.003593050814152e-06
	1.307637085460014e-03
	2.855791199631698e-04
	2.529318126836683e-01

 100	1.000000000000001e+00
	-3.302765346499292e-15
	-2.740052385021055e-18
	-1.905607069855576e-14
	9.288927853621629e-06
	1.339967272240074e-03
	2.988114124223555e-04
	2.529333540176705e-01

 101	1.010000000000001e+00
	-3.307114999020313e-15
	-2.795900418673447e-18
	-1.908637830887281e-14
