Title: ** sch_path: /home/andylithia/openmpw/project-yatsuhashi-chip1/xschem/gmid_test/nmos_test.sch
Date: Sun Jul 17 22:51:45  2022
Plotname: DC transfer characteristic
Flags: real
No. Variables: 8
No. Points: 181
Variables:
	0	v(v-sweep)	voltage
	1	@m.xm1.msky130_fd_pr__nfet_01v8[cgb]	capacitance
	2	@m.xm1.msky130_fd_pr__nfet_01v8[cgd]	capacitance
	3	@m.xm1.msky130_fd_pr__nfet_01v8[cgs]	capacitance
	4	@m.xm1.msky130_fd_pr__nfet_01v8[gds]	admittance
	5	@m.xm1.msky130_fd_pr__nfet_01v8[gm]	admittance
	6	i(@m.xm1.msky130_fd_pr__nfet_01v8[id])	current
	7	v(@m.xm1.msky130_fd_pr__nfet_01v8[vth])	voltage
Values:
 0	0.000000000000000e+00
	-9.292373033409584e-15
	-4.031171971893677e-18
	-1.690740226167791e-14
	3.804438815451532e-08
	1.247095886361906e-06
	1.555496313275025e-07
	2.066465133926738e-01

 1	1.000000000000000e-02
	-9.190633901955674e-15
	-4.141221322557027e-18
	-1.714634502527432e-14
	4.108197860399023e-08
	1.350615865787297e-06
	1.685312357281660e-07
	2.066465149256422e-01

 2	2.000000000000000e-02
	-9.090152818469730e-15
	-4.254331125339832e-18
	-1.738507355109850e-14
	4.435022017522816e-08
	1.462833107934768e-06
	1.825909165474158e-07
	2.066465165859275e-01

 3	3.000000000000000e-02
	-8.990951498871033e-15
	-4.370589401566759e-18
	-1.762350236783506e-14
	4.786534694943162e-08
	1.584511962865273e-06
	1.978194102249240e-07
	2.066465183842452e-01

 4	4.000000000000000e-02
	-8.893051046356581e-15
	-4.490086883576083e-18
	-1.786154638719737e-14
	5.164460671327820e-08
	1.716489579493686e-06
	2.143154547092511e-07
	2.066465203322568e-01

 5	5.000000000000000e-02
	-8.796471911499767e-15
	-4.612917107357224e-18
	-1.809912101313081e-14
	5.570631238299862e-08
	1.859683416852217e-06
	2.321865543701683e-07
	2.066465224426632e-01

 6	6.000000000000000e-02
	-8.701233854171715e-15
	-4.739176508729073e-18
	-1.833614224971386e-14
	6.006989506893801e-08
	2.015099542042707e-06
	2.515498238965614e-07
	2.066465247292928e-01

 7	7.000000000000001e-02
	-8.607355907367087e-15
	-4.868964523208621e-18
	-1.857252680747817e-14
	6.475595876603696e-08
	2.183841788424673e-06
	2.725329194103674e-07
	2.066465272072252e-01

 8	8.000000000000000e-02
	-8.514856343009782e-15
	-5.002383689727698e-18
	-1.880819220787700e-14
	6.978633665165011e-08
	2.367121852192142e-06
	2.952750657856875e-07
	2.066465298929115e-01

 9	9.000000000000000e-02
	-8.423752639806915e-15
	-5.139539758361187e-18
	-1.904305688563833e-14
	7.518414896818224e-08
	2.566270409961768e-06
	3.199281899661103e-07
	2.066465328042907e-01

 10	9.999999999999999e-02
	-8.334061453212892e-15
	-5.280541802237283e-18
	-1.927704028874550e-14
	8.097386246424041e-08
	2.782749344233713e-06
	3.466581709207551e-07
	2.066465359609613e-01

 11	1.100000000000000e-01
	-8.245798587557037e-15
	-5.425502333811194e-18
	-1.951006297580225e-14
	8.718135136452674e-08
	3.018165167487441e-06
	3.756462177682338e-07
	2.066465393843240e-01

 12	1.200000000000000e-01
	-8.158978970381669e-15
	-5.574537425689135e-18
	-1.974204671054501e-14
	9.383395983531138e-08
	3.274283739102229e-06
	4.070903885224409e-07
	2.066465430977808e-01

 13	1.300000000000000e-01
	-8.073616629029017e-15
	-5.727766836199260e-18
	-1.997291455328108e-14
	1.009605659094206e-07
	3.553046372112328e-06
	4.412072628709786e-07
	2.066465471269172e-01

 14	1.400000000000000e-01
	-7.989724669507820e-15
	-5.885314139916550e-18
	-2.020259094904102e-14
	1.085916468319117e-07
	3.856587428844983e-06
	4.782337833775274e-07
	2.066465514997209e-01

 15	1.500000000000000e-01
	-7.907315257662550e-15
	-6.047306863355922e-18
	-2.043100181224815e-14
	1.167593457853586e-07
	4.187253505572649e-06
	5.184292804963134e-07
	2.066465562468305e-01

 16	1.600000000000000e-01
	-7.826399602659901e-15
	-6.213876626060543e-18
	-2.065807460772257e-14
	1.254975399517501e-07
	4.547624306231454e-06
	5.620776977885941e-07
	2.066465614017915e-01

 17	1.700000000000000e-01
	-7.746987942799637e-15
	-6.385159287321516e-18
	-2.088373842785105e-14
	1.348419098665346e-07
	4.940535303794619e-06
	6.094900347252553e-07
	2.066465670013466e-01

 18	1.800000000000000e-01
	-7.669089533648575e-15
	-6.561295098777073e-18
	-2.110792406576981e-14
	1.448300100193570e-07
	5.369102284802315e-06
	6.610070254313088e-07
	2.066465730857545e-01

 19	1.900000000000000e-01
	-7.592712638489091e-15
	-6.742428863150651e-18
	-2.133056408442291e-14
	1.555013406555444e-07
	5.836747867576074e-06
	7.170020726596184e-07
	2.066465796991331e-01

 20	2.000000000000000e-01
	-7.517864521065362e-15
	-6.928710099399562e-18
	-2.155159288137548e-14
	1.668974207324440e-07
	6.347230077508210e-06
	7.778844571522972e-07
	2.066465868898394e-01

 21	2.100000000000000e-01
	-7.444551440603799e-15
	-7.120293214560490e-18
	-2.177094674927646e-14
	1.790618619853450e-07
	6.904673053220993e-06
	8.441028433358660e-07
	2.066465947108907e-01

 22	2.200000000000001e-01
	-7.372778649076062e-15
	-7.317337682589791e-18
	-2.198856393188364e-14
	1.920404440590079e-07
	7.513599945031249e-06
	9.161491029745697e-07
	2.066466032204032e-01

 23	2.300000000000001e-01
	-7.302550390666816e-15
	-7.520008230511769e-18
	-2.220438467557853e-14
	2.058811906626316e-07
	8.178968051710419e-06
	9.945624789450258e-07
	2.066466124820992e-01

 24	2.400000000000001e-01
	-7.233869903401122e-15
	-7.728475032204468e-18
	-2.241835127631726e-14
	2.206344467088236e-07
	8.906206222688835e-06
	1.079934111663870e-06
	2.066466225658368e-01

 25	2.500000000000001e-01
	-7.166739422880219e-15
	-7.942913910166265e-18
	-2.263040812197913e-14
	2.363529564004715e-07
	9.701254530283090e-06
	1.172911950860854e-06
	2.066466335481795e-01

 26	2.600000000000001e-01
	-7.101160188068856e-15
	-8.163506545623928e-18
	-2.284050173008997e-14
	2.530919422336089e-07
	1.057060618992079e-05
	1.274206075304855e-06
	2.066466455130521e-01

 27	2.700000000000001e-01
	-7.037132449070524e-15
	-8.390440697364644e-18
	-2.304858078091674e-14
	2.709091848896704e-07
	1.152135167541117e-05
	1.384594442718960e-06
	2.066466585523895e-01

 28	2.800000000000001e-01
	-6.974655476823171e-15
	-8.623910429683713e-18
	-2.325459614594129e-14
	2.898651039965080e-07
	1.256122494076806e-05
	1.504929091414767e-06
	2.066466727668935e-01

 29	2.900000000000001e-01
	-6.913727574642126e-15
	-8.864116349870189e-18
	-2.345850091174018e-14
	3.100228397451045e-07
	1.369865161974033e-05
	1.636142814093452e-06
	2.066466882668110e-01

 30	3.000000000000001e-01
	-6.854346091532872e-15
	-9.111265855665299e-18
	-2.366025039931008e-14
	3.314483353573812e-07
	1.494279902882425e-05
	1.779256322747265e-06
	2.066467051727849e-01

 31	3.100000000000001e-01
	-6.796507437192467e-15
	-9.365573393153478e-18
	-2.385980217889404e-14
	3.542104204106652e-07
	1.630362774903706e-05
	1.935385921603230e-06
	2.066467236167636e-01

 32	3.200000000000001e-01
	-6.740207098614743e-15
	-9.627260725568992e-18
	-2.405711608037613e-14
	3.783808950361495e-07
	1.779194450606850e-05
	2.105751702527354e-06
	2.066467437429629e-01

 33	3.300000000000001e-01
	-6.685439658211673e-15
	-9.896557213522110e-18
	-2.425215419932610e-14
	4.040346150222780e-07
	1.941945600766591e-05
	2.291686274201286e-06
	2.066467657089137e-01

 34	3.400000000000001e-01
	-6.632198813360140e-15
	-1.017370010718057e-17
	-2.444488089878781e-14
	4.312495778699374e-07
	2.119882333143292e-05
	2.494644032645514e-06
	2.066467896865425e-01

 35	3.500000000000001e-01
	-6.580477397281905e-15
	-1.045893485095896e-17
	-2.463526280691599e-14
	4.601070098644978e-07
	2.314371638592722e-05
	2.716210976242905e-06
	2.066468158633385e-01

 36	3.600000000000002e-01
	-6.530267401162621e-15
	-1.075251540130653e-17
	-2.482326881057689e-14
	4.906914542511146e-07
	2.526886789352054e-05
	2.958115063273513e-06
	2.066468444435875e-01

 37	3.700000000000002e-01
	-6.481559997414210e-15
	-1.105470455820723e-17
	-2.500887004503934e-14
	5.230908606240694e-07
	2.759012626555675e-05
	3.222237104065372e-06
	2.066468756496519e-01

 38	3.800000000000002e-01
	-6.434345563984638e-15
	-1.136577431103999e-17
	-2.519203987988973e-14
	5.573966756691576e-07
	3.012450665974048e-05
	3.510622173165123e-06
	2.066469097233218e-01

 39	3.900000000000002e-01
	-6.388613709618555e-15
	-1.168600619947775e-17
	-2.537275390131457e-14
	5.937039354306636e-07
	3.289023942746311e-05
	3.825491519417333e-06
	2.066469469272240e-01

 40	4.000000000000002e-01
	-6.344353299972444e-15
	-1.201569169013953e-17
	-2.555098989089946e-14
	6.321113593117915e-07
	3.590681507616064e-05
	4.169254943499339e-06
	2.066469875462960e-01

 41	4.100000000000002e-01
	-6.301552484487890e-15
	-1.235513256974816e-17
	-2.572672780110259e-14
	6.727214460604118e-07
	3.919502479031850e-05
	4.544523603296199e-06
	2.066470318892880e-01

 42	4.200000000000002e-01
	-6.260198723928378e-15
	-1.270464135558061e-17
	-2.589994972756292e-14
	7.156405720411052e-07
	4.277699547607569e-05
	4.954123197532648e-06
	2.066470802903284e-01

 43	4.300000000000002e-01
	-6.220278818485114e-15
	-1.306454172404036e-17
	-2.607063987841059e-14
	7.609790921506718e-07
	4.667621822054449e-05
	5.401107467349391e-06
	2.066471331105281e-01

 44	4.400000000000002e-01
	-6.181778936359846e-15
	-1.343516895822564e-17
	-2.623878454074960e-14
	8.088514437986225e-07
	5.091756899012415e-05
	5.888771944076012e-06
	2.066471907395983e-01

 45	4.500000000000002e-01
	-6.144684642733866e-15
	-1.381687041540891e-17
	-2.640437204448596e-14
	8.593762544468727e-07
	5.552732033462861e-05
	6.420667859390813e-06
	2.066472535974976e-01

 46	4.600000000000002e-01
	-6.108980929034823e-15
	-1.421000601539060e-17
	-2.656739272367634e-14
	9.126764532859703e-07
	6.053314281863789e-05
	7.000616121484865e-06
	2.066473221360913e-01

 47	4.700000000000003e-01
	-6.074652242415292e-15
	-1.461494875074513e-17
	-2.672783887557438e-14
	9.688793877186368e-07
	6.596409487078599e-05
	7.632721247886917e-06
	2.066473968407891e-01

 48	4.800000000000003e-01
	-6.041682515359881e-15
	-1.503208522001833e-17
	-2.688570471755087e-14
	1.028116945427103e-06
	7.185059972864141e-05
	8.321385132427312e-06
	2.066474782321878e-01

 49	4.900000000000003e-01
	-6.010055195339899e-15
	-1.546181618500583e-17
	-2.704098634206578e-14
	1.090525682919485e-06
	7.822440816430443e-05
	9.071320510611710e-06
	2.066475668676463e-01

 50	5.000000000000002e-01
	-5.979753274438944e-15
	-1.590455715328594e-17
	-2.719368166986666e-14
	1.156246961583001e-06
	8.511854570669247e-05
	9.887563974654043e-06
	2.066476633428384e-01

 51	5.100000000000002e-01
	-5.950759318874183e-15
	-1.636073898725032e-17
	-2.734379040158941e-14
	1.225427092420323e-06
	9.256724313356704e-05
	1.077548837684226e-05
	2.066477682932092e-01

 52	5.200000000000002e-01
	-5.923055498343475e-15
	-1.683080854093788e-17
	-2.749131396793187e-14
	1.298217490809588e-06
	1.006058490921532e-04
	1.174081444804166e-05
	2.066478823953497e-01

 53	5.300000000000002e-01
	-5.896623615130366e-15
	-1.731522932604469e-17
	-2.763625547857059e-14
	1.374774842810895e-06
	1.092707238240843e-04
	1.278962144729166e-05
	2.066480063682592e-01

 54	5.400000000000003e-01
	-5.871445132903306e-15
	-1.781448220855627e-17
	-2.777861966998660e-14
	1.455261284742555e-06
	1.185991131201455e-04
	1.392835664893381e-05
	2.066481409744513e-01

 55	5.500000000000003e-01
	-5.847501205149441e-15
	-1.832906613752000e-17
	-2.791841285236157e-14
	1.539844597970233e-06
	1.286290018142330e-04
	1.516384346586032e-05
	2.066482870209277e-01

 56	5.600000000000003e-01
	-5.824772703185912e-15
	-1.885949890756343e-17
	-2.805564285570334e-14
	1.628698421092741e-06
	1.393989463447915e-04
	1.650328800164829e-05
	2.066484453599306e-01

 57	5.700000000000003e-01
	-5.803240243696888e-15
	-1.940631795683447e-17
	-2.819031897535227e-14
	1.722002481968891e-06
	1.509478861654706e-04
	1.795428382087370e-05
	2.066486168895167e-01

 58	5.800000000000003e-01
	-5.782884215746657e-15
	-1.997008120214416e-17
	-2.832245191701833e-14
	1.819942852313096e-06
	1.633149340740333e-04
	1.952481472615248e-05
	2.066488025538720e-01

 59	5.900000000000003e-01
	-5.763684807224513e-15
	-2.055136791317087e-17
	-2.845205374148950e-14
	1.922712227891606e-06
	1.765391458474258e-04
	2.122325533273326e-05
	2.066490033433740e-01

 60	6.000000000000003e-01
	-5.745622030679268e-15
	-2.115077962769393e-17
	-2.857913780915012e-14
	2.030510237678351e-06
	1.906592699184664e-04
	2.305836923709281e-05
	2.066492202943733e-01

 61	6.100000000000003e-01
	-5.728675748506426e-15
	-2.176894110992161e-17
	-2.870371872443886e-14
	2.143543785678250e-06
	2.057134782014689e-04
	2.503930458521161e-05
	2.066494544886545e-01

 62	6.200000000000003e-01
	-5.712825697453438e-15
	-2.240650135409061e-17
	-2.882581228037209e-14
	2.262027429497143e-06
	2.217390795649888e-04
	2.717558685925914e-05
	2.066497070525846e-01

 63	6.300000000000003e-01
	-5.698051512412806e-15
	-2.306413463562682e-17
	-2.894543540325071e-14
	2.386183800130935e-06
	2.387722178531911e-04
	2.947710871845245e-05
	2.066499791558950e-01

 64	6.400000000000003e-01
	-5.684332749475797e-15
	-2.374254161228237e-17
	-2.906260609766303e-14
	2.516244067861432e-06
	2.568475567654289e-04
	3.195411675094858e-05
	2.066502720101232e-01

 65	6.500000000000004e-01
	-5.671648908223199e-15
	-2.444245047778732e-17
	-2.917734339188945e-14
	2.652448459583523e-06
	2.759979543079420e-04
	3.461719501881028e-05
	2.066505868666483e-01

 66	6.600000000000004e-01
	-5.659979453232607e-15
	-2.516461817069424e-17
	-2.928966728380828e-14
	2.795046833346290e-06
	2.962541299225073e-04
	3.747724530724015e-05
	2.066509250143508e-01

 67	6.700000000000004e-01
	-5.649303834784859e-15
	-2.590983164122956e-17
	-2.939959868739569e-14
	2.944299316370443e-06
	3.176443277643588e-04
	4.054546402223960e-05
	2.066512877768847e-01

 68	6.800000000000004e-01
	-5.639601508755480e-15
	-2.667890917912463e-17
	-2.950715937990605e-14
	3.100477013306516e-06
	3.401939799351551e-04
	4.383331571733266e-05
	2.066516765095397e-01

 69	6.900000000000004e-01
	-5.630851955679537e-15
	-2.747270180555044e-17
	-2.961237194981293e-14
	3.263862792022053e-06
	3.639253737653879e-04
	4.735250326957893e-05
	2.066520925957123e-01

 70	7.000000000000004e-01
	-5.623034698981175e-15
	-2.829209473245275e-17
	-2.971525974558460e-14
	3.434752154754825e-06
	3.888573274740883e-04
	5.111493476731836e-05
	2.066525374429909e-01

 71	7.100000000000004e-01
	-5.616129322361940e-15
	-2.913800889275485e-17
	-2.981584682536131e-14
	3.613454203043297e-06
	4.150048787017931e-04
	5.513268721630520e-05
	2.066530124788714e-01

 72	7.200000000000004e-01
	-5.610115486343993e-15
	-3.001140254509255e-17
	-2.991415790759616e-14
	3.800292705449741e-06
	4.423789905066756e-04
	5.941796721642847e-05
	2.066535191461004e-01

 73	7.300000000000004e-01
	-5.604972943967131e-15
	-3.091327295692517e-17
	-3.001021832271493e-14
	3.995607277728304e-06
	4.709862794254998e-04
	6.398306880726353e-05
	2.066540588977127e-01

 74	7.400000000000004e-01
	-5.600681555639921e-15
	-3.184465817009556e-17
	-3.010405396584535e-14
	4.199754685767518e-06
	5.008287701248002e-04
	6.884032872644632e-05
	2.066546331917334e-01

 75	7.500000000000004e-01
	-5.597221303148433e-15
	-3.280663885311555e-17
	-3.019569125065920e-14
	4.413110282358845e-06
	5.319036809989147e-04
	7.400207936933726e-05
	2.066552434856279e-01

 76	7.600000000000005e-01
	-5.594572302826613e-15
	-3.380034024468227e-17
	-3.028515706436725e-14
	4.636069589621825e-06
	5.642032448087647e-04
	7.948059978078873e-05
	2.066558912305193e-01

 77	7.700000000000005e-01
	-5.592714817895166e-15
	-3.482693419319440e-17
	-3.037247872389997e-14
	4.869050039760163e-06
	5.977145680987285e-04
	8.528806504902528e-05
	2.066565778652172e-01

 78	7.800000000000005e-01
	-5.591629269976312e-15
	-3.588764129727009e-17
	-3.045768393330385e-14
	5.112492887747714e-06
	6.324195326822988e-04
	9.143649450684634e-05
	2.066573048100985e-01

 79	7.900000000000005e-01
	-5.591296249794521e-15
	-3.698373315255323e-17
	-3.054080074237662e-14
	5.366865310560936e-06
	6.682947419558900e-04
	9.793769917560465e-05
	2.066580734609120e-01

 80	8.000000000000005e-01
	-5.591696527073055e-15
	-3.811653471038141e-17
	-3.062185750656172e-14
	5.632662708707050e-06
	7.053115141933041e-04
	1.048032289119990e-04
	2.066588851825270e-01

 81	8.100000000000005e-01
	-5.592811059638822e-15
	-3.928742675417700e-17
	-3.070088284811722e-14
	5.910411227060477e-06
	7.434359243014055e-04
	1.120443197358200e-04
	2.066597413027320e-01

 82	8.200000000000005e-01
	-5.594621001747799e-15
	-4.049784849975236e-17
	-3.077790561857051e-14
	6.200670513443276e-06
	7.826288947945827e-04
	1.196718418279603e-04
	2.066606431060782e-01

 83	8.300000000000005e-01
	-5.597107711645218e-15
	-4.174930032604431e-17
	-3.085295486246630e-14
	6.504036734989075e-06
	8.228463359860912e-04
	1.276962486916722e-04
	2.066615918278915e-01

 84	8.400000000000005e-01
	-5.600252758374424e-15
	-4.304334664314811e-17
	-3.092605978241219e-14
	6.821145874148293e-06
	8.640393346157844e-04
	1.361275279660564e-04
	2.066625886484545e-01

 85	8.500000000000005e-01
	-5.604037927849893e-15
	-4.438161890488656e-17
	-3.099724970542190e-14
	7.152677328255292e-06
	9.061543893532853e-04
	1.449751543689275e-04
	2.066636346874429e-01

 86	8.600000000000005e-01
	-5.608445228210035e-15
	-4.576581877352968e-17
	-3.106655405055383e-14
	7.499357838922782e-06
	9.491336908518492e-04
	1.542480452266332e-04
	2.066647309986749e-01

 87	8.700000000000006e-01
	-5.613456894465579e-15
	-4.719772144469630e-17
	-3.113400229783912e-14
	7.861965780194194e-06
	9.929154432987463e-04
	1.639545190213418e-04
	2.066658785652118e-01

 88	8.800000000000006e-01
	-5.619055392460129e-15
	-4.867917914088689e-17
	-3.119962395849098e-14
	8.241335837415577e-06
	1.037434223730543e-03
	1.741022573522326e-04
	2.066670782948569e-01

 89	8.900000000000006e-01
	-5.625223422159203e-15
	-5.021212478254355e-17
	-3.126344854638416e-14
	8.638364112229656e-06
	1.082621374771733e-03
	1.846982706664599e-04
	2.066683310160914e-01

 90	9.000000000000006e-01
	-5.631943920284805e-15
	-5.179857584598613e-17
	-3.132550555079111e-14
	9.054013692999920e-06
	1.128405425927266e-03
	1.957488680695330e-04
	2.066696374745119e-01

 91	9.100000000000006e-01
	-5.639200062311934e-15
	-5.344063841808131e-17
	-3.138582441035892e-14
	9.489320734397613e-06
	1.174712538125279e-03
	2.072596314737227e-04
	2.066709983297659e-01

 92	9.200000000000006e-01
	-5.646975263843594e-15
	-5.514051145799614e-17
	-3.144443448830990e-14
	9.945401094889192e-06
	1.221466965874907e-03
	2.192353942882384e-04
	2.066724141530186e-01

 93	9.300000000000006e-01
	-5.655253181381053e-15
	-5.690049127690926e-17
	-3.150136504884546e-14
	1.042345758651318e-05
	1.268591531181643e-03
	2.316802247972880e-04
	2.066738854249831e-01

 94	9.400000000000006e-01
	-5.664017712505582e-15
	-5.872297624711579e-17
	-3.155664523473197e-14
	1.092478789770718e-05
	1.316008103252574e-03
	2.445974143128837e-04
	2.066754125345240e-01

 95	9.500000000000006e-01
	-5.673252995487013e-15
	-6.061047175254101e-17
	-3.161030404604614e-14
	1.145079325711571e-05
	1.363638078025972e-03
	2.579894701294897e-04
	2.066769957777949e-01

 96	9.600000000000006e-01
	-5.682943408335762e-15
	-6.256559539324750e-17
	-3.166237032005443e-14
	1.200298791436006e-05
	1.411402851670536e-03
	2.718581132483505e-04
	2.066786353579866e-01

 97	9.700000000000006e-01
	-5.693073567312287e-15
	-6.459108245716760e-17
	-3.171287271220155e-14
	1.258300952278442e-05
	1.459224282414396e-03
	2.862042807818895e-04
	2.066803313855943e-01

 98	9.800000000000006e-01
	-5.703628324909397e-15
	-6.668979167291492e-17
	-3.176183967818029e-14
	1.319263051929670e-05
	1.507025135372696e-03
	3.010281328935875e-04
	2.066820838792342e-01

 99	9.900000000000007e-01
	-5.714592767321003e-15
	-6.886471125818674e-17
	-3.180929945705529e-14
	1.383377060771694e-05
	1.554729505435824e-03
	3.163290640774429e-04
	2.066838927669770e-01

 100	1.000000000000001e+00
	-5.725952211411007e-15
	-7.111896527896277e-17
	-3.185528005541088e-14
	1.450851046464095e-05
	1.602263213744902e-03
	3.321057185340518e-04
	2.066857578881653e-01

 101	1.010000000000001e+00
	-5.737692201194817e-15
	-7.345582033538986e-17
	-3.189980923249392e-14
