Title: ** sch_path: /home/andylithia/openmpw/project-yatsuhashi-chip1/xschem/gmid_test/nmos_test.sch
Date: Sun Jul 17 22:51:45  2022
Plotname: DC transfer characteristic
Flags: real
No. Variables: 8
No. Points: 181
Variables:
	0	v(v-sweep)	voltage
	1	@m.xm1.msky130_fd_pr__nfet_01v8[cgb]	capacitance
	2	@m.xm1.msky130_fd_pr__nfet_01v8[cgd]	capacitance
	3	@m.xm1.msky130_fd_pr__nfet_01v8[cgs]	capacitance
	4	@m.xm1.msky130_fd_pr__nfet_01v8[gds]	admittance
	5	@m.xm1.msky130_fd_pr__nfet_01v8[gm]	admittance
	6	i(@m.xm1.msky130_fd_pr__nfet_01v8[id])	current
	7	v(@m.xm1.msky130_fd_pr__nfet_01v8[vth])	voltage
Values:
 0	0.000000000000000e+00
	-1.289841454540216e-14
	-6.476520726294366e-18
	-2.508260058048876e-14
	6.265015085483289e-08
	1.975259538783777e-06
	2.577578529850335e-07
	1.863369959162089e-01

 1	1.000000000000000e-02
	-1.276080167582635e-14
	-6.648247978592049e-18
	-2.540937301971071e-14
	6.739353927469944e-08
	2.132140692645765e-06
	2.782846932486450e-07
	1.863369983606633e-01

 2	2.000000000000000e-02
	-1.262504814643310e-14
	-6.824656840166922e-18
	-2.573552786789388e-14
	7.247758906108172e-08
	2.301703722922622e-06
	3.004428907171000e-07
	1.863370009994037e-01

 3	3.000000000000000e-02
	-1.249117896380593e-14
	-7.005881009532000e-18
	-2.606095829007877e-14
	7.792490921892756e-08
	2.485028622385542e-06
	3.243645842755856e-07
	1.863370038481743e-01

 4	4.000000000000000e-02
	-1.235921826498218e-14
	-7.192058319024449e-18
	-2.638555824800104e-14
	8.375943611169773e-08
	2.683295299104082e-06
	3.501932043487768e-07
	1.863370069240582e-01

 5	5.000000000000000e-02
	-1.222918927452991e-14
	-7.383330876929069e-18
	-2.670922262267752e-14
	9.000649681521679e-08
	2.897793506808669e-06
	3.780845209050165e-07
	1.863370102456108e-01

 6	6.000000000000000e-02
	-1.210111426395606e-14
	-7.579845215052156e-18
	-2.703184733484249e-14
	9.669287443957138e-08
	3.129933761224604e-06
	4.082077956220957e-07
	1.863370138329978e-01

 7	7.000000000000001e-02
	-1.197501451351675e-14
	-7.781752441976557e-18
	-2.735332946295561e-14
	1.038468754207177e-07
	3.381259328240531e-06
	4.407470484991794e-07
	1.863370177081341e-01

 8	8.000000000000000e-02
	-1.185091027649467e-14
	-7.989208402238306e-18
	-2.767356735851011e-14
	1.114983987815645e-07
	3.653459374623686e-06
	4.759024500821293e-07
	1.863370218948726e-01

 9	9.000000000000000e-02
	-1.172882074599817e-14
	-8.202373841679392e-18
	-2.799246075838547e-14
	1.196790073608245e-07
	3.948383376671805e-06
	5.138918514004615e-07
	1.863370264191624e-01

 10	9.999999999999999e-02
	-1.160876402433204e-14
	-8.421414579240716e-18
	-2.830991089399136e-14
	1.284220010065616e-07
	4.268056886592474e-06
	5.549524646897394e-07
	1.863370313092677e-01

 11	1.100000000000000e-01
	-1.149075709497848e-14
	-8.646501685472891e-18
	-2.862582059697078e-14
	1.377624917305177e-07
	4.614698760426992e-06
	5.993427089919538e-07
	1.863370365959718e-01

 12	1.200000000000000e-01
	-1.137481579722124e-14
	-8.877811668053179e-18
	-2.894009440123483e-14
	1.477374808186692e-07
	4.990739954851055e-06
	6.473442357820829e-07
	1.863370423128309e-01

 13	1.300000000000000e-01
	-1.126095480343590e-14
	-9.115526664614678e-18
	-2.925263864112167e-14
	1.583859378933517e-07
	5.398844003057655e-06
	6.992641508574399e-07
	1.863370484964408e-01

 14	1.400000000000000e-01
	-1.114918759906174e-14
	-9.359834643205030e-18
	-2.956336154548256e-14
	1.697488819225330e-07
	5.841929281994122e-06
	7.554374498392113e-07
	1.863370551867089e-01

 15	1.500000000000000e-01
	-1.103952646526189e-14
	-9.610929610705512e-18
	-2.987217332751383e-14
	1.818694641724901e-07
	6.323193184310775e-06
	8.162296857641377e-07
	1.863370624271956e-01

 16	1.600000000000000e-01
	-1.093198246427071e-14
	-9.869011829563613e-18
	-3.017898627017010e-14
	1.947930531014171e-07
	6.846138308295504e-06
	8.820398883786362e-07
	1.863370702654470e-01

 17	1.700000000000000e-01
	-1.082656542741826e-14
	-1.013428804319961e-17
	-3.048371480700911e-14
	2.085673211931271e-07
	7.414600777594076e-06
	9.533037558734690e-07
	1.863370787533808e-01

 18	1.800000000000000e-01
	-1.072328394581489e-14
	-1.040697171047538e-17
	-3.078627559833457e-14
	2.232423337322804e-07
	8.032780799430633e-06
	1.030497140900879e-06
	1.863370879477011e-01

 19	1.900000000000000e-01
	-1.062214536366972e-14
	-1.068728324962041e-17
	-3.108658760252155e-14
	2.388706395253702e-07
	8.705275565090868e-06
	1.114139853779551e-06
	1.863370979103515e-01

 20	2.000000000000000e-01
	-1.052315577421058e-14
	-1.097545029204171e-17
	-3.138457214242369e-14
	2.555073635750822e-07
	9.437114589349751e-06
	1.204799806796204e-06
	1.863371087090145e-01

 21	2.100000000000000e-01
	-1.042632001816402e-14
	-1.127170794645395e-17
	-3.168015296678132e-14
	2.732103017197184e-07
	1.023379757603552e-05
	1.303097524433586e-06
	1.863371204176391e-01

 22	2.200000000000001e-01
	-1.033164168474853e-14
	-1.157629907379392e-17
	-3.197325630656297e-14
	2.920400172539796e-07
	1.110133488472285e-05
	1.409711045166707e-06
	1.863371331170343e-01

 23	2.300000000000001e-01
	-1.023912311512559e-14
	-1.188947457340257e-17
	-3.226381092619367e-14
	3.120599395529145e-07
	1.204629065834138e-05
	1.525381241145051e-06
	1.863371468955041e-01

 24	2.400000000000001e-01
	-1.014876540824808e-14
	-1.221149368098465e-17
	-3.255174816963709e-14
	3.333364647269943e-07
	1.307582865295240e-05
	1.650917582585377e-06
	1.863371618495259e-01

 25	2.500000000000001e-01
	-1.006056842903885e-14
	-1.254262427887575e-17
	-3.283700200131675e-14
	3.559390583432249e-07
	1.419776078876723e-05
	1.787204374002743e-06
	1.863371780845083e-01

 26	2.600000000000001e-01
	-9.974530818826253e-15
	-1.288314321917871e-17
	-3.311950904187817e-14
	3.799403602553033e-07
	1.542059841535373e-05
	1.935207489470135e-06
	1.863371957155809e-01

 27	2.700000000000001e-01
	-9.890650007958855e-15
	-1.323333666035385e-17
	-3.339920859880809e-14
	4.054162915945862e-07
	1.675360625357501e-05
	2.095981633875363e-06
	1.863372148684698e-01

 28	2.800000000000001e-01
	-9.808922230516001e-15
	-1.359350041787933e-17
	-3.367604269194481e-14
	4.324461639839116e-07
	1.820685894186414e-05
	2.270678156597450e-06
	1.863372356804266e-01

 29	2.900000000000001e-01
	-9.729342541026941e-15
	-1.396394032962584e-17
	-3.394995607392602e-14
	4.611127910474886e-07
	1.979130007466982e-05
	2.460553443102737e-06
	1.863372583012324e-01

 30	3.000000000000001e-01
	-9.651904833106643e-15
	-1.434497263662646e-17
	-3.422089624563787e-14
	4.915026023029810e-07
	2.151880357610467e-05
	2.666977908617407e-06
	1.863372828942687e-01

 31	3.100000000000001e-01
	-9.576601859913615e-15
	-1.473692437995075e-17
	-3.448881346674046e-14
	5.237057595362160e-07
	2.340223720179462e-05
	2.891445616214170e-06
	1.863373096376640e-01

 32	3.200000000000001e-01
	-9.503425256331395e-15
	-1.514013381442988e-17
	-3.475366076135875e-14
	5.578162757751985e-07
	2.545552790655087e-05
	3.135584539304800e-06
	1.863373387255242e-01

 33	3.300000000000001e-01
	-9.432365562772840e-15
	-1.555495084001992e-17
	-3.501539391904184e-14
	5.939321369984852e-07
	2.769372875471951e-05
	3.401167485603222e-06
	1.863373703692307e-01

 34	3.400000000000001e-01
	-9.363412250504587e-15
	-1.598173745162502e-17
	-3.527397149110298e-14
	6.321554267336976e-07
	3.013308698395005e-05
	3.690123696061472e-06
	1.863374047988300e-01

 35	3.500000000000001e-01
	-9.296553748386728e-15
	-1.642086820824651e-17
	-3.552935478246494e-14
	6.725924537254622e-07
	3.279111276181087e-05
	4.004551128030626e-06
	1.863374422644976e-01

 36	3.600000000000002e-01
	-9.231777470922039e-15
	-1.687273072236893e-17
	-3.578150783914599e-14
	7.153538828788113e-07
	3.568664809845116e-05
	4.346729426910451e-06
	1.863374830380837e-01

 37	3.700000000000002e-01
	-9.169069847508079e-15
	-1.733772617053469e-17
	-3.603039743152885e-14
	7.605548697143354e-07
	3.883993529776153e-05
	4.719133584776304e-06
	1.863375274147517e-01

 38	3.800000000000002e-01
	-9.108416352785002e-15
	-1.781626982611656e-17
	-3.627599303356635e-14
	8.083151986059678e-07
	4.227268424481932e-05
	5.124448277869924e-06
	1.863375757146792e-01

 39	3.900000000000002e-01
	-9.049801537972184e-15
	-1.830879161533671e-17
	-3.651826679808239e-14
	8.587594251114391e-07
	4.600813773953080e-05
	5.565582867372191e-06
	1.863376282848648e-01

 40	4.000000000000002e-01
	-8.993209063087016e-15
	-1.881573669764945e-17
	-3.675719352833548e-14
	9.120170227503131e-07
	5.007113399629484e-05
	6.045687039519930e-06
	1.863376855009788e-01

 41	4.100000000000002e-01
	-8.938621729940209e-15
	-1.933756607164606e-17
	-3.699275064601689e-14
	9.682225346352028e-07
	5.448816533828984e-05
	6.568167051859554e-06
	1.863377477693080e-01

 42	4.200000000000002e-01
	-8.886021515803074e-15
	-1.987475720771027e-17
	-3.722491815586022e-14
	1.027515730419887e-06
	5.928743202406553e-05
	7.136702542253145e-06
	1.863378155287734e-01

 43	4.300000000000002e-01
	-8.835389607643810e-15
	-2.042780470871768e-17
	-3.745367860704498e-14
	1.090041769093958e-06
	6.449889005504447e-05
	7.755263846171578e-06
	1.863378892529769e-01

 44	4.400000000000002e-01
	-8.786706436831644e-15
	-2.099722100012537e-17
	-3.767901705157740e-14
	1.155951368228293e-06
	7.015429172712872e-05
	8.428129755851046e-06
	1.863379694523476e-01

 45	4.500000000000002e-01
	-8.739951714209747e-15
	-2.158353705088745e-17
	-3.790092099983746e-14
	1.225400980361222e-06
	7.628721760997925e-05
	9.159905642111571e-06
	1.863380566762767e-01

 46	4.600000000000002e-01
	-8.695104465441043e-15
	-2.218730312668705e-17
	-3.811938037347841e-14
	1.298552977310800e-06
	8.293309856583586e-05
	9.955541846087152e-06
	1.863381515153389e-01

 47	4.700000000000003e-01
	-8.652143066532149e-15
	-2.280908957706916e-17
	-3.833438745587172e-14
	1.375575843308645e-06
	9.012922635863441e-05
	1.082035223391789e-05
	1.863382546034821e-01

 48	4.800000000000003e-01
	-8.611045279445540e-15
	-2.344948765812701e-17
	-3.854593684028423e-14
	1.456644377972951e-06
	9.791475135611200e-05
	1.176003279269059e-05
	1.863383666202648e-01

 49	4.900000000000003e-01
	-8.571788287711862e-15
	-2.410911039248892e-17
	-3.875402537597888e-14
	1.541939910277708e-06
	1.063306657955740e-04
	1.278068013076242e-05
	1.863384882930589e-01

 50	5.000000000000002e-01
	-8.534348731957796e-15
	-2.478859346845009e-17
	-3.895865211242632e-14
	1.631650524830823e-06
	1.154197710708256e-04
	1.388880973021572e-05
	1.863386203992162e-01

 51	5.100000000000002e-01
	-8.498702745269286e-15
	-2.548859618016660e-17
	-3.915981824181336e-14
	1.725971301948560e-06
	1.252266275064415e-04
	1.509137378378050e-05
	1.863387637682061e-01

 52	5.200000000000002e-01
	-8.464825988312222e-15
	-2.620980241095675e-17
	-3.935752704003241e-14
	1.825104573209257e-06
	1.357974851190837e-04
	1.639577843336753e-05
	1.863389192836668e-01

 53	5.300000000000002e-01
	-8.432693684137547e-15
	-2.695292166184429e-17
	-3.955178380633207e-14
	1.929260194387296e-06
	1.471801939267670e-04
	1.780990021262851e-05
	1.863390878853621e-01

 54	5.400000000000003e-01
	-8.402280652600829e-15
	-2.771869012759688e-17
	-3.974259580180658e-14
	2.038655837910233e-06
	1.594240924585563e-04
	1.934210148200063e-05
	1.863392705710169e-01

 55	5.500000000000003e-01
	-8.373561344330877e-15
	-2.850787182262642e-17
	-3.992997218689590e-14
	2.153517307250645e-06
	1.725798732415889e-04
	2.100124463181670e-05
	1.863394683980049e-01

 56	5.600000000000003e-01
	-8.346509874185459e-15
	-2.932125975924592e-17
	-4.011392395806584e-14
	2.274078875960428e-06
	1.866994242015556e-04
	2.279670481760330e-05
	1.863396824848745e-01

 57	5.700000000000003e-01
	-8.321100054136015e-15
	-3.015967718091151e-17
	-4.029446388383154e-14
	2.400583654382333e-06
	2.018356451084803e-04
	2.473838098201856e-05
	1.863399140126394e-01

 58	5.800000000000003e-01
	-8.297305425527891e-15
	-3.102397885320708e-17
	-4.047160644028221e-14
	2.533283987431050e-06
	2.180422384326320e-04
	2.683670491034416e-05
	1.863401642258590e-01

 59	5.900000000000003e-01
	-8.275099290666147e-15
	-3.191505241548022e-17
	-4.064536774625977e-14
	2.672441887229000e-06
	2.353734742460806e-04
	2.910264806145033e-05
	1.863404344334464e-01

 60	6.000000000000003e-01
	-8.254454743680654e-15
	-3.283381979619751e-17
	-4.081576549833869e-14
	2.818329504809072e-06
	2.538839291130438e-04
	3.154772591404644e-05
	1.863407260091675e-01

 61	6.100000000000003e-01
	-8.235344700628798e-15
	-3.378123869522530e-17
	-4.098281890574678e-14
	2.971229645561555e-06
	2.736281992552727e-04
	3.418399956918720e-05
	1.863410403918348e-01

 62	6.200000000000003e-01
	-8.217741928797085e-15
	-3.475830413645087e-17
	-4.114654862536220e-14
	3.131436333606410e-06
	2.946605886547764e-04
	3.702407435477375e-05
	1.863413790851180e-01

 63	6.300000000000003e-01
	-8.201619075167771e-15
	-3.576605009429677e-17
	-4.130697669691371e-14
	3.299255430816578e-06
	3.170347731614817e-04
	4.008109518647171e-05
	1.863417436569813e-01

 64	6.400000000000003e-01
	-8.186948694018773e-15
	-3.680555119789208e-17
	-4.146412647850631e-14
	3.475005316804797e-06
	3.408034421031441e-04
	4.336873845233686e-05
	1.863421357387108e-01

 65	6.500000000000004e-01
	-8.173703273630359e-15
	-3.787792451687179e-17
	-4.161802258258615e-14
	3.659017636817884e-06
	3.660179193431617e-04
	4.690120020572175e-05
	1.863425570234902e-01

 66	6.600000000000004e-01
	-8.161855262074209e-15
	-3.898433143295521e-17
	-4.176869081245331e-14
	3.851638125159092e-06
	3.927277661915389e-04
	5.069318047285657e-05
	1.863430092645150e-01

 67	6.700000000000004e-01
	-8.151377092064422e-15
	-4.012597960170313e-17
	-4.191615809942344e-14
	4.053227512484787e-06
	4.209803690372102e-04
	5.475986350796086e-05
	1.863434942726357e-01

 68	6.800000000000004e-01
	-8.142241204853322e-15
	-4.130412500907567e-17
	-4.206045244073261e-14
	4.264162526096753e-06
	4.508205150267861e-04
	5.911689385980309e-05
	1.863440139134968e-01

 69	6.900000000000004e-01
	-8.134420073157223e-15
	-4.252007412765847e-17
	-4.220160283827392e-14
	4.484836993180718e-06
	4.822899595557944e-04
	6.378034814920397e-05
	1.863445701041533e-01

 70	7.000000000000004e-01
	-8.127886223101187e-15
	-4.377518617767815e-17
	-4.233963923824664e-14
	4.715663057825994e-06
	5.154269897526483e-04
	6.876670249682095e-05
	1.863451648091903e-01

 71	7.100000000000004e-01
	-8.122612255173971e-15
	-4.507087549821160e-17
	-4.247459247179321e-14
	4.957072523607592e-06
	5.502659885121603e-04
	7.409279558438671e-05
	1.863458000363193e-01

 72	7.200000000000004e-01
	-8.118570864187037e-15
	-4.640861403428269e-17
	-4.260649419669220e-14
	5.209518334522910e-06
	5.868370039628134e-04
	7.977578737991123e-05
	1.863464778314455e-01

 73	7.300000000000004e-01
	-8.115734858234058e-15
	-4.778993394581633e-17
	-4.273537684017058e-14
	5.473476208157776e-06
	6.251653295193222e-04
	8.583311360767370e-05
	1.863472002732560e-01

 74	7.400000000000004e-01
	-8.114077176649573e-15
	-4.921643034478759e-17
	-4.286127354289054e-14
	5.749446436119799e-06
	6.652710998687702e-04
	9.228243609649424e-05
	1.863479694672875e-01

 75	7.500000000000004e-01
	-8.113570906968154e-15
	-5.068976416718626e-17
	-4.298421810416192e-14
	6.037955868026771e-06
	7.071689083546674e-04
	9.914158919394581e-05
	1.863487875395647e-01

 76	7.600000000000005e-01
	-8.114189300885647e-15
	-5.221166518682225e-17
	-4.310424492842595e-14
	6.339560096691084e-06
	7.508674512508281e-04
	1.064285224891228e-04
	1.863496566297623e-01

 77	7.700000000000005e-01
	-8.115905789228937e-15
	-5.378393517832936e-17
	-4.322138897304805e-14
	6.654845863604539e-06
	7.963692043482184e-04
	1.141612401412307e-04
	1.863505788839925e-01

 78	7.800000000000005e-01
	-8.118693995939149e-15
	-5.540845123714966e-17
	-4.333568569745546e-14
	6.984433705425800e-06
	8.436701371087994e-04
	1.223577371647875e-04
	1.863515564472193e-01

 79	7.900000000000005e-01
	-8.122527751076942e-15
	-5.708716926468096e-17
	-4.344717101364824e-14
	7.328980863918440e-06
	8.927594693673759e-04
	1.310359330734672e-04
	1.863525914553651e-01

 80	8.000000000000005e-01
	-8.127381102858896e-15
	-5.882212762721163e-17
	-4.355588123810848e-14
	7.689184483707357e-06
	9.436194751855477e-04
	1.402136033325951e-04
	1.863536860271444e-01

 81	8.100000000000005e-01
	-8.133228328735674e-15
	-6.061545099772109e-17
	-4.366185304512734e-14
	8.065785124342362e-06
	9.962253379833879e-04
	1.499083091139874e-04
	1.863548422557112e-01

 82	8.200000000000005e-01
	-8.140043945523660e-15
	-6.246935439011727e-17
	-4.376512342156555e-14
	8.459570615509753e-06
	1.050545060499271e-03
	1.601373258852022e-04
	1.863560622001544e-01

 83	8.300000000000005e-01
	-8.147802718602460e-15
	-6.438614739598758e-17
	-4.386572962305931e-14
	8.871380286853076e-06
	1.106539432464218e-03
	1.709175713974033e-04
	1.863573478769253e-01

 84	8.400000000000005e-01
	-8.156479670191950e-15
	-6.636823863446523e-17
	-4.396370913167907e-14
	9.302109606794347e-06
	1.164162058134705e-03
	1.822655336611354e-04
	1.863587012512612e-01

 85	8.500000000000005e-01
	-8.166050086722852e-15
	-6.841814042638819e-17
	-4.405909961504503e-14
	9.752715268031846e-06
	1.223359445019694e-03
	1.941971995165657e-04
	1.863601242286805e-01

 86	8.600000000000005e-01
	-8.176489525315614e-15
	-7.053847370450563e-17
	-4.415193888690056e-14
	1.022422076108705e-05
	1.284071154279246e-03
	2.067279844137075e-04
	1.863616186466069e-01

 87	8.700000000000006e-01
	-8.187773819382904e-15
	-7.273197317210915e-17
	-4.424226486914017e-14
	1.071772248143546e-05
	1.346230012379687e-03
	2.198726640182277e-04
	1.863631862662197e-01

 88	8.800000000000006e-01
	-8.199879083371341e-15
	-7.500149272309632e-17
	-4.433011555528723e-14
	1.123439642045708e-05
	1.409762382682921e-03
	2.336453082495769e-04
	1.863648287646031e-01

 89	8.900000000000006e-01
	-8.212781716657497e-15
	-7.735001113718886e-17
	-4.441552897541312e-14
	1.177550549575299e-05
	1.474588494743719e-03
	2.480592183402034e-04
	1.863665477272141e-01

 90	9.000000000000006e-01
	-8.226458406615268e-15
	-7.978063806467341e-17
	-4.449854316248553e-14
	1.234240758237709e-05
	1.540622828208072e-03
	2.631268674776541e-04
	1.863683446408166e-01

 91	9.100000000000006e-01
	-8.240886130869509e-15
	-8.229662031582146e-17
	-4.457919612013434e-14
	1.293656431332482e-05
	1.607774547367741e-03
	2.788598455558855e-04
	1.863702208868787e-01

 92	9.200000000000006e-01
	-8.256042158752300e-15
	-8.490134847089243e-17
	-4.465752579181779e-14
	1.355955072529966e-05
	1.675947981648393e-03
	2.952688085184563e-04
	1.863721777355146e-01

 93	9.300000000000006e-01
	-8.271904051977411e-15
	-8.759836382739977e-17
	-4.473357003137179e-14
	1.421306583445933e-05
	1.745043146608614e-03
	3.123634327252664e-04
	1.863742163400476e-01

 94	9.400000000000006e-01
	-8.288449664548137e-15
	-9.039136570220545e-17
	-4.480736657492261e-14
	1.489894423665642e-05
	1.814956299419646e-03
	3.301523747170030e-04
	1.863763377321859e-01

 95	9.500000000000006e-01
	-8.305657141914049e-15
	-9.328421910679853e-17
	-4.487895301414059e-14
	1.561916883776114e-05
	1.885580522292751e-03
	3.486432366883323e-04
	1.863785428178979e-01

 96	9.600000000000006e-01
	-8.323504919390541e-15
	-9.628096281506575e-17
	-4.494836677081271e-14
	1.637588483215028e-05
	1.956806326933238e-03
	3.678425379133922e-04
	1.863808323739881e-01

 97	9.700000000000006e-01
	-8.341971719856248e-15
	-9.938581784374028e-17
	-4.501564507270758e-14
	1.717141506152388e-05
	2.028522272833536e-03
	3.877556922963674e-04
	1.863832070454142e-01

 98	9.800000000000006e-01
	-8.361036550740822e-15
	-1.026031963666806e-16
	-4.508082493070798e-14
	1.800827690205862e-05
	2.100615592076130e-03
	4.083869921471757e-04
	1.863856673433398e-01

 99	9.900000000000007e-01
	-8.380678700316667e-15
	-1.059377110851096e-16
	-4.514394311718208e-14
	1.888920084571962e-05
	2.172972813300663e-03
	4.297395982087637e-04
	1.863882136439370e-01

 100	1.000000000000001e+00
	-8.400877733306311e-15
	-1.093941850769432e-16
	-4.520503614556512e-14
	1.981715096154733e-05
	2.245480377595380e-03
	4.518155358894671e-04
	1.863908461879251e-01

 101	1.010000000000001e+00
	-8.421613485817108e-15
	-1.129776621493277e-16
	-4.526414025112161e-14
