Title: ** sch_path: /home/andylithia/openmpw/project-yatsuhashi-chip1/xschem/gmid_test/nmos_test.sch
Date: Sun Jul 17 22:51:45  2022
Plotname: DC transfer characteristic
Flags: real
No. Variables: 8
No. Points: 181
Variables:
	0	v(v-sweep)	voltage
	1	@m.xm1.msky130_fd_pr__nfet_01v8[cgb]	capacitance
	2	@m.xm1.msky130_fd_pr__nfet_01v8[cgd]	capacitance
	3	@m.xm1.msky130_fd_pr__nfet_01v8[cgs]	capacitance
	4	@m.xm1.msky130_fd_pr__nfet_01v8[gds]	admittance
	5	@m.xm1.msky130_fd_pr__nfet_01v8[gm]	admittance
	6	i(@m.xm1.msky130_fd_pr__nfet_01v8[id])	current
	7	v(@m.xm1.msky130_fd_pr__nfet_01v8[vth])	voltage
Values:
 0	0.000000000000000e+00
	-1.203600850995986e-14
	-6.107484764529408e-18
	-2.351257210997190e-14
	4.292478892234330e-08
	1.371765968272333e-06
	1.777172867458005e-07
	1.837910392337932e-01

 1	1.000000000000000e-02
	-1.190647928773214e-14
	-6.270607683243842e-18
	-2.382041215372484e-14
	4.619416619609947e-08
	1.481619214818588e-06
	1.919770369547640e-07
	1.837910409412077e-01

 2	2.000000000000000e-02
	-1.177869226395035e-14
	-6.438211604260877e-18
	-2.412766144902199e-14
	4.969959084090838e-08
	1.600437399114903e-06
	2.073795281015504e-07
	1.837910427854632e-01

 3	3.000000000000000e-02
	-1.165267134380410e-14
	-6.610425532395634e-18
	-2.443421823392020e-14
	5.345679265637895e-08
	1.728992227076949e-06
	2.240182105624305e-07
	1.837910447777516e-01

 4	4.000000000000000e-02
	-1.152843959396434e-14
	-6.787382495010426e-18
	-2.473998152937301e-14
	5.748242624901418e-08
	1.868127563498336e-06
	2.419946067873715e-07
	1.837910469302297e-01

 5	5.000000000000000e-02
	-1.140601920164581e-14
	-6.969219681508769e-18
	-2.504485125738366e-14
	6.179411491395844e-08
	2.018766662433658e-06
	2.614190684586164e-07
	1.837910492561163e-01

 6	6.000000000000000e-02
	-1.128543143593260e-14
	-7.156078588224093e-18
	-2.534872835701256e-14
	6.641049582615854e-08
	2.181920118209955e-06
	2.824116095043510e-07
	1.837910517697850e-01

 7	7.000000000000001e-02
	-1.116669661143582e-14
	-7.348105168933955e-18
	-2.565151489796762e-14
	7.135126653438746e-08
	2.358694599653199e-06
	3.051028224835033e-07
	1.837910544868767e-01

 8	8.000000000000000e-02
	-1.104983405434457e-14
	-7.545449991241062e-18
	-2.595311419151511e-14
	7.663723274969746e-08
	2.550302433568099e-06
	3.296348865009347e-07
	1.837910574244241e-01

 9	9.000000000000000e-02
	-1.093486207092398e-14
	-7.748268399073907e-18
	-2.625343089846013e-14
	8.229035741815515e-08
	2.758072106810950e-06
	3.561626754893035e-07
	1.837910606009750e-01

 10	9.999999999999999e-02
	-1.082179791850605e-14
	-7.956720681570787e-18
	-2.655237113395408e-14
	8.833381106612462e-08
	2.983459759372773e-06
	3.848549764027066e-07
	1.837910640367508e-01

 11	1.100000000000000e-01
	-1.071065777901123e-14
	-8.170972248625640e-18
	-2.684984256890224e-14
	9.479202340508683e-08
	3.228061743663379e-06
	4.158958276056599e-07
	1.837910677537943e-01

 12	1.200000000000000e-01
	-1.060145673503066e-14
	-8.391193813383995e-18
	-2.714575452775317e-14
	1.016907361817785e-07
	3.493628327556696e-06
	4.494859885047955e-07
	1.837910717761545e-01

 13	1.300000000000000e-01
	-1.049420874849001e-14
	-8.617561581993511e-18
	-2.744001808246949e-14
	1.090570572586284e-07
	3.782078620623313e-06
	4.858445522561553e-07
	1.837910761300787e-01

 14	1.400000000000000e-01
	-1.038892664190902e-14
	-8.850257450928477e-18
	-2.773254614249025e-14
	1.169195159088059e-07
	4.095516804213884e-06
	5.252107141817522e-07
	1.837910808442210e-01

 15	1.500000000000000e-01
	-1.028562208226124e-14
	-9.089469212218375e-18
	-2.802325354051273e-14
	1.253081193098777e-07
	4.436249746538392e-06
	5.678457093386618e-07
	1.837910859498798e-01

 16	1.600000000000000e-01
	-1.018430556743141e-14
	-9.335390766933693e-18
	-2.831205711393533e-14
	1.342544102200308e-07
	4.806806083466662e-06
	6.140349334940075e-07
	1.837910914812431e-01

 17	1.700000000000000e-01
	-1.008498641525955e-14
	-9.588222347290630e-18
	-2.859887578181881e-14
	1.437915258210540e-07
	5.209956844294582e-06
	6.640902625595750e-07
	1.837910974756775e-01

 18	1.800000000000000e-01
	-9.987672755152449e-15
	-9.848170747762635e-18
	-2.888363061724194e-14
	1.539542577129673e-07
	5.648737699013834e-06
	7.183525863199145e-07
	1.837911039740266e-01

 19	1.900000000000000e-01
	-9.892371522236444e-15
	-1.011544956559700e-17
	-2.916624491494067e-14
	1.647791130460460e-07
	6.126472899499314e-06
	7.771945730331812e-07
	1.837911110209442e-01

 20	2.000000000000000e-01
	-9.799088454017427e-15
	-1.039027945115994e-17
	-2.944664425413913e-14
	1.763043767774026e-07
	6.646800981301735e-06
	8.410236821808299e-07
	1.837911186652460e-01

 21	2.100000000000000e-01
	-9.707828089506736e-15
	-1.067288836855087e-17
	-2.972475655649588e-14
	1.885701750409585e-07
	7.213702285191161e-06
	9.102854432723710e-07
	1.837911269603229e-01

 22	2.200000000000001e-01
	-9.618593770764734e-15
	-1.096351186695048e-17
	-3.000051213910771e-14
	2.016185396218965e-07
	7.831528348035207e-06
	9.854670191568693e-07
	1.837911359645487e-01

 23	2.300000000000001e-01
	-9.531387646807586e-15
	-1.126239336318817e-17
	-3.027384376252729e-14
	2.154934735291953e-07
	8.505033200780996e-06
	1.067101072730410e-06
	1.837911457417528e-01

 24	2.400000000000001e-01
	-9.446210679815944e-15
	-1.156978443603626e-17
	-3.054468667376966e-14
	2.302410176630769e-07
	9.239406597035081e-06
	1.155769956237152e-06
	1.837911563617255e-01

 25	2.500000000000001e-01
	-9.363062653578740e-15
	-1.188594513277046e-17
	-3.081297864429832e-14
	2.459093185778641e-07
	1.004030917876387e-05
	1.252110242513118e-06
	1.837911679007525e-01

 26	2.600000000000001e-01
	-9.281942184099691e-15
	-1.221114428855239e-17
	-3.107866000299639e-14
	2.625486973450257e-07
	1.091390956575511e-05
	1.356817617489148e-06
	1.837911804422118e-01

 27	2.700000000000001e-01
	-9.202846732288944e-15
	-1.254565985922748e-17
	-3.134167366414650e-14
	2.802117195262713e-07
	1.186692333248400e-05
	1.470652153023097e-06
	1.837911940771972e-01

 28	2.800000000000001e-01
	-9.125772618657758e-15
	-1.288977926815426e-17
	-3.160196515045490e-14
	2.989532662722637e-07
	1.290665380970966e-05
	1.594443978637280e-06
	1.837912089052054e-01

 29	2.900000000000001e-01
	-9.050715039929622e-15
	-1.324379976771289e-17
	-3.185948261117338e-14
	3.188306065693168e-07
	1.404103461833433e-05
	1.729099369963789e-06
	1.837912250348649e-01

 30	3.000000000000001e-01
	-8.977668087477922e-15
	-1.360802881617640e-17
	-3.211417683538349e-14
	3.399034706640984e-07
	1.527867380963280e-05
	1.875607270609719e-06
	1.837912425847168e-01

 31	3.100000000000001e-01
	-8.906624767496190e-15
	-1.398278447065921e-17
	-3.236600126052347e-14
	3.622341247052892e-07
	1.662889944881135e-05
	2.035046262711204e-06
	1.837912616840501e-01

 32	3.200000000000001e-01
	-8.837577022805133e-15
	-1.436839579689315e-17
	-3.261491197624865e-14
	3.858874466514679e-07
	1.810180643792996e-05
	2.208591999611470e-06
	1.837912824738009e-01

 33	3.300000000000001e-01
	-8.770515756196831e-15
	-1.476520329662121e-17
	-3.286086772373094e-14
	4.109310035063238e-07
	1.970830432952484e-05
	2.397525111836110e-06
	1.837913051074915e-01

 34	3.400000000000001e-01
	-8.705430855216051e-15
	-1.517355935343873e-17
	-3.310382989051108e-14
	4.374351299559733e-07
	2.146016583387462e-05
	2.603239594810254e-06
	1.837913297522444e-01

 35	3.500000000000001e-01
	-8.642311218276022e-15
	-1.559382869795013e-17
	-3.334376250103034e-14
	4.654730084990786e-07
	2.337007567093495e-05
	2.827251683533025e-06
	1.837913565898437e-01

 36	3.600000000000002e-01
	-8.581144782005239e-15
	-1.602638889316115e-17
	-3.358063220297662e-14
	4.951207511786547e-07
	2.545167936276456e-05
	3.071209215657956e-06
	1.837913858178601e-01

 37	3.700000000000002e-01
	-8.521918549721426e-15
	-1.647163084106381e-17
	-3.381440824958923e-14
	5.264574830456059e-07
	2.771963150415168e-05
	3.336901480094747e-06
	1.837914176508330e-01

 38	3.800000000000002e-01
	-8.464618620928604e-15
	-1.692995931142869e-17
	-3.404506247807400e-14
	5.595654275085429e-07
	3.018964298860703e-05
	3.626269543320531e-06
	1.837914523215093e-01

 39	3.900000000000002e-01
	-8.409230221732858e-15
	-1.740179349386605e-17
	-3.427256928428837e-14
	5.945299937524296e-07
	3.287852660452012e-05
	3.941417040045238e-06
	1.837914900821432e-01

 40	4.000000000000002e-01
	-8.355737736073526e-15
	-1.788756757427522e-17
	-3.449690559386177e-14
	6.314398664414024e-07
	3.580424035284893e-05
	4.284621408703641e-06
	1.837915312058327e-01

 41	4.100000000000002e-01
	-8.304124737667577e-15
	-1.838773133685288e-17
	-3.471805082992146e-14
	6.703870979583393e-07
	3.898592777410986e-05
	4.658345545435839e-06
	1.837915759879362e-01

 42	4.200000000000002e-01
	-8.254374022565553e-15
	-1.890275079290516e-17
	-3.493598687759992e-14
	7.114672034772110e-07
	4.244395450974955e-05
	5.065249842778297e-06
	1.837916247474979e-01

 43	4.300000000000002e-01
	-8.206467642219895e-15
	-1.943310883775239e-17
	-3.515069804550196e-14
	7.547792592136156e-07
	4.619994026237609e-05
	5.508204571224750e-06
	1.837916778287528e-01

 44	4.400000000000002e-01
	-8.160386936967868e-15
	-1.997930593710449e-17
	-3.536217102431415e-14
	8.004260042561696e-07
	5.027678526225930e-05
	5.990302553170221e-06
	1.837917356026316e-01

 45	4.500000000000002e-01
	-8.116112569833846e-15
	-2.054186084433852e-17
	-3.557039484273954e-14
	8.485139464463813e-07
	5.469869029542149e-05
	6.514872069551125e-06
	1.837917984683246e-01

 46	4.600000000000002e-01
	-8.073624560557947e-15
	-2.112131135019731e-17
	-3.577536082094400e-14
	8.991534728494775e-07
	5.949116930330384e-05
	7.085489929812355e-06
	1.837918668548302e-01

 47	4.700000000000003e-01
	-8.032902319761385e-15
	-2.171821506649643e-17
	-3.597706252169839e-14
	9.524589654434058e-07
	6.468105352712764e-05
	7.705994625730744e-06
	1.837919412225522e-01

 48	4.800000000000003e-01
	-7.993924683160858e-15
	-2.233315024552168e-17
	-3.617549569940323e-14
	1.008548922750230e-06
	7.029648614368505e-05
	8.380499479212267e-06
	1.837920220648701e-01

 49	4.900000000000003e-01
	-7.956669945748343e-15
	-2.296671663687858e-17
	-3.637065824718029e-14
	1.067546088243645e-06
	7.636690632531050e-05
	9.113405683559522e-06
	1.837921099096944e-01

 50	5.000000000000002e-01
	-7.921115895855751e-15
	-2.361953638364776e-17
	-3.656255014221346e-14
	1.129577586490490e-06
	8.292302165728604e-05
	9.909415127018367e-06
	1.837922053210176e-01

 51	5.100000000000002e-01
	-7.887239849027021e-15
	-2.429225495980781e-17
	-3.675117338952107e-14
	1.194775068124276e-06
	8.999676786298260e-05
	1.077354287681434e-05
	1.837923089003981e-01

 52	5.200000000000002e-01
	-7.855018681624528e-15
	-2.498554215097585e-17
	-3.693653196433622e-14
	1.263274864906109e-06
	9.762125482257635e-05
	1.171112919154917e-05
	1.837924212884095e-01

 53	5.300000000000002e-01
	-7.824428864099451e-15
	-2.570009308063810e-17
	-3.711863175327203e-14
	1.335218156305287e-06
	1.058306979271502e-04
	1.272785091994915e-05
	1.837925431659939e-01

 54	5.400000000000003e-01
	-7.795446493860780e-15
	-2.643662928414729e-17
	-3.729748049444102e-14
	1.410751149229222e-06
	1.146603338880558e-04
	1.382973213474504e-05
	1.837926752557445e-01

 55	5.500000000000003e-01
	-7.768047327679958e-15
	-2.719589983288792e-17
	-3.747308771669723e-14
	1.490025272752876e-06
	1.241463202230823e-04
	1.502315384215461e-05
	1.837928183230614e-01

 56	5.600000000000003e-01
	-7.742206813573438e-15
	-2.797868251114482e-17
	-3.764546467816224e-14
	1.573197389942773e-06
	1.343256177673572e-04
	1.631486260026904e-05
	1.837929731771788e-01

 57	5.700000000000003e-01
	-7.717900122108464e-15
	-2.878578504832848e-17
	-3.781462430419311e-14
	1.660430029142074e-06
	1.452358557087632e-04
	1.771197787386912e-05
	1.837931406720434e-01

 58	5.800000000000003e-01
	-7.695102177081609e-15
	-2.961804640936696e-17
	-3.798058112494380e-14
	1.751891637383586e-06
	1.569151788252505e-04
	1.922199794907278e-05
	1.837933217070223e-01

 59	5.900000000000003e-01
	-7.673787685523232e-15
	-3.047633814622356e-17
	-3.814335121266673e-14
	1.847756858928086e-06
	1.694020768044546e-04
	2.085280422899697e-05
	1.837935172274016e-01

 60	6.000000000000003e-01
	-7.653931166985278e-15
	-3.136156581363586e-17
	-3.830295211889461e-14
	1.948206842289292e-06
	1.827351957535957e-04
	2.261266373155662e-05
	1.837937282246915e-01

 61	6.100000000000003e-01
	-7.635506982072764e-15
	-3.227467045237074e-17
	-3.845940281163779e-14
	2.053429579505447e-06
	1.969531322580930e-04
	2.451022961285759e-05
	1.837939557366665e-01

 62	6.200000000000003e-01
	-7.618489360184597e-15
	-3.321663014343664e-17
	-3.861272361272363e-14
	2.163620281853985e-06
	2.120942106183878e-04
	2.655453954459008e-05
	1.837942008471809e-01

 63	6.300000000000003e-01
	-7.602852426430587e-15
	-3.418846163689133e-17
	-3.876293613540162e-14
	2.278981796682221e-06
	2.281962441829378e-04
	2.875501178158307e-05
	1.837944646856742e-01

 64	6.400000000000003e-01
	-7.588570227697583e-15
	-3.519122205907919e-17
	-3.891006322232816e-14
	2.399725070546247e-06
	2.452962819973474e-04
	3.112143876639027e-05
	1.837947484264038e-01

 65	6.500000000000004e-01
	-7.575616757839333e-15
	-3.622601070233089e-17
	-3.905412888404016e-14
	2.526069664415683e-06
	2.634303423004644e-04
	3.366397813156708e-05
	1.837950532873595e-01

 66	6.600000000000004e-01
	-7.563965981968653e-15
	-3.729397090137983e-17
	-3.919515823801971e-14
	2.658244327316445e-06
	2.826331347125089e-04
	3.639314097721494e-05
	1.837953805288505e-01

 67	6.700000000000004e-01
	-7.553591859833497e-15
	-3.839629200097579e-17
	-3.933317744844550e-14
	2.796487635451632e-06
	3.029377732718396e-04
	3.931977732142625e-05
	1.837957314517523e-01

 68	6.800000000000004e-01
	-7.544468368261988e-15
	-3.953421141941577e-17
	-3.946821366671950e-14
	2.941048704566039e-06
	3.243754827790669e-04
	4.245505864439367e-05
	1.837961073954169e-01

 69	6.900000000000004e-01
	-7.536569522663514e-15
	-4.070901681297041e-17
	-3.960029497285239e-14
	3.092187984108678e-06
	3.469753011928004e-04
	4.581045747303147e-05
	1.837965097352124e-01

 70	7.000000000000004e-01
	-7.529869397576814e-15
	-4.192204834644450e-17
	-3.972945031778294e-14
	3.250178142604790e-06
	3.707637810827532e-04
	4.939772398176743e-05
	1.837969398797230e-01

 71	7.100000000000004e-01
	-7.524342146257630e-15
	-4.317470107539712e-17
	-3.985570946670229e-14
	3.415305054583371e-06
	3.957646933758522e-04
	5.322885961645627e-05
	1.837973992675880e-01

 72	7.200000000000004e-01
	-7.519962019301902e-15
	-4.446842744585085e-17
	-3.997910294344586e-14
	3.587868900425192e-06
	4.219987368217112e-04
	5.731608778175029e-05
	1.837978893639811e-01

 73	7.300000000000004e-01
	-7.516703382301908e-15
	-4.580473991761400e-17
	-4.009966197601148e-14
	3.768185391611066e-06
	4.494832567482453e-04
	6.167182166733145e-05
	1.837984116567669e-01

 74	7.400000000000004e-01
	-7.514540732535821e-15
	-4.718521371769217e-17
	-4.021741844325499e-14
	3.956587135073027e-06
	4.782319767696920e-04
	6.630862932466065e-05
	1.837989676523165e-01

 75	7.500000000000004e-01
	-7.513448714692072e-15
	-4.861148973060111e-17
	-4.033240482281045e-14
	4.153425151696414e-06
	5.082547471419861e-04
	7.123919614276589e-05
	1.837995588710134e-01

 76	7.600000000000005e-01
	-7.513402135633302e-15
	-5.008527753276464e-17
	-4.044465414027440e-14
	4.359070565506735e-06
	5.395573134295237e-04
	7.647628490846363e-05
	1.838001868424771e-01

 77	7.700000000000005e-01
	-7.514375978204567e-15
	-5.160835857856203e-17
	-4.055419991969137e-14
	4.573916481722216e-06
	5.721411090493476e-04
	8.203269367263399e-05
	1.838008531005199e-01

 78	7.800000000000005e-01
	-7.516345414093913e-15
	-5.318258954600965e-17
	-4.066107613536933e-14
	4.798380073685090e-06
	6.060030750914548e-04
	8.792121167904909e-05
	1.838015591778746e-01

 79	7.900000000000005e-01
	-7.519285815753235e-15
	-5.480990585047116e-17
	-4.076531716505203e-14
	5.032904900731906e-06
	6.411355105770373e-04
	9.415457364511505e-05
	1.838023066007311e-01

 80	8.000000000000005e-01
	-7.523172767389531e-15
	-5.649232533526814e-17
	-4.086695774446894e-14
	5.277963481358183e-06
	6.775259560110619e-04
	1.007454127140189e-04
	1.838030968830980e-01

 81	8.100000000000005e-01
	-7.527982075037785e-15
	-5.823195214850382e-17
	-4.096603292327866e-14
	5.534060148615030e-06
	7.151571127148414e-04
	1.077062124244975e-04
	1.838039315210610e-01

 82	8.200000000000005e-01
	-7.533689775727083e-15
	-6.003098081594675e-17
	-4.106257802241917e-14
	5.801734217591038e-06
	7.540067999930524e-04
	1.150492580671524e-04
	1.838048119869579e-01

 83	8.300000000000005e-01
	-7.540272145753298e-15
	-6.189170052031110e-17
	-4.115662859287269e-14
	6.081563498135441e-06
	7.940479517047395e-04
	1.227865878143528e-04
	1.838057397235331e-01

 84	8.400000000000005e-01
	-7.547705708071476e-15
	-6.381649959785463e-17
	-4.124822037585035e-14
	6.374168189727338e-06
	8.352486532772326e-04
	1.309299440237645e-04
	1.838067161380997e-01

 85	8.500000000000005e-01
	-7.555967238822542e-15
	-6.580787026375926e-17
	-4.133738926439760e-14
	6.680215199664465e-06
	8.775722196357124e-04
	1.394907251230592e-04
	1.838077425967825e-01

 86	8.600000000000005e-01
	-7.565033773008743e-15
	-6.786841357839118e-17
	-4.142417126641803e-14
	7.000422930612599e-06
	9.209773139300512e-04
	1.484799384850571e-04
	1.838088204188645e-01

 87	8.700000000000006e-01
	-7.574882609332954e-15
	-7.000084466714821e-17
	-4.150860246911123e-14
	7.335566589117812e-06
	9.654181063365681e-04
	1.579081546982603e-04
	1.838099508713082e-01

 88	8.800000000000006e-01
	-7.585491314217195e-15
	-7.220799820728211e-17
	-4.159071900481555e-14
	7.686484073046740e-06
	1.010844471607958e-03
	1.677854636273969e-04
	1.838111351634905e-01

 89	8.900000000000006e-01
	-7.596837725015731e-15
	-7.449283419577323e-17
	-4.167055701824555e-14
	8.054082503206066e-06
	1.057202223452426e-03
	1.781214326422361e-04
	1.838123744421756e-01

 90	9.000000000000006e-01
	-7.608899952438271e-15
	-7.685844401303295e-17
	-4.174815263511089e-14
	8.439345472745092e-06
	1.104433383255664e-03
	1.889250673707789e-04
	1.838136697868190e-01

 91	9.100000000000006e-01
	-7.621656382198617e-15
	-7.930805679800882e-17
	-4.182354193210046e-14
	8.843341097525967e-06
	1.152476480128656e-03
	2.002047753052864e-04
	1.838150222051908e-01

 92	9.200000000000006e-01
	-7.635085675904058e-15
	-8.184504615100712e-17
	-4.189676090821437e-14
	9.267230961639846e-06
	1.201266878781519e-03
	2.119683325568763e-04
	1.838164326293750e-01

 93	9.300000000000006e-01
	-7.649166771200389e-15
	-8.447293718138342e-17
	-4.196784545742411e-14
	9.712280064866310e-06
	1.250737131298150e-03
	2.242228540171323e-04
	1.838179019121907e-01

 94	9.400000000000006e-01
	-7.663878881187492e-15
	-8.719541391810024e-17
	-4.203683134263823e-14
	1.017986789336427e-05
	1.300817348527263e-03
	2.369747671440186e-04
	1.838194308240391e-01

 95	9.500000000000006e-01
	-7.679201493119215e-15
	-9.001632710201828e-17
	-4.210375417095135e-14
	1.067150075151702e-05
	1.351435586518064e-03
	2.502297895449412e-04
	1.838210200501989e-01

 96	9.600000000000006e-01
	-7.695114366401730e-15
	-9.293970237968982e-17
	-4.216864937015077e-14
	1.118882551195643e-05
	1.402518243218367e-03
	2.639929104829226e-04
	1.838226701886071e-01

 97	9.700000000000006e-01
	-7.711597529903236e-15
	-9.596974891937151e-17
	-4.223155216645471e-14
	1.173364496271956e-05
	1.453990460521531e-03
	2.782683763832694e-04
	1.838243817481124e-01

 98	9.800000000000006e-01
	-7.728631278587632e-15
	-9.911086847092154e-17
	-4.229249756345401e-14
	1.230793495565758e-05
	1.505776526696170e-03
	2.930596803686072e-04
	1.838261551472113e-01

 99	9.900000000000007e-01
	-7.746196169483763e-15
	-1.023676648922270e-16
	-4.235152032222934e-14
	1.291386358909092e-05
	1.557800274257565e-03
	3.083695558005543e-04
	1.838279907132744e-01

 100	1.000000000000001e+00
	-7.764273017001471e-15
	-1.057449541658353e-16
	-4.240865494261313e-14
	1.355381269081262e-05
	1.609985468437866e-03
	3.241999737573355e-04
	1.838298886822322e-01

 101	1.010000000000001e+00
	-7.782842887604517e-15
	-1.092477749304605e-16
	-4.246393564556594e-14
