Title: ** sch_path: /home/andylithia/openmpw/project-yatsuhashi-chip1/xschem/gmid_test/nmos_test.sch
Date: Tue Jul 19 23:15:45  2022
Plotname: DC transfer characteristic
Flags: real
No. Variables: 8
No. Points: 181
Variables:
	0	v(v-sweep)	voltage
	1	@m.xm1.msky130_fd_pr__nfet_01v8[cgb]	capacitance
	2	@m.xm1.msky130_fd_pr__nfet_01v8[cgd]	capacitance
	3	@m.xm1.msky130_fd_pr__nfet_01v8[cgs]	capacitance
	4	@m.xm1.msky130_fd_pr__nfet_01v8[gds]	admittance
	5	@m.xm1.msky130_fd_pr__nfet_01v8[gm]	admittance
	6	i(@m.xm1.msky130_fd_pr__nfet_01v8[id])	current
	7	v(@m.xm1.msky130_fd_pr__nfet_01v8[vth])	voltage
Values:
 0	0.000000000000000e+00
	-1.291032794321205e-14
	-1.002372158910929e-18
	-2.535172939802699e-14
	2.240738537472255e-08
	8.711159620162712e-07
	1.122579395332140e-07
	1.791279856455421e-01

 1	1.000000000000000e-02
	-1.276965869578409e-14
	-1.025785562202672e-18
	-2.568670170626026e-14
	2.413178969480957e-08
	9.408513032744302e-07
	1.213132617099245e-07
	1.791279863661724e-01

 2	2.000000000000000e-02
	-1.263087130053927e-14
	-1.049702382032430e-18
	-2.602101037360859e-14
	2.598173649613107e-08
	1.016225083217969e-06
	1.310937492058401e-07
	1.791279871451387e-01

 3	3.000000000000000e-02
	-1.249399251399966e-14
	-1.074132118619762e-18
	-2.635454234260244e-14
	2.796562663446436e-08
	1.097713521521287e-06
	1.416581328347211e-07
	1.791279879872648e-01

 4	4.000000000000000e-02
	-1.235904814141233e-14
	-1.099084428783373e-18
	-2.668718547690958e-14
	3.009235190117384e-08
	1.185836359820804e-06
	1.530701197963857e-07
	1.791279888977908e-01

 5	5.000000000000000e-02
	-1.222606299122401e-14
	-1.124569128804890e-18
	-2.701882869546970e-14
	3.237131741645903e-08
	1.281161150240715e-06
	1.653988499977816e-07
	1.791279898824227e-01

 6	6.000000000000000e-02
	-1.209506083216505e-14
	-1.150596197377810e-18
	-2.734936210403343e-14
	3.481246454092148e-08
	1.384307968048537e-06
	1.787193973498940e-07
	1.791279909473766e-01

 7	7.000000000000001e-02
	-1.196606435302080e-14
	-1.177175778644398e-18
	-2.767867712379198e-14
	3.742629427972768e-08
	1.495954585001700e-06
	1.931133204628836e-07
	1.791279920994201e-01

 8	8.000000000000000e-02
	-1.183909512515934e-14
	-1.204318185322506e-18
	-2.800666661679425e-14
	4.022389115049442e-08
	1.616842141875847e-06
	2.086692675370999e-07
	1.791279933459406e-01

 9	9.000000000000000e-02
	-1.171417356787580e-14
	-1.232033901925931e-18
	-2.833322500786321e-14
	4.321694748286653e-08
	1.747781360483883e-06
	2.254836406418579e-07
	1.791279946949840e-01

 10	9.999999999999999e-02
	-1.159131891660398e-14
	-1.260333588080443e-18
	-2.865824840273268e-14
	4.641778811442781e-08
	1.889659337152221e-06
	2.436613249851469e-07
	1.791279961553524e-01

 11	1.100000000000000e-01
	-1.147054919403594e-14
	-1.289228081938509e-18
	-2.898163470214671e-14
	4.983939544428121e-08
	2.043446961070348e-06
	2.633164892048292e-07
	1.791279977366455e-01

 12	1.200000000000000e-01
	-1.135188118418221e-14
	-1.318728403695580e-18
	-2.930328371167177e-14
	5.349543480213939e-08
	2.210207002104935e-06
	2.845734631518027e-07
	1.791279994493679e-01

 13	1.300000000000000e-01
	-1.123533040939350e-14
	-1.348845759211002e-18
	-2.962309724699565e-14
	5.740028008729543e-08
	2.391102913512658e-06
	3.075677000863353e-07
	1.791280013050009e-01

 14	1.400000000000000e-01
	-1.112091111035704e-14
	-1.379591543735890e-18
	-2.994097923449879e-14
	6.156903962817245e-08
	2.587408395414870e-06
	3.324468306653132e-07
	1.791280033161119e-01

 15	1.500000000000000e-01
	-1.100863622906994e-14
	-1.410977345751864e-18
	-3.025683580690522e-14
	6.601758220948092e-08
	2.800517764838937e-06
	3.593718165570927e-07
	1.791280054964595e-01

 16	1.600000000000000e-01
	-1.089851739478289e-14
	-1.443014950922621e-18
	-3.057057539383719e-14
	7.076256321015384e-08
	3.031957177491770e-06
	3.885182119758136e-07
	1.791280078611199e-01

 17	1.700000000000000e-01
	-1.079056491289790e-14
	-1.475716346162627e-18
	-3.088210880711760e-14
	7.582145079132184e-08
	3.283396745119961e-06
	4.200775418728027e-07
	1.791280104266061e-01

 18	1.800000000000000e-01
	-1.068478775679515e-14
	-1.509093723824829e-18
	-3.119134932068208e-14
	8.121255206947040e-08
	3.556663590221800e-06
	4.542588059511889e-07
	1.791280132110291e-01

 19	1.900000000000000e-01
	-1.058119356255434e-14
	-1.543159486011571e-18
	-3.149821274498503e-14
	8.695503920578571e-08
	3.853755876906335e-06
	4.912901180736434e-07
	1.791280162342470e-01

 20	2.000000000000000e-01
	-1.047978862652806e-14
	-1.577926249011172e-18
	-3.180261749580031e-14
	9.306897533824458e-08
	4.176857852722339e-06
	5.314204910016665e-07
	1.791280195180577e-01

 21	2.100000000000000e-01
	-1.038057790571559e-14
	-1.613406847864238e-18
	-3.210448465734129e-14
	9.957534027856295e-08
	4.528355931195261e-06
	5.749217767288824e-07
	1.791280230863730e-01

 22	2.200000000000001e-01
	-1.028356502087843e-14
	-1.649614341062220e-18
	-3.240373803964029e-14
	1.064960558913350e-07
	4.910855838481734e-06
	6.220907729370568e-07
	1.791280269654434e-01

 23	2.300000000000001e-01
	-1.018875226233082e-14
	-1.686562015382549e-18
	-3.270030423015032e-14
	1.138540110678472e-07
	5.327200839864737e-06
	6.732515063005423e-07
	1.791280311840924e-01

 24	2.400000000000001e-01
	-1.009614059833106e-14
	-1.724263390862729e-18
	-3.299411263955114e-14
	1.216730862019482e-07
	5.780491052637680e-06
	7.287577034771619e-07
	1.791280357739677e-01

 25	2.500000000000001e-01
	-1.000572968599384e-14
	-1.762732225918116e-18
	-3.328509554175869e-14
	1.299781770700480e-07
	6.274103841145998e-06
	7.889954606362478e-07
	1.791280407698227e-01

 26	2.600000000000001e-01
	-9.917517884636207e-15
	-1.801982522606065e-18
	-3.357318810815837e-14
	1.387952180118143e-07
	6.811715277254818e-06
	8.543861222709362e-07
	1.791280462098196e-01

 27	2.700000000000001e-01
	-9.831502271465536e-15
	-1.842028532040421e-18
	-3.385832843609775e-14
	1.481512043024563e-07
	7.397322635187655e-06
	9.253893798041727e-07
	1.791280521358701e-01

 28	2.800000000000001e-01
	-9.747678659511179e-15
	-1.882884759960746e-18
	-3.414045757169559e-14
	1.580742136015067e-07
	8.035267873439605e-06
	1.002506600107321e-06
	1.791280585939897e-01

 29	2.900000000000001e-01
	-9.666041617698401e-15
	-1.924565972458747e-18
	-3.441951952703652e-14
	1.685934263570017e-07
	8.730262038237664e-06
	1.086284393487397e-06
	1.791280656346955e-01

 30	3.000000000000001e-01
	-9.586584492957876e-15
	-1.967087201867186e-18
	-3.469546129184021e-14
	1.797391450375870e-07
	9.487410502748546e-06
	1.177318429943447e-06
	1.791280733134421e-01

 31	3.100000000000001e-01
	-9.509299434260711e-15
	-2.010463752814837e-18
	-3.496823283970833e-14
	1.915428120588101e-07
	1.031223893390002e-05
	1.276257511524382e-06
	1.791280816910733e-01

 32	3.200000000000001e-01
	-9.434177418466750e-15
	-2.054711208451060e-18
	-3.523778712906542e-14
	2.040370262632033e-07
	1.121071985429008e-05
	1.383807907417782e-06
	1.791280908343353e-01

 33	3.300000000000001e-01
	-9.361208277870209e-15
	-2.099845436844988e-18
	-3.550408009892552e-14
	2.172555578073478e-07
	1.218929964027098e-05
	1.500737956943366e-06
	1.791281008164238e-01

 34	3.400000000000001e-01
	-9.290380729325395e-15
	-2.145882597563474e-18
	-3.576707065962857e-14
	2.312333613025402e-07
	1.325492576900330e-05
	1.627882943894931e-06
	1.791281117175553e-01

 35	3.500000000000001e-01
	-9.221682404834459e-15
	-2.192839148431544e-18
	-3.602672067869997e-14
	2.460065870492123e-07
	1.441507409722661e-05
	1.766150243652100e-06
	1.791281236256171e-01

 36	3.600000000000002e-01
	-9.155099883476460e-15
	-2.240731852480986e-18
	-3.628299496200127e-14
	2.616125901991178e-07
	1.567777592291753e-05
	1.916524742153904e-06
	1.791281366368315e-01

 37	3.700000000000002e-01
	-9.090618724558806e-15
	-2.289577785090894e-18
	-3.653586123034600e-14
	2.780899376733356e-07
	1.705164454815798e-05
	2.080074523172699e-06
	1.791281508564866e-01

 38	3.800000000000002e-01
	-9.028223501870725e-15
	-2.339394341325084e-18
	-3.678529009176505e-14
	2.954784126586721e-07
	1.854590102778468e-05
	2.257956817341042e-06
	1.791281663997126e-01

 39	3.900000000000002e-01
	-8.967897838919265e-15
	-2.390199243471553e-18
	-3.703125500961350e-14
	3.138190165002282e-07
	2.017039875415857e-05
	2.451424203057572e-06
	1.791281833923076e-01

 40	4.000000000000002e-01
	-8.909624445029911e-15
	-2.442010548789206e-18
	-3.727373226671714e-14
	3.331539678037895e-07
	2.193564649418683e-05
	2.661831045728481e-06
	1.791282019716088e-01

 41	4.100000000000002e-01
	-8.853385152195033e-15
	-2.494846657465991e-18
	-3.751270092576141e-14
	3.535266985586229e-07
	2.385282946115014e-05
	2.890640157792117e-06
	1.791282222874348e-01

 42	4.200000000000002e-01
	-8.799160952554760e-15
	-2.548726320795192e-18
	-3.774814278613259e-14
	3.749818470893743e-07
	2.593382797161546e-05
	3.139429657635614e-06
	1.791282445030601e-01

 43	4.300000000000002e-01
	-8.746932036397869e-15
	-2.603668649574282e-18
	-3.798004233742183e-14
	3.975652476453830e-07
	2.819123320751150e-05
	3.409900000860384e-06
	1.791282687962430e-01

 44	4.400000000000002e-01
	-8.696677830572622e-15
	-2.659693122732513e-18
	-3.820838670980662e-14
	4.213239164369734e-07
	3.063835957615681e-05
	3.703881152412570e-06
	1.791282953603130e-01

 45	4.500000000000002e-01
	-8.648377037199893e-15
	-2.716819596193044e-18
	-3.843316562152613e-14
	4.463060339316803e-07
	3.328925313759032e-05
	4.023339862900457e-06
	1.791283244052978e-01

 46	4.600000000000002e-01
	-8.602007672585106e-15
	-2.775068311974927e-18
	-3.865437132366666e-14
	4.725609232290099e-07
	3.615869554993469e-05
	4.370387007014548e-06
	1.791283561590991e-01

 47	4.700000000000003e-01
	-8.557547106227691e-15
	-2.834459907542536e-18
	-3.887199854247459e-14
	5.001390243407480e-07
	3.926220297077286e-05
	4.747284936402910e-06
	1.791283908686875e-01

 48	4.800000000000003e-01
	-8.514972099831888e-15
	-2.895015425407329e-18
	-3.908604441941142e-14
	5.290918642150170e-07
	4.261601934669714e-05
	5.156454793695857e-06
	1.791284288013648e-01

 49	4.900000000000003e-01
	-8.474258846225530e-15
	-2.956756322988993e-18
	-3.929650844916599e-14
	5.594720223572427e-07
	4.623710352541442e-05
	5.600483728700251e-06
	1.791284702460223e-01

 50	5.000000000000002e-01
	-8.435383008097901e-15
	-3.019704482743559e-18
	-3.950339241583472e-14
	5.913330919194038e-07
	5.014310963608656e-05
	6.082131952172434e-06
	1.791285155144348e-01

 51	5.100000000000002e-01
	-8.398319756472057e-15
	-3.083882222564133e-18
	-3.970670032747911e-14
	6.247296361515102e-07
	5.435236020504135e-05
	6.604339557134864e-06
	1.791285649425463e-01

 52	5.200000000000002e-01
	-8.363043808831812e-15
	-3.149312306462261e-18
	-3.990643834926337e-14
	6.597171401360496e-07
	5.888381150650511e-05
	7.170233032523048e-06
	1.791286188917808e-01

 53	5.300000000000002e-01
	-8.329529466826632e-15
	-3.216017955537621e-18
	-4.010261473537464e-14
	6.963519577577236e-07
	6.375701069250665e-05
	7.783131389161168e-06
	1.791286777502967e-01

 54	5.400000000000003e-01
	-8.297750653484019e-15
	-3.284022859242783e-18
	-4.029523975991944e-14
	7.346912538970253e-07
	6.899204430318645e-05
	8.446551813777386e-06
	1.791287419342471e-01

 55	5.500000000000003e-01
	-8.267680949862437e-15
	-3.353351186951883e-18
	-4.048432564698644e-14
	7.747929418779508e-07
	7.460947782902455e-05
	9.164214763126701e-06
	1.791288118889813e-01

 56	5.600000000000003e-01
	-8.239293631082160e-15
	-3.424027599840866e-18
	-4.066988650006080e-14
	8.167156162467589e-07
	8.063028608018080e-05
	9.940048407412676e-06
	1.791288880901617e-01

 57	5.700000000000003e-01
	-8.212561701677680e-15
	-3.496077263088372e-18
	-4.085193823096544e-14
	8.605184810106998e-07
	8.707577421523649e-05
	1.077819233022585e-05
	1.791289710448361e-01

 58	5.800000000000003e-01
	-8.187457930217589e-15
	-3.569525858405388e-18
	-4.103049848850294e-14
	9.062612735231627e-07
	9.396748939189321e-05
	1.168300039128878e-05
	1.791290612923727e-01

 59	5.900000000000003e-01
	-8.163954883144098e-15
	-3.644399596903039e-18
	-4.120558658696065e-14
	9.540041842637712e-07
	1.013271231248545e-04
	1.265904265852626e-05
	1.791291594052711e-01

 60	6.000000000000003e-01
	-8.142024957788695e-15
	-3.720725232307992e-18
	-4.137722343463642e-14
	1.003807772829368e-06
	1.091764045702841e-04
	1.371110631750140e-05
	1.791292659898558e-01

 61	6.100000000000003e-01
	-8.121640414523512e-15
	-3.798530074535585e-18
	-4.154543146253526e-14
	1.055732880523417e-06
	1.175369851004099e-04
	1.484419546917403e-05
	1.791293816867477e-01

 62	6.200000000000003e-01
	-8.102773408014420e-15
	-3.877842003629348e-18
	-4.171023455337806e-14
	1.109840540006674e-06
	1.264303146841847e-04
	1.606352973133278e-05
	1.791295071711910e-01

 63	6.300000000000003e-01
	-8.085396017543726e-15
	-3.958689484078961e-18
	-4.187165797105849e-14
	1.166191882550838e-06
	1.358775107482754e-04
	1.737454156501437e-05
	1.791296431531134e-01

 64	6.400000000000003e-01
	-8.069480276376670e-15
	-4.041101579526651e-18
	-4.202972829067335e-14
	1.224848043517630e-06
	1.458992203542813e-04
	1.878287225477669e-05
	1.791297903769812e-01

 65	6.500000000000004e-01
	-8.054998200148208e-15
	-4.125107967872521e-18
	-4.218447332924707e-14
	1.285870066768342e-06
	1.565154766901272e-04
	2.029436648088053e-05
	1.791299496213639e-01

 66	6.600000000000004e-01
	-8.041921814251313e-15
	-4.210738956791936e-18
	-4.233592207726053e-14
	1.349318808791172e-06
	1.677455510325866e-04
	2.191506543221848e-05
	1.791301216982323e-01

 67	6.700000000000004e-01
	-8.030223180211414e-15
	-4.298025499675366e-18
	-4.248410463108910e-14
	1.415254843415659e-06
	1.796078014904466e-04
	2.365119842118888e-05
	1.791303074519260e-01

 68	6.800000000000004e-01
	-8.019874421035283e-15
	-4.386999212003264e-18
	-4.262905212644526e-14
	1.483738368062398e-06
	1.921195199800028e-04
	2.550917297553432e-05
	1.791305077578367e-01

 69	6.900000000000004e-01
	-8.010847745525848e-15
	-4.477692388169293e-18
	-4.277079667291480e-14
	1.554829112552199e-06
	2.052967790126979e-04
	2.749556339735543e-05
	1.791307235207343e-01

 70	7.000000000000004e-01
	-8.003115471557899e-15
	-4.570138018764811e-18
	-4.290937128966787e-14
	1.628586251569056e-06
	2.191542799847957e-04
	2.961709779588489e-05
	1.791309556727632e-01

 71	7.100000000000004e-01
	-7.996650048312405e-15
	-4.664369808337480e-18
	-4.304480984241873e-14
	1.705068321935123e-06
	2.337052047473761e-04
	3.188064361798056e-05
	1.791312051710898e-01

 72	7.200000000000004e-01
	-7.991424077470731e-15
	-4.760422193638372e-18
	-4.317714698170112e-14
	1.784333145911859e-06
	2.489610722981558e-04
	3.429319171843193e-05
	1.791314729952184e-01

 73	7.300000000000004e-01
	-7.987410333371664e-15
	-4.858330362373181e-18
	-4.330641808251964e-14
	1.866437761787584e-06
	2.649316024715082e-04
	3.686183903079517e-05
	1.791317601439595e-01

 74	7.400000000000004e-01
	-7.984581782137958e-15
	-4.958130272469524e-18
	-4.343265918543001e-14
	1.951438363047742e-06
	2.816245885070442e-04
	3.959376991829620e-05
	1.791320676320884e-01

 75	7.500000000000004e-01
	-7.982911599780622e-15
	-5.059858671879465e-18
	-4.355590693909560e-14
	2.039390247447984e-06
	2.990457803480776e-04
	4.249623630303256e-05
	1.791323964866803e-01

 76	7.600000000000005e-01
	-7.982373189292213e-15
	-5.163553118929138e-18
	-4.367619854436032e-14
	2.130347777321610e-06
	3.171987804579674e-04
	4.557653668993158e-05
	1.791327477431988e-01

 77	7.700000000000005e-01
	-7.982940196741173e-15
	-5.269252003235381e-18
	-4.379357169987357e-14
	2.224364352451612e-06
	3.360849538442641e-04
	4.884199421935751e-05
	1.791331224412871e-01

 78	7.800000000000005e-01
	-7.984586526383098e-15
	-5.376994567203071e-18
	-4.390806454929548e-14
	2.321492396821448e-06
	3.557033538477975e-04
	5.229993389849926e-05
	1.791335216203961e-01

 79	7.900000000000005e-01
	-7.987286354804854e-15
	-5.486820928122398e-18
	-4.401971563010597e-14
	2.421783360530821e-06
	3.760506650880585e-04
	5.595765917646336e-05
	1.791339463152066e-01

 80	8.000000000000005e-01
	-7.991014144119889e-15
	-5.598772100884567e-18
	-4.412856382403697e-14
	2.525287738120026e-06
	3.971211647590285e-04
	5.982242804092190e-05
	1.791343975509375e-01

 81	8.100000000000005e-01
	-7.995744654234730e-15
	-5.712890021330601e-18
	-4.423464830913988e-14
	2.632055104492247e-06
	4.189067032444604e-04
	6.390142882500428e-05
	1.791348763385877e-01

 82	8.200000000000005e-01
	-8.001452954207061e-15
	-5.829217570257230e-18
	-4.433800851349849e-14
	2.742134169557002e-06
	4.413967047720895e-04
	6.820175592156214e-05
	1.791353836701430e-01

 83	8.300000000000005e-01
	-8.008114432718518e-15
	-5.947798598096238e-18
	-4.443868407059024e-14
	2.855572852642065e-06
	4.645781885571732e-04
	7.273038560779223e-05
	1.791359205138345e-01

 84	8.400000000000005e-01
	-8.015704807684121e-15
	-6.068677950287480e-18
	-4.453671477629800e-14
	2.972418377636642e-06
	4.884358106021850e-04
	7.749415218627000e-05
	1.791364878094756e-01

 85	8.500000000000005e-01
	-8.024200135023952e-15
	-6.191901493368829e-18
	-4.463214054756624e-14
	3.092717389738151e-06
	5.129519260273508e-04
	8.249972464864190e-05
	1.791370864639757e-01

 86	8.600000000000005e-01
	-8.033576816620471e-15
	-6.317516141801487e-18
	-4.472500138269731e-14
	3.216516094580591e-06
	5.381066715120483e-04
	8.775358406547507e-05
	1.791377173470413e-01

 87	8.700000000000006e-01
	-8.043811607488188e-15
	-6.445569885555958e-18
	-4.481533732327441e-14
	3.343860420426625e-06
	5.638780671360863e-04
	9.326200190006932e-05
	1.791383812871652e-01

 88	8.800000000000006e-01
	-8.054881622180584e-15
	-6.576111818480602e-18
	-4.490318841769971e-14
	3.474796204011851e-06
	5.902421366290041e-04
	9.903101943549855e-05
	1.791390790679069e-01

 89	8.900000000000006e-01
	-8.066764340462029e-15
	-6.709192167475724e-18
	-4.498859468632940e-14
	3.609369400539565e-06
	6.171730447704494e-04
	1.050664284928372e-04
	1.791398114245836e-01

 90	9.000000000000006e-01
	-8.079437612269749e-15
	-6.844862322500359e-18
	-4.507159608818744e-14
	3.747626318243072e-06
	6.446432504416144e-04
	1.113737536047264e-04
	1.791405790413197e-01

 91	9.100000000000006e-01
	-8.092879661994053e-15
	-6.983174867435424e-18
	-4.515223248923596e-14
	3.889613877860437e-06
	6.726236736110417e-04
	1.179582357922675e-04
	1.791413825485897e-01

 92	9.200000000000006e-01
	-8.107069092103203e-15
	-7.124183611832696e-18
	-4.523054363217738e-14
	4.035379897309282e-06
	7.010838743529388e-04
	1.248248180751067e-04
	1.791422225212073e-01

 93	9.300000000000006e-01
	-8.121984886139436e-15
	-7.267943623573468e-18
	-4.530656910776421e-14
	4.184973401807718e-06
	7.299922418454807e-04
	1.319781328247376e-04
	1.791430994768264e-01

 94	9.400000000000006e-01
	-8.137606411113434e-15
	-7.414511262471652e-18
	-4.538034832758684e-14
	4.338444959665737e-06
	7.593161911834381e-04
	1.394224910499080e-04
	1.791440138749374e-01

 95	9.500000000000006e-01
	-8.153913419324105e-15
	-7.563944214845488e-18
	-4.545192049831021e-14
	4.495847043971053e-06
	7.890223657652241e-04
	1.471618736809240e-04
	1.791449661164194e-01

 96	9.600000000000006e-01
	-8.170886049628852e-15
	-7.716301529093601e-18
	-4.552132459732913e-14
	4.657234420418708e-06
	8.190768429801853e-04
	1.551999248970530e-04
	1.791459565435554e-01

 97	9.700000000000006e-01
	-8.188504828191269e-15
	-7.871643652306583e-18
	-4.558859934980980e-14
	4.822664561584068e-06
	8.494453409266984e-04
	1.635399475184308e-04
	1.791469854405826e-01

 98	9.800000000000006e-01
	-8.206750668731913e-15
	-8.030032467947612e-18
	-4.565378320708276e-14
	4.992198088019150e-06
	8.800934239347097e-04
	1.721849004613744e-04
	1.791480530347279e-01

 99	9.900000000000007e-01
	-8.225604872306438e-15
	-8.191531334638697e-18
	-4.571691432635507e-14
	5.165899236663073e-06
	9.109867047453470e-04
	1.811373982341138e-04
	1.791491594976871e-01

 100	1.000000000000001e+00
	-8.245049126636748e-15
	-8.356205126088115e-18
	-4.577803055170467e-14
	5.343836357199147e-06
	9.420910413118676e-04
	1.903997124289743e-04
	1.791503049475456e-01

 101	1.010000000000001e+00
	-8.265065505018317e-15
	-8.524120272198639e-18
	-4.583716939632233e-14
