Title: ** sch_path: /home/andylithia/openmpw/project-yatsuhashi-chip1/xschem/gmid_test/nmos_test.sch
Date: Tue Jul 19 23:15:45  2022
Plotname: DC transfer characteristic
Flags: real
No. Variables: 8
No. Points: 181
Variables:
	0	v(v-sweep)	voltage
	1	@m.xm1.msky130_fd_pr__nfet_01v8[cgb]	capacitance
	2	@m.xm1.msky130_fd_pr__nfet_01v8[cgd]	capacitance
	3	@m.xm1.msky130_fd_pr__nfet_01v8[cgs]	capacitance
	4	@m.xm1.msky130_fd_pr__nfet_01v8[gds]	admittance
	5	@m.xm1.msky130_fd_pr__nfet_01v8[gm]	admittance
	6	i(@m.xm1.msky130_fd_pr__nfet_01v8[id])	current
	7	v(@m.xm1.msky130_fd_pr__nfet_01v8[vth])	voltage
Values:
 0	0.000000000000000e+00
	-1.515816028134638e-14
	-1.281222905543533e-18
	-3.112469740255110e-14
	4.635111942552023e-08
	1.727623434173835e-06
	2.322123852805792e-07
	1.661923485913555e-01

 1	1.000000000000000e-02
	-1.499791408873994e-14
	-1.310060080237235e-18
	-3.150937652091591e-14
	4.975532133024753e-08
	1.860169518074955e-06
	2.501430861682385e-07
	1.661923499090473e-01

 2	2.000000000000000e-02
	-1.483995792102765e-14
	-1.339497225916601e-18
	-3.189304243606346e-14
	5.339573342852315e-08
	2.003015333334699e-06
	2.694500744153870e-07
	1.661923513293297e-01

 3	3.000000000000000e-02
	-1.468431799914535e-14
	-1.369545430312086e-18
	-3.227557569595372e-14
	5.728740172771387e-08
	2.157000142859014e-06
	2.902404843356129e-07
	1.661923528603954e-01

 4	4.000000000000000e-02
	-1.453101947408103e-14
	-1.400215964945054e-18
	-3.265685803266201e-14
	6.144620901488929e-08
	2.323037346495672e-06
	3.126302079066411e-07
	1.661923545111408e-01

 5	5.000000000000000e-02
	-1.438008638438141e-14
	-1.431520288542644e-18
	-3.303677249083691e-14
	6.588891137575588e-08
	2.502121519157164e-06
	3.367446707891019e-07
	1.661923562912255e-01

 6	6.000000000000000e-02
	-1.423154161635837e-14
	-1.463470050548310e-18
	-3.341520355324898e-14
	7.063317557190985e-08
	2.695336115399975e-06
	3.627196820129454e-07
	1.661923582111433e-01

 7	7.000000000000001e-02
	-1.408540686705408e-14
	-1.496077094731012e-18
	-3.379203726315968e-14
	7.569761724749640e-08
	2.903861895264834e-06
	3.907023642674663e-07
	1.661923602823081e-01

 8	8.000000000000000e-02
	-1.394170261001503e-14
	-1.529353462895764e-18
	-3.416716134325160e-14
	8.110183993278587e-08
	3.128986128968077e-06
	4.208521722930321e-07
	1.661923625171362e-01

 9	9.000000000000000e-02
	-1.380044806391832e-14
	-1.563311398699132e-18
	-3.454046531087129e-14
	8.686647480839425e-08
	3.372112640676725e-06
	4.533420074616237e-07
	1.661923649291422e-01

 10	9.999999999999999e-02
	-1.366166116408319e-14
	-1.597963351571586e-18
	-3.491184058935068e-14
	9.301322119010734e-08
	3.634772754044738e-06
	4.883594372480986e-07
	1.661923675330521e-01

 11	1.100000000000000e-01
	-1.352535853689318e-14
	-1.633321980750847e-18
	-3.528118061518769e-14
	9.956488769032811e-08
	3.918637204367410e-06
	5.261080289320068e-07
	1.661923703449144e-01

 12	1.200000000000000e-01
	-1.339155547714585e-14
	-1.669400159428593e-18
	-3.564838094087826e-14
	1.065454340080521e-07
	4.225529084048603e-06
	5.668088075275467e-07
	1.661923733822298e-01

 13	1.300000000000000e-01
	-1.326026592833752e-14
	-1.706210979014017e-18
	-3.601333933321086e-14
	1.139800132951403e-07
	4.557437889494515e-06
	6.107018486138041e-07
	1.661923766640989e-01

 14	1.400000000000000e-01
	-1.313150246588251e-14
	-1.743767753517283e-18
	-3.637595586684786e-14
	1.218950150422701e-07
	4.916534738450052e-06
	6.580480174233470e-07
	1.661923802113755e-01

 15	1.500000000000000e-01
	-1.300527628325777e-14
	-1.782084024056464e-18
	-3.673613301303582e-14
	1.303181084234138e-07
	5.305188827081192e-06
	7.091308662391954e-07
	1.661923840468404e-01

 16	1.600000000000000e-01
	-1.288159718105522e-14
	-1.821173563491042e-18
	-3.709377572330277e-14
	1.392782860329922e-07
	5.725985195668546e-06
	7.642587028416199e-07
	1.661923881953870e-01

 17	1.700000000000000e-01
	-1.276047355891599e-14
	-1.861050381184979e-18
	-3.744879150801764e-14
	1.488059079449005e-07
	6.181743870491270e-06
	8.237668434288985e-07
	1.661923926842371e-01

 18	1.800000000000000e-01
	-1.264191241031282e-14
	-1.901728727904369e-18
	-3.780109050970497e-14
	1.589327460174577e-07
	6.675540447219323e-06
	8.880200641014346e-07
	1.661923975431696e-01

 19	1.900000000000000e-01
	-1.252591932013916e-14
	-1.943223100850630e-18
	-3.815058557102480e-14
	1.696920283628830e-07
	7.210728177753761e-06
	9.574152656355633e-07
	1.661924028047670e-01

 20	2.000000000000000e-01
	-1.241249846505563e-14
	-1.985548248835663e-18
	-3.849719229734469e-14
	1.811184838941614e-07
	7.790961617813259e-06
	1.032384366870251e-06
	1.661924085047043e-01

 21	2.100000000000000e-01
	-1.230165261653802e-14
	-2.028719177600624e-18
	-3.884082911385013e-14
	1.932483868561818e-07
	8.420221886507947e-06
	1.113397442573852e-06
	1.661924146820365e-01

 22	2.200000000000001e-01
	-1.219338314656361e-14
	-2.072751155282961e-18
	-3.918141731715367e-14
	2.061196012416027e-07
	9.102843581498525e-06
	1.200966122132712e-06
	1.661924213795460e-01

 23	2.300000000000001e-01
	-1.208769003586626e-14
	-2.117659718035447e-18
	-3.951888112138401e-14
	2.197716249851663e-07
	9.843543383954937e-06
	1.295647265793985e-06
	1.661924286441037e-01

 24	2.400000000000001e-01
	-1.198457188468479e-14
	-2.163460675800757e-18
	-3.985314769875025e-14
	2.342456338230873e-07
	1.064745037622308e-05
	1.398046935481495e-06
	1.661924365270664e-01

 25	2.500000000000001e-01
	-1.188402592592337e-14
	-2.210170118246311e-18
	-4.018414721459455e-14
	2.495845246965523e-07
	1.152013808171728e-05
	1.508824677366794e-06
	1.661924450847103e-01

 26	2.600000000000001e-01
	-1.178604804063752e-14
	-2.257804420862932e-18
	-4.051181285696138e-14
	2.658329585704006e-07
	1.246765822090873e-05
	1.628698133395625e-06
	1.661924543787155e-01

 27	2.700000000000001e-01
	-1.169063277575438e-14
	-2.306380251231245e-18
	-4.083608086072842e-14
	2.830374025296665e-07
	1.349657615921651e-05
	1.758447998819740e-06
	1.661924644766877e-01

 28	2.800000000000001e-01
	-1.159777336393133e-14
	-2.355914575460892e-18
	-4.115689052635929e-14
	3.012461710077830e-07
	1.461400800197423e-05
	1.898923342440154e-06
	1.661924754527112e-01

 29	2.900000000000001e-01
	-1.150746174545445e-14
	-2.406424664806616e-18
	-4.147418423334974e-14
	3.205094659908738e-07
	1.582765926829934e-05
	2.051047305703491e-06
	1.661924873879865e-01

 30	3.000000000000001e-01
	-1.141968859207241e-14
	-2.457928102465306e-18
	-4.178790744845847e-14
	3.408794160328864e-07
	1.714586504953307e-05
	2.215823195982675e-06
	1.661925003714781e-01

 31	3.100000000000001e-01
	-1.133444333266139e-14
	-2.510442790559148e-18
	-4.209800872882052e-14
	3.624101139060123e-07
	1.857763152882863e-05
	2.394340988284101e-06
	1.661925145006654e-01

 32	3.200000000000001e-01
	-1.125171418061201e-14
	-2.563986957309092e-18
	-4.240443972005834e-14
	3.851576527003516e-07
	2.013267870641665e-05
	2.587784248231064e-06
	1.661925298823145e-01

 33	3.300000000000001e-01
	-1.117148816282797e-14
	-2.618579164404199e-18
	-4.270715514951485e-14
	4.091801601757009e-07
	2.182148414002036e-05
	2.797437487442496e-06
	1.661925466333470e-01

 34	3.400000000000001e-01
	-1.109375115022490e-14
	-2.674238314570965e-18
	-4.300611281474471e-14
	4.345378311571995e-07
	2.365532747188754e-05
	3.024693960332216e-06
	1.661925648817524e-01

 35	3.500000000000001e-01
	-1.101848788961622e-14
	-2.730983659348335e-18
	-4.330127356740896e-14
	4.612929577549807e-07
	2.564633547300934e-05
	3.271063908862960e-06
	1.661925847675866e-01

 36	3.600000000000002e-01
	-1.094568203687304e-14
	-2.788834807073284e-18
	-4.359260129272787e-14
	4.895099571764090e-07
	2.780752729148350e-05
	3.538183258877181e-06
	1.661926064440454e-01

 37	3.700000000000002e-01
	-1.087531619124376e-14
	-2.847811731082264e-18
	-4.388006288465618e-14
	5.192553968878023e-07
	3.015285954585624e-05
	3.827822768264263e-06
	1.661926300786213e-01

 38	3.800000000000002e-01
	-1.080737193072037e-14
	-2.907934778134904e-18
	-4.416362821695012e-14
	5.505980168711082e-07
	3.269727085596032e-05
	4.141897623389175e-06
	1.661926558543265e-01

 39	3.900000000000002e-01
	-1.074182984833880e-14
	-2.969224677063851e-18
	-4.444327011030370e-14
	5.836087487096239e-07
	3.545672535364599e-05
	4.482477475879115e-06
	1.661926839710271e-01

 40	4.000000000000002e-01
	-1.067866958930100e-14
	-3.031702547658485e-18
	-4.471896429573762e-14
	6.183607312262903e-07
	3.844825466438507e-05
	4.851796907029592e-06
	1.661927146468391e-01

 41	4.100000000000002e-01
	-1.061786988880913e-14
	-3.095389909786855e-18
	-4.499068937442740e-14
	6.549293223879154e-07
	4.168999779859528e-05
	5.252266301734905e-06
	1.661927481196460e-01

 42	4.200000000000002e-01
	-1.055940861050264e-14
	-3.160308692763784e-18
	-4.525842677416299e-14
	6.933921071798040e-07
	4.520123833943383e-05
	5.686483107973036e-06
	1.661927846486750e-01

 43	4.300000000000002e-01
	-1.050326278539223e-14
	-3.226481244968597e-18
	-4.552216070263435e-14
	7.338289011473018e-07
	4.900243826252836e-05
	6.157243451477883e-06
	1.661928245161950e-01

 44	4.400000000000002e-01
	-1.044940865118617e-14
	-3.293930343723086e-18
	-4.578187809773986e-14
	7.763217492948648e-07
	5.311526767364874e-05
	6.667554068333890e-06
	1.661928680292895e-01

 45	4.500000000000002e-01
	-1.039782169190765e-14
	-3.362679205431893e-18
	-4.603756857511643e-14
	8.209549200288660e-07
	5.756262970370347e-05
	7.220644510845770e-06
	1.661929155217172e-01

 46	4.600000000000002e-01
	-1.034847667770505e-14
	-3.432751495995568e-18
	-4.628922437308945e-14
	8.678148938286376e-07
	6.236867975786944e-05
	7.819979574207008e-06
	1.661929673558906e-01

 47	4.700000000000003e-01
	-1.030134770475875e-14
	-3.504171341502051e-18
	-4.653684029524367e-14
	9.169903463314241e-07
	6.755883827844256e-05
	8.469271883264876e-06
	1.661930239248940e-01

 48	4.800000000000003e-01
	-1.025640823519362e-14
	-3.576963339203838e-18
	-4.678041365081167e-14
	9.685721255209893e-07
	7.315979615046062e-05
	9.172494570107291e-06
	1.661930856546149e-01

 49	4.900000000000003e-01
	-1.021363113690773e-14
	-3.651152568787938e-18
	-4.701994419307812e-14
	1.022653222717947e-06
	7.919951185684169e-05
	9.933893964365756e-06
	1.661931530059372e-01

 50	5.000000000000002e-01
	-1.017298872323318e-14
	-3.726764603948286e-18
	-4.725543405599511e-14
	1.079328737082358e-06
	8.570719947719070e-05
	1.075800220911947e-05
	1.661932264769781e-01

 51	5.100000000000002e-01
	-1.013445279234774e-14
	-3.803825524266078e-18
	-4.748688768920001e-14
	1.138695833356268e-06
	9.271330662310273e-05
	1.164964970620324e-05
	1.661933066053975e-01

 52	5.200000000000002e-01
	-1.009799466636057e-14
	-3.882361927407662e-18
	-4.771431179162646e-14
	1.200853692596765e-06
	1.002494814143784e-04
	1.261397728569587e-05
	1.661933939707288e-01

 53	5.300000000000002e-01
	-1.006358522999880e-14
	-3.962400941649081e-18
	-4.793771524389334e-14
	1.265903455678785e-06
	1.083485276265344e-04
	1.365644798552284e-05
	1.661934891967303e-01

 54	5.400000000000003e-01
	-1.003119496882647e-14
	-4.043970238734206e-18
	-4.815710903965352e-14
	1.333948159382020e-06
	1.170443471818540e-04
	1.478285831860432e-05
	1.661935929537304e-01

 55	5.500000000000003e-01
	-1.000079400693100e-14
	-4.127098047077252e-18
	-4.837250621607876e-14
	1.405092664918399e-06
	1.263718692153299e-04
	1.599934889698319e-05
	1.661937059609504e-01

 56	5.600000000000003e-01
	-9.972352144016700e-15
	-4.211813165318320e-18
	-4.858392178365345e-14
	1.479443578806255e-06
	1.363669650243707e-04
	1.731241427505321e-05
	1.661938289887869e-01

 57	5.700000000000003e-01
	-9.945838891849047e-15
	-4.298144976240991e-18
	-4.879137265544272e-14
	1.557109166054737e-06
	1.470663483080843e-04
	1.872891186757022e-05
	1.661939628610013e-01

 58	5.800000000000003e-01
	-9.921223509997847e-15
	-4.386123461064077e-18
	-4.899487757599566e-14
	1.638199255687359e-06
	1.585074602189287e-04
	2.025606979275886e-05
	1.661941084568037e-01

 59	5.900000000000003e-01
	-9.898475040830681e-15
	-4.475779214115380e-18
	-4.919445705003958e-14
	1.722825138707466e-06
	1.707283388869559e-04
	2.190149348673326e-05
	1.661942667128022e-01

 60	6.000000000000003e-01
	-9.877562343713810e-15
	-4.567143457899539e-18
	-4.939013327111171e-14
	1.811099458690731e-06
	1.837674732347046e-04
	2.367317093283896e-05
	1.661944386247685e-01

 61	6.100000000000003e-01
	-9.858454128379561e-15
	-4.660248058571005e-18
	-4.958193005027261e-14
	1.903136095280099e-06
	1.976636410785004e-04
	2.557947634858709e-05
	1.661946252491882e-01

 62	6.200000000000003e-01
	-9.841118987425399e-15
	-4.755125541823662e-18
	-4.976987274503498e-14
	1.999050040957345e-06
	2.124557317085818e-04
	2.762917217379732e-05
	1.661948277045522e-01

 63	6.300000000000003e-01
	-9.825525427911627e-15
	-4.851809109208068e-18
	-4.995398818863804e-14
	2.098957271571479e-06
	2.281825533545133e-04
	2.983140920656665e-05
	1.661950471723440e-01

 64	6.400000000000003e-01
	-9.811641902031010e-15
	-4.950332654889813e-18
	-5.013430461978809e-14
	2.202974611217627e-06
	2.448826261717369e-04
	3.219572473890458e-05
	1.661952848977120e-01

 65	6.500000000000004e-01
	-9.799436836824103e-15
	-5.050730782861077e-18
	-5.031085161298160e-14
	2.311219592179401e-06
	2.625939616271813e-04
	3.473203855146692e-05
	1.661955421897244e-01

 66	6.600000000000004e-01
	-9.788878662920753e-15
	-5.153038824618066e-18
	-5.048366000951826e-14
	2.423810310772296e-06
	2.813538294132981e-04
	3.745064663687553e-05
	1.661958204212213e-01

 67	6.700000000000004e-01
	-9.779935842289624e-15
	-5.257292857319255e-18
	-5.065276184930560e-14
	2.540865280054260e-06
	3.011985132769933e-04
	4.036221253372821e-05
	1.661961210282061e-01

 68	6.800000000000004e-01
	-9.772576894981846e-15
	-5.363529722437250e-18
	-5.081819030354962e-14
	2.662503280500207e-06
	3.221630574082187e-04
	4.347775616859437e-05
	1.661964455087151e-01

 69	6.900000000000004e-01
	-9.766770424857480e-15
	-5.471787044919401e-18
	-5.097997960841921e-14
	2.788843209869052e-06
	3.442810052876863e-04
	4.680864012105863e-05
	1.661967954211648e-01

 70	7.000000000000004e-01
	-9.762485144287722e-15
	-5.582103252871520e-18
	-5.113816499976508e-14
	2.920003933621835e-06
	3.675841331390077e-04
	5.036655324714964e-05
	1.661971723821308e-01

 71	7.100000000000004e-01
	-9.759689897826710e-15
	-5.694517597781430e-18
	-5.129278264896853e-14
	3.056104137376935e-06
	3.921021803619559e-04
	5.416349161915942e-05
	1.661975780635308e-01

 72	7.200000000000004e-01
	-9.758353684852133e-15
	-5.809070175296777e-18
	-5.144386959998638e-14
	3.197262183009958e-06
	4.178625795347514e-04
	5.821173676474364e-05
	1.661980141891999e-01

 73	7.300000000000004e-01
	-9.758445681173822e-15
	-5.925801946574422e-18
	-5.159146370765607e-14
	3.343595970119750e-06
	4.448901887584493e-04
	6.252383121506380e-05
	1.661984825308422e-01

 74	7.400000000000004e-01
	-9.759935259614256e-15
	-6.044754760219070e-18
	-5.173560357731434e-14
	3.495222804686488e-06
	4.732070292699566e-04
	6.711255140030159e-05
	1.661989849033592e-01

 75	7.500000000000004e-01
	-9.762792009566210e-15
	-6.165971374825448e-18
	-5.187632850578045e-14
	3.652259276839169e-06
	5.028320313664217e-04
	7.199087796079043e-05
	1.661995231595622e-01

 76	7.600000000000005e-01
	-9.766985755534687e-15
	-6.289495482147135e-18
	-5.201367842374729e-14
	3.814821149727815e-06
	5.337807917577730e-04
	7.717196357288257e-05
	1.662000991842710e-01

 77	7.700000000000005e-01
	-9.772486574673708e-15
	-6.415371730904046e-18
	-5.214769383961924e-14
	3.983023261556187e-06
	5.660653454915223e-04
	8.266909842003875e-05
	1.662007148878606e-01

 78	7.800000000000005e-01
	-9.779264813328787e-15
	-6.543645751253490e-18
	-5.227841578482910e-14
	4.156979442874107e-06
	5.996939555710548e-04
	8.849567347102904e-05
	1.662013721992356e-01

 79	7.900000000000005e-01
	-9.787291102599518e-15
	-6.674364179940017e-18
	-5.240588576066280e-14
	4.336802451250686e-06
	6.346709233127049e-04
	9.466514175801359e-05
	1.662020730583383e-01

 80	8.000000000000005e-01
	-9.796536372937153e-15
	-6.807574686145026e-18
	-5.253014568661432e-14
	4.522603925452062e-06
	6.709964223565282e-04
	1.011909778771411e-04
	1.662028194082144e-01

 81	8.100000000000005e-01
	-9.806971867793697e-15
	-6.943325998058258e-18
	-5.265123785029003e-14
	4.714494361226990e-06
	7.086663590602511e-04
	1.080866359625631e-04
	1.662036131866969e-01

 82	8.200000000000005e-01
	-9.818569156341725e-15
	-7.081667930188566e-18
	-5.276920485887546e-14
	4.912583110760881e-06
	7.476722617663769e-04
	1.153655064108837e-04
	1.662044563178187e-01

 83	8.300000000000005e-01
	-9.831300145283756e-15
	-7.222651411438815e-18
	-5.288408959217579e-14
	5.116978407794959e-06
	7.880012011412293e-04
	1.230408716565526e-04
	1.662053507030085e-01

 84	8.400000000000005e-01
	-9.845137089772423e-15
	-7.366328513964998e-18
	-5.299593515723454e-14
	5.327787420320491e-06
	8.296357434451078e-04
	1.311258613189787e-04
	1.662062982121675e-01

 85	8.500000000000005e-01
	-9.860052603463382e-15
	-7.512752482842286e-18
	-5.310478484453379e-14
	5.545116332651985e-06
	8.725539382099659e-04
	1.396334070588297e-04
	1.662073006747400e-01

 86	8.600000000000005e-01
	-9.876019667723729e-15
	-7.661977766562789e-18
	-5.321068208577401e-14
	5.769070458557957e-06
	9.167293413810323e-04
	1.485761974936171e-04
	1.662083598708624e-01

 87	8.700000000000006e-01
	-9.893011640019466e-15
	-7.814060048385452e-18
	-5.331367041322956e-14
	5.999754386986526e-06
	9.621310745289656e-04
	1.579666335309458e-04
	1.662094775226960e-01

 88	8.800000000000006e-01
	-9.911002261506918e-15
	-7.969056278568094e-18
	-5.341379342067180e-14
	6.237272161767607e-06
	1.008723920267588e-03
	1.678167844814477e-04
	1.662106552860614e-01

 89	8.900000000000006e-01
	-9.929965663852353e-15
	-8.127024707502269e-18
	-5.351109472584958e-14
	6.481727496508099e-06
	1.056468453528143e-03
	1.781383453122925e-04
	1.662118947424481e-01

 90	9.000000000000006e-01
	-9.949876375306263e-15
	-8.288024919778475e-18
	-5.360561793451402e-14
	6.733224025723500e-06
	1.105321207853649e-03
	1.889425953961454e-04
	1.662131973915457e-01

 91	9.100000000000006e-01
	-9.970709326056734e-15
	-8.452117869212303e-18
	-5.369740660597249e-14
	6.991865593074016e-06
	1.155234875396235e-03
	2.002403590995767e-04
	1.662145646443183e-01

 92	9.200000000000006e-01
	-9.992439852889400e-15
	-8.619365914855317e-18
	-5.378650422015316e-14
	7.257756577398386e-06
	1.206158538835944e-03
	2.120419685393280e-04
	1.662159978167779e-01

 93	9.300000000000006e-01
	-1.001504370317925e-14
	-8.789832858021756e-18
	-5.387295414616086e-14
	7.531002257069507e-06
	1.258037933000921e-03
	2.243572288146979e-04
	1.662174981244935e-01

 94	9.400000000000006e-01
	-1.003849703824058e-14
	-8.963583980365287e-18
	-5.395679961230265e-14
	7.811709213037190e-06
	1.310815733565228e-03
	2.371953859999971e-04
	1.662190666778860e-01

 95	9.500000000000006e-01
	-1.006277643606183e-14
	-9.140686083030072e-18
	-5.403808367755876e-14
	8.099985770776790e-06
	1.364431869839381e-03
	2.505650981527927e-04
	1.662207044784104e-01

 96	9.600000000000006e-01
	-1.008785889345048e-14
	-9.321207526919141e-18
	-5.411684920447449e-14
	8.395942481237327e-06
	1.418823858357994e-03
	2.644744095621951e-04
	1.662224124156099e-01

 97	9.700000000000006e-01
	-1.011372182761447e-14
	-9.505218274105619e-18
	-5.419313883344637e-14
	8.699692640776722e-06
	1.473927153713546e-03
	2.789307284270217e-04
	1.662241912650930e-01

 98	9.800000000000006e-01
	-1.014034307720535e-14
	-9.692789930430423e-18
	-5.426699495837438e-14
	9.011352849993944e-06
	1.529675512890510e-03
	2.939408081170825e-04
	1.662260416874575e-01

 99	9.900000000000007e-01
	-1.016770090284823e-14
	-9.883995789320671e-18
	-5.433845970365106e-14
	9.331043611319565e-06
	1.586001369222661e-03
	3.095107321326201e-04
	1.662279642281101e-01

 100	1.000000000000001e+00
	-1.019577398718311e-14
	-1.007891087686938e-17
	-5.440757490245872e-14
	9.658889965208788e-06
	1.642836212029430e-03
	3.256459028376883e-04
	1.662299593180188e-01

 101	1.010000000000001e+00
	-1.022454143444211e-14
	-1.027761199821956e-17
	-5.447438207634128e-14
