Title: ** sch_path: /home/andylithia/openmpw/project-yatsuhashi-chip1/xschem/gmid_test/nmos_test.sch
Date: Tue Jul 19 23:15:45  2022
Plotname: DC transfer characteristic
Flags: real
No. Variables: 8
No. Points: 181
Variables:
	0	v(v-sweep)	voltage
	1	@m.xm1.msky130_fd_pr__nfet_01v8[cgb]	capacitance
	2	@m.xm1.msky130_fd_pr__nfet_01v8[cgd]	capacitance
	3	@m.xm1.msky130_fd_pr__nfet_01v8[cgs]	capacitance
	4	@m.xm1.msky130_fd_pr__nfet_01v8[gds]	admittance
	5	@m.xm1.msky130_fd_pr__nfet_01v8[gm]	admittance
	6	i(@m.xm1.msky130_fd_pr__nfet_01v8[id])	current
	7	v(@m.xm1.msky130_fd_pr__nfet_01v8[vth])	voltage
Values:
 0	0.000000000000000e+00
	-7.886393855137046e-16
	7.616528385670211e-22
	-1.578587235924943e-18
	2.738184697166852e-19
	4.004294138232434e-17
	7.718259803845983e-19
	6.872066137367632e-01

 1	1.000000000000000e-02
	-7.851171300691852e-16
	8.710244405137497e-22
	-1.653809383827000e-18
	4.578956107362647e-19
	6.727267764405537e-17
	1.296684342781446e-18
	6.872066137367632e-01

 2	2.000000000000000e-02
	-7.816388744327637e-16
	9.951856509524679e-22
	-1.742020165494179e-18
	7.657016221706031e-19
	1.130185233390276e-16
	2.178451491939593e-18
	6.872066137367632e-01

 3	3.000000000000000e-02
	-7.782033213218051e-16
	1.135904703912336e-21
	-1.845171026389391e-18
	1.280387874962526e-18
	1.898708077905991e-16
	3.659821699117590e-18
	6.872066137367632e-01

 4	4.000000000000000e-02
	-7.748091540708481e-16
	1.295102676339986e-21
	-1.965472324464286e-18
	2.140976424746126e-18
	3.189802197122049e-16
	6.148510511070511e-18
	6.872066137367632e-01

 5	5.000000000000000e-02
	-7.714550304916941e-16
	1.474852651252323e-21
	-2.105418183506446e-18
	3.579891653695031e-18
	5.358773858083389e-16
	1.032945238809164e-17
	6.872066137367632e-01

 6	6.000000000000000e-02
	-7.681395765510946e-16
	1.677375614035881e-21
	-2.267811868881728e-18
	5.985696354544119e-18
	9.002478784451080e-16
	1.735326952404647e-17
	6.872066137367632e-01

 7	7.000000000000001e-02
	-7.648613798741318e-16
	1.905033035022323e-21
	-2.455791687091669e-18
	1.000795155501566e-17
	1.512350063555393e-15
	2.915284831795435e-17
	6.872066137367632e-01

 8	8.000000000000000e-02
	-7.616189830321756e-16
	2.160316548423534e-21
	-2.672857747715913e-18
	1.673246937602800e-17
	2.540587829774167e-15
	4.897507222194786e-17
	6.872066137367632e-01

 9	9.000000000000000e-02
	-7.584108764875946e-16
	2.445835787901477e-21
	-2.922900476953908e-18
	2.797418576931302e-17
	4.267812375175945e-15
	8.227387647503927e-17
	6.872066137367632e-01

 10	9.999999999999999e-02
	-7.552354909325759e-16
	2.764306282651813e-21
	-3.210232583044043e-18
	4.676653488529350e-17
	7.169064381757617e-15
	1.382100134403417e-16
	6.872066137367632e-01

 11	1.100000000000000e-01
	-7.520911885682545e-16
	3.118540316084521e-21
	-3.539627272102445e-18
	7.817904708169775e-17
	1.204208258886898e-14
	2.321694106501036e-16
	6.872066137367632e-01

 12	1.200000000000000e-01
	-7.489762526201717e-16
	3.511444709962869e-21
	-3.916366887592721e-18
	1.306830611476829e-16
	2.022634314728916e-14
	3.899912725165324e-16
	6.872066137367632e-01

 13	1.300000000000000e-01
	-7.458888740832756e-16
	3.946030467574358e-21
	-4.346307731997224e-18
	2.184324838334133e-16
	3.397057605033755e-14
	6.550652932151170e-16
	6.872066137367632e-01

 14	1.400000000000000e-01
	-7.428271343524638e-16
	4.425439883447992e-21
	-4.835968494351511e-18
	3.650715943509798e-16
	5.704916806790505e-14
	1.100241858125637e-15
	6.872066137367632e-01

 15	1.500000000000000e-01
	-7.397889820535451e-16
	4.952996869976278e-21
	-5.392651259563352e-18
	6.100899845852697e-16
	9.579548734274635e-14
	1.847812558652926e-15
	6.872066137367632e-01

 16	1.600000000000000e-01
	-7.367722020846912e-16
	5.532285648351432e-21
	-6.024605285090590e-18
	1.019423557732589e-15
	1.608330106549315e-13
	3.103015059873791e-15
	6.872066137367637e-01

 17	1.700000000000000e-01
	-7.337743746527303e-16
	6.167261467663960e-21
	-6.741244375126474e-18
	1.703128129368758e-15
	2.699730580102345e-13
	5.210185440890449e-15
	6.872066137367637e-01

 18	1.800000000000000e-01
	-7.307928219779761e-16
	6.862394652550692e-21
	-7.553428603139706e-18
	2.844821916894142e-15
	4.530600657318203e-13
	8.746798776390412e-15
	6.872066137367642e-01

 19	1.900000000000000e-01
	-7.278245403652028e-16
	7.622846200736607e-21
	-8.473820284401928e-18
	4.750686281198226e-15
	7.600619654882380e-13
	1.468081598569882e-14
	6.872066137367642e-01

 20	2.000000000000000e-01
	-7.248661154939664e-16
	8.454669666954169e-21
	-9.517322568339606e-18
	7.930915545879150e-15
	1.274554540789117e-12
	2.463363609996434e-14
	6.872066137367652e-01

 21	2.100000000000000e-01
	-7.219136190455202e-16
	9.365030566897285e-21
	-1.070160700355550e-17
	1.323488787937281e-14
	2.136143140963654e-12
	4.131884694411141e-14
	6.872066137367666e-01

 22	2.200000000000001e-01
	-7.189624851209785e-16
	1.036243138253537e-20
	-1.204773416845559e-17
	2.207502898788953e-14
	3.577631781062280e-12
	6.927282843496326e-14
	6.872066137367687e-01

 23	2.300000000000001e-01
	-7.160073652843423e-16
	1.145692770569818e-20
	-1.358086915939343e-17
	3.679658663226405e-14
	5.986396231913499e-12
	1.160681738739488e-13
	6.872066137367724e-01

 24	2.400000000000001e-01
	-7.130419614687019e-16
	1.266031921791457e-20
	-1.533109147517758e-17
	6.128634816644199e-14
	1.000520452341721e-11
	1.943222127842754e-13
	6.872066137367790e-01

 25	2.500000000000001e-01
	-7.100588364227069e-16
	1.398629802173276e-20
	-1.733429657767354e-17
	1.019703418306284e-13
	1.669674384894350e-11
	3.250071894893541e-13
	6.872066137367895e-01

 26	2.600000000000001e-01
	-7.070492018785428e-16
	1.545053618040774e-20
	-1.963318396537777e-17
	1.694399628738351e-13
	2.780980961732212e-11
	5.428751316865077e-13
	6.872066137368074e-01

 27	2.700000000000001e-01
	-7.040026852397363e-16
	1.707069405568119e-20
	-2.227832371897691e-17
	2.810834043376657e-13
	4.620520273352047e-11
	9.052844018971301e-13
	6.872066137368368e-01

 28	2.800000000000001e-01
	-7.009070763742778e-16
	1.886633107776515e-20
	-2.532928988179490e-17
	4.653049855075591e-13
	7.652739112101767e-11
	1.506428418026214e-12
	6.872066137368851e-01

 29	2.900000000000001e-01
	-6.977480571247488e-16
	2.085870091292654e-20
	-2.885584440098024e-17
	7.682117910548732e-13
	1.262441223206274e-10
	2.500002107685409e-12
	6.872066137369660e-01

 30	3.000000000000001e-01
	-6.945089175076800e-16
	2.307041359229715e-20
	-3.293914923587733e-17
	1.264053741786635e-12
	2.072169939117280e-10
	4.134766761635283e-12
	6.872066137370987e-01

 31	3.100000000000001e-01
	-6.911702644191453e-16
	2.552494794769147e-20
	-3.767297593983718e-17
	2.071219523654679e-12
	3.380005991086869e-10
	6.809289668933031e-12
	6.872066137373153e-01

 32	3.200000000000001e-01
	-6.877097312276604e-16
	2.824599849111051e-20
	-4.316487044213160e-17
	3.376170315963868e-12
	5.470731172662949e-10
	1.115417545109017e-11
	6.872066137376671e-01

 33	3.300000000000001e-01
	-6.841017002570252e-16
	3.125664147161203e-20
	-4.953721433858137e-17
	5.468205399193822e-12
	8.771391845277868e-10
	1.815189966873659e-11
	6.872066137382348e-01

 34	3.400000000000001e-01
	-6.803170552643108e-16
	3.457830520445923e-20
	-5.692810085163211e-17
	8.788149952818632e-12
	1.390471636317561e-09
	2.930500210601349e-11
	6.872066137391390e-01

 35	3.500000000000001e-01
	-6.763229880365089e-16
	3.822953030363294e-20
	-6.549191192457306e-17
	1.399358332543033e-11
	2.174951233922600e-09
	4.686162873082962e-11
	6.872066137405618e-01

 36	3.600000000000002e-01
	-6.720828924639602e-16
	4.222450734258078e-20
	-7.539944165381563e-17
	2.204176680875161e-11
	3.350087521438064e-09
	7.410211554275777e-11
	6.872066137427705e-01

 37	3.700000000000002e-01
	-6.675563908470860e-16
	4.657138489907755e-20
	-8.683736125627946e-17
	3.428902346875880e-11
	5.072079587963039e-09
	1.156817522991069e-10
	6.872066137461408e-01

 38	3.800000000000002e-01
	-6.626995500694505e-16
	5.127035307648512e-20
	-1.000067659176726e-16
	5.260281556407884e-11
	7.537270924238349e-09
	1.780163301873388e-10
	6.872066137511940e-01

 39	3.900000000000002e-01
	-6.574653579963197e-16
	5.631153022405605e-20
	-1.151204924469077e-16
	7.948203118105140e-11
	1.098448183606685e-08
	2.696955254347439e-10
	6.872066137586252e-01

 40	4.000000000000002e-01
	-6.518045401825309e-16
	6.167271729138035e-20
	-1.323988623620468e-16
	1.181843524590668e-10
	1.569853428761242e-08
	4.019228201292582e-10
	6.872066137693442e-01

 41	4.100000000000002e-01
	-6.456667994803520e-16
	6.731713711686241e-20
	-1.520635072657544e-16
	1.728681984294981e-10
	2.201898301787794e-08
	5.890129154663140e-10
	6.872066137845103e-01

 42	4.200000000000002e-01
	-6.390025510091333e-16
	7.319134374990932e-20
	-1.743289960866003e-16
	2.487689237267635e-10
	3.035847093383583e-08
	8.490212209056155e-10
	6.872066138055885e-01

 43	4.300000000000002e-01
	-6.317651962649224e-16
	7.922356313917805e-20
	-1.993921318316638e-16
	3.524402595537669e-10
	4.123374927283210e-08
	1.204618622151552e-09
	6.872066138344137e-01

 44	4.400000000000002e-01
	-6.239139279463340e-16
	8.532279772068586e-20
	-2.274190377600704e-16
	4.920979889546111e-10
	5.531013578336646e-08
	1.684343849847157e-09
	6.872066138733020e-01

 45	4.500000000000002e-01
	-6.154169796200698e-16
	9.137907279515793e-20
	-2.585305119120248e-16
	6.781026940958868e-10
	7.345874165717555e-08
	2.324364941440416e-09
	6.872066139251843e-01

 46	4.600000000000002e-01
	-6.062551359129457e-16
	9.726519610509058e-20
	-2.927865691680445e-16
	9.236156720156610e-10
	9.682630870258388e-08
	3.170875417469387e-09
	6.872066139938068e-01

 47	4.700000000000003e-01
	-5.964252121362218e-16
	1.028403183642328e-19
	-3.301715486639874e-16
	1.245462103901844e-09
	1.269197176964848e-07
	4.283259291663703e-09
	6.872066140839824e-01

 48	4.800000000000003e-01
	-5.859431186769019e-16
	1.079554063722843e-19
	-3.705815412782614e-16
	1.665241752786256e-09
	1.657100617816119e-07
	5.738193769566112e-09
	6.872066142019282e-01

 49	4.900000000000003e-01
	-5.748460728087665e-16
	1.124604774355903e-19
	-4.138160646368884e-16
	2.210740028546299e-09
	2.157637150954206e-07
	7.634920555728435e-09
	6.872066143556897e-01

 50	5.000000000000002e-01
	-5.631935357812141e-16
	1.162131286409752e-19
	-4.595757693359378e-16
	2.917709072231430e-09
	2.804098489464705e-07
	1.010200145487234e-08
	6.872066145556924e-01

 51	5.100000000000002e-01
	-5.510665527597430e-16
	1.190875899005220e-19
	-5.074674407574045e-16
	3.832106792595958e-09
	3.639556400648736e-07
	1.330597746028539e-08
	6.872066148154394e-01

 52	5.200000000000002e-01
	-5.385653543870906e-16
	1.209833139525516e-19
	-5.570166983859872e-16
	5.012898803864987e-09
	4.719623366390622e-07
	1.746247236020922e-08
	6.872066151524172e-01

 53	5.300000000000002e-01
	-5.258053143729381e-16
	1.218320601616452e-19
	-6.076877266338105e-16
	6.535540757382315e-09
	6.115975401770498e-07
	2.285042430845449e-08
	6.872066155892480e-01

 54	5.400000000000003e-01
	-5.129116006395952e-16
	1.216025683783583e-19
	-6.589083163147943e-16
	8.496261642584450e-09
	7.920813296706029e-07
	2.983029384542675e-08
	6.872066161551718e-01

 55	5.500000000000003e-01
	-5.000130538373785e-16
	1.203022389548137e-19
	-7.100976929683216e-16
	1.101725383162911e-08
	1.025245578707578e-06
	3.886728258920552e-08
	6.872066168879304e-01

 56	5.600000000000003e-01
	-4.872359316841697e-16
	1.179756686494573e-19
	-7.606942414653034e-16
	1.425282931594792e-08
	1.326225758759797e-06
	5.056079225169675e-08
	6.872066178361661e-01

 57	5.700000000000003e-01
	-4.746981495419457e-16
	1.147003416067308e-19
	-8.101803764612004e-16
	1.839650324290048e-08
	1.714300450691516e-06
	6.568153083831047e-08
	6.872066190624404e-01

 58	5.800000000000003e-01
	-4.625045353743119e-16
	1.105801418889554e-19
	-8.581023944742997e-16
	2.368878751223846e-08
	2.213881877457497e-06
	8.521777422906134e-08
	6.872066206470107e-01

 59	5.900000000000003e-01
	-4.507434338820278e-16
	1.057375707445215e-19
	-9.040840117246363e-16
	3.042518558704711e-08
	2.855634857759431e-06
	1.104322098623394e-07
	6.872066226924671e-01

 60	6.000000000000003e-01
	-4.394847855777565e-16
	1.003055952464797e-19
	-9.478332346471375e-16
	3.896344508531785e-08
	3.677652596798893e-06
	1.429303420280409e-07
	6.872066253293342e-01

 61	6.100000000000003e-01
	-4.287796151081009e-16
	9.441994686007792e-20
	-9.891430393504466e-16
	4.972854155299256e-08
	4.726534344229801e-06
	1.847403389243282e-07
	6.872066287226258e-01

 62	6.200000000000003e-01
	-4.186607196299363e-16
	8.821248003222347e-20
	-1.027886928772912e-15
	6.321319110099571e-08
	6.058082558398984e-06
	2.384020534997183e-07
	6.872066330791847e-01

 63	6.300000000000003e-01
	-4.091442655760824e-16
	8.180595238228115e-20
	-1.064010747619446e-15
	7.997109159429305e-08
	7.737168753643784e-06
	3.070593103775657e-07
	6.872066386553416e-01

 64	6.400000000000003e-01
	-4.002319781531254e-16
	7.531035181756414e-20
	-1.097522188798309e-15
	1.005999027802949e-07
	9.836143605570508e-06
	3.945441504211278e-07
	6.872066457639853e-01

 65	6.500000000000004e-01
	-3.919136295478185e-16
	6.882070643271867e-20
	-1.128479286213656e-15
	1.257116715119873e-07
	1.243108292498116e-05
	5.054349271776819e-07
	6.872066547795911e-01

 66	6.600000000000004e-01
	-3.841695820749467e-16
	6.241618530427105e-20
	-1.156978936525413e-15
	1.558904493011911e-07
	1.559532897028418e-05
	6.450636156935022e-07
	6.872066661391876e-01

 67	6.700000000000004e-01
	-3.769732051728839e-16
	5.616023126318842e-20
	-1.183146198749708e-15
	1.916403218972488e-07
	1.939038155851808e-05
	8.194448566083820e-07
	6.872066803370067e-01

 68	6.800000000000004e-01
	-3.702930477125641e-16
	5.010144954695818e-20
	-1.207124838596703e-15
	2.333312489128304e-07
	2.385524991665651e-05
	1.035104764728406e-06
	6.872066979109602e-01

 69	6.900000000000004e-01
	-3.640947016007801e-16
	4.427499400847026e-20
	-1.229069346100237e-15
	2.811533199370259e-07
	2.899658959595287e-05
	1.298804816047824e-06
	6.872067194204737e-01

 70	7.000000000000004e-01
	-3.583423353791064e-16
	3.870423068051353e-20
	-1.249138473734779e-15
	3.350902537597057e-07
	3.478264211577589e-05
	1.617183604306225e-06
	6.872067454174237e-01

 71	7.100000000000004e-01
	-3.529999068036770e-16
	3.340250503991079e-20
	-1.267490217987629e-15
	3.949191539788483e-07
	4.114347021390385e-05
	1.996368004077588e-06
	6.872067764143027e-01

 72	7.200000000000004e-01
	-3.480320825137142e-16
	2.837488589248103e-20
	-1.284278092694014e-15
	4.602367289470415e-07
	4.797813558484446e-05
	2.441621870214064e-06
	6.872068128551326e-01

 73	7.300000000000004e-01
	-3.434049030446920e-16
	2.361980036809600e-20
	-1.299648506501538e-15
	5.305052543883213e-07
	5.516710094908741e-05
	2.957094957212202e-06
	6.872068550943087e-01

 74	7.400000000000004e-01
	-3.390862350047975e-16
	1.913050869823034e-20
	-1.313739048466010e-15
	6.051074649844950e-07
	6.258650029542180e-05
	3.545708302378392e-06
	6.872069033864346e-01

 75	7.500000000000004e-01
	-3.350460513846932e-16
	1.489639371865871e-20
	-1.326677495228830e-15
	6.833995409346460e-07
	7.012078932466044e-05
	4.209176771079263e-06
	6.872069578873675e-01

 76	7.600000000000005e-01
	-3.312565774754015e-16
	1.090405897906934e-20
	-1.338581372788952e-15
	7.647544870500640e-07
	7.767147375121500e-05
	4.948139718015449e-06
	6.872070186642057e-01

 77	7.700000000000005e-01
	-3.276923350410535e-16
	7.138242078327643e-21
	-1.349557929988501e-15
	8.485924555810044e-07
	8.516127120719466e-05
	5.762355984954641e-06
	6.872070857107297e-01

 78	7.800000000000005e-01
	-3.243301121358690e-16
	3.582557674498196e-21
	-1.359704405764171e-15
	9.343981727636988e-07
	9.253438065016901e-05
	6.650920116290227e-06
	6.872071589647786e-01

 79	7.900000000000005e-01
	-3.211488808399916e-16
	2.200887825823596e-22
	-1.369108495718125e-15
	1.021727785045325e-06
	9.975415933072541e-05
	7.612467135968771e-06
	6.872072383248795e-01

 80	8.000000000000005e-01
	-3.181296805406300e-16
	-2.966153458490301e-21
	-1.377848944434592e-15
	1.110208196815654e-06
	1.067995268736128e-04
	8.645346727958679e-06
	6.872073236645121e-01

 81	8.100000000000005e-01
	-3.152554803548333e-16
	-5.992881530140836e-21
	-1.385996207731822e-15
	1.199531793879374e-06
	1.136611033078925e-04
	9.747759452638135e-06
	6.872074148433625e-01

 82	8.200000000000005e-01
	-3.125110309171084e-16
	-8.876276002657643e-21
	-1.393613143666477e-15
	1.289448833299336e-06
	1.203376939042520e-04
	1.091785571987118e-05
	6.872075117155725e-01

 83	8.300000000000005e-01
	-3.098827130105464e-16
	-1.163180576303286e-20
	-1.400755702830179e-15
	1.379759080201308e-06
	1.268334022784391e-04
	1.215380262719251e-05
	6.872076141353902e-01

 84	8.400000000000005e-01
	-3.073583883397563e-16
	-1.427410911544078e-20
	-1.407473597653787e-15
	1.470303666618813e-06
	1.331554310816528e-04
	1.345382538241436e-05
	6.872077219607281e-01

 85	8.500000000000005e-01
	-3.049272560484349e-16
	-1.681692298164471e-20
	-1.413810937462710e-15
	1.560957696466465e-06
	1.393125077111967e-04
	1.481622994092075e-05
	6.872078350551796e-01

 86	8.600000000000005e-01
	-3.025797172922554e-16
	-1.927304944297838e-20
	-1.419806821295992e-15
	1.651623818836417e-06
	1.453138219049093e-04
	1.623941256268209e-05
	6.872079532889381e-01

 87	8.700000000000006e-01
	-3.003072492129448e-16
	-2.165435070394041e-20
	-1.425495884365670e-15
	1.742226807950517e-06
	1.511683539638750e-04
	1.772186079682589e-05
	6.872080765390016e-01

 88	8.800000000000006e-01
	-2.981022889544649e-16
	-2.397176518491382e-20
	-1.430908796795979e-15
	1.832709087434164e-06
	1.568844852615023e-04
	1.926214924273143e-05
	6.872082046889275e-01

 89	8.900000000000006e-01
	-2.959581278600662e-16
	-2.623533885924222e-20
	-1.436072715198495e-15
	1.923027089747570e-06
	1.624698032878023e-04
	2.085893245350666e-05
	6.872083376283374e-01

 90	9.000000000000006e-01
	-2.938688156423750e-16
	-2.845426714561431e-20
	-1.441011688915836e-15
	2.013148327051268e-06
	1.679310345627297e-04
	2.251093657701849e-05
	6.872084752523026e-01

 91	9.100000000000006e-01
	-2.918290740894411e-16
	-3.063694366722052e-20
	-1.445747023567654e-15
	2.103049052985361e-06
	1.732740571119108e-04
	2.421695075772586e-05
	6.872086174607016e-01

 92	9.200000000000006e-01
	-2.898342197277336e-16
	-3.279101301586970e-20
	-1.450297604986608e-15
	2.192712406681975e-06
	1.785039588441456e-04
	2.597581891590688e-05
	6.872087641575946e-01

 93	9.300000000000006e-01
	-2.878800947846858e-16
	-3.492342533446713e-20
	-1.454680186838200e-15
	2.282126945415537e-06
	1.836251192139859e-04
	2.778643224230905e-05
	6.872089152506541e-01

 94	9.400000000000006e-01
	-2.859630057605505e-16
	-3.704049107751134e-20
	-1.458909645251554e-15
	2.371285487655479e-06
	1.886412995485206e-04
	2.964772256235392e-05
	6.872090706506535e-01

 95	9.500000000000006e-01
	-2.840796689181878e-16
	-3.914793474636407e-20
	-1.462999203704990e-15
	2.460184202438162e-06
	1.935557330213403e-04
	3.155865660757298e-05
	6.872092302710312e-01

 96	9.600000000000006e-01
	-2.822271620196154e-16
	-4.125094674301869e-20
	-1.466960631251939e-15
	2.548821893307432e-06
	1.983712090723548e-04
	3.351823116214342e-05
	6.872093940275196e-01

 97	9.700000000000006e-01
	-2.804028816721649e-16
	-4.335423275819040e-20
	-1.470804416969689e-15
	2.637199435452662e-06
	2.030901495965318e-04
	3.552546901390563e-05
	6.872095618378360e-01

 98	9.800000000000006e-01
	-2.786045056891753e-16
	-4.546206032108239e-20
	-1.474539923287237e-15
	2.725319333209574e-06
	2.077146758414593e-04
	3.757941562119055e-05
	6.872097336214292e-01

 99	9.900000000000007e-01
	-2.768299599164876e-16
	-4.757830230031728e-20
	-1.478175520614127e-15
	2.813185371998993e-06
	2.122466659472577e-04
	3.967913640157866e-05
	6.872099092992811e-01

 100	1.000000000000001e+00
	-2.750773890236176e-16
	-4.970647726829453e-20
	-1.481718705460082e-15
	2.900802344309600e-06
	2.166878036374372e-04
	4.182371455121178e-05
	6.872100887937375e-01

 101	1.010000000000001e+00
	-2.733451308056004e-16
	-5.184978673224644e-20
	-1.485176204011971e-15
	2.988175833722442e-06
	2.210396188697858e-04
	4.401224931004414e-05
