Title: ** sch_path: /home/andylithia/openmpw/project-yatsuhashi-chip1/xschem/gmid_test/nmos_test.sch
Date: Sun Jul 17 22:51:45  2022
Plotname: DC transfer characteristic
Flags: real
No. Variables: 8
No. Points: 181
Variables:
	0	v(v-sweep)	voltage
	1	@m.xm1.msky130_fd_pr__nfet_01v8[cgb]	capacitance
	2	@m.xm1.msky130_fd_pr__nfet_01v8[cgd]	capacitance
	3	@m.xm1.msky130_fd_pr__nfet_01v8[cgs]	capacitance
	4	@m.xm1.msky130_fd_pr__nfet_01v8[gds]	admittance
	5	@m.xm1.msky130_fd_pr__nfet_01v8[gm]	admittance
	6	i(@m.xm1.msky130_fd_pr__nfet_01v8[id])	current
	7	v(@m.xm1.msky130_fd_pr__nfet_01v8[vth])	voltage
Values:
 0	0.000000000000000e+00
	-2.459561381659088e-15
	2.549966968855668e-19
	-1.373559036291604e-15
	6.188987781437620e-09
	2.185591890893400e-07
	1.730304586903130e-08
	4.452389318747902e-01

 1	1.000000000000000e-02
	-2.436450939220037e-15
	2.576067736407978e-19
	-1.419389985636496e-15
	7.018149653313945e-09
	2.476728683734793e-07
	1.963121309441840e-08
	4.452389321008720e-01

 2	2.000000000000000e-02
	-2.413278384099746e-15
	2.599507247440882e-19
	-1.466197749737359e-15
	7.956941088885320e-09
	2.806051488161616e-07
	2.226922532288189e-08
	4.452389323570414e-01

 3	3.000000000000000e-02
	-2.390050123489840e-15
	2.620080886073305e-19
	-1.513970025764924e-15
	9.019559812844951e-09
	3.178461027598628e-07
	2.525767084995735e-08
	4.452389326472418e-01

 4	4.000000000000000e-02
	-2.366773199353180e-15
	2.637579269086267e-19
	-1.562692440528261e-15
	1.022198226362306e-08
	3.599469036545501e-07
	2.864233839288525e-08
	4.452389329759178e-01

 5	5.000000000000000e-02
	-2.343455275531040e-15
	2.651788587487138e-19
	-1.612348529271868e-15
	1.158217448158082e-08
	4.075271917180284e-07
	3.247486424671640e-08
	4.452389333480831e-01

 6	6.000000000000000e-02
	-2.320104621832294e-15
	2.662490971673033e-19
	-1.662919723074839e-15
	1.312032564970629e-08
	4.612833062001596e-07
	3.681345734774261e-08
	4.452389337693905e-01

 7	7.000000000000001e-02
	-2.296730095087214e-15
	2.669464878192784e-19
	-1.714385345239323e-15
	1.485910626128555e-08
	5.219974892564869e-07
	4.172371142383461e-08
	4.452389342462115e-01

 8	8.000000000000000e-02
	-2.273341117172976e-15
	2.672485495829332e-19
	-1.766722617000068e-15
	1.682395297024932e-08
	5.905481812880635e-07
	4.727951453352952e-08
	4.452389347857221e-01

 9	9.000000000000000e-02
	-2.249947650043179e-15
	2.671325168457047e-19
	-1.819906672826293e-15
	1.904338224436522e-08
	6.679215451237174e-07
	5.356406757941802e-08
	4.452389353959978e-01

 10	9.999999999999999e-02
	-2.226560167819519e-15
	2.665753831881907e-19
	-1.873910585521157e-15
	2.154933498372043e-08
	7.552243771375376e-07
	6.067102485576434e-08
	4.452389360861334e-01

 11	1.100000000000000e-01
	-2.203189626030006e-15
	2.655539461635763e-19
	-1.928705401254050e-15
	2.437755428078147e-08
	8.536985879231748e-07
	6.870577139038074e-08
	4.452389368663680e-01

 12	1.200000000000000e-01
	-2.179847428104116e-15
	2.640448528491944e-19
	-1.984260184586930e-15
	2.756799847657358e-08
	9.647374641891905e-07
	7.778685380807757e-08
	4.452389377482068e-01

 13	1.300000000000000e-01
	-2.156545389261335e-15
	2.620246458289279e-19
	-2.040542073477941e-15
	3.116529160213648e-08
	1.089903957882218e-06
	8.804758372644238e-08
	4.452389387446000e-01

 14	1.400000000000000e-01
	-2.133295697954598e-15
	2.594698092491867e-19
	-2.097516344167196e-15
	3.521921317659315e-08
	1.230951289051953e-06
	9.963783535183082e-08
	4.452389398700998e-01

 15	1.500000000000000e-01
	-2.110110875054533e-15
	2.563568145801866e-19
	-2.155146485767423e-15
	3.978522915301259e-08
	1.389846196552833e-06
	1.127260620399513e-07
	4.452389411410659e-01

 16	1.600000000000000e-01
	-2.087003730983385e-15
	2.526621657049251e-19
	-2.213394284301354e-15
	4.492506555047316e-08
	1.568795226268562e-06
	1.275015601972109e-07
	4.452389425758783e-01

 17	1.700000000000000e-01
	-2.063987321028911e-15
	2.483624429539685e-19
	-2.272219915846189e-15
	5.070732597418783e-08
	1.770274511035825e-06
	1.441770131102818e-07
	4.452389441951931e-01

 18	1.800000000000000e-01
	-2.041074899088073e-15
	2.434343457028064e-19
	-2.331582048366038e-15
	5.720815379395455e-08
	1.997063570610088e-06
	1.629913521954140e-07
	4.452389460222113e-01

 19	1.900000000000000e-01
	-2.018279870107706e-15
	2.378547331517021e-19
	-2.391437951735567e-15
	6.451193921307228e-08
	2.252283744402733e-06
	1.842129788553357e-07
	4.452389480829976e-01

 20	2.000000000000000e-01
	-1.995615741504243e-15
	2.316006629147779e-19
	-2.451743615384598e-15
	7.271207080427159e-08
	2.539441964499754e-06
	2.081433967238435e-07
	4.452389504068319e-01

 21	2.100000000000000e-01
	-1.973096073856807e-15
	2.246494270558596e-19
	-2.512453872923673e-15
	8.191173030592404e-08
	2.862480681255954e-06
	2.351213116686684e-07
	4.452389530266052e-01

 22	2.200000000000001e-01
	-1.950734431177376e-15
	2.169785852235155e-19
	-2.573522533046530e-15
	9.222472855220771e-08
	3.225834867362910e-06
	2.655272656069333e-07
	4.452389559792719e-01

 23	2.300000000000001e-01
	-1.928544331068010e-15
	2.085659945559910e-19
	-2.634902515947656e-15
	1.037763793485587e-07
	3.634497146453867e-06
	2.997888800423088e-07
	4.452389593063602e-01

 24	2.400000000000001e-01
	-1.906539195078387e-15
	1.993898360487442e-19
	-2.696545994442197e-15
	1.167044068952693e-07
	4.094092215372507e-06
	3.383867963074584e-07
	4.452389630545440e-01

 25	2.500000000000001e-01
	-1.884732299576832e-15
	1.894286371028371e-19
	-2.758404538932329e-15
	1.311598810080629e-07
	4.610961849756542e-06
	3.818614117927122e-07
	4.452389672763070e-01

 26	2.600000000000001e-01
	-1.863136727444730e-15
	1.786612899998047e-19
	-2.820429265329945e-15
	1.473081728907235e-07
	5.192261892972660e-06
	4.308205249011774e-07
	4.452389720306698e-01

 27	2.700000000000001e-01
	-1.841765320897782e-15
	1.670670660807911e-19
	-2.882570985019065e-15
	1.653299225927820e-07
	5.846072718492608e-06
	4.859480159404345e-07
	4.452389773840492e-01

 28	2.800000000000001e-01
	-1.820630635727868e-15
	1.546256254390464e-19
	-2.944780355925691e-15
	1.854220075544281e-07
	6.581524712406578e-06
	5.480137063768519e-07
	4.452389834112056e-01

 29	2.900000000000001e-01
	-1.799744897246652e-15
	1.413170219709220e-19
	-3.007008033755119e-15
	2.077984998278675e-07
	7.408940329512820e-06
	6.178845544245546e-07
	4.452389901963328e-01

 30	3.000000000000001e-01
	-1.779119958196500e-15
	1.271217036657480e-19
	-3.069204822459721e-15
	2.326915977063349e-07
	8.339994213483452e-06
	6.965373602237556e-07
	4.452389978342936e-01

 31	3.100000000000001e-01
	-1.758767258876145e-15
	1.120205080518765e-19
	-3.131321823012202e-15
	2.603525156351948e-07
	9.387892715725932e-06
	7.850731680711150e-07
	4.452390064320211e-01

 32	3.200000000000001e-01
	-1.738697789707876e-15
	9.599465275307905e-20
	-3.193310579580864e-15
	2.910523144811225e-07
	1.056757387238457e-05
	8.847335652391438e-07
	4.452390161100926e-01

 33	3.300000000000001e-01
	-1.718922056450435e-15
	7.902572114655836e-20
	-3.255123222233649e-15
	3.250826525627564e-07
	1.189592847568809e-05
	9.969190855265157e-07
	4.452390270045264e-01

 34	3.400000000000001e-01
	-1.699450048237146e-15
	6.109564314937222e-20
	-3.316712605337095e-15
	3.627564363774590e-07
	1.339204227456125e-05
	1.123209929187062e-06
	4.452390392687915e-01

 35	3.500000000000001e-01
	-1.680291208592948e-15
	4.218667119534990e-20
	-3.378032440862973e-15
	4.044083487800351e-07
	1.507745853057603e-05
	1.265389207360671e-06
	4.452390530760670e-01

 36	3.600000000000002e-01
	-1.661454409556819e-15
	2.228135149712401e-20
	-3.439037425869722e-15
	4.503952315746041e-07
	1.697645911235392e-05
	1.425468906363582e-06
	4.452390686217578e-01

 37	3.700000000000002e-01
	-1.642947929008241e-15
	1.362490719983032e-21
	-3.499683363486140e-15
	5.010962991676374e-07
	1.911636101380985e-05
	1.605718742735576e-06
	4.452390861263081e-01

 38	3.800000000000002e-01
	-1.624779431268152e-15
	-2.058688177853583e-20
	-3.559927276791326e-15
	5.569131601973072e-07
	2.152782361824236e-05
	1.808698041177203e-06
	4.452391058382886e-01

 39	3.900000000000002e-01
	-1.606955951016509e-15
	-4.358355596231003e-20
	-3.619727515055035e-15
	6.182696249945765e-07
	2.424516020422447e-05
	2.037290711782469e-06
	4.452391280378016e-01

 40	4.000000000000002e-01
	-1.589483880540723e-15
	-6.764418718074064e-20
	-3.679043851877390e-15
	6.856112784294200e-07
	2.730664512221421e-05
	2.294743327749329e-06
	4.452391530401764e-01

 41	4.100000000000002e-01
	-1.572368960301922e-15
	-9.278534606060949e-20
	-3.737837574843412e-15
	7.594048002165630e-07
	3.075480580766522e-05
	2.584706207820983e-06
	4.452391811999609e-01

 42	4.200000000000002e-01
	-1.555616272779826e-15
	-1.190235719871536e-19
	-3.796071566386280e-15
	8.401370181420169e-07
	3.463668640971716e-05
	2.911277287455735e-06
	4.452392129151843e-01

 43	4.300000000000002e-01
	-1.539230239531976e-15
	-1.463754299237063e-19
	-3.853710375632150e-15
	9.283136839342026e-07
	3.900406740771616e-05
	3.279048418396014e-06
	4.452392486318571e-01

 44	4.400000000000002e-01
	-1.523214621379725e-15
	-1.748575703100928e-19
	-3.910720281077662e-15
	1.024457966612298e-06
	4.391362329698928e-05
	3.693153568361903e-06
	4.452392888486518e-01

 45	4.500000000000002e-01
	-1.507572521611735e-15
	-2.044867917752412e-19
	-3.967069344028220e-15
	1.129108664024218e-06
	4.942699841871419e-05
	4.159318203008962e-06
	4.452393341217001e-01

 46	4.600000000000002e-01
	-1.492306392076135e-15
	-2.352801063974366e-19
	-4.022727452799503e-15
	1.242818139810931e-06
	5.561077948309556e-05
	4.683908924872238e-06
	4.452393850694222e-01

 47	4.700000000000003e-01
	-1.477418042014908e-15
	-2.672548072480155e-19
	-4.077666357756485e-15
	1.366150000022911e-06
	6.253634250832563e-05
	5.273982224661290e-06
	4.452394423772566e-01

 48	4.800000000000003e-01
	-1.462908649478961e-15
	-3.004285379586483e-19
	-4.131859697331131e-15
	1.499676530834083e-06
	7.027955199761092e-05
	5.937330977099912e-06
	4.452395068021828e-01

 49	4.900000000000003e-01
	-1.448778775149225e-15
	-3.348193640606965e-19
	-4.185283015223406e-15
	1.643975925969054e-06
	7.892029142494679e-05
	6.682527096924176e-06
	4.452395791768632e-01

 50	5.000000000000002e-01
	-1.435028378378762e-15
	-3.704458458562015e-19
	-4.237913769047725e-15
	1.799629339258304e-06
	8.854180669398892e-05
	7.518958573162982e-06
	4.452396604132421e-01

 51	5.100000000000002e-01
	-1.421656835262550e-15
	-4.073271125923368e-19
	-4.289731330739343e-15
	1.967217803819430e-06
	9.922984832259598e-05
	8.456858935691143e-06
	4.452397515054152e-01

 52	5.200000000000002e-01
	-1.408662958535793e-15
	-4.454829377277450e-19
	-4.340716979081779e-15
	2.147319064379574e-06
	1.110716037662639e-04
	9.507327092680917e-06
	4.452398535315500e-01

 53	5.300000000000002e-01
	-1.396045019098039e-15
	-4.849338150954320e-19
	-4.390853884756394e-15
	2.340504372870638e-06
	1.241544185099689e-04
	1.068233542671491e-05
	4.452399676546772e-01

 54	5.400000000000003e-01
	-1.383800768958964e-15
	-5.257010357859374e-19
	-4.440127088349702e-15
	2.547335299357862e-06
	1.385643131987932e-04
	1.199472406598434e-05
	4.452400951221296e-01

 55	5.500000000000003e-01
	-1.371927465402343e-15
	-5.678067655945600e-19
	-4.488523471781569e-15
	2.768360610383467e-06
	1.543843138833657e-04
	1.345817936822762e-05
	4.452402372634595e-01

 56	5.600000000000003e-01
	-1.360421896167183e-15
	-6.112741228972476e-19
	-4.536031723639678e-15
	3.004113264803144e-06
	1.716926230339807e-04
	1.508719487867751e-05
	4.452403954866358e-01

 57	5.700000000000003e-01
	-1.349280405449376e-15
	-6.561272568411958e-19
	-4.582642298921018e-15
	3.255107573158087e-06
	1.905606698076414e-04
	1.689701335446860e-05
	4.452405712724141e-01

 58	5.800000000000003e-01
	-1.338498920532986e-15
	-7.023914257578854e-19
	-4.628347373691699e-15
	3.521836560696275e-06
	2.110510885095898e-04
	1.890354888619740e-05
	4.452407661667700e-01

 59	5.900000000000003e-01
	-1.328072978867528e-15
	-7.500930757292848e-19
	-4.673140795181006e-15
	3.804769566598986e-06
	2.332156835760918e-04
	2.112328868538917e-05
	4.452409817713507e-01

 60	6.000000000000003e-01
	-1.317997755415939e-15
	-7.992599192591006e-19
	-4.717018027825452e-15
	4.104350103186292e-06
	2.570934469934704e-04
	2.357317473014203e-05
	4.452412197319767e-01

 61	6.100000000000003e-01
	-1.308268090107376e-15
	-8.499210140237680e-19
	-4.759976095773886e-15
	4.420993989378995e-06
	2.827086991646307e-04
	2.627046614864720e-05
	4.452414817252658e-01

 62	6.200000000000003e-01
	-1.298878515239083e-15
	-9.021068416993219e-19
	-4.802013522355959e-15
	4.755087763074006e-06
	3.100694262360325e-04
	2.923258394353943e-05
	4.452417694435472e-01

 63	6.300000000000003e-01
	-1.289823282682336e-15
	-9.558493868825012e-19
	-4.843130267003646e-15
	5.106987367969824e-06
	3.391658853565684e-04
	3.247694038572953e-05
	4.452420845782774e-01

 64	6.400000000000003e-01
	-1.281096390758788e-15
	-1.011182216144740e-18
	-4.883327660100063e-15
	5.477017102363134e-06
	3.699695440151277e-04
	3.602075609762802e-05
	4.452424288022775e-01

 65	6.500000000000004e-01
	-1.272691610664829e-15
	-1.068140557280176e-18
	-4.922608336211572e-15
	5.865468811065876e-06
	4.024324105057112e-04
	3.988086846447758e-05
	4.452428037510990e-01

 66	6.600000000000004e-01
	-1.264602512333468e-15
	-1.126761378827367e-18
	-4.960976166138290e-15
	6.272601297270771e-06
	4.364867999780664e-04
	4.407353552223896e-05
	4.452432110039917e-01

 67	6.700000000000004e-01
	-1.256822489634538e-15
	-1.187083469966539e-18
	-4.998436188196322e-15
	6.698639929181116e-06
	4.720455649975574e-04
	4.861423983881289e-05
	4.452436520648290e-01

 68	6.800000000000004e-01
	-1.249344784825818e-15
	-1.249147520912629e-18
	-5.034994539120532e-15
	7.143776416561490e-06
	5.090028018483085e-04
	5.351749710655469e-05
	4.452441283435229e-01

 69	6.900000000000004e-01
	-1.242162512178726e-15
	-1.312996203943375e-18
	-5.070658384952282e-15
	7.608168734926215e-06
	5.472350249458728e-04
	5.879667418142576e-05
	4.452446411383511e-01

 70	7.000000000000004e-01
	-1.235268680713250e-15
	-1.378674255221965e-18
	-5.105435852250606e-15
	8.091941179515763e-06
	5.866027827700749e-04
	6.446382113131282e-05
	4.452451916196329e-01

 71	7.100000000000004e-01
	-1.228656215987496e-15
	-1.446228557589415e-18
	-5.139335959938875e-15
	8.595184537019148e-06
	6.269526708053442e-04
	7.052952149786124e-05
	4.452457808151952e-01

 72	7.200000000000004e-01
	-1.222317980897127e-15
	-1.515708224521343e-18
	-5.172368552072992e-15
	9.117956369573037e-06
	6.681196811438574e-04
	7.700276444847664e-05
	4.452464095979489e-01

 73	7.300000000000004e-01
	-1.216246795449887e-15
	-1.587164685458582e-18
	-5.204544231789957e-15
	9.660281412226259e-06
	7.099298155774816e-04
	8.389084182355218e-05
	4.452470786758995e-01

 74	7.400000000000004e-01
	-1.210435455489320e-15
	-1.660651772738369e-18
	-5.235874296669898e-15
	1.022215209114829e-05
	7.522028798730805e-04
	9.119927230239114e-05
	4.452477885847800e-01

 75	7.500000000000004e-01
	-1.204876750350492e-15
	-1.736225810366145e-18
	-5.266370675718102e-15
	1.080352917478102e-05
	7.947553719180346e-04
	9.893175405900693e-05
	4.452485396834675e-01

 76	7.600000000000005e-01
	-1.199563479438415e-15
	-1.813945704883617e-18
	-5.296045868148481e-15
	1.140434257342859e-05
	8.374033756743635e-04
	1.070901463983457e-04
	4.452493321521851e-01

 77	7.700000000000005e-01
	-1.194488467727390e-15
	-1.893873038599318e-18
	-5.324912884124555e-15
	1.202449230412947e-05
	8.799653762349946e-04
	1.156744799963420e-04
	4.452501659935311e-01

 78	7.800000000000005e-01
	-1.189644580186040e-15
	-1.976072165463312e-18
	-5.352985187590631e-15
	1.266384963696156e-05
	9.222649183213534e-04
	1.246829945530551e-04
	4.452510410361180e-01

 79	7.900000000000005e-01
	-1.185024735139233e-15
	-2.060610309875324e-18
	-5.380276641302110e-15
	1.332225843623346e-05
	9.641330406694153e-04
	1.341122019404467e-04
	4.452519569407246e-01

 80	8.000000000000005e-01
	-1.180621916583396e-15
	-2.147557668728518e-18
	-5.406801454142328e-15
	1.399953670557198e-05
	1.005410431150173e-03
	1.439569723123002e-04
	4.452529132086636e-01

 81	8.100000000000005e-01
	-1.176429185476808e-15
	-2.236987517000189e-18
	-5.432574130792248e-15
	1.469547834008276e-05
	1.045949261308700e-03
	1.542106401617437e-04
	4.452539091920835e-01

 82	8.200000000000005e-01
	-1.172439690030726e-15
	-2.328976317208881e-18
	-5.457609423799855e-15
	1.540985508200577e-05
	1.085614673426713e-03
	1.648651269718725e-04
	4.452549441058962e-01

 83	8.300000000000005e-01
	-1.168646675030918e-15
	-2.423603833068083e-18
	-5.481922288077955e-15
	1.614241866912768e-05
	1.124285907415580e-03
	1.759110769088512e-04
	4.452560170409520e-01

 84	8.400000000000005e-01
	-1.165043490222417e-15
	-2.520953247673915e-18
	-5.505527837842191e-15
	1.689290315814714e-05
	1.161857068133059e-03
	1.873380019485680e-04
	4.452571269781413e-01

 85	8.500000000000005e-01
	-1.161623597792906e-15
	-2.621111286572713e-18
	-5.528441305985783e-15
	1.766102739869425e-05
	1.198237545533226e-03
	1.991344328954761e-04
	4.452582728030685e-01

 86	8.600000000000005e-01
	-1.158380578992228e-15
	-2.724168346064792e-18
	-5.550678005873780e-15
	1.844649762816843e-05
	1.233352110008364e-03
	2.112880729287154e-04
	4.452594533209647e-01

 87	8.700000000000006e-01
	-1.155308139927220e-15
	-2.830218627107336e-18
	-5.572253295526952e-15
	1.924901015327118e-05
	1.267140713130438e-03
	2.237859505759790e-04
	4.452606672715520e-01

 88	8.800000000000006e-01
	-1.152400116572174e-15
	-2.939360275191411e-18
	-5.593182544154759e-15
	2.006825408125732e-05
	1.299558029667937e-03
	2.366145693483573e-04
	4.452619133435730e-01

 89	8.900000000000006e-01
	-1.149650479036083e-15
	-3.051695526575927e-18
	-5.613481100987071e-15
	2.090391406258098e-05
	1.330572780293393e-03
	2.497600516478682e-04
	4.452631901887780e-01

 90	9.000000000000006e-01
	-1.147053335128113e-15
	-3.167330861275046e-18
	-5.633164266346184e-15
	2.175567300674567e-05
	1.360166875968246e-03
	2.632082749630886e-04
	4.452644964351422e-01

 91	9.100000000000006e-01
	-1.144602933262905e-15
	-3.286377163204207e-18
	-5.652247264893792e-15
	2.262321473466177e-05
	1.388334424832194e-03
	2.769449987785828e-04
	4.452658306992038e-01

 92	9.200000000000006e-01
	-1.142293664746959e-15
	-3.408949887906488e-18
	-5.670745220981745e-15
	2.350622653349909e-05
	1.415080640821827e-03
	2.909559810250168e-04
	4.452671915973657e-01

 93	9.300000000000006e-01
	-1.140120065486913e-15
	-3.535169238291997e-18
	-5.688673136030840e-15
	2.440440158365926e-05
	1.440420690507086e-03
	3.052270832758225e-04
	4.452685777561214e-01

 94	9.400000000000006e-01
	-1.138076817159732e-15
	-3.665160348840784e-18
	-5.706045867858358e-15
	2.531744123185232e-05
	1.464378511074302e-03
	3.197443642436031e-04
	4.452699878211259e-01

 95	9.500000000000006e-01
	-1.136158747883886e-15
	-3.799053478734145e-18
	-5.722878111872362e-15
	2.624505708906900e-05
	1.486985628291826e-03
	3.344941614380651e-04
	4.452714204651361e-01

 96	9.600000000000006e-01
	-1.134360832429502e-15
	-3.936984214399475e-18
	-5.739184384048920e-15
	2.718697293727994e-05
	1.508279998930328e-03
	3.494631611135591e-04
	4.452728743947967e-01

 97	9.700000000000006e-01
	-1.132678192004206e-15
	-4.079093681971665e-18
	-5.754979005607507e-15
	2.814292643372273e-05
	1.528304897695296e-03
	3.646384568563458e-04
	4.452743483563331e-01

 98	9.800000000000006e-01
	-1.131106093650052e-15
	-4.225528770195117e-18
	-5.770276089299284e-15
	2.911267060649147e-05
	1.547107864444522e-03
	3.800075973403001e-04
	4.452758411401893e-01

 99	9.900000000000007e-01
	-1.129639949285407e-15
	-4.376442364314266e-18
	-5.785089527223374e-15
	3.009597513965926e-05
	1.564739723444311e-03
	3.955586239166738e-04
	4.452773515846788e-01

 100	1.000000000000001e+00
	-1.128275314424292e-15
	-4.531993591522212e-18
	-5.799432980086791e-15
	3.109262745023793e-05
	1.581253682761515e-03
	4.112800988021106e-04
	4.452788785787178e-01

 101	1.010000000000001e+00
	-1.127007886604013e-15
	-4.692348078565957e-18
	-5.813319867824934e-15
	3.210243356282999e-05
