Title: ** sch_path: /home/andylithia/openmpw/project-yatsuhashi-chip1/xschem/gmid_test/nmos_test.sch
Date: Sun Jul 17 22:51:45  2022
Plotname: DC transfer characteristic
Flags: real
No. Variables: 8
No. Points: 181
Variables:
	0	v(v-sweep)	voltage
	1	@m.xm1.msky130_fd_pr__nfet_01v8[cgb]	capacitance
	2	@m.xm1.msky130_fd_pr__nfet_01v8[cgd]	capacitance
	3	@m.xm1.msky130_fd_pr__nfet_01v8[cgs]	capacitance
	4	@m.xm1.msky130_fd_pr__nfet_01v8[gds]	admittance
	5	@m.xm1.msky130_fd_pr__nfet_01v8[gm]	admittance
	6	i(@m.xm1.msky130_fd_pr__nfet_01v8[id])	current
	7	v(@m.xm1.msky130_fd_pr__nfet_01v8[vth])	voltage
Values:
 0	0.000000000000000e+00
	-3.606501606132214e-15
	-2.991086758060602e-19
	-2.550632451124039e-15
	1.199909814388987e-09
	6.282417480829718e-08
	4.737762695582658e-09
	3.789183578484522e-01

 1	1.000000000000000e-02
	-3.566747132620483e-15
	-3.112440893266206e-19
	-2.635497317297243e-15
	1.368995565260623e-09
	7.160720556447860e-08
	5.408977679641536e-09
	3.789183579219179e-01

 2	2.000000000000000e-02
	-3.526854915901924e-15
	-3.238553492958996e-19
	-2.721971803661347e-15
	1.561420698404606e-09
	8.159515538079273e-08
	6.173921077264808e-09
	3.789183580056411e-01

 3	3.000000000000000e-02
	-3.486842472805769e-15
	-3.369595212587096e-19
	-2.810013866148655e-15
	1.780302631737229e-09
	9.294961286276974e-08
	7.045433401522580e-09
	3.789183581010301e-01

 4	4.000000000000000e-02
	-3.446728472198074e-15
	-3.505741860039288e-19
	-2.899577291151712e-15
	2.029153274693094e-09
	1.058533917500336e-07
	8.038075002261905e-09
	3.789183582096755e-01

 5	5.000000000000000e-02
	-3.406532681515395e-15
	-3.647174518845526e-19
	-2.990611748660168e-15
	2.311924433232566e-09
	1.205133161140685e-07
	9.168351944508575e-09
	3.789183583333852e-01

 6	6.000000000000000e-02
	-3.366275906520277e-15
	-3.794079675325734e-19
	-3.083062867818749e-15
	2.633057526567324e-09
	1.371633915510931e-07
	1.045497162200617e-08
	3.789183584742075e-01

 7	7.000000000000001e-02
	-3.325979924511168e-15
	-3.946649350013104e-19
	-3.176872335023640e-15
	2.997537840665345e-09
	1.560684234587485e-07
	1.191913226282954e-08
	3.789183586344609e-01

 8	8.000000000000000e-02
	-3.285667411286903e-15
	-4.105081233697985e-19
	-3.271978014475591e-15
	3.410953515525962e-09
	1.775281545066634e-07
	1.358485114849809e-08
	3.789183588167758e-01

 9	9.000000000000000e-02
	-3.245361862232198e-15
	-4.269578828457274e-19
	-3.368314090903485e-15
	3.879559424420428e-09
	2.018820063384559e-07
	1.547933715208099e-08
	3.789183590241309e-01

 10	9.999999999999999e-02
	-3.205087507954282e-15
	-4.440351594051499e-19
	-3.465811233964216e-15
	4.410346052170096e-09
	2.295145255647263e-07
	1.763341412444879e-08
	3.789183592598983e-01

 11	1.100000000000000e-01
	-3.164869224961342e-15
	-4.617615100090560e-19
	-3.564396783616730e-15
	5.011113414479163e-09
	2.608616513629831e-07
	2.008200274279608e-08
	3.789183595278999e-01

 12	1.200000000000000e-01
	-3.124732441929622e-15
	-4.801591184389399e-19
	-3.663994955563043e-15
	5.690549979800259e-09
	2.964179415465996e-07
	2.286466970454404e-08
	3.789183598324668e-01

 13	1.300000000000000e-01
	-3.084703042156993e-15
	-4.992508117948643e-19
	-3.764527065648997e-15
	6.458316457773746e-09
	3.367449157255131e-07
	2.602625462537206e-08
	3.789183601785074e-01

 14	1.400000000000000e-01
	-3.044807262845997e-15
	-5.190600777017558e-19
	-3.865911771926165e-15
	7.325134202774530e-09
	3.824806978924188e-07
	2.961758670344521e-08
	3.789183605715843e-01

 15	1.500000000000000e-01
	-3.005071591897557e-15
	-5.396110822711503e-19
	-3.968065332896182e-15
	8.302877846702712e-09
	4.343511659056749e-07
	3.369630516001974e-08
	3.789183610180074e-01

 16	1.600000000000000e-01
	-2.965522662927536e-15
	-5.609286888674932e-19
	-4.070901880292679e-15
	9.404671621546584e-09
	4.931828410378900e-07
	3.832779966979328e-08
	3.789183615249348e-01

 17	1.700000000000000e-01
	-2.926187149241349e-15
	-5.830384777297896e-19
	-4.174333704606336e-15
	1.064498865973917e-08
	5.599177757161005e-07
	4.358628945209881e-08
	3.789183621004860e-01

 18	1.800000000000000e-01
	-2.887091657516468e-15
	-6.059667665012121e-19
	-4.278271551427594e-15
	1.203975237003852e-08
	6.356307199628537e-07
	4.955606239022698e-08
	3.789183627538913e-01

 19	1.900000000000000e-01
	-2.848262621948564e-15
	-6.297406317207168e-19
	-4.382624926572627e-15
	1.360643878068166e-08
	7.215488643992963e-07
	5.633289844340430e-08
	3.789183634956325e-01

 20	2.000000000000000e-01
	-2.809726199614478e-15
	-6.543879313329924e-19
	-4.487302407869868e-15
	1.536417852304073e-08
	8.190744668231618e-07
	6.402570464854191e-08
	3.789183643376295e-01

 21	2.100000000000000e-01
	-2.771508167793377e-15
	-6.799373282740874e-19
	-4.592211961422473e-15
	1.733385690243473e-08
	9.298106664029870e-07
	7.275839207604675e-08
	3.789183652934451e-01

 22	2.200000000000001e-01
	-2.733633823967500e-15
	-7.064183151923387e-19
	-4.697261260123489e-15
	1.953821027385878e-08
	1.055590769742258e-06
	8.267202806147852e-08
	3.789183663785230e-01

 23	2.300000000000001e-01
	-2.696127889195193e-15
	-7.338612403656984e-19
	-4.802358002188521e-15
	2.200191671638195e-08
	1.198511251075736e-06
	9.392729968819016e-08
	3.789183676104492e-01

 24	2.400000000000001e-01
	-2.659014415512660e-15
	-7.622973348782824e-19
	-4.907410227483560e-15
	2.475167878937305e-08
	1.360968638737367e-06
	1.067073265938854e-07
	3.789183690092664e-01

 25	2.500000000000001e-01
	-2.622316697977085e-15
	-7.917587411210061e-19
	-5.012326629464767e-15
	2.781629596638392e-08
	1.545700355603631e-06
	1.212208624041810e-07
	3.789183705978288e-01

 26	2.600000000000001e-01
	-2.586057191913322e-15
	-8.222785426826249e-19
	-5.117016860610673e-15
	3.122672418936568e-08
	1.755829436455059e-06
	1.377059240851723e-07
	3.789183724021878e-01

 27	2.700000000000001e-01
	-2.550257435870436e-15
	-8.538907956998431e-19
	-5.221391829313254e-15
	3.501611987856118e-08
	1.994912854850909e-06
	1.564338868240691e-07
	3.789183744520446e-01

 28	2.800000000000001e-01
	-2.514937980733048e-15
	-8.866305617364182e-19
	-5.325363986304027e-15
	3.921986568402585e-08
	2.266992952416660e-06
	1.777140782161500e-07
	3.789183767812656e-01

 29	2.900000000000001e-01
	-2.480118325367476e-15
	-9.205339422643412e-19
	-5.428847598820331e-15
	4.387557528510088e-08
	2.576651173017940e-06
	2.018988990546365e-07
	3.789183794284197e-01

 30	3.000000000000001e-01
	-2.445816859114658e-15
	-9.556381148207552e-19
	-5.531759010862615e-15
	4.902307464535638e-08
	2.929062965121376e-06
	2.293894883867558e-07
	3.789183824374208e-01

 31	3.100000000000001e-01
	-2.412050811371814e-15
	-9.919813709180913e-19
	-5.634016888057261e-15
	5.470435732223872e-08
	3.330052334101360e-06
	2.606419372552790e-07
	3.789183858581924e-01

 32	3.200000000000001e-01
	-2.378836208434078e-15
	-1.029603155786023e-18
	-5.735542445812840e-15
	6.096351172002797e-08
	3.786144114022752e-06
	2.961740383190866e-07
	3.789183897474175e-01

 33	3.300000000000001e-01
	-2.346187837696429e-15
	-1.068544110027129e-18
	-5.836259659643840e-15
	6.784661856628982e-08
	4.304611603272015e-06
	3.365725371166180e-07
	3.789183941693223e-01

 34	3.400000000000001e-01
	-2.314119219246996e-15
	-1.108846113270230e-18
	-5.936095456726295e-15
	7.540161738620653e-08
	4.893516794470283e-06
	3.825008250874115e-07
	3.789183991965288e-01

 35	3.500000000000001e-01
	-2.282642584814888e-15
	-1.150552329908693e-18
	-6.034979887947190e-15
	8.367814134248709e-08
	5.561740056794569e-06
	4.347069848596873e-07
	3.789184049109269e-01

 36	3.600000000000002e-01
	-2.251768863971517e-15
	-1.193707257013458e-18
	-6.132846279905260e-15
	9.272732049239689e-08
	6.318995833923370e-06
	4.940320653363491e-07
	3.789184114045885e-01

 37	3.700000000000002e-01
	-2.221507677423214e-15
	-1.238356774514406e-18
	-6.229631366517534e-15
	1.026015542745533e-07
	7.175830742803892e-06
	5.614184287382667e-07
	3.789184187806736e-01

 38	3.800000000000002e-01
	-2.191867337176603e-15
	-1.284548197746444e-18
	-6.325275400076731e-15
	1.133542548579799e-07
	8.143600437944944e-06
	6.379179753637696e-07
	3.789184271543365e-01

 39	3.900000000000002e-01
	-2.162854853306651e-15
	-1.332330332460697e-18
	-6.419722241789935e-15
	1.250395638416366e-07
	9.234421781442756e-06
	7.247000161689819e-07
	3.789184366535854e-01

 40	4.000000000000002e-01
	-2.134475947011125e-15
	-1.381753532405240e-18
	-6.512919432004893e-15
	1.377120456571010e-07
	1.046109726270190e-05
	8.230585304928072e-07
	3.789184474200763e-01

 41	4.100000000000002e-01
	-2.106735069595063e-15
	-1.432869759583633e-18
	-6.604818240495481e-15
	1.514263618701517e-07
	1.183700926551539e-05
	9.344185187450014e-07
	3.789184596098155e-01

 42	4.200000000000002e-01
	-2.079635426994281e-15
	-1.485732647304373e-18
	-6.695373697331361e-15
	1.662369313666420e-07
	1.337598269063518e-05
	1.060341140194293e-06
	3.789184733937090e-01

 43	4.300000000000002e-01
	-2.053179009419091e-15
	-1.540397566138790e-18
	-6.784544604995053e-15
	1.821975821114326e-07
	1.509211559737027e-05
	1.202527316660093e-06
	3.789184889579723e-01

 44	4.400000000000002e-01
	-2.027366625677069e-15
	-1.596921692910371e-18
	-6.872293532535106e-15
	1.993612007549280e-07
	1.699957889508439e-05
	1.362819486231303e-06
	3.789185065043136e-01

 45	4.500000000000002e-01
	-2.002197941717930e-15
	-1.655364082844117e-18
	-6.958586792652067e-15
	2.177793868005662e-07
	1.911238763949792e-05
	1.543201208967946e-06
	3.789185262498865e-01

 46	4.600000000000002e-01
	-1.977671522933468e-15
	-1.715785745009416e-18
	-7.043394402706780e-15
	2.375021183138740e-07
	2.144414809326224e-05
	1.745794360090073e-06
	3.789185484269992e-01

 47	4.700000000000003e-01
	-1.953784879740825e-15
	-1.778249721198121e-18
	-7.126690030717955e-15
	2.585774362304440e-07
	2.400778630170994e-05
	1.972853695773926e-06
	3.789185732825005e-01

 48	4.800000000000003e-01
	-1.930534515978475e-15
	-1.842821168383672e-18
	-7.208450927475307e-15
	2.810511541939323e-07
	2.681526540763837e-05
	2.226758641702160e-06
	3.789186010768957e-01

 49	4.900000000000003e-01
	-1.907915979649671e-15
	-1.909567444917151e-18
	-7.288657845940837e-15
	3.049666005225015e-07
	2.987730017438538e-05
	2.510002233227843e-06
	3.789186320831202e-01

 50	5.000000000000002e-01
	-1.885923915558520e-15
	-1.978558200621137e-18
	-7.367294949139511e-15
	3.303643983668978e-07
	3.320307810046500e-05
	2.825177225600467e-06
	3.789186665850344e-01

 51	5.100000000000002e-01
	-1.864552119397718e-15
	-2.049865470952532e-18
	-7.444349707757029e-15
	3.572822893994940e-07
	3.679999700297420e-05
	3.174959489398201e-06
	3.789187048755971e-01

 52	5.200000000000002e-01
	-1.843793592864766e-15
	-2.123563775413355e-18
	-7.519812788664130e-15
	3.857550054824926e-07
	4.067342895618519e-05
	3.562088905560218e-06
	3.789187472547718e-01

 53	5.300000000000002e-01
	-1.823640599403985e-15
	-2.199730220397949e-18
	-7.593677935576479e-15
	4.158141917348029e-07
	4.482651996317431e-05
	3.989348071176591e-06
	3.789187940271970e-01

 54	5.400000000000003e-01
	-1.804084720194816e-15
	-2.278444606675323e-18
	-7.665941843038106e-15
	4.474883832869068e-07
	4.926003371536245e-05
	4.459539216278224e-06
	3.789188454996621e-01

 55	5.500000000000003e-01
	-1.785116910031687e-15
	-2.359789541716244e-18
	-7.736604024885037e-15
	4.808030368220027e-07
	5.397224629871279e-05
	4.975459808303899e-06
	3.789189019784259e-01

 56	5.600000000000003e-01
	-1.766727552767770e-15
	-2.443850557085210e-18
	-7.805666678304741e-15
	5.157806167934843e-07
	5.895889681315872e-05
	5.539877380330727e-06
	3.789189637664732e-01

 57	5.700000000000003e-01
	-1.748906516021976e-15
	-2.530716231131064e-18
	-7.873134544560616e-15
	5.524407350281704e-07
	6.421319669099876e-05
	6.155504158097991e-06
	3.789190311607263e-01

 58	5.800000000000003e-01
	-1.731643204877292e-15
	-2.620478317221219e-18
	-7.939014767395350e-15
	5.908003413136927e-07
	6.972589815937352e-05
	6.824972077066401e-06
	3.789191044493142e-01

 59	5.900000000000003e-01
	-1.714926614326731e-15
	-2.713231877779553e-18
	-8.003316750068749e-15
	6.308739615671070e-07
	7.548541993161404e-05
	7.550808773346111e-06
	3.789191839089437e-01

 60	6.000000000000003e-01
	-1.698745380251686e-15
	-2.809075424401583e-18
	-8.066052011922306e-15
	6.726739793228358e-07
	8.147802597156232e-05
	8.335415101793680e-06
	3.789192698024347e-01

 61	6.100000000000003e-01
	-1.683087828745301e-15
	-2.908111064336352e-18
	-8.127234045296542e-15
	7.162109555881141e-07
	8.768805118164442e-05
	9.181044682775096e-06
	3.789193623764868e-01

 62	6.200000000000003e-01
	-1.667942023620779e-15
	-3.010444653640380e-18
	-8.186878173559872e-15
	7.614939816111616e-07
	9.409816622575913e-05
	1.008978590904850e-05
	3.789194618597032e-01

 63	6.300000000000003e-01
	-1.653295811970755e-15
	-3.116185957325957e-18
	-8.245001410938483e-15
	8.085310588001761e-07
	1.006896724893692e-04
	1.106354675988139e-05
	3.789195684609380e-01

 64	6.400000000000003e-01
	-1.639136867668942e-15
	-3.225448816845059e-18
	-8.301622324768364e-15
	8.573294999204965e-07
	1.074428174460487e-04
	1.210404267545347e-05
	3.789196823679571e-01

 65	6.500000000000004e-01
	-1.625452732729154e-15
	-3.338351325267327e-18
	-8.356760900722083e-15
	9.078963457743922e-07
	1.143371204524343e-04
	1.321278764563419e-05
	3.789198037464763e-01

 66	6.600000000000004e-01
	-1.612230856458988e-15
	-3.455016010532581e-18
	-8.410438411496572e-15
	9.602387918180070e-07
	1.213516992103861e-04
	1.439108856815182e-05
	3.789199327395356e-01

 67	6.700000000000004e-01
	-1.599458632366400e-15
	-3.575570027178014e-18
	-8.462677289383030e-15
	1.014364619571036e-06
	1.284655877667894e-04
	1.564004283639006e-05
	3.789200694672372e-01

 68	6.800000000000004e-01
	-1.587123432796513e-15
	-3.700145356962843e-18
	-8.513501003077748e-15
	1.070282628201636e-06
	1.356580378974274e-04
	1.696053903038081e-05
	3.789202140268261e-01

 69	6.900000000000004e-01
	-1.575212641293528e-15
	-3.828879018837178e-18
	-8.562933939033302e-15
	1.128003062293300e-06
	1.429087969574724e-04
	1.835326050903413e-05
	3.789203664930791e-01

 70	7.000000000000004e-01
	-1.563713682698571e-15
	-3.961913288725485e-18
	-8.611001287592804e-15
	1.187538032492788e-06
	1.501983566869752e-04
	1.981869163940322e-05
	3.789205269189930e-01

 71	7.100000000000004e-01
	-1.552614051008396e-15
	-4.099395929622099e-18
	-8.657728934097503e-15
	1.248901926470641e-06
	1.575081689458893e-04
	2.135712635108455e-05
	3.789206953367121e-01

 72	7.200000000000004e-01
	-1.541901335032690e-15
	-4.241480432522664e-18
	-8.703143355107929e-15
	1.312111808371148e-06
	1.648208258369515e-04
	2.296867867105769e-05
	3.789208717586976e-01

 73	7.300000000000004e-01
	-1.531563241898506e-15
	-4.388326268745908e-18
	-8.747271519834031e-15
	1.377187805664728e-06
	1.721202030852239e-04
	2.465329487602175e-05
	3.789210561790422e-01

 74	7.400000000000004e-01
	-1.521587618460087e-15
	-4.540099154228742e-18
	-8.790140796827192e-15
	1.444153483021342e-06
	1.793915668232499e-04
	2.641076689450434e-05
	3.789212485749445e-01

 75	7.500000000000004e-01
	-1.511962470680317e-15
	-4.696971326411396e-18
	-8.831778865949267e-15
	1.513036203485114e-06
	1.866216450398415e-04
	2.824074659823760e-05
	3.789214489082746e-01

 76	7.600000000000005e-01
	-1.502675981056748e-15
	-4.859121834363012e-18
	-8.872213635599657e-15
	1.583867477835503e-06
	1.937986658629601e-04
	3.014276063961739e-05
	3.789216571271972e-01

 77	7.700000000000005e-01
	-1.493716524170613e-15
	-5.026736842834308e-18
	-8.911473165150372e-15
	1.656683303562988e-06
	2.009123655523343e-04
	3.211622551748242e-05
	3.789218731678203e-01

 78	7.800000000000005e-01
	-1.485072680441499e-15
	-5.200009950961065e-18
	-8.949585592512316e-15
	1.731524495363849e-06
	2.079539695771311e-04
	3.416046258488070e-05
	3.789220969558381e-01

 79	7.900000000000005e-01
	-1.476733248173453e-15
	-5.379142526383658e-18
	-8.986579066732218e-15
	1.808437009470172e-06
	2.149161504601891e-04
	3.627471274793960e-05
	3.789223284081385e-01

 80	8.000000000000005e-01
	-1.468687253980540e-15
	-5.564344055589225e-18
	-9.022481685499058e-15
	1.887472264480203e-06
	2.217929662024463e-04
	3.845815064257042e-05
	3.789225674343628e-01

 81	8.100000000000005e-01
	-1.460923961681036e-15
	-5.755832511329220e-18
	-9.057321437421795e-15
	1.968687461647054e-06
	2.285797830837219e-04
	4.070989811391285e-05
	3.789228139383629e-01

 82	8.200000000000005e-01
	-1.453432879750010e-15
	-5.953834738009797e-18
	-9.091126148925265e-15
	2.052145907825866e-06
	2.352731864957030e-04
	4.302903686075829e-05
	3.789230678196059e-01

 83	8.300000000000005e-01
	-1.446203767419667e-15
	-6.158586856006678e-18
	-9.123923435599611e-15
	2.137917344482034e-06
	2.418708832276427e-04
	4.541462014266603e-05
	3.789233289744466e-01

 84	8.400000000000005e-01
	-1.439226639515969e-15
	-6.370334685905120e-18
	-9.155740657829106e-15
	2.226078286331403e-06
	2.483715983209571e-04
	4.786568348019568e-05
	3.789235972972921e-01

 85	8.500000000000005e-01
	-1.432491770118691e-15
	-6.589334193722815e-18
	-9.186604880518902e-15
	2.316712373329253e-06
	2.547749692601164e-04
	5.038125430812482e-05
	3.789238726816702e-01

 86	8.600000000000005e-01
	-1.425989695129967e-15
	-6.815851958234740e-18
	-9.216542836733571e-15
	2.409910739856826e-06
	2.610814398951454e-04
	5.296036056735188e-05
	3.789241550211619e-01

 87	8.700000000000006e-01
	-1.419711213834306e-15
	-7.050165661576235e-18
	-9.245580895057416e-15
	2.505772405080111e-06
	2.672921561133959e-04
	5.560203824323134e-05
	3.789244442102279e-01

 88	8.800000000000006e-01
	-1.413647389530181e-15
	-7.292564604372617e-18
	-9.273745030485644e-15
	2.604404688585239e-06
	2.734088649095429e-04
	5.830533787640804e-05
	3.789247401449263e-01

 89	8.900000000000006e-01
	-1.407789549310530e-15
	-7.543350246707325e-18
	-9.301060798654895e-15
	2.705923655535786e-06
	2.794338181538131e-04
	6.106933008694474e-05
	3.789250427235081e-01

 90	9.000000000000006e-01
	-1.402129283066371e-15
	-7.802836776318209e-18
	-9.327553313222762e-15
	2.810454595755982e-06
	2.853696820370324e-04
	6.389311016388379e-05
	3.789253518469254e-01

 91	9.100000000000006e-01
	-1.396658441784403e-15
	-8.071351705485380e-18
	-9.353247226208563e-15
	2.918132541329230e-06
	2.912194528823151e-04
	6.677580178070883e-05
	3.789256674192391e-01

 92	9.200000000000006e-01
	-1.391369135206091e-15
	-8.349236498160153e-18
	-9.378166711110633e-15
	3.029102827517944e-06
	2.969863797596460e-04
	6.971655990275985e-05
	3.789259893479367e-01

 93	9.300000000000006e-01
	-1.386253728912240e-15
	-8.636847228964830e-18
	-9.402335448619464e-15
	3.143521702066028e-06
	3.026738941220541e-04
	7.271457295590257e-05
	3.789263175441633e-01

 94	9.400000000000006e-01
	-1.381304840893677e-15
	-8.934555275789687e-18
	-9.425776614750952e-15
	3.261556988244178e-06
	3.082855464997495e-04
	7.576906432698235e-05
	3.789266519228943e-01

 95	9.500000000000006e-01
	-1.376515337664944e-15
	-9.242748047805619e-18
	-9.448512871229299e-15
	3.383388807348233e-06
	3.138249501397630e-04
	7.887929326620650e-05
	3.789269924030281e-01

 96	9.600000000000006e-01
	-1.371878329974634e-15
	-9.561829750812391e-18
	-9.470566357954820e-15
	3.509210366764819e-06
	3.192957313604959e-04
	8.204455525983108e-05
	3.789273389074325e-01

 97	9.700000000000006e-01
	-1.367387168162397e-15
	-9.892222191950520e-18
	-9.491958687398255e-15
	3.639228820185817e-06
	3.247014863003209e-04
	8.526418193877014e-05
	3.789276913629303e-01

 98	9.800000000000006e-01
	-1.363035437209383e-15
	-1.023436562591403e-17
	-9.512710940769568e-15
	3.773666207086672e-06
	3.300457436734068e-04
	8.853754058516615e-05
	3.789280497002456e-01

 99	9.900000000000007e-01
	-1.358816951525595e-15
	-1.058871964492228e-17
	-9.532843665815564e-15
	3.912760479192345e-06
	3.353319331011711e-04
	9.186403329486947e-05
	3.789284138539164e-01

 100	1.000000000000001e+00
	-1.354725749514308e-15
	-1.095576411482958e-17
	-9.552376876107977e-15
	4.056766622343582e-06
	3.405633585606699e-04
	9.524309584929640e-05
	3.789287837621620e-01

 101	1.010000000000001e+00
	-1.350756087950859e-15
	-1.133600015988480e-17
	-9.571330051689878e-15
