Title: ** sch_path: /home/andylithia/openmpw/project-yatsuhashi-chip1/xschem/gmid_test/nmos_test.sch
Date: Tue Jul 19 23:15:45  2022
Plotname: DC transfer characteristic
Flags: real
No. Variables: 8
No. Points: 181
Variables:
	0	v(v-sweep)	voltage
	1	@m.xm1.msky130_fd_pr__nfet_01v8[cgb]	capacitance
	2	@m.xm1.msky130_fd_pr__nfet_01v8[cgd]	capacitance
	3	@m.xm1.msky130_fd_pr__nfet_01v8[cgs]	capacitance
	4	@m.xm1.msky130_fd_pr__nfet_01v8[gds]	admittance
	5	@m.xm1.msky130_fd_pr__nfet_01v8[gm]	admittance
	6	i(@m.xm1.msky130_fd_pr__nfet_01v8[id])	current
	7	v(@m.xm1.msky130_fd_pr__nfet_01v8[vth])	voltage
Values:
 0	0.000000000000000e+00
	-5.318914956303258e-15
	-1.904231265202294e-19
	-6.873608520199768e-15
	6.491040710505431e-09
	3.125611581541747e-07
	3.147254887048173e-08
	2.858028609253905e-01

 1	1.000000000000000e-02
	-5.256561773239638e-15
	-1.959768767160201e-19
	-7.014709414401640e-15
	7.155556401292414e-09
	3.446354309692239e-07
	3.475595877052483e-08
	2.858028612245651e-01

 2	2.000000000000000e-02
	-5.194625072978919e-15
	-2.016770327371729e-19
	-7.156521597189373e-15
	7.885554453341713e-09
	3.799501164682643e-07
	3.837605452519034e-08
	2.858028615544920e-01

 3	3.000000000000000e-02
	-5.133128063182515e-15
	-2.075267189655372e-19
	-7.298973230272676e-15
	8.687111192192834e-09
	4.188316720342102e-07
	4.236684574689183e-08
	2.858028619182949e-01

 4	4.000000000000000e-02
	-5.072093906404187e-15
	-2.135291021540427e-19
	-7.441991388871125e-15
	9.566813181273201e-09
	4.616404644661247e-07
	4.676577316658654e-08
	2.858028623194145e-01

 5	5.000000000000000e-02
	-5.011545659704403e-15
	-2.196873916629722e-19
	-7.585502202130967e-15
	1.053179275500266e-08
	5.087745876350066e-07
	5.161406644319832e-08
	2.858028627616432e-01

 6	6.000000000000000e-02
	-4.951506214731989e-15
	-2.260048397219511e-19
	-7.729430996899247e-15
	1.158976506901098e-08
	5.606741549829078e-07
	5.695714247588289e-08
	2.858028632491635e-01

 7	7.000000000000001e-02
	-4.891998238509074e-15
	-2.324847417194638e-19
	-7.873702444297618e-15
	1.274906660629000e-08
	6.178261272619128e-07
	6.284504926431773e-08
	2.858028637865907e-01

 8	8.000000000000000e-02
	-4.833044115152888e-15
	-2.391304365221527e-19
	-8.018240708520785e-15
	1.401869505770154e-08
	6.807697422677534e-07
	6.933296099775394e-08
	2.858028643790150e-01

 9	9.000000000000000e-02
	-4.774665888764340e-15
	-2.459453068257519e-19
	-8.162969597269877e-15
	1.540835047306525e-08
	7.501026198790245e-07
	7.648173075373286e-08
	2.858028650320648e-01

 10	9.999999999999999e-02
	-4.716885207707491e-15
	-2.529327795397898e-19
	-8.307812713222247e-15
	1.692847755515868e-08
	8.264876223379857e-07
	8.435850795365771e-08
	2.858028657519540e-01

 11	1.100000000000000e-01
	-4.659723270497495e-15
	-2.600963262079717e-19
	-8.452693605931113e-15
	1.859030894339916e-08
	9.106605562298718e-07
	9.303742855445509e-08
	2.858028665455574e-01

 12	1.200000000000000e-01
	-4.603200773505761e-15
	-2.674394634662372e-19
	-8.597535923547991e-15
	2.040590930693135e-08
	1.003438808820320e-06
	1.026003868515595e-07
	2.858028674204791e-01

 13	1.300000000000000e-01
	-4.547337860681453e-15
	-2.749657535404854e-19
	-8.742263563761235e-15
	2.238822003842331e-08
	1.105731017024589e-06
	1.131378987236623e-07
	2.858028683851412e-01

 14	1.400000000000000e-01
	-4.492154075477218e-15
	-2.826788047857076e-19
	-8.886800823350629e-15
	2.455110431029661e-08
	1.218547871985340e-06
	1.247500671568283e-07
	2.858028694488712e-01

 15	1.500000000000000e-01
	-4.437668315154483e-15
	-2.905822722685354e-19
	-9.031072545767049e-15
	2.690939222461399e-08
	1.343014165642318e-06
	1.375476619335719e-07
	2.858028706220186e-01

 16	1.600000000000000e-01
	-4.383898787630315e-15
	-2.986798583949647e-19
	-9.175004266160703e-15
	2.947892575669216e-08
	1.480382187341192e-06
	1.516533264463004e-07
	2.858028719160570e-01

 17	1.700000000000000e-01
	-4.330862971013083e-15
	-3.069753135849517e-19
	-9.318522353297457e-15
	3.227660316098384e-08
	1.632046577937083e-06
	1.672029256739987e-07
	2.858028733437320e-01

 18	1.800000000000000e-01
	-4.278577575958908e-15
	-3.154724369956404e-19
	-9.461554147825118e-15
	3.532042247628374e-08
	1.799560745430584e-06
	1.843470504211633e-07
	2.858028749192034e-01

 19	1.900000000000000e-01
	-4.227058510964554e-15
	-3.241750772949168e-19
	-9.604028096374973e-15
	3.862952373614538e-08
	1.984654939294736e-06
	2.032526939269320e-07
	2.858028766582084e-01

 20	2.000000000000000e-01
	-4.176320850695716e-15
	-3.330871334867433e-19
	-9.745873881011439e-15
	4.222422946004374e-08
	2.189256069632571e-06
	2.241051178725400e-07
	2.858028785782559e-01

 21	2.100000000000000e-01
	-4.126378807432401e-15
	-3.422125557899177e-19
	-9.887022543573626e-15
	4.612608297166920e-08
	2.415509341425250e-06
	2.471099256014664e-07
	2.858028806988302e-01

 22	2.200000000000001e-01
	-4.077245705695497e-15
	-3.515553465716765e-19
	-1.002740660448497e-14
	5.035788406324315e-08
	2.665801752650731e-06
	2.724953609666099e-07
	2.858028830416249e-01

 23	2.300000000000001e-01
	-4.028933960101133e-15
	-3.611195613375609e-19
	-1.016696017564277e-14
	5.494372149944060e-08
	2.942787477236007e-06
	3.005148515730052e-07
	2.858028856307949e-01

 24	2.400000000000001e-01
	-3.981455056471412e-15
	-3.709093097787689e-19
	-1.030561906703631e-14
	5.990900183177794e-08
	3.249415118942983e-06
	3.314498152256771e-07
	2.858028884932600e-01

 25	2.500000000000001e-01
	-3.934819536212779e-15
	-3.809287568784931e-19
	-1.044332088678222e-14
	6.528047397487531e-08
	3.588956779743402e-06
	3.656127480471481e-07
	2.858028916590065e-01

 26	2.600000000000001e-01
	-3.889036983955974e-15
	-3.911821240782571e-19
	-1.058000513430450e-14
	7.108624898008371e-08
	3.965038835469921e-06
	4.033506119171929e-07
	2.858028951614464e-01

 27	2.700000000000001e-01
	-3.844116018434554e-15
	-4.016736905053440e-19
	-1.071561328642858e-14
	7.735581443040642e-08
	4.381674252169530e-06
	4.450485375256152e-07
	2.858028990378093e-01

 28	2.800000000000001e-01
	-3.800064286562784e-15
	-4.124077942627233e-19
	-1.085008887620081e-14
	8.412004287376328e-08
	4.843296208454598e-06
	4.911338573292472e-07
	2.858029033295643e-01

 29	2.900000000000001e-01
	-3.756888460657966e-15
	-4.233888337820781e-19
	-1.098337756428572e-14
	9.141119371005120e-08
	5.354792712341820e-06
	5.420804799797145e-07
	2.858029080828855e-01

 30	3.000000000000001e-01
	-3.714594238737496e-15
	-4.346212692411635e-19
	-1.111542720283590e-14
	9.926290795175988e-08
	5.921541816014896e-06
	5.984136142542631e-07
	2.858029133491695e-01

 31	3.100000000000001e-01
	-3.673186347806914e-15
	-4.461096240464029e-19
	-1.124618789177058e-14
	1.077101952885410e-07
	6.549446939447130e-06
	6.607148460987658e-07
	2.858029191855854e-01

 32	3.200000000000001e-01
	-3.632668550042141e-15
	-4.578584863814461e-19
	-1.137561202743925e-14
	1.167894129037282e-07
	7.244971715131726e-06
	7.296275670116061e-07
	2.858029256556721e-01

 33	3.300000000000001e-01
	-3.593043651757282e-15
	-4.698725108226211e-19
	-1.150365434368623e-14
	1.265382355158350e-07
	8.015173663044557e-06
	8.058627456058250e-07
	2.858029328299926e-01

 34	3.400000000000001e-01
	-3.554313515038358e-15
	-4.821564200219547e-19
	-1.163027194537031e-14
	1.369956161511421e-07
	8.867735899704738e-06
	8.902050267516387e-07
	2.858029407868207e-01

 35	3.500000000000001e-01
	-3.516479071913570e-15
	-4.947150064586693e-19
	-1.175542433442997e-14
	1.482017371949798e-07
	9.810995980666604e-06
	9.835191342140918e-07
	2.858029496128846e-01

 36	3.600000000000002e-01
	-3.479540340922348e-15
	-5.075531342595825e-19
	-1.187907342861892e-14
	1.601979513198676e-07
	1.085397087542699e-05
	1.086756543186052e-06
	2.858029594041459e-01

 37	3.700000000000002e-01
	-3.443496445938031e-15
	-5.206757410893981e-19
	-1.200118357306980e-14
	1.730267119486109e-07
	1.200637698156807e-05
	1.200962378635604e-06
	2.858029702666342e-01

 38	3.800000000000002e-01
	-3.408345637092646e-15
	-5.340878401112546e-19
	-1.212172154487378e-14
	1.867314929802215e-07
	1.327864400551293e-05
	1.327282484044104e-06
	2.858029823173091e-01

 39	3.900000000000002e-01
	-3.374085313647818e-15
	-5.477945220184044e-19
	-1.224065655089199e-14
	2.013566975864449e-07
	1.468192147549905e-05
	1.466970593057648e-06
	2.858029956849495e-01

 40	4.000000000000002e-01
	-3.340712048651787e-15
	-5.618009571374543e-19
	-1.235796021903943e-14
	2.169475559769233e-07
	1.622807661354765e-05
	1.621395524013713e-06
	2.858030105110886e-01

 41	4.100000000000002e-01
	-3.308221615220117e-15
	-5.761123976038593e-19
	-1.247360658330607e-14
	2.335500121317855e-07
	1.792968228274192e-05
	1.792048304493471e-06
	2.858030269509498e-01

 42	4.200000000000002e-01
	-3.276609014276263e-15
	-5.907341796103681e-19
	-1.258757206279837e-14
	2.512105996115939e-07
	1.979999374936537e-05
	1.980549120297783e-06
	2.858030451744022e-01

 43	4.300000000000002e-01
	-3.245868503587867e-15
	-6.056717257288281e-19
	-1.269983543510384e-14
	2.699763066759108e-07
	2.185291306145363e-05
	2.188653970915834e-06
	2.858030653669024e-01

 44	4.400000000000002e-01
	-3.215993627935469e-15
	-6.209305473062512e-19
	-1.281037780429397e-14
	2.898944310727699e-07
	2.410293995051431e-05
	2.418260902058511e-06
	2.858030877304256e-01

 45	4.500000000000002e-01
	-3.186977250251913e-15
	-6.365162469354893e-19
	-1.291918256389504e-14
	3.110124250013025e-07
	2.656510831514022e-05
	2.671415675616197e-06
	2.858031124843653e-01

 46	4.600000000000002e-01
	-3.158811583573554e-15
	-6.524345210014695e-19
	-1.302623535516419e-14
	3.333777308977478e-07
	2.925490754630701e-05
	2.950316728952913e-06
	2.858031398663763e-01

 47	4.700000000000003e-01
	-3.131488223647698e-15
	-6.686911623034169e-19
	-1.313152402101612e-14
	3.570376088493690e-07
	3.218818820509120e-05
	3.257319269260986e-06
	2.858031701331517e-01

 48	4.800000000000003e-01
	-3.104998182045128e-15
	-6.852920627539944e-19
	-1.323503855594997e-14
	3.820389566000481e-07
	3.538105186333451e-05
	3.594938345270373e-06
	2.858032035611060e-01

 49	4.900000000000003e-01
	-3.079331919631458e-15
	-7.022432161560227e-19
	-1.333677105232795e-14
	4.084281232729486e-07
	3.884972526324473e-05
	3.965850738406330e-06
	2.858032404469504e-01

 50	5.000000000000002e-01
	-3.054479380256665e-15
	-7.195507210575292e-19
	-1.343671564335744e-14
	4.362507180972789e-07
	4.261041933764009e-05
	4.372895518952164e-06
	2.858032811081339e-01

 51	5.100000000000002e-01
	-3.030430024528277e-15
	-7.372207836860827e-19
	-1.353486844312611e-14
	4.655514155847479e-07
	4.667917405067772e-05
	4.819073120264916e-06
	2.858033258831124e-01

 52	5.200000000000002e-01
	-3.007172863540307e-15
	-7.552597209633288e-19
	-1.363122748403512e-14
	4.963737587532914e-07
	5.107169045923818e-05
	5.307542795884796e-06
	2.858033751314501e-01

 53	5.300000000000002e-01
	-2.984696492437039e-15
	-7.736739636003748e-19
	-1.372579265196996e-14
	5.287599621374843e-07
	5.580315184523678e-05
	5.841618340638308e-06
	2.858034292337166e-01

 54	5.400000000000003e-01
	-2.962989123697870e-15
	-7.924700592755334e-19
	-1.381856561954071e-14
	5.627507164525267e-07
	6.088803621457528e-05
	6.424761977585442e-06
	2.858034885911421e-01

 55	5.500000000000003e-01
	-2.942038620037244e-15
	-8.116546758950433e-19
	-1.390954977771410e-14
	5.983849968876468e-07
	6.633992288326838e-05
	7.060576337775941e-06
	2.858035536250405e-01

 56	5.600000000000003e-01
	-2.921832526821121e-15
	-8.312346049381915e-19
	-1.399875016615006e-14
	6.356998770909148e-07
	7.217129625859831e-05
	7.752794488972130e-06
	2.858036247759708e-01

 57	5.700000000000003e-01
	-2.902358103909321e-15
	-8.512167648878834e-19
	-1.408617340254305e-14
	6.747303509667673e-07
	7.839335025574190e-05
	8.505268002302067e-06
	2.858037025026164e-01

 58	5.800000000000003e-01
	-2.883602356840906e-15
	-8.716082047481521e-19
	-1.417182761125661e-14
	7.155091644356765e-07
	8.501579705147548e-05
	9.321953081592671e-06
	2.858037872803863e-01

 59	5.900000000000003e-01
	-2.865552067287595e-15
	-8.924161076497243e-19
	-1.425572235152570e-14
	7.580666592994062e-07
	9.204668405101012e-05
	1.020689481811132e-05
	2.858038795997272e-01

 60	6.000000000000003e-01
	-2.848193822707786e-15
	-9.136477945452971e-19
	-1.433786854548758e-14
	8.024306313117579e-07
	9.949222301856723e-05
	1.116420967267271e-05
	2.858039799641616e-01

 61	6.100000000000003e-01
	-2.831514045141443e-15
	-9.353107279961783e-19
	-1.441827840628741e-14
	8.486262044721326e-07
	1.073566352869957e-04
	1.219806632650288e-05
	2.858040888880309e-01

 62	6.200000000000003e-01
	-2.815499019093681e-15
	-9.574125160514785e-19
	-1.449696536648943e-14
	8.966757234357832e-07
	1.156420168101661e-04
	1.331266508074538e-05
	2.858042068940014e-01

 63	6.300000000000003e-01
	-2.800134918461736e-15
	-9.799609162221837e-19
	-1.457394400700978e-14
	9.465986657712527e-07
	1.243482265522980e-04
	1.451221602089037e-05
	2.858043345103153e-01

 64	6.400000000000003e-01
	-2.785407832467322e-15
	-1.002963839551677e-18
	-1.464922998677142e-14
	9.984115755924849e-07
	1.334728013234611e-04
	1.580091619551083e-05
	2.858044722678385e-01

 65	6.500000000000004e-01
	-2.771303790562872e-15
	-1.026429354784620e-18
	-1.472283997326626e-14
	1.052128019853765e-06
	1.430108996781451e-04
	1.718292608740490e-05
	2.858046206969264e-01

 66	6.600000000000004e-01
	-2.757808786286747e-15
	-1.050365692636380e-18
	-1.479479157419407e-14
	1.107758568323170e-06
	1.529552769064405e-04
	1.866234567853594e-05
	2.858047803241641e-01

 67	6.700000000000004e-01
	-2.744908800048325e-15
	-1.074781250165380e-18
	-1.486510327033322e-14
	1.165310797950243e-06
	1.632962924820868e-04
	2.024319042717942e-05
	2.858049516689972e-01

 68	6.800000000000004e-01
	-2.732589820829950e-15
	-1.099684595250359e-18
	-1.493379434978275e-14
	1.224789322021548e-06
	1.740219506090194e-04
	2.192936748573212e-05
	2.858051352403358e-01

 69	6.900000000000004e-01
	-2.720837866797905e-15
	-1.125084471175190e-18
	-1.500088484370119e-14
	1.286195844161434e-06
	1.851179737518497e-04
	2.372465249027677e-05
	2.858053315331630e-01

 70	7.000000000000004e-01
	-2.709639004819688e-15
	-1.150989801324105e-18
	-1.506639546365337e-14
	1.349529236892005e-06
	1.965679082712961e-04
	2.563266724800080e-05
	2.858055410251916e-01

 71	7.100000000000004e-01
	-2.698979368889706e-15
	-1.177409693989706e-18
	-1.513034754066271e-14
	1.414785644124251e-06
	2.083532605391005e-04
	2.765685863599409e-05
	2.858057641736494e-01

 72	7.200000000000004e-01
	-2.688845177469639e-15
	-1.204353447296800e-18
	-1.519276296605329e-14
	1.481958606620155e-06
	2.204536612040065e-04
	2.980047900511321e-05
	2.858060014122176e-01

 73	7.300000000000004e-01
	-2.679222749753989e-15
	-1.231830554245360e-18
	-1.525366413415360e-14
	1.551039209151101e-06
	2.328470546446366e-04
	3.206656835604299e-05
	2.858062531481971e-01

 74	7.400000000000004e-01
	-2.670098520874598e-15
	-1.259850707875487e-18
	-1.531307388692181e-14
	1.622016247789148e-06
	2.455099100975904e-04
	3.445793852220700e-05
	2.858065197599102e-01

 75	7.500000000000004e-01
	-2.661459056061685e-15
	-1.288423806557997e-18
	-1.537101546054058e-14
	1.694876415511356e-06
	2.584174505067628e-04
	3.697715955673064e-05
	2.858068015944166e-01

 76	7.600000000000005e-01
	-2.653291063781525e-15
	-1.317559959414403e-18
	-1.542751243401930e-14
	1.769604504079088e-06
	2.715438948153978e-04
	3.962654847937597e-05
	2.858070989655611e-01

 77	7.700000000000005e-01
	-2.645581407873700e-15
	-1.347269491869298e-18
	-1.548258867983069e-14
	1.846183619979477e-06
	2.848627092233300e-04
	4.240816049547191e-05
	2.858074121523705e-01

 78	7.800000000000005e-01
	-2.638317118713174e-15
	-1.377562951340051e-18
	-1.553626831659996e-14
	1.924595412087006e-06
	2.983468628605424e-04
	4.532378275360600e-05
	2.858077413978263e-01

 79	7.900000000000005e-01
	-2.631485403424371e-15
	-1.408451113067276e-18
	-1.558857566385497e-14
	2.004820308622627e-06
	3.119690833821019e-04
	4.837493066352136e-05
	2.858080869080263e-01

 80	8.000000000000005e-01
	-2.625073655176344e-15
	-1.439944986090551e-18
	-1.563953519883815e-14
	2.086837760955146e-06
	3.257021081612636e-04
	5.156284675147065e-05
	2.858084488517399e-01

 81	8.100000000000005e-01
	-2.619069461589355e-15
	-1.472055819373882e-18
	-1.568917151537302e-14
	2.170626491804526e-06
	3.395189270357512e-04
	5.488850198835836e-05
	2.858088273603553e-01

 82	8.200000000000005e-01
	-2.613460612284511e-15
	-1.504795108085512e-18
	-1.573750928477122e-14
	2.256164745466602e-06
	3.533930129321042e-04
	5.835259948734562e-05
	2.858092225281811e-01

 83	8.300000000000005e-01
	-2.608235105609041e-15
	-1.538174600037219e-18
	-1.578457321875919e-14
	2.343430537779338e-06
	3.672985371372083e-04
	6.195558043300526e-05
	2.858096344131221e-01

 84	8.400000000000005e-01
	-2.603381154570513e-15
	-1.572206302287836e-18
	-1.583038803439855e-14
	2.432401903688720e-06
	3.812105664860755e-04
	6.569763207429050e-05
	2.858100630376831e-01

 85	8.500000000000005e-01
	-2.598887192013791e-15
	-1.606902487916340e-18
	-1.587497842096777e-14
	2.523057140441610e-06
	3.951052402710776e-04
	6.957869758894424e-05
	2.858105083902771e-01

 86	8.600000000000005e-01
	-2.594741875074873e-15
	-1.642275702969991e-18
	-1.591836900876929e-14
	2.615375044627680e-06
	4.089599252311013e-04
	7.359848760780385e-05
	2.858109704268066e-01

 87	8.700000000000006e-01
	-2.590934088945731e-15
	-1.678338773593454e-18
	-1.596058433982114e-14
	2.709335141507390e-06
	4.227533475314061e-04
	7.775649317383617e-05
	2.858114490724708e-01

 88	8.800000000000006e-01
	-2.587452949984609e-15
	-1.715104813344030e-18
	-1.600164884038872e-14
	2.804917905290858e-06
	4.364657011799166e-04
	8.205199990255105e-05
	2.858119442237849e-01

 89	8.900000000000006e-01
	-2.584287808205666e-15
	-1.752587230700112e-18
	-1.604158679530929e-14
	2.902104969268627e-06
	4.500787328291990e-04
	8.648410310747722e-05
	2.858124557507594e-01

 90	9.000000000000006e-01
	-2.581428249181560e-15
	-1.790799736767814e-18
	-1.608042232405916e-14
	3.000879324933246e-06
	4.635758033737200e-04
	9.105172365623877e-05
	2.858129834991824e-01

 91	9.100000000000006e-01
	-2.578864095392563e-15
	-1.829756353193895e-18
	-1.611817935851056e-14
	3.101225509465337e-06
	4.769419271602547e-04
	9.575362432896028e-05
	2.858135272930097e-01

 92	9.200000000000006e-01
	-2.576585407054631e-15
	-1.869471420289677e-18
	-1.615488162232424e-14
	3.203129781185564e-06
	4.901637899794732e-04
	1.005884264607388e-04
	2.858140869367959e-01

 93	9.300000000000006e-01
	-2.574582482458571e-15
	-1.909959605375151e-18
	-1.619055261192190e-14
	3.306580282790026e-06
	5.032297472951177e-04
	1.055546266631056e-04
	2.858146622181267e-01

 94	9.400000000000006e-01
	-2.572845857851819e-15
	-1.951235911348228e-18
	-1.622521557898111e-14
	3.411567192388070e-06
	5.161298043927455e-04
	1.106506134351423e-04
	2.858152529100659e-01

 95	9.500000000000006e-01
	-2.571366306892996e-15
	-1.993315685488175e-18
	-1.625889351439550e-14
	3.518082862547253e-06
	5.288555802941321e-04
	1.158746834926521e-04
	2.858158587735160e-01

 96	9.600000000000006e-01
	-2.570134839709364e-15
	-2.036214628499946e-18
	-1.629160913364130e-14
	3.626121947715453e-06
	5.414002573884259e-04
	1.212250576627686e-04
	2.858164795595639e-01

 97	9.700000000000006e-01
	-2.569142701585439e-15
	-2.079948803807501e-18
	-1.632338486349259e-14
	3.735681520538891e-06
	5.537585187823988e-04
	1.266998962112761e-04
	2.858171150116847e-01

 98	9.800000000000006e-01
	-2.568381371310848e-15
	-2.124534647104716e-18
	-1.635424283002623e-14
	3.846761177720384e-06
	5.659264753739320e-04
	1.322973134899131e-04
	2.858177648678700e-01

 99	9.900000000000007e-01
	-2.567842559214227e-15
	-2.169988976171359e-18
	-1.638420484785867e-14
	3.959363136170800e-06
	5.779015846126030e-04
	1.380153918108531e-04
	2.858184288626317e-01

 100	1.000000000000001e+00
	-2.567518204908628e-15
	-2.216329000963897e-18
	-1.641329241055718e-14
	4.073492320294852e-06
	5.896825628347659e-04
	1.438521944748288e-04
	2.858191067288553e-01

 101	1.010000000000001e+00
	-2.567400474773487e-15
	-2.263572333989113e-18
	-1.644152668216861e-14
