Title: ** sch_path: /home/andylithia/openmpw/project-yatsuhashi-chip1/xschem/gmid_test/nmos_test.sch
Date: Sun Jul 17 22:51:45  2022
Plotname: DC transfer characteristic
Flags: real
No. Variables: 8
No. Points: 181
Variables:
	0	v(v-sweep)	voltage
	1	@m.xm1.msky130_fd_pr__nfet_01v8[cgb]	capacitance
	2	@m.xm1.msky130_fd_pr__nfet_01v8[cgd]	capacitance
	3	@m.xm1.msky130_fd_pr__nfet_01v8[cgs]	capacitance
	4	@m.xm1.msky130_fd_pr__nfet_01v8[gds]	admittance
	5	@m.xm1.msky130_fd_pr__nfet_01v8[gm]	admittance
	6	i(@m.xm1.msky130_fd_pr__nfet_01v8[id])	current
	7	v(@m.xm1.msky130_fd_pr__nfet_01v8[vth])	voltage
Values:
 0	0.000000000000000e+00
	-1.671904442793129e-14
	-9.907643191049718e-18
	-3.488754112516215e-14
	5.354884759958928e-08
	1.664527810962833e-06
	2.243742487041143e-07
	1.607187478324830e-01

 1	1.000000000000000e-02
	-1.654366417789416e-14
	-1.016648128565950e-17
	-3.530976453571669e-14
	5.743149029753074e-08
	1.792935723902501e-06
	2.416534216199820e-07
	1.607187499275807e-01

 2	2.000000000000000e-02
	-1.637083868871891e-14
	-1.043234552215672e-17
	-3.573078134534435e-14
	6.158021051193360e-08
	1.931506081622086e-06
	2.602668026511642e-07
	1.607187521844677e-01

 3	3.000000000000000e-02
	-1.620059519796443e-14
	-1.070543836782251e-17
	-3.615046367682408e-14
	6.601177786401192e-08
	2.081093144313046e-06
	2.803202251963210e-07
	1.607187546159842e-01

 4	4.000000000000000e-02
	-1.603295976831815e-14
	-1.098596867103125e-17
	-3.656868500513346e-14
	7.074389085912564e-08
	2.242629173663226e-06
	3.019284492063884e-07
	1.607187572360463e-01

 5	5.000000000000000e-02
	-1.586795724394412e-14
	-1.127415188534186e-17
	-3.698532029091172e-14
	7.579521834788380e-08
	2.417131979320485e-06
	3.252159783516216e-07
	1.607187600597574e-01

 6	6.000000000000000e-02
	-1.570561120971175e-14
	-1.157021030235386e-17
	-3.740024611072270e-14
	8.118544218064033e-08
	2.605713179284760e-06
	3.503179561744926e-07
	1.607187631035090e-01

 7	7.000000000000001e-02
	-1.554594395336004e-14
	-1.187437329369992e-17
	-3.781334078384556e-14
	8.693530105800119e-08
	2.809587232053509e-06
	3.773811486541005e-07
	1.607187663851022e-01

 8	8.000000000000000e-02
	-1.538897643064482e-14
	-1.218687756257362e-17
	-3.822448449533209e-14
	9.306663557951863e-08
	3.030081301214802e-06
	4.065650212004276e-07
	1.607187699238839e-01

 9	9.000000000000000e-02
	-1.523472823350718e-14
	-1.250796740520779e-17
	-3.863355941508389e-14
	9.960243449243910e-08
	3.268646015906535e-06
	4.380429187175025e-07
	1.607187737408818e-01

 10	9.999999999999999e-02
	-1.508321756129253e-14
	-1.283789498273595e-17
	-3.904044981271572e-14
	1.065668821422429e-07
	3.526867193079375e-06
	4.720033580213287e-07
	1.607187778589600e-01

 11	1.100000000000000e-01
	-1.493446119504157e-14
	-1.317692060389060e-17
	-3.944504216798366e-14
	1.139854071267609e-07
	3.806478589751825e-06
	5.086514425692376e-07
	1.607187823030064e-01

 12	1.200000000000000e-01
	-1.478847447486390e-14
	-1.352531301901948e-17
	-3.984722527657808e-14
	1.218847321559709e-07
	4.109375755353984e-06
	5.482104101491744e-07
	1.607187871001029e-01

 13	1.300000000000000e-01
	-1.464527128039830e-14
	-1.388334972591354e-17
	-4.024689035108980e-14
	1.302929251199823e-07
	4.437631055735907e-06
	5.909233248857577e-07
	1.607187922797360e-01

 14	1.400000000000000e-01
	-1.450486401435362e-14
	-1.425131728797336e-17
	-4.064393111697873e-14
	1.392394513684777e-07
	4.793509941381058e-06
	6.370549256410924e-07
	1.607187978740287e-01

 15	1.500000000000000e-01
	-1.436726358911495e-14
	-1.462951166526037e-17
	-4.103824390339170e-14
	1.487552272057746e-07
	5.179488532710125e-06
	6.868936436158293e-07
	1.607188039179728e-01

 16	1.600000000000000e-01
	-1.423247941639346e-14
	-1.501823855900862e-17
	-4.142972772868904e-14
	1.588726746068672e-07
	5.598272594974870e-06
	7.407538026831996e-07
	1.607188104497099e-01

 17	1.700000000000000e-01
	-1.410051939988719e-14
	-1.541781377019944e-17
	-4.181828438056261e-14
	1.696257771612297e-07
	6.052817974010057e-06
	7.989780167084063e-07
	1.607188175108122e-01

 18	1.800000000000000e-01
	-1.397138993091430e-14
	-1.582856357282963e-17
	-4.220381849064055e-14
	1.810501372528652e-07
	6.546352561896990e-06
	8.619397988076843e-07
	1.607188251466034e-01

 19	1.900000000000000e-01
	-1.384509588697083e-14
	-1.625082510253750e-17
	-4.258623760349537e-14
	1.931830344870461e-07
	7.082399858263951e-06
	9.300463981761426e-07
	1.607188334064997e-01

 20	2.000000000000000e-01
	-1.372164063315864e-14
	-1.668494676127735e-17
	-4.296545223998734e-14
	2.060634853765204e-07
	7.664804188352432e-06
	1.003741880748390e-06
	1.607188423443948e-01

 21	2.100000000000000e-01
	-1.360102602642064e-14
	-1.713128863877863e-17
	-4.334137595489592e-14
	2.197323043025285e-07
	8.297757632964397e-06
	1.083510470538262e-06
	1.607188520190506e-01

 22	2.200000000000001e-01
	-1.348325242251548e-14
	-1.759022295154616e-17
	-4.371392538880491e-14
	2.342321657689201e-07
	8.985828717803602e-06
	1.169880169017564e-06
	1.607188624945477e-01

 23	2.300000000000001e-01
	-1.336831868565508e-14
	-1.806213450020824e-17
	-4.408302031422935e-14
	2.496076679710569e-07
	9.733992900377947e-06
	1.263426670323636e-06
	1.607188738407581e-01

 24	2.400000000000001e-01
	-1.325622220072411e-14
	-1.854742114605387e-17
	-4.444858367598607e-14
	2.659053977048973e-07
	1.054766488135470e-05
	1.364777590411522e-06
	1.607188861338590e-01

 25	2.500000000000001e-01
	-1.314695888799411e-14
	-1.904649430764313e-17
	-4.481054162582738e-14
	2.831739966459283e-07
	1.143273275389416e-05
	1.474617028469835e-06
	1.607188994568837e-01

 26	2.600000000000001e-01
	-1.304052322023962e-14
	-1.955977947841567e-17
	-4.516882355137350e-14
	3.014642290323541e-07
	1.239559398885065e-05
	1.593690478977435e-06
	1.607189139003256e-01

 27	2.700000000000001e-01
	-1.293690824215939e-14
	-2.008771676627492e-17
	-4.552336209939562e-14
	3.208290507923923e-07
	1.344319323566371e-05
	1.722810112668018e-06
	1.607189295627769e-01

 28	2.800000000000001e-01
	-1.283610559200051e-14
	-2.063076145616999e-17
	-4.587409319351626e-14
	3.413236801614925e-07
	1.458306189809784e-05
	1.862860444365290e-06
	1.607189465516123e-01

 29	2.900000000000001e-01
	-1.273810552528102e-14
	-2.118938459674535e-17
	-4.622095604640728e-14
	3.630056698422656e-07
	1.582335942059285e-05
	2.014804405127304e-06
	1.607189649837348e-01

 30	3.000000000000001e-01
	-1.264289694050142e-14
	-2.176407361219395e-17
	-4.656389316658164e-14
	3.859349807676454e-07
	1.717291619472239e-05
	2.179689835365721e-06
	1.607189849863616e-01

 31	3.100000000000001e-01
	-1.255046740673369e-14
	-2.235533294049267e-17
	-4.690285035988664e-14
	4.101740575366752e-07
	1.864127796602724e-05
	2.358656414555448e-06
	1.607190066978624e-01

 32	3.200000000000001e-01
	-1.246080319297428e-14
	-2.296368469926645e-17
	-4.723777672581874e-14
	4.357879056023900e-07
	2.023875158921461e-05
	2.552943041791634e-06
	1.607190302686695e-01

 33	3.300000000000001e-01
	-1.237388929914422e-14
	-2.358966938059759e-17
	-4.756862464879348e-14
	4.628441703028609e-07
	2.197645194437048e-05
	2.763895679755550e-06
	1.607190558622159e-01

 34	3.400000000000001e-01
	-1.228970948861952e-14
	-2.423384657614186e-17
	-4.789534978451251e-14
	4.914132178395432e-07
	2.386634978840335e-05
	2.992975672583833e-06
	1.607190836559562e-01

 35	3.500000000000001e-01
	-1.220824632217360e-14
	-2.489679573401390e-17
	-4.821791104158038e-14
	5.215682183224443e-07
	2.592132027452286e-05
	3.241768545671989e-06
	1.607191138424304e-01

 36	3.600000000000002e-01
	-1.212948119321210e-14
	-2.557911694894520e-17
	-4.853627055853460e-14
	5.533852310187802e-07
	2.815519182823626e-05
	3.511993292547381e-06
	1.607191466304023e-01

 37	3.700000000000002e-01
	-1.205339436418167e-14
	-2.628143178733019e-17
	-4.885039367645759e-14
	5.869432919620641e-07
	3.058279502135035e-05
	3.805512150596599e-06
	1.607191822460437e-01

 38	3.800000000000002e-01
	-1.197996500403321e-14
	-2.700438414883018e-17
	-4.916024890735014e-14
	6.223245041015106e-07
	3.322001103603978e-05
	4.124340863597543e-06
	1.607192209341718e-01

 39	3.900000000000002e-01
	-1.190917122662265e-14
	-2.774864116630484e-17
	-4.946580789844780e-14
	6.596141301982137e-07
	3.608381925955008e-05
	4.470659424666381e-06
	1.607192629595758e-01

 40	4.000000000000002e-01
	-1.184099012993101e-14
	-2.851489414593766e-17
	-4.976704539267298e-14
	6.989006887052916e-07
	3.919234349702031e-05
	4.846823288368399e-06
	1.607193086083627e-01

 41	4.100000000000002e-01
	-1.177539783598909e-14
	-2.930385954950461e-17
	-5.006393918541480e-14
	7.402760529043900e-07
	4.256489623574619e-05
	5.255375035339282e-06
	1.607193581893845e-01

 42	4.200000000000002e-01
	-1.171236953139304e-14
	-3.011628002084894e-17
	-5.035647007783630e-14
	7.838355536115501e-07
	4.622202033967919e-05
	5.699056466820276e-06
	1.607194120357095e-01

 43	4.300000000000002e-01
	-1.165187950829905e-14
	-3.095292545873124e-17
	-5.064462182690995e-14
	8.296780858123282e-07
	5.018552749881317e-05
	6.180821100021228e-06
	1.607194705061367e-01

 44	4.400000000000002e-01
	-1.159390120578799e-14
	-3.181459413832939e-17
	-5.092838109238534e-14
	8.779062196396651e-07
	5.447853270526432e-05
	6.703847028200198e-06
	1.607195339867586e-01

 45	4.500000000000002e-01
	-1.153840725149448e-14
	-3.270211388378998e-17
	-5.120773738089326e-14
	9.286263161697425e-07
	5.912548397731671e-05
	7.271550101805137e-06
	1.607196028925704e-01

 46	4.600000000000002e-01
	-1.148536950339578e-14
	-3.361634329436512e-17
	-5.148268298739320e-14
	9.819486485819596e-07
	6.415218650563092e-05
	7.887597378991535e-06
	1.607196776690983e-01

 47	4.700000000000003e-01
	-1.143475909166173e-14
	-3.455817302678166e-17
	-5.175321293416778e-14
	1.037987529309938e-06
	6.958582035342562e-05
	8.555920785347638e-06
	1.607197587940636e-01

 48	4.800000000000003e-01
	-1.138654646046765e-14
	-3.552852713665806e-17
	-5.201932490757137e-14
	1.096861443903316e-06
	7.545495080613107e-05
	9.280730913784820e-06
	1.607198467790558e-01

 49	4.900000000000003e-01
	-1.134070140967840e-14
	-3.652836448190397e-17
	-5.228101919273363e-14
	1.158693192425498e-06
	8.178953043718705e-05
	1.006653088634674e-05
	1.607199421712194e-01

 50	5.000000000000002e-01
	-1.129719313631332e-14
	-3.755868019121970e-17
	-5.253829860642097e-14
	1.223610039332995e-06
	8.862089193688008e-05
	1.091813019024570e-05
	1.607200455549270e-01

 51	5.100000000000002e-01
	-1.125599027570702e-14
	-3.862050720095765e-17
	-5.279116842825304e-14
	1.291743872918596e-06
	9.598173074192600e-05
	1.184065839084103e-05
	1.607201575534576e-01

 52	5.200000000000002e-01
	-1.121706094228468e-14
	-3.971491786379512e-17
	-5.303963633047024e-14
	1.363231375555828e-06
	1.039060765065486e-04
	1.283957861465314e-05
	1.607202788306193e-01

 53	5.300000000000002e-01
	-1.118037276987403e-14
	-4.084302563285180e-17
	-5.328371230644288e-14
	1.438214206157537e-06
	1.124292524726209e-04
	1.392070068597866e-05
	1.607204100923447e-01

 54	5.400000000000003e-01
	-1.114589295148160e-14
	-4.200598682505563e-17
	-5.352340859810916e-14
	1.516839196459860e-06
	1.215878218286587e-04
	1.509019379139546e-05
	1.607205520882358e-01

 55	5.500000000000003e-01
	-1.111358827846346e-14
	-4.320500246781207e-17
	-5.375873962252443e-14
	1.599258562966457e-06
	1.314195201964742e-04
	1.635459853757227e-05
	1.607207056130110e-01

 56	5.600000000000003e-01
	-1.108342517902634e-14
	-4.444132023319285e-17
	-5.398972189769826e-14
	1.685630136639248e-06
	1.419631734514966e-04
	1.772083825950508e-05
	1.607208715078823e-01

 57	5.700000000000003e-01
	-1.105536975599821e-14
	-4.571623646412969e-17
	-5.421637396789133e-14
	1.776117612704523e-06
	1.532586001692759e-04
	1.919622942878271e-05
	1.607210506618053e-01

 58	5.800000000000003e-01
	-1.102938782381259e-14
	-4.703109829731610e-17
	-5.443871632853731e-14
	1.870890823259783e-06
	1.653464980974167e-04
	2.078849100492813e-05
	1.607212440126256e-01

 59	5.900000000000003e-01
	-1.100544494465340e-14
	-4.838730588778155e-17
	-5.465677135095011e-14
	1.970126035720935e-06
	1.782683141797646e-04
	2.250575256748560e-05
	1.607214525480381e-01

 60	6.000000000000003e-01
	-1.098350646371368e-14
	-4.978631474036901e-17
	-5.487056320696907e-14
	2.074006280545041e-06
	1.920660978083185e-04
	2.435656106252472e-05
	1.607216773064092e-01

 61	6.100000000000003e-01
	-1.096353754352343e-14
	-5.122963815361869e-17
	-5.508011779368857e-14
	2.182721712104954e-06
	2.067823371479435e-04
	2.634988599483278e-05
	1.607219193774036e-01

 62	6.200000000000003e-01
	-1.094550319730672e-14
	-5.271884978187679e-17
	-5.528546265841317e-14
	2.296470007083803e-06
	2.224597785689071e-04
	2.849512289647096e-05
	1.607221799023802e-01

 63	6.300000000000003e-01
	-1.092936832133238e-14
	-5.425558632173625e-17
	-5.548662692396980e-14
	2.415456805303706e-06
	2.391412294313786e-04
	3.080209490376755e-05
	1.607224600745921e-01

 64	6.400000000000003e-01
	-1.091509772622579e-14
	-5.584155032926877e-17
	-5.568364121450428e-14
	2.539896198510819e-06
	2.568693446927144e-04
	3.328105227841172e-05
	1.607227611391072e-01

 65	6.500000000000004e-01
	-1.090265616721281e-14
	-5.747851317483944e-17
	-5.587653758188124e-14
	2.670011273313498e-06
	2.756863980502958e-04
	3.594266971424552e-05
	1.607230843924766e-01

 66	6.600000000000004e-01
	-1.089200837327175e-14
	-5.916831814266870e-17
	-5.606534943279883e-14
	2.806034715219431e-06
	2.956340385870725e-04
	3.879804127977547e-05
	1.607234311821123e-01

 67	6.700000000000004e-01
	-1.088311907517075e-14
	-6.091288368269243e-17
	-5.625011145672391e-14
	2.948209481549202e-06
	3.167530341503633e-04
	4.185867285744959e-05
	1.607238029053595e-01

 68	6.800000000000004e-01
	-1.087595303237261e-14
	-6.271420682267500e-17
	-5.643085955474607e-14
	3.096789551926462e-06
	3.390830029628093e-04
	4.513647195442728e-05
	1.607242010082539e-01

 69	6.900000000000004e-01
	-1.087047505879186e-14
	-6.457436674896408e-17
	-5.660763076944098e-14
	3.252040766070139e-06
	3.626621352331596e-04
	4.864373477595240e-05
	1.607246269839401e-01

 70	7.000000000000004e-01
	-1.086665004739166e-14
	-6.649552856471772e-17
	-5.678046321582756e-14
	3.414241759753356e-06
	3.875269067987276e-04
	5.239313047149071e-05
	1.607250823707673e-01

 71	7.100000000000004e-01
	-1.086444299361095e-14
	-6.847994723492766e-17
	-5.694939601349694e-14
	3.583685011061470e-06
	4.137117870854032e-04
	5.639768248544308e-05
	1.607255687500195e-01

 72	7.200000000000004e-01
	-1.086381901761461e-14
	-7.052997172805464e-17
	-5.711446921998441e-14
	3.760678010494025e-06
	4.412489439093347e-04
	6.067074696836448e-05
	1.607260877432831e-01

 73	7.300000000000004e-01
	-1.086474338536316e-14
	-7.264804936460715e-17
	-5.727572376544767e-14
	3.945544570031700e-06
	4.701679478607652e-04
	6.522598823100920e-05
	1.607266410094811e-01

 74	7.400000000000004e-01
	-1.086718152849872e-14
	-7.483673038357929e-17
	-5.743320138871095e-14
	4.138626288052348e-06
	5.004954791991396e-04
	7.007735125195457e-05
	1.607272302415372e-01

 75	7.500000000000004e-01
	-1.087109906304790e-14
	-7.709867273822694e-17
	-5.758694457472657e-14
	4.340284188955825e-06
	5.322550403434651e-04
	7.523903127969746e-05
	1.607278571626930e-01

 76	7.600000000000005e-01
	-1.087646180694336e-14
	-7.943664713329132e-17
	-5.773699649350035e-14
	4.550900558576915e-06
	5.654666771574877e-04
	8.072544060162158e-05
	1.607285235224795e-01

 77	7.700000000000005e-01
	-1.088323579636770e-14
	-8.185354231641499e-17
	-5.788340094052092e-14
	4.770880998965069e-06
	6.001467123001801e-04
	8.655117258465156e-05
	1.607292310923611e-01

 78	7.800000000000005e-01
	-1.089138730092518e-14
	-8.435237063718397e-17
	-5.802620227872889e-14
	5.000656728933579e-06
	6.363074939341033e-04
	9.273096312532338e-05
	1.607299816610770e-01

 79	7.900000000000005e-01
	-1.090088283764798e-14
	-8.693627388795637e-17
	-5.816544538205463e-14
	5.240687159977429e-06
	6.739571630531521e-04
	9.927964967983116e-05
	1.607307770296647e-01

 80	8.000000000000005e-01
	-1.091168918384514e-14
	-8.960852944136327e-17
	-5.830117558055019e-14
	5.491462780789573e-06
	7.130994426046116e-04
	1.062121280768605e-04
	1.607316190062433e-01

 81	8.100000000000005e-01
	-1.092377338880345e-14
	-9.237255670018683e-17
	-5.843343860713505e-14
	5.753508387740179e-06
	7.537334514363773e-04
	1.135433073471124e-04
	1.607325094005425e-01

 82	8.200000000000005e-01
	-1.093710278435053e-14
	-9.523192387614085e-17
	-5.856228054597076e-14
	6.027386703403615e-06
	7.958535458981824e-04
	1.212880628327635e-04
	1.607334500182160e-01

 83	8.300000000000005e-01
	-1.095164499429109e-14
	-9.819035511493089e-17
	-5.868774778247606e-14
	6.313702430622277e-06
	8.394491916664397e-04
	1.294611878671357e-04
	1.607344426549926e-01

 84	8.400000000000005e-01
	-1.096736794272833e-14
	-1.012517379859018e-16
	-5.880988695498898e-14
	6.613106795798763e-06
	8.845048680480138e-04
	1.380773443389901e-04
	1.607354890906854e-01

 85	8.500000000000005e-01
	-1.098423986128235e-14
	-1.044201313555446e-16
	-5.892874490807926e-14
	6.926302642243119e-06
	9.310000066523360e-04
	1.471510124765996e-04
	1.607365910830944e-01

 86	8.600000000000005e-01
	-1.100222929521915e-14
	-1.076997736650755e-16
	-5.904436864751024e-14
	7.254050142628446e-06
	9.789089659084170e-04
	1.566964402035499e-04
	1.607377503618768e-01

 87	8.700000000000006e-01
	-1.102130510850190e-14
	-1.110950916334248e-16
	-5.915680529684659e-14
	7.597173209113831e-06
	1.028201042449771e-03
	1.667275924307138e-04
	1.607389686223752e-01

 88	8.800000000000006e-01
	-1.104143648777897e-14
	-1.146107094079644e-16
	-5.926610205570010e-14
	7.956566690696589e-06
	1.078840519902753e-03
	1.772581006565638e-04
	1.607402475195190e-01

 89	8.900000000000006e-01
	-1.106259294532058e-14
	-1.182514581865353e-16
	-5.937230615960424e-14
	8.333204460117512e-06
	1.130786755100744e-03
	1.883012132507296e-04
	1.607415886617583e-01

 90	9.000000000000006e-01
	-1.108474432091829e-14
	-1.220223863354011e-16
	-5.947546484150335e-14
	8.728148507466526e-06
	1.183994301216483e-03
	1.998697467931884e-04
	1.607429936051718e-01

 91	9.100000000000006e-01
	-1.110786078275892e-14
	-1.259287700290838e-16
	-5.957562529484201e-14
	9.142559174884122e-06
	1.238413066767017e-03
	2.119760388336267e-04
	1.607444638477047e-01

 92	9.200000000000006e-01
	-1.113191282728653e-14
	-1.299761244392152e-16
	-5.967283463823513e-14
	9.577706686848627e-06
	1.293988508909559e-03
	2.246319024222559e-04
	1.607460008236474e-01

 93	9.300000000000006e-01
	-1.115687127806326e-14
	-1.341702155009120e-16
	-5.976713988170067e-14
	1.003498415398400e-05
	1.350661858921471e-03
	2.378485827448077e-04
	1.607476058983454e-01

 94	9.400000000000006e-01
	-1.118270728364171e-14
	-1.385170722864804e-16
	-5.985858789443005e-14
	1.051592225570775e-05
	1.408370377252554e-03
	2.516367161707231e-04
	1.607492803632248e-01

 95	9.500000000000006e-01
	-1.120939231445842e-14
	-1.430230000177096e-16
	-5.994722537407441e-14
	1.102220583906162e-05
	1.467047635061193e-03
	2.660062919949106e-04
	1.607510254311173e-01

 96	9.600000000000006e-01
	-1.123689815875982e-14
	-1.476945937493607e-16
	-6.003309881751877e-14
	1.155569270855281e-05
	1.526623818704909e-03
	2.809666171202201e-04
	1.607528422319666e-01

 97	9.700000000000006e-01
	-1.126519691756893e-14
	-1.525387527579990e-16
	-6.011625449311797e-14
	1.211843492575394e-05
	1.587026053257129e-03
	2.965262838903940e-04
	1.607547318089143e-01

 98	9.800000000000006e-01
	-1.129426099870121e-14
	-1.575626956717842e-16
	-6.019673841436464e-14
	1.271270298890764e-05
	1.648178740769658e-03
	3.126931412420634e-04
	1.607566951147677e-01

 99	9.900000000000007e-01
	-1.132406310983765e-14
	-1.627739763782836e-16
	-6.027459631495834e-14
	1.334101332320540e-05
	1.710003908697867e-03
	3.294742692999328e-04
	1.607587330089207e-01

 100	1.000000000000001e+00
	-1.135457625066081e-14
	-1.681805007490159e-16
	-6.034987362524543e-14
	1.400615958334742e-05
	1.772421563654698e-03
	3.468759574921436e-04
	1.607608462546838e-01

 101	1.010000000000001e+00
	-1.138577370405920e-14
	-1.737905442208721e-16
	-6.042261544999524e-14
