Title: ** sch_path: /home/andylithia/openmpw/project-yatsuhashi-chip1/xschem/gmid_test/nmos_test.sch
Date: Tue Jul 19 23:15:45  2022
Plotname: DC transfer characteristic
Flags: real
No. Variables: 8
No. Points: 181
Variables:
	0	v(v-sweep)	voltage
	1	@m.xm1.msky130_fd_pr__nfet_01v8[cgb]	capacitance
	2	@m.xm1.msky130_fd_pr__nfet_01v8[cgd]	capacitance
	3	@m.xm1.msky130_fd_pr__nfet_01v8[cgs]	capacitance
	4	@m.xm1.msky130_fd_pr__nfet_01v8[gds]	admittance
	5	@m.xm1.msky130_fd_pr__nfet_01v8[gm]	admittance
	6	i(@m.xm1.msky130_fd_pr__nfet_01v8[id])	current
	7	v(@m.xm1.msky130_fd_pr__nfet_01v8[vth])	voltage
Values:
 0	0.000000000000000e+00
	-5.698434696695382e-15
	1.091362320284724e-18
	-4.515126746673399e-15
	3.882249931052150e-08
	1.533237659741007e-06
	1.405519349381611e-07
	3.987459085625313e-01

 1	1.000000000000000e-02
	-5.641712477063525e-15
	1.105923150440173e-18
	-4.634055643883677e-15
	4.326455364265929e-08
	1.707225806482545e-06
	1.567389585205824e-07
	3.987459097903502e-01

 2	2.000000000000000e-02
	-5.585120183674393e-15
	1.120106978899590e-18
	-4.754533126231265e-15
	4.820465902028659e-08
	1.900531307057703e-06
	1.747607968326504e-07
	3.987459111574577e-01

 3	3.000000000000000e-02
	-5.528677431983700e-15
	1.133888545701424e-18
	-4.876508228616110e-15
	5.369690778539828e-08
	2.115237387341465e-06
	1.948208667373366e-07
	3.987459126793199e-01

 4	4.000000000000000e-02
	-5.472404540523728e-15
	1.147242715390687e-18
	-4.999927089767813e-15
	5.980097229688990e-08
	2.353644251164919e-06
	2.171444847036357e-07
	3.987459143730817e-01

 5	5.000000000000000e-02
	-5.416322476300933e-15
	1.160144543855797e-18
	-5.124733025215150e-15
	6.658263184337736e-08
	2.618291016425512e-06
	2.419811444680145e-07
	3.987459162577295e-01

 6	6.000000000000000e-02
	-5.360452797428172e-15
	1.172569345636393e-18
	-5.250866611174828e-15
	7.411434141359317e-08
	2.911979890862039e-06
	2.696070250488800e-07
	3.987459183542946e-01

 7	7.000000000000001e-02
	-5.304817593191102e-15
	1.184492761367253e-18
	-5.378265779201717e-15
	8.247584437508357e-08
	3.237802843314741e-06
	3.003277527607019e-07
	3.987459206860569e-01

 8	8.000000000000000e-02
	-5.249439421768919e-15
	1.195890825016301e-18
	-5.506865921374362e-15
	9.175483099434627e-08
	3.599171062174011e-06
	3.344814436071054e-07
	3.987459232787889e-01

 9	9.000000000000000e-02
	-5.194341245849354e-15
	1.206740030567894e-18
	-5.636600005723061e-15
	1.020476445658218e-07
	3.999847534204332e-06
	3.724420555515417e-07
	3.987459261610165e-01

 10	9.999999999999999e-02
	-5.139546366395526e-15
	1.217017397799907e-18
	-5.767398701541172e-15
	1.134600366962465e-07
	4.443983124717379e-06
	4.146230837288823e-07
	3.987459293642951e-01

 11	1.100000000000000e-01
	-5.085078354839005e-15
	1.226700536803140e-18
	-5.899190514153575e-15
	1.261079730075698e-07
	4.936156594880249e-06
	4.614816357381451e-07
	3.987459329235409e-01

 12	1.200000000000000e-01
	-5.030960983987919e-15
	1.235767710892952e-18
	-6.031901928653944e-15
	1.401184901686243e-07
	5.481419054488107e-06
	5.135229288200411e-07
	3.987459368773774e-01

 13	1.300000000000000e-01
	-4.977218157951566e-15
	1.244197897568865e-18
	-6.165457562060025e-15
	1.556306047350696e-07
	6.085343419428967e-06
	5.713052560525373e-07
	3.987459412685199e-01

 14	1.400000000000000e-01
	-4.923873841393753e-15
	1.251970847186253e-18
	-6.299780323277458e-15
	1.727962737612835e-07
	6.754079522844939e-06
	6.354454747800215e-07
	3.987459461442179e-01

 15	1.500000000000000e-01
	-4.870951988434922e-15
	1.259067139013878e-18
	-6.434791580209166e-15
	1.917814065394827e-07
	7.494415617978901e-06
	7.066250774180675e-07
	3.987459515567228e-01

 16	1.600000000000000e-01
	-4.818476471529509e-15
	1.265468234366230e-18
	-6.570411333294821e-15
	2.127669261128041e-07
	8.313847108918300e-06
	7.855969126368727e-07
	3.987459575638343e-01

 17	1.700000000000000e-01
	-4.766471010647891e-15
	1.271156526514299e-18
	-6.706558394721036e-15
	2.359498783945163e-07
	9.220653452592348e-06
	8.731926338159610e-07
	3.987459642294813e-01

 18	1.800000000000000e-01
	-4.714959103093503e-15
	1.276115387098591e-18
	-6.843150572500420e-15
	2.615445857985906e-07
	1.022398429056032e-05
	9.703309616628427e-07
	3.987459716243879e-01

 19	1.900000000000000e-01
	-4.663963954283707e-15
	1.280329208788557e-18
	-6.980104858584040e-15
	2.897838412438834e-07
	1.133395599085186e-05
	1.078026859075365e-06
	3.987459798268106e-01

 20	2.000000000000000e-01
	-4.613508409818942e-15
	1.283783443956185e-18
	-7.117337620142341e-15
	3.209201372318244e-07
	1.256175990600501e-05
	1.197401728753344e-06
	3.987459889233579e-01

 21	2.100000000000000e-01
	-4.563614889157560e-15
	1.286464639157280e-18
	-7.254764793127129e-15
	3.552269234153152e-07
	1.391978378012234e-05
	1.329694757756460e-06
	3.987459990099159e-01

 22	2.200000000000001e-01
	-4.514305321204586e-15
	1.288360465240247e-18
	-7.392302077212067e-15
	3.929998846761991e-07
	1.542174786061675e-05
	1.476275548148203e-06
	3.987460101926675e-01

 23	2.300000000000001e-01
	-4.465601082110642e-15
	1.289459742932086e-18
	-7.529865131199428e-15
	4.345582302143920e-07
	1.708285738328301e-05
	1.638658188990898e-06
	3.987460225892515e-01

 24	2.400000000000001e-01
	-4.417522935563313e-15
	1.289752463779953e-18
	-7.667369767979786e-15
	4.802459825322246e-07
	1.891997319472465e-05
	1.818516942130899e-06
	3.987460363300540e-01

 25	2.500000000000001e-01
	-4.370090975836743e-15
	1.289229806357968e-18
	-7.804732148136181e-15
	5.304332534838557e-07
	2.095180234441482e-05
	2.017703732210937e-06
	3.987460515596554e-01

 26	2.600000000000001e-01
	-4.323324573846928e-15
	1.287884147680270e-18
	-7.941868971296665e-15
	5.855174927687132e-07
	2.319911050822450e-05
	2.238267649842551e-06
	3.987460684384492e-01

 27	2.700000000000001e-01
	-4.277242326440088e-15
	1.285709069793264e-18
	-8.078697664357674e-15
	6.459246924004160e-07
	2.568495808239724e-05
	2.482476695409378e-06
	3.987460871444716e-01

 28	2.800000000000001e-01
	-4.231862009119423e-15
	1.282699361550846e-18
	-8.215136565727358e-15
	7.121105288058030e-07
	2.843496169583797e-05
	2.752842008952469e-06
	3.987461078754423e-01

 29	2.900000000000001e-01
	-4.187200532392587e-15
	1.278851015608455e-18
	-8.351105104769135e-15
	7.845614223339326e-07
	3.147758271120012e-05
	3.052144848236439e-06
	3.987461308510490e-01

 30	3.000000000000001e-01
	-4.143273901897418e-15
	1.274161220702512e-18
	-8.486523975664311e-15
	8.637954921212620e-07
	3.484444400172537e-05
	3.383466591451478e-06
	3.987461563155192e-01

 31	3.100000000000001e-01
	-4.100097182438540e-15
	1.268628349310549e-18
	-8.621315304956308e-15
	9.503633825113130e-07
	3.857067587967139e-05
	3.750222051902096e-06
	3.987461845404834e-01

 32	3.200000000000001e-01
	-4.057684466040882e-15
	1.262251940817262e-18
	-8.755402812087775e-15
	1.044848935615372e-06
	4.269529149101868e-05
	4.156196398078145e-06
	3.987462158281810e-01

 33	3.300000000000001e-01
	-4.016048844100229e-15
	1.255032680337260e-18
	-8.888711962295191e-15
	1.147869683183448e-06
	4.726159125744394e-05
	4.605585972086072e-06
	3.987462505150227e-01

 34	3.400000000000001e-01
	-3.975202383683881e-15
	1.246972373372077e-18
	-9.021170111283057e-15
	1.260077129793648e-06
	5.231759501860997e-05
	5.103043290697359e-06
	3.987462889755718e-01

 35	3.500000000000001e-01
	-3.935156108008315e-15
	1.238073916500538e-18
	-9.152706641160665e-15
	1.382156798533630e-06
	5.791649938640599e-05
	5.653726494210758e-06
	3.987463316269354e-01

 36	3.600000000000002e-01
	-3.895919981094351e-15
	1.228341264324480e-18
	-9.283253087187798e-15
	1.514828009909936e-06
	6.411715645249328e-05
	6.263353476698070e-06
	3.987463789336371e-01

 37	3.700000000000002e-01
	-3.857502896575047e-15
	1.217779392909351e-18
	-9.412743254941277e-15
	1.658843364758178e-06
	7.098456838220222e-05
	6.938260884678505e-06
	3.987464314129757e-01

 38	3.800000000000002e-01
	-3.819912670606526e-15
	1.206394259976014e-18
	-9.541113327581787e-15
	1.814987902513973e-06
	7.859039058044916e-05
	7.685468107441962e-06
	3.987464896408995e-01

 39	3.900000000000002e-01
	-3.783156038808652e-15
	1.194192762114551e-18
	-9.668301962967276e-15
	1.984077907417085e-06
	8.701343403872020e-05
	8.512746298763699e-06
	3.987465542584399e-01

 40	4.000000000000002e-01
	-3.747238657139660e-15
	1.181182689300054e-18
	-9.794250380428336e-15
	2.166959337132998e-06
	9.634015518967246e-05
	9.428692364443764e-06
	3.987466259786684e-01

 41	4.100000000000002e-01
	-3.712165106588247e-15
	1.167372677001998e-18
	-9.918902437086752e-15
	2.364505850947684e-06
	1.066651191466726e-04
	1.044280772106600e-05
	3.987467055942522e-01

 42	4.200000000000002e-01
	-3.677938901546666e-15
	1.152772156180633e-18
	-1.004220469366637e-14
	2.577616418182085e-06
	1.180914196477703e-04
	1.156558147724202e-05
	3.987467939855154e-01

 43	4.300000000000002e-01
	-3.644562501711375e-15
	1.137391301471497e-18
	-1.016410646980749e-14
	2.807212491813687e-06
	1.307310364353071e-04
	1.280857750863433e-05
	3.987468921290814e-01

 44	4.400000000000002e-01
	-3.612037327341049e-15
	1.121240977854995e-18
	-1.028455988896061e-14
	3.054234737512606e-06
	1.447051082845429e-04
	1.418452469247721e-05
	3.987470011069618e-01

 45	4.500000000000002e-01
	-3.580363777688322e-15
	1.104332686110024e-18
	-1.040351991299216e-14
	3.319639314382613e-06
	1.601440975698542e-04
	1.570740933738322e-05
	3.987471221161034e-01

 46	4.600000000000002e-01
	-3.549541252409366e-15
	1.086678507343716e-18
	-1.052094436669242e-14
	3.604393710619852e-06
	1.771878202703763e-04
	1.739256859263470e-05
	3.987472564782747e-01

 47	4.700000000000003e-01
	-3.519568175745183e-15
	1.068291046883911e-18
	-1.063679395242725e-14
	3.909472144991771e-06
	1.959853138322632e-04
	1.925678335208591e-05
	3.987474056501969e-01

 48	4.800000000000003e-01
	-3.490442023260569e-15
	1.049183377811543e-18
	-1.075103225522371e-14
	4.235850553394531e-06
	2.166945145012454e-04
	2.131836888717233e-05
	3.987475712337692e-01

 49	4.900000000000003e-01
	-3.462159350920465e-15
	1.029368984400080e-18
	-1.086362573862346e-14
	4.584501188629407e-06
	2.394817158048603e-04
	2.359726115911478e-05
	3.987477549862289e-01

 50	5.000000000000002e-01
	-3.434715826279340e-15
	1.008861705716655e-18
	-1.097454373167689e-14
	4.956386870764071e-06
	2.645207809865264e-04
	2.611509648186883e-05
	3.987479588300459e-01

 51	5.100000000000002e-01
	-3.408106261556762e-15
	9.876756796251792e-19
	-1.108375840748624e-14
	5.352454934797950e-06
	2.919920845510462e-04
	2.889528194622971e-05
	3.987481848622953e-01

 52	5.200000000000002e-01
	-3.382324648372138e-15
	9.658252874178861e-19
	-1.119124475373433e-14
	5.773630931569451e-06
	3.220811618264193e-04
	3.196305378488714e-05
	3.987484353632727e-01

 53	5.300000000000002e-01
	-3.357364193912560e-15
	9.433250992838073e-19
	-1.129698053566207e-14
	6.220812146652932e-06
	3.549770506961195e-04
	3.534552067273562e-05
	3.987487128040004e-01

 54	5.400000000000003e-01
	-3.333217358310779e-15
	9.201898208087815e-19
	-1.140094625197618e-14
	6.694861010072896e-06
	3.908703164702214e-04
	3.907168883171736e-05
	3.987490198523541e-01

 55	5.500000000000003e-01
	-3.309875893014576e-15
	8.964342406814507e-19
	-1.150312508418507e-14
	7.196598476710285e-06
	4.299507592365977e-04
	4.317246576072951e-05
	3.987493593774058e-01

 56	5.600000000000003e-01
	-3.287330879934659e-15
	8.720731797649839e-19
	-1.160350283987022e-14
	7.726797462959820e-06
	4.724048128731028e-04
	4.768063945377721e-05
	3.987497344516585e-01

 57	5.700000000000003e-01
	-3.265572771164958e-15
	8.471214416748951e-19
	-1.170206789040761e-14
	8.286176429233068e-06
	5.184126560231847e-04
	5.263083011753434e-05
	3.987501483507557e-01

 58	5.800000000000003e-01
	-3.244591429077565e-15
	8.215937649886105e-19
	-1.179881110365404e-14
	8.875393200014614e-06
	5.681450674512842e-04
	5.805941166414021e-05
	3.987506045503537e-01

 59	5.900000000000003e-01
	-3.224376166603187e-15
	7.955047771939773e-19
	-1.189372577211254e-14
	9.495039113168846e-06
	6.217600709083475e-04
	6.400440064453630e-05
	3.987511067197539e-01

 60	6.000000000000003e-01
	-3.204915787518029e-15
	7.688689504704949e-19
	-1.198680753708405e-14
	1.014563358790576e-05
	6.793994274581201e-04
	7.050531080536963e-05
	3.987516587120392e-01

 61	6.100000000000003e-01
	-3.186198626568160e-15
	7.417005593805274e-19
	-1.207805430930419e-14
	1.082761919619859e-05
	7.411850455636476e-04
	7.760297209673582e-05
	3.987522645504142e-01

 62	6.200000000000003e-01
	-3.168212589273466e-15
	7.140136405355075e-19
	-1.216746618655186e-14
	1.154135731552712e-05
	8.072153904665760e-04
	8.533931372070042e-05
	3.987529284105820e-01

 63	6.300000000000003e-01
	-3.150945191264306e-15
	6.858219542890849e-19
	-1.225504536870180e-14
	1.228712443173568e-05
	8.775619838327645e-04
	9.375711167701473e-05
	3.987536545990450e-01

 64	6.400000000000003e-01
	-3.134383597015638e-15
	6.571389484985273e-19
	-1.234079607067673e-14
	1.306510914977940e-05
	9.522660916134325e-04
	1.028997022112471e-04
	3.987544475273448e-01

 65	6.500000000000004e-01
	-3.118514657854408e-15
	6.279777243833196e-19
	-1.242472443373735e-14
	1.387540995751439e-05
	1.031335701956898e-03
	1.128106635737106e-04
	3.987553116822969e-01

 66	6.600000000000004e-01
	-3.103324949128018e-15
	5.983510045045526e-19
	-1.250683843552743e-14
	1.471803377387198e-05
	1.114742895270999e-03
	1.235334695211355e-04
	3.987562515925244e-01

 67	6.700000000000004e-01
	-3.088800806432436e-15
	5.682711028764562e-19
	-1.258714779927274e-14
	1.559289529823373e-05
	1.202421704793279e-03
	1.351111189987897e-04
	3.987572717915897e-01

 68	6.800000000000004e-01
	-3.074928360809964e-15
	5.377498972160360e-19
	-1.266566390251024e-14
	1.649981716308607e-05
	1.294266558067139e-03
	1.475857473870250e-04
	3.987583767782275e-01

 69	6.900000000000004e-01
	-3.061693572837304e-15
	5.067988033294767e-19
	-1.274239968570339e-14
	1.743853087761837e-05
	1.390131377559355e-03
	1.609982255408169e-04
	3.987595709742874e-01

 70	7.000000000000004e-01
	-3.049082265534971e-15
	4.754287516266477e-19
	-1.281736956107809e-14
	1.840867853633002e-05
	1.489829402534028e-03
	1.753877535526553e-04
	3.987608586810806e-01

 71	7.100000000000004e-01
	-3.037080156039304e-15
	4.436501657497613e-19
	-1.289058932199201e-14
	1.940981525438136e-05
	1.593133774709680e-03
	1.907914566908262e-04
	3.987622440349641e-01

 72	7.200000000000004e-01
	-3.025672885987770e-15
	4.114729432937381e-19
	-1.296207605313008e-14
	2.044141228074030e-05
	1.699778907888074e-03
	2.072439912756457e-04
	3.987637309629880e-01

 73	7.300000000000004e-01
	-3.014846050577469e-15
	3.789064385916347e-19
	-1.303184804179733e-14
	2.150286073140182e-05
	1.809462637570430e-03
	2.247771683325019e-04
	3.987653231395642e-01

 74	7.400000000000004e-01
	-3.004585226265543e-15
	3.459594475290661e-19
	-1.309992469056050e-14
	2.259347587826902e-05
	1.921849121634902e-03
	2.434196026899820e-04
	3.987670239450389e-01

 75	7.500000000000004e-01
	-2.994875997088281e-15
	3.126401943462901e-19
	-1.316632643146996e-14
	2.371250192471108e-05
	2.036572438589454e-03
	2.631963947720620e-04
	3.987688364270997e-01

 76	7.600000000000005e-01
	-2.985703979583690e-15
	2.789563203774375e-19
	-1.323107464207351e-14
	2.485911719629735e-05
	2.153240806903693e-03
	2.841288516754464e-04
	3.987707632658424e-01

 77	7.700000000000005e-01
	-2.977054846309293e-15
	2.449148746693504e-19
	-1.329419156341503e-14
	2.603243967457092e-05
	2.271441328567544e-03
	3.062342532481035e-04
	3.987728067432643e-01

 78	7.800000000000005e-01
	-2.968914347954269e-15
	2.105223064148404e-19
	-1.335570022019120e-14
	2.723153280272241e-05
	2.390745143295204e-03
	3.295256678246413e-04
	3.987749687178550e-01

 79	7.900000000000005e-01
	-2.961268334050946e-15
	1.757844591257885e-19
	-1.341562434322160e-14
	2.845541149435575e-05
	2.510712867465177e-03
	3.540118210692436e-04
	3.987772506047769e-01

 80	8.000000000000005e-01
	-2.954102772297050e-15
	1.407065664655121e-19
	-1.347398829436795e-14
	2.970304827986522e-05
	2.630900184486773e-03
	3.796970200742667e-04
	3.987796533620241e-01

 81	8.100000000000005e-01
	-2.947403766505447e-15
	1.052932496511572e-19
	-1.353081699402109e-14
	3.097337952894626e-05
	2.750863451061156e-03
	4.065811335133950e-04
	3.987821774827667e-01

 82	8.200000000000005e-01
	-2.941157573203213e-15
	6.954851633154582e-20
	-1.358613585125509e-14
	3.226531169213804e-05
	2.870165186722406e-03
	4.346596273042528e-04
	3.987848229939356e-01

 83	8.300000000000005e-01
	-2.935350616906729e-15
	3.347576083853751e-20
	-1.363997069673067e-14
	3.357772750879085e-05
	2.988379321788958e-03
	4.639236539466209e-04
	3.987875894609173e-01

 84	8.400000000000005e-01
	-2.929969504103507e-15
	-2.922234292877291e-21
	-1.369234771841256e-14
	3.490949213326532e-05
	3.105096090870551e-03
	4.943601925142808e-04
	3.987904759981313e-01

 85	8.500000000000005e-01
	-2.925001035975407e-15
	-3.964329564550307e-20
	-1.374329340014808e-14
	3.625945913538702e-05
	3.219926474609469e-03
	5.259522352301670e-04
	3.987934812850726e-01

 86	8.600000000000005e-01
	-2.920432219901319e-15
	-7.668585519269915e-20
	-1.379283446313788e-14
	3.762647633511865e-05
	3.332506110494980e-03
	5.586790156760909e-04
	3.987966035873375e-01

 87	8.700000000000006e-01
	-2.916250279779947e-15
	-1.140489456364384e-19
	-1.384099781031439e-14
	3.900939143508340e-05
	3.442498613414610e-03
	5.925162730013992e-04
	3.987998407819934e-01

 88	8.800000000000006e-01
	-2.912442665216489e-15
	-1.517321949206795e-19
	-1.388781047362739e-14
	4.040705741799103e-05
	3.549598267119194e-03
	6.274365460103793e-04
	3.988031903866821e-01

 89	8.900000000000006e-01
	-2.908997059618358e-15
	-1.897358200320195e-19
	-1.393329956422310e-14
	4.181833767928454e-05
	3.653532068060077e-03
	6.634094907287178e-04
	3.988066495917039e-01

 90	9.000000000000006e-01
	-2.905901387247235e-15
	-2.280606201936686e-19
	-1.397749222548943e-14
	4.324211086848920e-05
	3.754061122277234e-03
	7.004022149670963e-04
	3.988102152943828e-01

 91	9.100000000000006e-01
	-2.903143819275656e-15
	-2.667079695572582e-19
	-1.402041558892819e-14
	4.467727541591916e-05
	3.850981413491115e-03
	7.383796235014196e-04
	3.988138841349607e-01

 92	9.200000000000006e-01
	-2.900712778897463e-15
	-3.056798094896655e-19
	-1.406209673280393e-14
	4.612275372463677e-05
	3.944123975747238e-03
	7.773047677532343e-04
	3.988176525333682e-01

 93	9.300000000000006e-01
	-2.898596945541665e-15
	-3.449786405496596e-19
	-1.410256264350990e-14
	4.757749601093051e-05
	4.033354516524950e-03
	8.171391942561853e-04
	3.988215167261649e-01

 94	9.400000000000006e-01
	-2.896785258239488e-15
	-3.846075142404044e-19
	-1.414184017958267e-14
	4.904048378009523e-05
	4.118572545958269e-03
	8.578432867070438e-04
	3.988254728030821e-01

 95	9.500000000000006e-01
	-2.895266918194208e-15
	-4.245700246190250e-19
	-1.417995603829006e-14
	5.051073292796843e-05
	4.199710074694458e-03
	8.993765969946096e-04
	3.988295167426130e-01

 96	9.600000000000006e-01
	-2.894031390602900e-15
	-4.648702998373999e-19
	-1.421693672471089e-14
	5.198729646247104e-05
	4.276729947035001e-03
	9.416981612484436e-04
	3.988336444461986e-01

 97	9.700000000000006e-01
	-2.893068405778334e-15
	-5.055129936817662e-19
	-1.425280852322020e-14
	5.346926684326007e-05
	4.349623877574310e-03
	9.847667976253124e-04
	3.988378517706136e-01

 98	9.800000000000006e-01
	-2.892367959618457e-15
	-5.465032771729749e-19
	-1.428759747128995e-14
	5.495577794147113e-05
	4.418410258866333e-03
	1.028541383230704e-03
	3.988421345582301e-01

 99	9.900000000000007e-01
	-2.891920313469660e-15
	-5.878468302807515e-19
	-1.432132933551226e-14
	5.644600662531020e-05
	4.483131805051841e-03
	1.072981108234673e-03
	3.988464886649531e-01

 100	1.000000000000001e+00
	-2.891715993428613e-15
	-6.295498338027424e-19
	-1.435402958975074e-14
	5.793917398088774e-05
	4.543853092244214e-03
	1.118045705869049e-03
	3.988509099856252e-01

 101	1.010000000000001e+00
	-2.891745789126227e-15
	-6.716189614499552e-19
	-1.438572339532387e-14
	5.943454618107168e-05
	4.600658051172514e-03
	1.163695657572736e-03
