Title: ** sch_path: /home/andylithia/openmpw/project-yatsuhashi-chip1/xschem/gmid_test/nmos_test.sch
Date: Tue Jul 19 23:15:45  2022
Plotname: DC transfer characteristic
Flags: real
No. Variables: 8
No. Points: 181
Variables:
	0	v(v-sweep)	voltage
	1	@m.xm1.msky130_fd_pr__nfet_01v8[cgb]	capacitance
	2	@m.xm1.msky130_fd_pr__nfet_01v8[cgd]	capacitance
	3	@m.xm1.msky130_fd_pr__nfet_01v8[cgs]	capacitance
	4	@m.xm1.msky130_fd_pr__nfet_01v8[gds]	admittance
	5	@m.xm1.msky130_fd_pr__nfet_01v8[gm]	admittance
	6	i(@m.xm1.msky130_fd_pr__nfet_01v8[id])	current
	7	v(@m.xm1.msky130_fd_pr__nfet_01v8[vth])	voltage
Values:
 0	0.000000000000000e+00
	-1.883554433891604e-15
	1.918064394809798e-19
	-1.388809749764314e-17
	6.457045788976198e-14
	1.907039227034980e-12
	6.096813745059013e-14
	7.505754873129439e-01

 1	1.000000000000000e-02
	-1.874558514999131e-15
	2.046309821983698e-19
	-1.480431876318736e-17
	8.749028283852535e-14
	2.607354440966360e-12
	8.335786952893607e-14
	7.505754873129450e-01

 2	2.000000000000000e-02
	-1.865675159369311e-15
	2.182327925783829e-19
	-1.579476612189208e-17
	1.185356280854929e-13
	3.564830717016469e-12
	1.139696448832195e-13
	7.505754873129467e-01

 3	3.000000000000000e-02
	-1.856900727492018e-15
	2.326685969633009e-19
	-1.686619409547050e-17
	1.605832606232312e-13
	4.873891752457014e-12
	1.558226258450836e-13
	7.505754873129488e-01

 4	4.000000000000000e-02
	-1.848231544616291e-15
	2.480015336459535e-19
	-1.802616019586225e-17
	2.175269258212215e-13
	6.663626850988821e-12
	2.130445221393476e-13
	7.505754873129518e-01

 5	5.000000000000000e-02
	-1.839663883171482e-15
	2.643017268325811e-19
	-1.928312170696131e-17
	2.946362658477444e-13
	9.110514888939889e-12
	2.912785577890910e-13
	7.505754873129559e-01

 6	6.000000000000000e-02
	-1.831193944177171e-15
	2.816468424434505e-19
	-2.064654014411767e-17
	3.990421697180747e-13
	1.245581695213763e-11
	3.982398074658353e-13
	7.505754873129618e-01

 7	7.000000000000001e-02
	-1.822817837624426e-15
	3.001226156260952e-19
	-2.212699354833617e-17
	5.403929927713347e-13
	1.702934968638648e-11
	5.444757044757734e-13
	7.505754873129693e-01

 8	8.000000000000000e-02
	-1.814531561809972e-15
	3.198233397617591e-19
	-2.373629677864206e-17
	7.317416606217429e-13
	2.328197864007119e-11
	7.444056165270854e-13
	7.505754873129796e-01

 9	9.000000000000000e-02
	-1.806330981603147e-15
	3.408523067246058e-19
	-2.548762997658028e-17
	9.907446919258932e-13
	3.183002755612539e-11
	1.017741839346635e-12
	7.505754873129941e-01

 10	9.999999999999999e-02
	-1.798211805623050e-15
	3.633221881826452e-19
	-2.739567539006529e-17
	1.341282529020619e-12
	4.351596942266874e-11
	1.391431864047035e-12
	7.505754873130139e-01

 11	1.100000000000000e-01
	-1.790169562300501e-15
	3.873553477903744e-19
	-2.947676275836972e-17
	1.815648802844594e-12
	5.949136225472253e-11
	1.902313004304740e-12
	7.505754873130408e-01

 12	1.200000000000000e-01
	-1.782199574796360e-15
	4.130840741991838e-19
	-3.174902347472004e-17
	2.457507705592611e-12
	8.133017261493073e-11
	2.600740435416081e-12
	7.505754873130774e-01

 13	1.300000000000000e-01
	-1.774296934744789e-15
	4.406507248826208e-19
	-3.423255375555427e-17
	3.325888106843642e-12
	1.111836046344951e-10
	3.555545232083729e-12
	7.505754873131272e-01

 14	1.400000000000000e-01
	-1.766456474787529e-15
	4.702077708102883e-19
	-3.694958705294761e-17
	4.500576613823236e-12
	1.519916101237758e-10
	4.860809411151161e-12
	7.505754873131963e-01

 15	1.500000000000000e-01
	-1.758672739864274e-15
	5.019177319610348e-19
	-3.992467594392178e-17
	6.089397747174983e-12
	2.077717883975273e-10
	6.645122979678903e-12
	7.505754873132900e-01

 16	1.600000000000000e-01
	-1.750939957225592e-15
	5.359529934766102e-19
	-4.318488370950398e-17
	8.238038916075679e-12
	2.840139255337672e-10
	9.084230839826832e-12
	7.505754873134179e-01

 17	1.700000000000000e-01
	-1.743252005140889e-15
	5.724954918302838e-19
	-4.675998576621547e-17
	1.114330584567287e-11
	3.882186951026229e-10
	1.241830862095334e-11
	7.505754873135937e-01

 18	1.800000000000000e-01
	-1.735602380286795e-15
	6.117362596076718e-19
	-5.068268101744319e-17
	1.507100049535015e-11
	5.306330263109609e-10
	1.697555806517246e-11
	7.505754873138329e-01

 19	1.900000000000000e-01
	-1.727984163824449e-15
	6.538748162391308e-19
	-5.498881303165473e-17
	2.038002497489247e-11
	7.252536678587535e-10
	2.320442789910069e-11
	7.505754873141605e-01

 20	2.000000000000000e-01
	-1.720389986211887e-15
	6.991183901491900e-19
	-5.971760070344477e-17
	2.755486710024669e-11
	9.911963294531534e-10
	3.171760408614141e-11
	7.505754873146082e-01

 21	2.100000000000000e-01
	-1.712811990854377e-15
	7.476809551756326e-19
	-6.491187768206551e-17
	3.724936341783049e-11
	1.354562885078112e-09
	4.335205376769566e-11
	7.505754873152197e-01

 22	2.200000000000001e-01
	-1.705241796777072e-15
	7.997820606676775e-19
	-7.061833932692934e-17
	5.034562675382042e-11
	1.850986723906978e-09
	5.925095801281873e-11
	7.505754873160556e-01

 23	2.300000000000001e-01
	-1.697670460616286e-15
	8.556454303660015e-19
	-7.688779523420290e-17
	6.803335113380378e-11
	2.529100795873991e-09
	8.097547543839792e-11
	7.505754873171979e-01

 24	2.400000000000001e-01
	-1.690088438373937e-15
	9.154973000451964e-19
	-8.377542443618059e-17
	9.191647772353447e-11
	3.455260045305833e-09
	1.106571381648739e-10
	7.505754873187582e-01

 25	2.500000000000001e-01
	-1.682485547570072e-15
	9.795644581165794e-19
	-9.134102916993949e-17
	1.241565668686015e-10
	4.719967510019055e-09
	1.512055572185246e-10
	7.505754873208901e-01

 26	2.600000000000001e-01
	-1.674850930665498e-15
	1.048071947230224e-18
	-9.964928161292678e-17
	1.676653646036463e-10
	6.446611648957175e-09
	2.065913597071582e-10
	7.505754873238019e-01

 27	2.700000000000001e-01
	-1.667173020913963e-15
	1.121240378811148e-18
	-1.087699561670108e-16
	2.263632272491208e-10
	8.803334955073467e-09
	2.822313663755757e-10
	7.505754873277785e-01

 28	2.800000000000001e-01
	-1.659439512142676e-15
	1.199282807008084e-18
	-1.187781377279568e-16
	3.055256003077226e-10
	1.201913825313400e-08
	3.855125719228366e-10
	7.505754873332086e-01

 29	2.900000000000001e-01
	-1.651637334349715e-15
	1.282401104486500e-18
	-1.297543939098761e-16
	4.122470586076887e-10
	1.640570410640887e-08
	5.265043395719431e-10
	7.505754873406211e-01

 30	3.000000000000001e-01
	-1.643752637442095e-15
	1.370781780792977e-18
	-1.417848964328826e-16
	5.560620438015469e-10
	2.238692567836931e-08
	7.189254528866128e-10
	7.505754873507372e-01

 31	3.100000000000001e-01
	-1.635770785908832e-15
	1.464591185750591e-18
	-1.549614738861300e-16
	7.497740706096748e-10
	3.053879106873710e-08
	9.814556980886326e-10
	7.505754873645402e-01

 32	3.200000000000001e-01
	-1.627676367713002e-15
	1.563970046752094e-18
	-1.693815749457111e-16
	1.010561680775890e-09
	4.164314320390672e-08
	1.339512307114386e-09
	7.505754873833643e-01

 33	3.300000000000001e-01
	-1.619453221171425e-15
	1.669027301238803e-18
	-1.851481180032601e-16
	1.361450880535168e-09
	5.675996695976201e-08
	1.827652206940726e-09
	7.505754874090282e-01

 34	3.400000000000001e-01
	-1.611084484037561e-15
	1.779833205463499e-18
	-2.023692002489725e-16
	1.833271521053130e-09
	7.732431277938170e-08
	2.492814524650544e-09
	7.505754874439983e-01

 35	3.500000000000001e-01
	-1.602552669368708e-15
	1.896411729148730e-18
	-2.211576368186441e-16
	2.467250650786439e-09
	1.052758213514491e-07
	3.398687804247976e-09
	7.505754874916242e-01

 36	3.600000000000002e-01
	-1.593839772989411e-15
	2.018732283968255e-18
	-2.416302989931769e-16
	3.318441125700191e-09
	1.432311408233562e-07
	4.631577248464671e-09
	7.505754875564423e-01

 37	3.700000000000002e-01
	-1.584927417394202e-15
	2.146700882601697e-18
	-2.639072200316174e-16
	4.460240777150116e-09
	1.947123924096457e-07
	6.308264064741225e-09
	7.505754876445933e-01

 38	3.800000000000002e-01
	-1.575797036692426e-15
	2.280150884493133e-18
	-2.881104384816192e-16
	5.990328409909523e-09
	2.644482821434219e-07
	8.586497275581517e-09
	7.505754877643699e-01

 39	3.900000000000002e-01
	-1.566430106608520e-15
	2.418833553513137e-18
	-3.143625522322022e-16
	8.038429979099150e-09
	3.587684611790096e-07
	1.167894391197836e-08
	7.505754879269528e-01

 40	4.000000000000002e-01
	-1.556808422537844e-15
	2.562408729383992e-18
	-3.427849626346877e-16
	1.077643323283925e-08
	4.861161911954416e-07
	1.587165151051058e-08
	7.505754881473825e-01

 41	4.100000000000002e-01
	-1.546914427156635e-15
	2.710435995390089e-18
	-3.734957971392427e-16
	1.443149275218131e-08
	6.577090008897236e-07
	2.154835056848547e-08
	7.505754884458322e-01

 42	4.200000000000002e-01
	-1.536731587052894e-15
	2.862366804285415e-18
	-4.066075113652938e-16
	1.930290881337611e-08
	8.883813067777382e-07
	2.922224348351647e-08
	7.505754888492844e-01

 43	4.300000000000002e-01
	-1.526244815276834e-15
	3.017538095429260e-18
	-4.422241874182394e-16
	2.578371915973994e-08
	1.197646056571685e-06
	3.957728311929943e-08
	7.505754893936986e-01

 44	4.400000000000002e-01
	-1.515440933647531e-15
	3.175167990497762e-18
	-4.804385643546300e-16
	3.438810460032455e-08
	1.611013031409013e-06
	5.352132035809312e-08
	7.505754901268069e-01

 45	4.500000000000002e-01
	-1.504309165201773e-15
	3.334354183044582e-18
	-5.213288583740882e-16
	4.578586314673150e-08
	2.161597688776746e-06
	7.225386206908339e-08
	7.505754911116764e-01

 46	4.600000000000002e-01
	-1.492841643506203e-15
	3.494075628891089e-18
	-5.649554535320254e-16
	6.084533057728448e-08
	2.892044000771917e-06
	9.735147419670654e-08
	7.505754924312017e-01

 47	4.700000000000003e-01
	-1.481033921921269e-15
	3.653198090885279e-18
	-6.113575670233961e-16
	8.068618470910351e-08
	3.856764957525525e-06
	1.308740091428119e-07
	7.505754941936899e-01

 48	4.800000000000003e-01
	-1.468885462614863e-15
	3.810483986341020e-18
	-6.605500144760556e-16
	1.067435207535344e-07
	5.124472677184831e-06
	1.754947253967881e-07
	7.505754965397097e-01

 49	4.900000000000003e-01
	-1.456400082528579e-15
	3.964606825597751e-18
	-7.125202180101739e-16
	1.408443676441097e-07
	6.780924727767165e-06
	2.346568714532875e-07
	7.505754996503278e-01

 50	5.000000000000002e-01
	-1.443586331966332e-15
	4.114170317931798e-18
	-7.672256107589026e-16
	1.852973612505844e-07
	8.931754829364635e-06
	3.127582894458611e-07
	7.505755037568260e-01

 51	5.100000000000002e-01
	-1.430457781340834e-15
	4.257731964944311e-18
	-8.245915939460299e-16
	2.429955268200432e-07
	1.170518880472810e-05
	4.153639429835402e-07
	7.505755091518982e-01

 52	5.200000000000002e-01
	-1.417033193138526e-15
	4.393830676452565e-18
	-8.845101947624927e-16
	3.175309850770082e-07
	1.525437991680332e-05
	5.494439421265793e-07
	7.505755162021919e-01

 53	5.300000000000002e-01
	-1.403336559484715e-15
	4.521017650610852e-18
	-9.468395542013899e-16
	4.133188479509050e-07
	1.975904680307587e-05
	7.236317034743047e-07
	7.505755253619345e-01

 54	5.400000000000003e-01
	-1.389396990781717e-15
	4.637889483598115e-18
	-1.011404343720075e-15
	5.357256307024544e-07
	2.542608175612003e-05
	9.484935989244150e-07
	7.505755371871896e-01

 55	5.500000000000003e-01
	-1.375248447542085e-15
	4.743122241684317e-18
	-1.077997169266018e-15
	6.911952842968188e-07
	3.248883687795356e-05
	1.236798269011209e-06
	7.505755523501335e-01

 56	5.600000000000003e-01
	-1.360929315349116e-15
	4.835505065459337e-18
	-1.146380973165469e-15
	8.873636649426799e-07
	4.120490299218877e-05
	1.603771330042003e-06
	7.505755716526282e-01

 57	5.700000000000003e-01
	-1.346481831291520e-15
	4.913971803391868e-18
	-1.216292391986520e-15
	1.133150243759116e-06
	5.185236679964992e-05
	2.067320160403713e-06
	7.505755960382944e-01

 58	5.800000000000003e-01
	-1.331951378573931e-15
	4.977629202798950e-18
	-1.287445975824474e-15
	1.438814538016906e-06
	6.472473735795846e-05
	2.648214323248394e-06
	7.505756266023608e-01

 59	5.900000000000003e-01
	-1.317385673599478e-15
	5.025780323806586e-18
	-1.359539125877372e-15
	1.815964532092892e-06
	8.012492129565180e-05
	3.370210076307212e-06
	7.505756645987042e-01

 60	6.000000000000003e-01
	-1.302833875998614e-15
	5.057942078032817e-18
	-1.432257566829323e-15
	2.277505533545889e-06
	9.835873221243611e-05
	4.260111839871502e-06
	7.505757114437425e-01

 61	6.100000000000003e-01
	-1.288345656307503e-15
	5.073856110143425e-18
	-1.505281141877919e-15
	2.837520492664791e-06
	1.197283879600794e-04
	5.347768321466669e-06
	7.505757687170773e-01

 62	6.200000000000003e-01
	-1.273970257934015e-15
	5.073492610363973e-18
	-1.578289703550262e-15
	3.511076479010217e-06
	1.445262603244866e-04
	6.666004714529092e-06
	7.505758381589964e-01

 63	6.300000000000003e-01
	-1.259755589571281e-15
	5.057047037565141e-18
	-1.650968873691086e-15
	4.313956151363803e-06
	1.730288297331725e-04
	8.250493549392528e-06
	7.505759216649749e-01

 64	6.400000000000003e-01
	-1.245747381443843e-15
	5.024930112513955e-18
	-1.723015460661087e-15
	5.262316998643291e-06
	2.054904512140831e-04
	1.013956455416503e-05
	7.505760212771979e-01

 65	6.500000000000004e-01
	-1.231988434027985e-15
	4.977751778793934e-18
	-1.794142349003731e-15
	6.372284407635898e-06
	2.421362753705473e-04
	1.237394851777644e-05
	7.505761391728152e-01

 66	6.600000000000004e-01
	-1.218517981666705e-15
	4.916300100253816e-18
	-1.864082713723075e-15
	7.659487232252585e-06
	2.831536003271587e-04
	1.499644305449447e-05
	7.505762776482402e-01

 67	6.700000000000004e-01
	-1.205371186388369e-15
	4.841516252444666e-18
	-1.932593454312228e-15
	9.138547019523600e-06
	3.286811231728524e-04
	1.805148167403432e-05
	7.505764390984228e-01

 68	6.800000000000004e-01
	-1.192578769847803e-15
	4.754466864448101e-18
	-1.999457789022034e-15
	1.082253521540165e-05
	3.787960107144846e-04
	2.158458431939749e-05
	7.505766259898156e-01

 69	6.900000000000004e-01
	-1.180166784207437e-15
	4.656314978868383e-18
	-2.064486994015913e-15
	1.272241723158873e-05
	4.334993485079149e-04
	2.564166983084678e-05
	7.505768408258274e-01

 70	7.000000000000004e-01
	-1.168156516435971e-15
	4.548290831241229e-18
	-2.127521312023224e-15
	1.484650830704635e-05
	4.927012294484263e-04
	3.026821991714388e-05
	7.505770861039954e-01

 71	7.100000000000004e-01
	-1.156564515264154e-15
	4.431663520879976e-18
	-2.188430088658516e-15
	1.719997283224606e-05
	5.562073548296412e-04
	3.550830003594572e-05
	7.505773642649236e-01

 72	7.200000000000004e-01
	-1.145402726099517e-15
	4.307714471465297e-18
	-2.247111220367482e-15
	1.978440449819011e-05
	6.237093869915393e-04
	4.140346340792108e-05
	7.505776776341277e-01

 73	7.300000000000004e-01
	-1.134678716624267e-15
	4.177713380448078e-18
	-2.303490015492206e-15
	2.259752703955375e-05
	6.947812878330010e-04
	4.799158709051163e-05
	7.505780283591752e-01

 74	7.400000000000004e-01
	-1.124395974524852e-15
	4.042897149264249e-18
	-2.357517579459710e-15
	2.563305237850656e-05
	7.688834358579144e-04
	5.530570951401090e-05
	7.505784183456735e-01

 75	7.500000000000004e-01
	-1.114554258680425e-15
	3.904452086470617e-18
	-2.409168837399980e-15
	2.888072350421328e-05
	8.453754573720931e-04
	6.337295279399298e-05
	7.505788491965240e-01

 76	7.600000000000005e-01
	-1.105149985965618e-15
	3.763499494707705e-18
	-2.458440303784119e-15
	3.232655384810315e-05
	9.235375563599598e-04
	7.221361685517404e-05
	7.505793221592058e-01

 77	7.700000000000005e-01
	-1.096176637368626e-15
	3.621084597619978e-18
	-2.505347700322058e-15
	3.595325534351216e-05
	1.002598891159204e-03
	8.184052398523374e-05
	7.505798380855608e-01

 78	7.800000000000005e-01
	-1.087625169155442e-15
	3.478168638686652e-18
	-2.549923511786569e-15
	3.974082718911851e-05
	1.081770476552461e-03
	9.225867229028590e-05
	7.505803974075990e-01

 79	7.900000000000005e-01
	-1.079484417110234e-15
	3.335623891416604e-18
	-2.592214555956979e-15
	4.366726037528586e-05
	1.160279416835633e-03
	1.034652275208575e-04
	7.505810001313721e-01

 80	8.000000000000005e-01
	-1.071741484266242e-15
	3.194231258193995e-18
	-2.632279629649573e-15
	4.770930243492531e-05
	1.237401138963333e-03
	1.154498496456273e-04
	7.505816458491993e-01

 81	8.100000000000005e-01
	-1.064382104864321e-15
	3.054680100160233e-18
	-2.670187278750676e-15
	5.184322429744933e-05
	1.312486704883123e-03
	1.281953188991280e-04
	7.505823337687656e-01

 82	8.200000000000005e-01
	-1.057390979429332e-15
	2.917569928750996e-18
	-2.706013726989633e-15
	5.604553636502668e-05
	1.384983119915130e-03
	1.416784007783205e-04
	7.505830627561439e-01

 83	8.300000000000005e-01
	-1.050752077766371e-15
	2.783413596261491e-18
	-2.739840986357476e-15
	6.029361220760572e-05
	1.454445614867018e-03
	1.558708739016158e-04
	7.505838313888157e-01

 84	8.400000000000005e-01
	-1.044448908309737e-15
	2.652641643450037e-18
	-2.771755161870186e-15
	6.456619287627619e-05
	1.520541937750663e-03
	1.707406398537855e-04
	7.505846380143523e-01

 85	8.500000000000005e-01
	-1.038464753594650e-15
	2.525607492380735e-18
	-2.801844954905516e-15
	6.884375993375236e-05
	1.583049560777900e-03
	1.862528391042035e-04
	7.505854808105620e-01

 86	8.600000000000005e-01
	-1.032782872671689e-15
	2.402593208664636e-18
	-2.830200362594289e-15
	7.310877860350992e-05
	1.641847281527808e-03
	2.023709093025976e-04
	7.505863578434898e-01

 87	8.700000000000006e-01
	-1.027386672068376e-15
	2.283815595833240e-18
	-2.856911565612210e-15
	7.734582253921492e-05
	1.696902950032541e-03
	2.190575385746864e-04
	7.505872671204636e-01

 88	8.800000000000006e-01
	-1.022259847451298e-15
	2.169432423327465e-18
	-2.882067993028776e-15
	8.154159812593989e-05
	1.748259029231319e-03
	2.362754838304401e-04
	7.505882066363427e-01

 89	8.900000000000006e-01
	-1.017386498490436e-15
	2.059548626689195e-18
	-2.905757550425233e-15
	8.568488918426818e-05
	1.796017475636801e-03
	2.539882401789736e-04
	7.505891744119738e-01

 90	9.000000000000006e-01
	-1.012751219610825e-15
	1.954222352799537e-18
	-2.928065996082576e-15
	8.976644313939208e-05
	1.840325099746784e-03
	2.721605608087199e-04
	7.505901685246491e-01

 91	9.100000000000006e-01
	-1.008339169369444e-15
	1.853470753666234e-18
	-2.949076449458350e-15
	9.377881798882168e-05
	1.881360209362131e-03
	2.907588364807972e-04
	7.505911871309001e-01

 92	9.200000000000006e-01
	-1.004136121148765e-15
	1.757275458991747e-18
	-2.968869016227714e-15
	9.771620656822888e-05
	1.919321008913785e-03
	3.097513501066319e-04
	7.505922284823791e-01

 93	9.300000000000006e-01
	-1.000128497739810e-15
	1.665587680483670e-18
	-2.987520514693520e-15
	1.015742513389575e-04
	1.954415955711021e-03
	3.291084251794726e-04
	7.505932909357635e-01

 94	9.400000000000006e-01
	-9.963033922199341e-16
	1.578332919761539e-18
	-3.005104289229741e-15
	1.053498596755315e-04
	1.986856071318296e-03
	3.488024877547211e-04
	7.505943729577386e-01

 95	9.500000000000006e-01
	-9.926485773325106e-16
	1.495415267038065e-18
	-3.021690097496147e-15
	1.090410267081491e-04
	2.016849070826657e-03
	3.688080609186477e-04
	7.505954731260626e-01

 96	9.600000000000006e-01
	-9.891525053621395e-16
	1.416721289882015e-18
	-3.037344059356193e-15
	1.126466703176958e-04
	2.044595094553473e-03
	3.891017088749505e-04
	7.505965901276612e-01

 97	9.700000000000006e-01
	-9.858043002810530e-16
	1.342123520690330e-18
	-3.052128656673034e-15
	1.161664809286252e-04
	2.070283792539865e-03
	4.096619454204913e-04
	7.505977227545678e-01

 98	9.800000000000006e-01
	-9.825937437285252e-16
	1.271483558417983e-18
	-3.066102774396428e-15
	1.196007872716628e-04
	2.094092509038423e-03
	4.304691190487889e-04
	7.505988698983991e-01

 99	9.900000000000007e-01
	-9.795112561809900e-16
	1.204654805015172e-18
	-3.079321774547823e-15
	1.229504382322034e-04
	2.116185330699954e-03
	4.515052844634948e-04
	7.506000305439300e-01

 100	1.000000000000001e+00
	-9.765478744801328e-16
	1.141484860261253e-18
	-3.091837595835953e-15
	1.262167001864332e-04
	2.136712789540171e-03
	4.727540680540104e-04
	7.506012037621905e-01

 101	1.010000000000001e+00
	-9.736952267117352e-16
	1.081817600589695e-18
	-3.103698872674509e-15
	1.294011687807073e-04
	2.155812043631753e-03
	4.942005329560819e-04
	7.506023887034338e-01

