Title: ** sch_path: /home/andylithia/openmpw/project-yatsuhashi-chip1/xschem/gmid_test/nmos_test.sch
Date: Tue Jul 19 23:15:45  2022
Plotname: DC transfer characteristic
Flags: real
No. Variables: 8
No. Points: 181
Variables:
	0	v(v-sweep)	voltage
	1	@m.xm1.msky130_fd_pr__nfet_01v8[cgb]	capacitance
	2	@m.xm1.msky130_fd_pr__nfet_01v8[cgd]	capacitance
	3	@m.xm1.msky130_fd_pr__nfet_01v8[cgs]	capacitance
	4	@m.xm1.msky130_fd_pr__nfet_01v8[gds]	admittance
	5	@m.xm1.msky130_fd_pr__nfet_01v8[gm]	admittance
	6	i(@m.xm1.msky130_fd_pr__nfet_01v8[id])	current
	7	v(@m.xm1.msky130_fd_pr__nfet_01v8[vth])	voltage
Values:
 0	0.000000000000000e+00
	-3.639202203637035e-15
	-1.065361833530366e-25
	-5.131059863811796e-18
	8.711292490408289e-26
	3.857480070869804e-23
	4.177428658772969e-25
	6.196010234604221e-01

 1	1.000000000000000e-02
	-3.623875367493231e-15
	-1.397377799384120e-25
	-5.119309361564317e-18
	2.193728793861444e-25
	9.713403972242776e-23
	1.051984598574387e-24
	6.196010234604221e-01

 2	2.000000000000000e-02
	-3.608737929804589e-15
	-1.832854301631277e-25
	-5.111365563907307e-18
	5.522951919264416e-25
	2.445578657409526e-22
	2.648486163980706e-24
	6.196010234604221e-01

 3	3.000000000000000e-02
	-3.593785816653497e-15
	-2.404023181838659e-25
	-5.108337030573825e-18
	1.390521021945894e-24
	6.157414188953184e-22
	6.668129184168882e-24
	6.196010234604221e-01

 4	4.000000000000000e-02
	-3.579014977961029e-15
	-3.153152109731926e-25
	-5.111683472280425e-18
	3.501203723716369e-24
	1.550343889705690e-21
	1.678973446839154e-23
	6.196010234604221e-01

 5	5.000000000000000e-02
	-3.564421358605366e-15
	-4.135665360386380e-25
	-5.123325825392033e-18
	8.815040636159308e-24
	3.903329881835431e-21
	4.227180229908585e-23
	6.196010234604221e-01

 6	6.000000000000000e-02
	-3.550000861648520e-15
	-5.424232160095101e-25
	-5.145790515443750e-18
	2.219466143656144e-23
	9.827467242509092e-21
	1.064326733273791e-22
	6.196010234604221e-01

 7	7.000000000000001e-02
	-3.535749301190537e-15
	-7.114120529445459e-25
	-5.182398295246517e-18
	5.587782742829084e-23
	2.474094707778710e-20
	2.679575252933023e-22
	6.196010234604221e-01

 8	8.000000000000000e-02
	-3.521662341644809e-15
	-9.330204820157502e-25
	-5.237511033595650e-18
	1.406749492846162e-22
	6.228168891092959e-20
	6.745951483462721e-22
	6.196010234604221e-01

 9	9.000000000000000e-02
	-3.507735419317463e-15
	-1.223613172433860e-24
	-5.316853564397033e-18
	3.541241249288934e-22
	1.567644208720445e-19
	1.698173113394620e-21
	6.196010234604221e-01

 10	9.999999999999999e-02
	-3.493963641050748e-15
	-1.604629936428371e-24
	-5.427932281390618e-18
	8.913232558789113e-22
	3.944985373105162e-19
	4.274267359980066e-21
	6.196010234604221e-01

 11	1.100000000000000e-01
	-3.480341653340232e-15
	-2.104149540092754e-24
	-5.580577622401116e-18
	2.242937797637640e-21
	9.924298359135059e-19
	1.075582372190487e-20
	6.196010234604221e-01

 12	1.200000000000000e-01
	-3.466863473772309e-15
	-2.758928235922774e-24
	-5.787643844465572e-18
	5.642223135723880e-21
	2.495340936272573e-18
	2.705681696343799e-20
	6.196010234604221e-01

 13	1.300000000000000e-01
	-3.453522274922263e-15
	-3.617052170765067e-24
	-6.065906222028437e-18
	1.418552697232770e-20
	6.269081426552301e-18
	6.802552781238193e-20
	6.196010234604221e-01

 14	1.400000000000000e-01
	-3.440310109172042e-15
	-4.741380246627320e-24
	-6.437202265391853e-18
	3.563408253922268e-20
	1.572952379087416e-17
	1.708803118639214e-19
	6.196010234604221e-01

 15	1.500000000000000e-01
	-3.427217561576994e-15
	-6.213999287562544e-24
	-6.929868361983499e-18
	8.939066850528447e-20
	3.938578178961137e-17
	4.286655983362049e-19
	6.196010234604221e-01

 16	1.600000000000000e-01
	-3.414233317484639e-15
	-8.141966741906925e-24
	-7.580524067779325e-18
	2.237613519537506e-19
	9.830324859393224e-17
	1.073029158744283e-18
	6.196010234604221e-01

 17	1.700000000000000e-01
	-3.401343632918089e-15
	-1.066467697147935e-23
	-8.436249686792323e-18
	5.582318944698943e-19
	2.441258091457232e-16
	2.676955135090434e-18
	6.196010234604221e-01

 18	1.800000000000000e-01
	-3.388531699851096e-15
	-1.396325351763173e-23
	-9.557184452227822e-18
	1.385374028691483e-18
	6.015532327032945e-16
	6.643447207412601e-18
	6.196010234604221e-01

 19	1.900000000000000e-01
	-3.375776906437122e-15
	-1.827243835514882e-23
	-1.101953865222879e-17
	3.410468672020014e-18
	1.464704824891396e-15
	1.635462200672366e-17
	6.196010234604221e-01

 20	2.000000000000000e-01
	-3.363054004153302e-15
	-2.389551657508150e-23
	-1.291896342766888e-17
	8.293829265701302e-18
	3.503021504166656e-15
	3.977237608399991e-17
	6.196010234604221e-01

 21	2.100000000000000e-01
	-3.350332207243935e-15
	-3.122288096280905e-23
	-1.537416776905652e-17
	1.980911635733582e-17
	8.161968740836957e-15
	9.499298823019041e-17
	6.196010234604221e-01

 22	2.200000000000001e-01
	-3.337574256981353e-15
	-4.075491641194285e-23
	-1.853064705199821e-17
	4.611442110353795e-17
	1.833740193715609e-14
	2.211379136644396e-16
	6.196010234604221e-01

 23	2.300000000000001e-01
	-3.324735467638868e-15
	-5.313000454241307e-23
	-2.256446039798477e-17
	1.036975521611714e-16
	3.928144687155743e-14
	4.972730830217791e-16
	6.196010234604221e-01

 24	2.400000000000001e-01
	-3.311762706369769e-15
	-6.915869210296045e-23
	-2.768627352329670e-17
	2.232293610653008e-16
	7.946490004895510e-14
	1.070478043536882e-15
	6.196010234604221e-01

 25	2.500000000000001e-01
	-3.298593115262849e-15
	-8.986556529259838e-23
	-3.414648991957821e-17
	4.569103926795547e-16
	1.511469485944523e-13
	2.191076219629175e-15
	6.196010234604221e-01

 26	2.600000000000001e-01
	-3.285152145612310e-15
	-1.165412999623324e-22
	-4.224327862383676e-17
	8.870970404158975e-16
	2.712393802133827e-13
	4.254000938554673e-15
	6.196010234604225e-01

 27	2.700000000000001e-01
	-3.271350171841163e-15
	-1.508088659080651e-22
	-5.233653290056011e-17
	1.638463279845254e-15
	4.641521958757009e-13
	7.857116044694651e-15
	6.196010234604225e-01

 28	2.800000000000001e-01
	-3.257076682325139e-15
	-1.947099611407593e-22
	-6.487184778225115e-17
	2.899539489037857e-15
	7.680819989758952e-13
	1.390450359501134e-14
	6.196010234604231e-01

 29	2.900000000000001e-01
	-3.242190951102554e-15
	-2.508201806001184e-22
	-8.041888863024326e-17
	4.961306117243057e-15
	1.245101868383065e-12
	2.379153675998110e-14
	6.196010234604242e-01

 30	3.000000000000001e-01
	-3.226508298889937e-15
	-3.224036223825576e-22
	-9.972756145403255e-17
	8.281285164632607e-15
	1.995796158894514e-12
	3.971222559065994e-14
	6.196010234604254e-01

 31	3.100000000000001e-01
	-3.209781576606571e-15
	-4.136188521693091e-22
	-1.238031361644399e-16
	1.358514295922426e-14
	3.181279728416270e-12
	6.514644565853068e-14
	6.196010234604278e-01

 32	3.200000000000001e-01
	-3.191678281082815e-15
	-5.297876130731306e-22
	-1.539982417539037e-16
	2.202626346147884e-14
	5.057854524649722e-12
	1.056251609370844e-13
	6.196010234604321e-01

 33	3.300000000000001e-01
	-3.171754682108374e-15
	-6.777346329314773e-22
	-1.921157179282564e-16
	3.543739306827622e-14
	8.032269478787002e-12
	1.699371713756554e-13
	6.196010234604383e-01

 34	3.400000000000001e-01
	-3.149429543765483e-15
	-8.662004429025718e-22
	-2.405115177218913e-16
	5.672906521106470e-14
	1.274973658777449e-11
	2.720397394462969e-13
	6.196010234604479e-01

 35	3.500000000000001e-01
	-3.123961574774122e-15
	-1.106318030636452e-21
	-3.021807618962824e-16
	9.052150015813991e-14
	2.023379901516677e-11
	4.340888493501300e-13
	6.196010234604635e-01

 36	3.600000000000002e-01
	-3.094436719181438e-15
	-1.412126871763036e-21
	-3.808023615075938e-16
	1.441472710302973e-13
	3.210835732471371e-11
	6.912474993112965e-13
	6.196010234604883e-01

 37	3.700000000000002e-01
	-3.059773762053794e-15
	-1.801073063056587e-21
	-4.807085348221810e-16
	2.292423824818732e-13
	5.094999213444957e-11
	1.099315814925791e-12
	6.196010234605276e-01

 38	3.800000000000002e-01
	-3.018759235778916e-15
	-2.294411715274152e-21
	-6.067360375983201e-16
	3.642709944185168e-13
	8.084700046042632e-11
	1.746838724260005e-12
	6.196010234605897e-01

 39	3.900000000000002e-01
	-2.970124479070946e-15
	-2.917390168618740e-21
	-7.639091943999005e-16
	5.785314882300772e-13
	1.282864068448420e-10
	2.774318154752773e-12
	6.196010234606880e-01

 40	4.000000000000002e-01
	-2.912676841306028e-15
	-3.699056601862616e-21
	-9.569091648793119e-16
	9.185127517402598e-13
	2.035613314132087e-10
	4.404697690174656e-12
	6.196010234608446e-01

 41	4.100000000000002e-01
	-2.845489590938103e-15
	-4.671526243708191e-21
	-1.189314480094284e-15
	1.457978916875053e-12
	3.230038837191776e-10
	6.991732203375317e-12
	6.196010234610926e-01

 42	4.200000000000002e-01
	-2.768136822848812e-15
	-5.868574251455605e-21
	-1.462671143095625e-15
	2.313968290181233e-12
	5.125275630783351e-10
	1.109673232949965e-11
	6.196010234614859e-01

 43	4.300000000000002e-01
	-2.680930448544770e-15
	-7.323537751534075e-21
	-1.775565968508795e-15
	3.672171702158068e-12
	8.132464939583917e-10
	1.761032194828490e-11
	6.196010234621102e-01

 44	4.400000000000002e-01
	-2.585086367276056e-15
	-9.066703067841729e-21
	-2.122992920510894e-15
	5.827181114687689e-12
	1.290387463294354e-09
	2.794559230236922e-11
	6.196010234631014e-01

 45	4.500000000000002e-01
	-2.482737676993839e-15
	-1.112258000125981e-20
	-2.496333707358923e-15
	9.246301837738467e-12
	2.047420171124919e-09
	4.434447375271687e-11
	6.196010234646733e-01

 46	4.600000000000002e-01
	-2.376745101379974e-15
	-1.350762092652014e-20
	-2.884140559781157e-15
	1.467067400427990e-11
	3.248450687577449e-09
	7.036357519203077e-11
	6.196010234671679e-01

 47	4.700000000000003e-01
	-2.270326712480309e-15
	-1.622891954210907e-20
	-3.273622521500490e-15
	2.327539203242319e-11
	5.153684178057829e-09
	1.116443369040752e-10
	6.196010234711253e-01

 48	4.800000000000003e-01
	-2.166605292942305e-15
	-1.928418901221972e-20
	-3.652438577792087e-15
	3.692272958886986e-11
	8.175518556274110e-09
	1.771331641426120e-10
	6.196010234774035e-01

 49	4.900000000000003e-01
	-2.068205092148531e-15
	-2.266296110517178e-20
	-4.010276748001467e-15
	5.856182001578861e-11
	1.296710585966205e-08
	2.810126605545141e-10
	6.196010234873623e-01

 50	5.000000000000002e-01
	-1.977000119341586e-15
	-2.634863156057787e-20
	-4.339822750914810e-15
	9.285751957190564e-11
	2.056175811243011e-08
	4.457538875420209e-10
	6.196010235031554e-01

 51	5.100000000000002e-01
	-1.894046699901129e-15
	-3.032083312422043e-20
	-4.636999036161316e-15
	1.471749275757674e-10
	3.259134418516461e-08
	7.069290599639287e-10
	6.196010235281939e-01

 52	5.200000000000002e-01
	-1.819667385673096e-15
	-3.455766759272616e-20
	-4.900612126026232e-15
	2.331083973244960e-10
	5.162581989837981e-08
	1.120771682779747e-09
	6.196010235678687e-01

 53	5.300000000000002e-01
	-1.753620659158686e-15
	-3.903749751752639e-20
	-5.131670593434967e-15
	3.688257046351126e-10
	8.169454159037220e-08
	1.775981703881922e-09
	6.196010236306854e-01

 54	5.400000000000003e-01
	-1.695292696965050e-15
	-4.374018721217525e-20
	-5.332624722506379e-15
	5.825872924735623e-10
	1.290704348366123e-07
	2.811982915714325e-09
	6.196010237300122e-01

 55	5.500000000000003e-01
	-1.643868237791502e-15
	-4.864782425553962e-20
	-5.506694723165383e-15
	9.178493491857125e-10
	2.034094221326013e-07
	4.446723463411750e-09
	6.196010238867510e-01

 56	5.600000000000003e-01
	-1.598461006355272e-15
	-5.374502707159334e-20
	-5.657361651148753e-15
	1.440237791570848e-09
	3.193080753976059e-07
	7.017943528349443e-09
	6.196010241333011e-01

 57	5.700000000000003e-01
	-1.558201256343457e-15
	-5.901896349746058e-20
	-5.788028323145863e-15
	2.246104624602274e-09
	4.981976250448238e-07
	1.104188358047588e-08
	6.196010245191963e-01

 58	5.800000000000003e-01
	-1.522287058022748e-15
	-6.445919206841196e-20
	-5.901822687279737e-15
	3.470878640864652e-09
	7.700917114556736e-07
	1.729087258903079e-08
	6.196010251185875e-01

 59	5.900000000000003e-01
	-1.490008892525639e-15
	-7.005741156021999e-20
	-6.001505305209721e-15
	5.292600044952324e-09
	1.173884801542771e-06
	2.688269426067155e-08
	6.196010260388721e-01

 60	6.000000000000003e-01
	-1.460756599946120e-15
	-7.580717724739152e-20
	-6.089445141915076e-15
	7.922614442740174e-09
	1.753779419393271e-06
	4.135599811954693e-08
	6.196010274280598e-01

 61	6.100000000000003e-01
	-1.434015822955642e-15
	-8.170361992171115e-20
	-6.167635640625083e-15
	1.157510237817668e-08
	2.549184226369536e-06
	6.267895399496583e-08
	6.196010294758054e-01

 62	6.200000000000003e-01
	-1.409358981416733e-15
	-8.774318738653087e-20
	-6.237731467562243e-15
	1.641617512668348e-08
	3.578649320818173e-06
	9.312391927086666e-08
	6.196010324016347e-01

 63	6.300000000000003e-01
	-1.386434031392466e-15
	-9.392341729440605e-20
	-6.301093346265746e-15
	2.251185462776879e-08
	4.825788919782256e-06
	1.349815646844544e-07
	6.196010364277161e-01

 64	6.400000000000003e-01
	-1.364952943401880e-15
	-1.002427435524744e-19
	-6.358833565629310e-15
	2.980572151666450e-08
	6.239336629946256e-06
	1.901962214280092e-07
	6.196010417438582e-01

 65	6.500000000000004e-01
	-1.344680941321653e-15
	-1.067003348106505e-19
	-6.411858220901339e-15
	3.814159423596663e-08
	7.750596649132390e-06
	2.600929298550565e-07
	6.196010484810426e-01

 66	6.600000000000004e-01
	-1.325426978517060e-15
	-1.132959617505493e-19
	-6.460904428022800e-15
	4.731506234869302e-08
	9.296474695937413e-06
	3.453206956594548e-07
	6.196010567055521e-01

 67	6.700000000000004e-01
	-1.307035593572712e-15
	-1.200298892523682e-19
	-6.506572031306346e-15
	5.712337845405974e-08
	1.083365533518337e-05
	4.459902919130847e-07
	6.196010664318315e-01

 68	6.800000000000004e-01
	-1.289380105112546e-15
	-1.269027895112897e-19
	-6.549350016490441e-15
	6.739519420565039e-08
	1.234020741754004e-05
	5.618890478341786e-07
	6.196010776428938e-01

 69	6.900000000000004e-01
	-1.272357016284701e-15
	-1.339156724812946e-19
	-6.589638170960888e-15
	7.799975542622574e-08
	1.380991202439937e-05
	6.926694911391858e-07
	6.196010903083805e-01

 70	7.000000000000004e-01
	-1.255881465844895e-15
	-1.410698304643295e-19
	-6.627764651333922e-15
	8.884370185746454e-08
	1.524537476299281e-05
	8.379713059510862e-07
	6.196011043963106e-01

 71	7.100000000000004e-01
	-1.239883559657835e-15
	-1.483667941378366e-19
	-6.664000121505506e-15
	9.986319353594956e-08
	1.665287353454267e-05
	9.974819357923402e-07
	6.196011198789737e-01

 72	7.200000000000004e-01
	-1.224305428729146e-15
	-1.558082977697280e-19
	-6.698569069902162e-15
	1.110157833530776e-07
	1.803936650557664e-05
	1.170956724846105e-06
	6.196011367349309e-01

 73	7.300000000000004e-01
	-1.209098878727915e-15
	-1.633962517786823e-19
	-6.731658836845300e-15
	1.222737595772977e-07
	1.941109105989668e-05
	1.358217686431924e-06
	6.196011549489476e-01

 74	7.400000000000004e-01
	-1.194223516430708e-15
	-1.711327211490163e-19
	-6.763426800315523e-15
	1.336192515551884e-07
	2.077309117840186e-05
	1.559143388666927e-06
	6.196011745110556e-01

 75	7.500000000000004e-01
	-1.179645258054770e-15
	-1.790199085032215e-19
	-6.794006090495334e-15
	1.450408385585428e-07
	2.212920204473064e-05
	1.773656701957488e-06
	6.196011954154012e-01

 76	7.600000000000005e-01
	-1.165335141881524e-15
	-1.870601408767171e-19
	-6.823510134496103e-15
	1.565312802191031e-07
	2.348221902292799e-05
	2.001713475265284e-06
	6.196012176591684e-01

 77	7.700000000000005e-01
	-1.151268382513611e-15
	-1.952558594351251e-19
	-6.852036273905751e-15
	1.680860291928864e-07
	2.483411329876381e-05
	2.243293210747891e-06
	6.196012412416922e-01

 78	7.800000000000005e-01
	-1.137423616582202e-15
	-2.036096115318526e-19
	-6.879668648961639e-15
	1.797022690709591e-07
	2.618623373544033e-05
	2.498391855507229e-06
	6.196012661637700e-01

 79	7.900000000000005e-01
	-1.123782299948547e-15
	-2.121240446297214e-19
	-6.906480503273744e-15
	1.913782971711311e-07
	2.753947398269001e-05
	2.767016445759824e-06
	6.196012924271526e-01

 80	8.000000000000005e-01
	-1.110328224722313e-15
	-2.208019017104394e-19
	-6.932536030852835e-15
	2.031131307291582e-07
	2.889440207841445e-05
	3.049181232716025e-06
	6.196013200341738e-01

 81	8.100000000000005e-01
	-1.097047131058776e-15
	-2.296460178750409e-19
	-6.957891861477019e-15
	2.149062565969229e-07
	3.025135702886504e-05
	3.344904934269678e-06
	6.196013489874886e-01

 82	8.200000000000005e-01
	-1.083926393985837e-15
	-2.386593179013168e-19
	-6.982598259998884e-15
	2.267574726526435e-07
	3.161051889199874e-05
	3.654208814448457e-06
	6.196013792898944e-01

 83	8.300000000000005e-01
	-1.070954769703540e-15
	-2.478448145736798e-19
	-7.006700099044293e-15
	2.386667876371643e-07
	3.297195868533724e-05
	3.977115357910604e-06
	6.196014109442033e-01

 84	8.400000000000005e-01
	-1.058122189109049e-15
	-2.572056076400448e-19
	-7.030237651830516e-15
	2.506343581413090e-07
	3.433567343531181e-05
	4.313647365278565e-06
	6.196014439531595e-01

 85	8.500000000000005e-01
	-1.045419588906672e-15
	-2.667448832810937e-19
	-7.053247241834018e-15
	2.626604491926753e-07
	3.570161053170315e-05
	4.663827342478815e-06
	6.196014783193862e-01

 86	8.600000000000005e-01
	-1.032838772711697e-15
	-2.764659140014991e-19
	-7.075761778196433e-15
	2.747454098286864e-07
	3.706968451120977e-05
	5.027677093549525e-06
	6.196015140453470e-01

 87	8.700000000000006e-01
	-1.020372296165529e-15
	-2.863720588718602e-19
	-7.097811199612155e-15
	2.868896581893110e-07
	3.843978854893728e-05
	5.405217453220952e-06
	6.196015511333287e-01

 88	8.800000000000006e-01
	-1.008013371341451e-15
	-2.964667640650307e-19
	-7.119422844629883e-15
	2.990936726634314e-07
	3.981180228721242e-05
	5.796468114961950e-06
	6.196015895854243e-01

 89	8.900000000000006e-01
	-9.957557867102680e-16
	-3.067535636425305e-19
	-7.140621762532269e-15
	3.113579868929782e-07
	4.118559714960788e-05
	6.201447523945682e-06
	6.196016294035283e-01

 90	9.000000000000006e-01
	-9.835938397113976e-16
	-3.172360805559508e-19
	-7.161430976007169e-15
	3.236831872446767e-07
	4.256103993959974e-05
	6.620172814027928e-06
	6.196016705893346e-01

 91	9.100000000000006e-01
	-9.715222795842640e-16
	-3.279180278358827e-19
	-7.181871704511033e-15
	3.360699118701299e-07
	4.393799527549885e-05
	7.052659774515051e-06
	6.196017131443398e-01

 92	9.200000000000006e-01
	-9.595362585933487e-16
	-3.388032099463918e-19
	-7.201963555410608e-15
	3.485188507988044e-07
	4.531632723945841e-05
	7.498922837093316e-06
	6.196017570698420e-01

 93	9.300000000000006e-01
	-9.476312901566399e-16
	-3.498955242882046e-19
	-7.221724688563379e-15
	3.610307467137286e-07
	4.669590049767032e-05
	7.958975076428795e-06
	6.196018023669480e-01

 94	9.400000000000006e-01
	-9.358032126835093e-16
	-3.611989628369055e-19
	-7.241171958875543e-15
	3.736063961898705e-07
	4.807658106579150e-05
	8.432828220076880e-06
	6.196018490365791e-01

 95	9.500000000000006e-01
	-9.240481581617356e-16
	-3.727176139060158e-19
	-7.260321040491944e-15
	3.862466512576930e-07
	4.945823683685362e-05
	8.920492664779203e-06
	6.196018970794726e-01

 96	9.600000000000006e-01
	-9.123625247183175e-16
	-3.844556640265330e-19
	-7.279186535572925e-15
	3.989524212067560e-07
	5.084073795037943e-05
	9.421977497191583e-06
	6.196019464961922e-01

 97	9.700000000000006e-01
	-9.007429525250917e-16
	-3.964173999368534e-19
	-7.297782070059489e-15
	4.117246745775858e-07
	5.222395705520092e-05
	9.937290517736483e-06
	6.196019972871329e-01

 98	9.800000000000006e-01
	-8.891863025364762e-16
	-4.086072106785071e-19
	-7.316120378387695e-15
	4.245644413112410e-07
	5.360776950119548e-05
	1.046643826670426e-05
	6.196020494525262e-01

 99	9.900000000000007e-01
	-8.776896376395226e-16
	-4.210295897940471e-19
	-7.334213378762002e-15
	4.374728150395858e-07
	5.499205348310716e-05
	1.100942605201590e-05
	6.196021029924490e-01

 100	1.000000000000001e+00
	-8.662502058704427e-16
	-4.336891376248048e-19
	-7.352072240316530e-15
	4.504509555081183e-07
	5.637669015194852e-05
	1.156625797825192e-05
	6.196021579068293e-01

 101	1.010000000000001e+00
	-8.548654254114758e-16
	-4.465905637068381e-19
	-7.369707443267143e-15
