Title: ** sch_path: /home/andylithia/openmpw/project-yatsuhashi-chip1/xschem/gmid_test/nmos_test.sch
Date: Sun Jul 17 22:51:45  2022
Plotname: DC transfer characteristic
Flags: real
No. Variables: 8
No. Points: 181
Variables:
	0	v(v-sweep)	voltage
	1	@m.xm1.msky130_fd_pr__nfet_01v8[cgb]	capacitance
	2	@m.xm1.msky130_fd_pr__nfet_01v8[cgd]	capacitance
	3	@m.xm1.msky130_fd_pr__nfet_01v8[cgs]	capacitance
	4	@m.xm1.msky130_fd_pr__nfet_01v8[gds]	admittance
	5	@m.xm1.msky130_fd_pr__nfet_01v8[gm]	admittance
	6	i(@m.xm1.msky130_fd_pr__nfet_01v8[id])	current
	7	v(@m.xm1.msky130_fd_pr__nfet_01v8[vth])	voltage
Values:
 0	0.000000000000000e+00
	-5.154505711795460e-15
	5.392783390919995e-19
	-3.996201887510072e-15
	3.311011499269163e-08
	1.023964910059853e-06
	9.278106924754422e-08
	4.021781911074208e-01

 1	1.000000000000000e-02
	-5.103221464119874e-15
	5.376162342528485e-19
	-4.103305952828608e-15
	3.694559731468349e-08
	1.141760171599431e-06
	1.035991835636739e-07
	4.021781921826651e-01

 2	2.000000000000000e-02
	-5.052036223804009e-15
	5.351100038500514e-19
	-4.211860555770045e-15
	4.121679696957410e-08
	1.272848557206747e-06
	1.156605558527432e-07
	4.021781933814780e-01

 3	3.000000000000000e-02
	-5.000967726059369e-15
	5.317196583595680e-19
	-4.321820267048002e-15
	4.597172505843317e-08
	1.418694735345222e-06
	1.291053156946449e-07
	4.021781947177927e-01

 4	4.000000000000000e-02
	-4.950034390197012e-15
	5.274047932867590e-19
	-4.433136908635570e-15
	5.126343010202330e-08
	1.580920876832024e-06
	1.440890135367216e-07
	4.021781962070669e-01

 5	5.000000000000000e-02
	-4.899255270242005e-15
	5.221246378698843e-19
	-4.545759616271755e-15
	5.715048450440341e-08
	1.761323432010808e-06
	1.607842781251359e-07
	4.021781978664612e-01

 6	6.000000000000000e-02
	-4.848650002797644e-15
	5.158381039526965e-19
	-4.659634912467085e-15
	6.369751115016441e-08
	1.961891770619955e-06
	1.793826508347683e-07
	4.021781997150096e-01

 7	7.000000000000001e-02
	-4.798238752338666e-15
	5.085038346899395e-19
	-4.774706789892779e-15
	7.097575234845604e-08
	2.184828920253194e-06
	2.000966166757792e-07
	4.021782017738376e-01

 8	8.000000000000000e-02
	-4.748042154133092e-15
	5.000802527368881e-19
	-4.890916804974360e-15
	7.906368327702677e-08
	2.432574674768124e-06
	2.231618542869033e-07
	4.021782040663650e-01

 9	9.000000000000000e-02
	-4.698081255012082e-15
	4.905256075688040e-19
	-5.008204181442962e-15
	8.804767198085795e-08
	2.707831385064776e-06
	2.488397301389233e-07
	4.021782066185751e-01

 10	9.999999999999999e-02
	-4.648377452225575e-15
	4.797980215677718e-19
	-5.126505923534197e-15
	9.802268783740390e-08
	3.013592792056742e-06
	2.774200655275317e-07
	4.021782094592706e-01

 11	1.100000000000000e-01
	-4.598952430638315e-15
	4.678555345145117e-19
	-5.245756938457542e-15
	1.090930602074569e-07
	3.353176316103377e-06
	3.092242087982973e-07
	4.021782126203969e-01

 12	1.200000000000000e-01
	-4.549828098536116e-15
	4.546561461198772e-19
	-5.365890167698050e-15
	1.213732887416973e-07
	3.730259279390636e-06
	3.446084496934948e-07
	4.021782161373645e-01

 13	1.300000000000000e-01
	-4.501026522325685e-15
	4.401578562354961e-19
	-5.486836726648809e-15
	1.349889065012510e-07
	4.148919608378964e-06
	3.839678178203774e-07
	4.021782200494386e-01

 14	1.400000000000000e-01
	-4.452569860422451e-15
	4.243187023868235e-19
	-5.608526052015802e-15
	1.500773966704825e-07
	4.613681643042059e-06
	4.277403131017415e-07
	4.021782244001554e-01

 15	1.500000000000000e-01
	-4.404480296630355e-15
	4.070967942806834e-19
	-5.730886056380248e-15
	1.667891631854048e-07
	5.129567768556717e-06
	4.764116227726505e-07
	4.021782292377923e-01

 16	1.600000000000000e-01
	-4.356779973324271e-15
	3.884503449496191e-19
	-5.853843289252591e-15
	1.852885550663070e-07
	5.702156683487735e-06
	5.305203871270257e-07
	4.021782346158884e-01

 17	1.700000000000000e-01
	-4.309490924750258e-15
	3.683376982095450e-19
	-5.977323103905108e-15
	2.057549436234253e-07
	6.337649226077419e-06
	5.906640848873259e-07
	4.021782405938317e-01

 18	1.800000000000000e-01
	-4.262635010761083e-15
	3.467173521218839e-19
	-6.101249829227861e-15
	2.283838509958827e-07
	7.042942796247305e-06
	6.575056188586180e-07
	4.021782472375163e-01

 19	1.900000000000000e-01
	-4.216233851303864e-15
	3.235479781703579e-19
	-6.225546945816475e-15
	2.533881276838548e-07
	7.825715533956312e-06
	7.317806935126799e-07
	4.021782546200678e-01

 20	2.000000000000000e-01
	-4.170308761973743e-15
	2.987884358832059e-19
	-6.350137265468536e-15
	2.809991758405808e-07
	8.694521542430955e-06
	8.143060883880741e-07
	4.021782628226774e-01

 21	2.100000000000000e-01
	-4.124880690942054e-15
	2.723977826529601e-19
	-6.474943113241781e-15
	3.114682141053146e-07
	9.658898574303545e-06
	9.059889447226232e-07
	4.021782719355180e-01

 22	2.200000000000001e-01
	-4.079970157559347e-15
	2.443352785309380e-19
	-6.599886511208385e-15
	3.450675786828535e-07
	1.072948972545645e-05
	1.007837197549429e-06
	4.021782820587779e-01

 23	2.300000000000001e-01
	-4.035597192923467e-15
	2.145603857994519e-19
	-6.724889363028037e-15
	3.820920542154183e-07
	1.191818079957528e-05
	1.120971301531798e-06
	4.021782933038370e-01

 24	2.400000000000001e-01
	-3.991781282689752e-15
	1.830327631499362e-19
	-6.849873638458971e-15
	4.228602267567768e-07
	1.323825510863748e-05
	1.246637415965416e-06
	4.021783057945668e-01

 25	2.500000000000001e-01
	-3.948541312385905e-15
	1.497122543254451e-19
	-6.974761556927090e-15
	4.677158498573291e-07
	1.470456755152412e-05
	1.386222232430682e-06
	4.021783196688138e-01

 26	2.600000000000001e-01
	-3.905895515476825e-15
	1.145588711118775e-19
	-7.099475769283605e-15
	5.170292134183544e-07
	1.633373985340687e-05
	1.541269647229846e-06
	4.021783350800515e-01

 27	2.700000000000001e-01
	-3.863861424405784e-15
	7.753277059261234e-20
	-7.223939536897363e-15
	5.711985035919523e-07
	1.814437883911822e-05
	1.713499499559283e-06
	4.021783521992442e-01

 28	2.800000000000001e-01
	-3.822455824818064e-15
	3.859422660960957e-20
	-7.348076907250322e-15
	6.306511406138587e-07
	2.015731953879780e-05
	1.904828614772802e-06
	4.021783712169430e-01

 29	2.900000000000001e-01
	-3.781694713150744e-15
	-2.296404598657641e-21
	-7.471812885234489e-15
	6.958450800867189e-07
	2.239589476601810e-05
	2.117394409344941e-06
	4.021783923456312e-01

 30	3.000000000000001e-01
	-3.741593257749356e-15
	-4.517872458298342e-20
	-7.595073599383208e-15
	7.672700619132042e-07
	2.488623254767147e-05
	2.353581329314315e-06
	4.021784158223466e-01

 31	3.100000000000001e-01
	-3.702165763647678e-15
	-9.009233866748285e-20
	-7.717786462310386e-15
	8.454487898475044e-07
	2.765758239989043e-05
	2.616050405941078e-06
	4.021784419116327e-01

 32	3.200000000000001e-01
	-3.663425641121974e-15
	-1.370769076813708e-19
	-7.839880324677832e-15
	9.309380235315210e-07
	3.074267091293104e-05
	2.907772219700266e-06
	4.021784709088112e-01

 33	3.300000000000001e-01
	-3.625385378105406e-15
	-1.861722053635351e-19
	-7.961285622061135e-15
	1.024329563950904e-06
	3.417808640772697e-05
	3.232063564971806e-06
	4.021785031436223e-01

 34	3.400000000000001e-01
	-3.588056516522736e-15
	-2.374181813426855e-19
	-8.081934514138815e-15
	1.126251112534334e-06
	3.800469153611637e-05
	3.592628101082386e-06
	4.021785389842778e-01

 35	3.500000000000001e-01
	-3.551449632579517e-15
	-2.908550295766184e-19
	-8.201761015689034e-15
	1.237366983676553e-06
	4.226806159618759e-05
	3.993601258700026e-06
	4.021785788419194e-01

 36	3.600000000000002e-01
	-3.515574321014595e-15
	-3.465232621152573e-19
	-8.320701118937940e-15
	1.358378650340467e-06
	4.701894500830351e-05
	4.439599641791402e-06
	4.021786231755393e-01

 37	3.700000000000002e-01
	-3.480439183299917e-15
	-4.044637880384097e-19
	-8.438692906868173e-15
	1.490025102638691e-06
	5.231374083678451e-05
	4.935775122126271e-06
	4.021786724973453e-01

 38	3.800000000000002e-01
	-3.446051819747282e-15
	-4.647179974033112e-19
	-8.555676657160038e-15
	1.633082999954418e-06
	5.821498644568875e-05
	5.487873763278840e-06
	4.021787273786420e-01

 39	3.900000000000002e-01
	-3.412418825458499e-15
	-5.273278500308629e-19
	-8.671594936504929e-15
	1.788366598282973e-06
	6.479184635440253e-05
	6.102299631925726e-06
	4.021787884561667e-01

 40	4.000000000000002e-01
	-3.379545790033437e-15
	-5.923359689489996e-19
	-8.786392685095487e-15
	1.956727436089802e-06
	7.212059113278517e-05
	6.786183453796144e-06
	4.021788564389115e-01

 41	4.100000000000002e-01
	-3.347437300929591e-15
	-6.597857383073374e-19
	-8.900017291163223e-15
	2.139053764117558e-06
	8.028505278575546e-05
	7.547455948055709e-06
	4.021789321154312e-01

 42	4.200000000000002e-01
	-3.316096950347769e-15
	-7.297214055773370e-19
	-9.012418655498958e-15
	2.336269707245822e-06
	8.937704058124081e-05
	8.394925525831272e-06
	4.021790163615671e-01

 43	4.300000000000002e-01
	-3.285527345500573e-15
	-8.021881878508884e-19
	-9.123549245954472e-15
	2.549334149706791e-06
	9.949669875176562e-05
	9.338359865321220e-06
	4.021791101485599e-01

 44	4.400000000000002e-01
	-3.255730122104907e-15
	-8.772323820550362e-19
	-9.233364141984298e-15
	2.779239338665585e-06
	1.107527850491519e-04
	1.038857067769912e-05
	4.021792145514798e-01

 45	4.500000000000002e-01
	-3.226705960925497e-15
	-9.549014789060919e-19
	-9.341821069344875e-15
	3.027009205337597e-06
	1.232628468767430e-04
	1.155750075613768e-05
	4.021793307578920e-01

 46	4.600000000000002e-01
	-3.198454607184264e-15
	-1.035244280435473e-18
	-9.448880425123514e-15
	3.293697407364011e-06
	1.371532698086284e-04
	1.285831215742784e-05
	4.021794600766273e-01

 47	4.700000000000003e-01
	-3.170974892640310e-15
	-1.118311020930551e-18
	-9.554505293320643e-15
	3.580385100997506e-06
	1.525591718937556e-04
	1.430547410605064e-05
	4.021796039465262e-01

 48	4.800000000000003e-01
	-3.144264760137081e-15
	-1.204153491145503e-18
	-9.658661451256510e-15
	3.888178456635925e-06
	1.696241164123794e-04
	1.591484894011934e-05
	4.021797639449878e-01

 49	4.900000000000003e-01
	-3.118321290406834e-15
	-1.292825165653584e-18
	-9.761317367116599e-15
	4.218205936221248e-06
	1.884996158882888e-04
	1.770377414508472e-05
	4.021799417961330e-01

 50	5.000000000000002e-01
	-3.093140730918203e-15
	-1.384381333227415e-18
	-9.862444188989192e-15
	4.571615355813072e-06
	2.093444013470174e-04
	1.969113825411567e-05
	4.021801393783594e-01

 51	5.100000000000002e-01
	-3.068718526550203e-15
	-1.478879230152419e-18
	-9.962015725782460e-15
	4.949570761044629e-06
	2.323234332194614e-04
	2.189744814503027e-05
	4.021803587310244e-01

 52	5.200000000000002e-01
	-3.045049351875250e-15
	-1.576378176396112e-18
	-1.006000842043765e-14
	5.353249146954918e-06
	2.576066340680841e-04
	2.434488504556052e-05
	4.021806020600279e-01

 53	5.300000000000002e-01
	-3.022127144834550e-15
	-1.676939714577548e-18
	-1.015640131588045e-14
	5.783837056646722e-06
	2.853673285652693e-04
	2.705734638590511e-05
	4.021808717419740e-01

 54	5.400000000000003e-01
	-2.999945141592089e-15
	-1.780627751699937e-18
	-1.025117601417173e-14
	6.242527095126651e-06
	3.157803829299192e-04
	3.006047052499220e-05
	4.021811703266198e-01

 55	5.500000000000003e-01
	-2.978495912357234e-15
	-1.887508703630778e-18
	-1.034431662933451e-14
	6.730514395353964e-06
	3.490200443080487e-04
	3.338164133988789e-05
	4.021815005373360e-01

 56	5.600000000000003e-01
	-2.957771397971393e-15
	-1.997651642334343e-18
	-1.043580973434466e-14
	7.248993072809447e-06
	3.852574902598205e-04
	3.704996972095117e-05
	4.021818652692644e-01

 57	5.700000000000003e-01
	-2.937762947060913e-15
	-2.111128445883485e-18
	-1.052564430277919e-14
	7.799152702695660e-06
	4.246581093869240e-04
	4.109624917167150e-05
	4.021822675848886e-01

 58	5.800000000000003e-01
	-2.918461353565834e-15
	-2.228013951296415e-18
	-1.061381164561820e-14
	8.382174850174089e-06
	4.673785458965739e-04
	4.555288298215889e-05
	4.021827107067932e-01

 59	5.900000000000003e-01
	-2.899856894462928e-15
	-2.348386110267728e-18
	-1.070030534369489e-14
	8.999229678898662e-06
	5.135635531452553e-04
	5.045378083592744e-05
	4.021831980073565e-01

 60	6.000000000000003e-01
	-2.881939367510625e-15
	-2.472326147879734e-18
	-1.078512117628290e-14
	9.651472656672380e-06
	5.633427134346358e-04
	5.583422322324631e-05
	4.021837329952683e-01

 61	6.100000000000003e-01
	-2.864698128853537e-15
	-2.599918724404482e-18
	-1.086825704630208e-14
	1.034004136960646e-05
	6.168270929627137e-04
	6.173069266789405e-05
	4.021843192987206e-01

 62	6.200000000000003e-01
	-2.848122130334635e-15
	-2.731252100324392e-18
	-1.094971290261238e-14
	1.106605244805139e-05
	6.741059112272735e-04
	6.818067151833593e-05
	4.021849606452861e-01

 63	6.300000000000003e-01
	-2.832199956373938e-15
	-2.866418304720977e-18
	-1.102949065985231e-14
	1.183059859925603e-05
	7.352433126757228e-04
	7.522240689341767e-05
	4.021856608385261e-01

 64	6.400000000000003e-01
	-2.816919860283648e-15
	-3.005513307201881e-18
	-1.110759411626252e-14
	1.263474573371687e-05
	8.002753343505833e-04
	8.289464428425717e-05
	4.021864237314760e-01

 65	6.500000000000004e-01
	-2.802269799900554e-15
	-3.148637193557298e-18
	-1.118402886991797e-14
	1.347953016506906e-05
	8.692071661091400e-04
	9.123633226955115e-05
	4.021872531972706e-01

 66	6.600000000000004e-01
	-2.788237472427672e-15
	-3.295894345360147e-18
	-1.125880223377374e-14
	1.436595585772383e-05
	9.420107992222281e-04
	1.002863017671385e-04
	4.021881530972198e-01

 67	6.700000000000004e-01
	-2.774810348387965e-15
	-3.447393623744464e-18
	-1.133192314990944e-14
	1.529499169280818e-05
	1.018623154454989e-03
	1.100829241823893e-04
	4.021891272468020e-01

 68	6.800000000000004e-01
	-2.761975704603671e-15
	-3.603248557624780e-18
	-1.140340210333760e-14
	1.626756872177890e-05
	1.098944771967123e-03
	1.206637536836381e-04
	4.021901793800799e-01

 69	6.900000000000004e-01
	-2.749720656125094e-15
	-3.763577536640612e-18
	-1.147325103572046e-14
	1.728457737869988e-05
	1.182839132625927e-03
	1.320651595959662e-04
	4.021913131131303e-01

 70	7.000000000000004e-01
	-2.738032187042903e-15
	-3.928504009140892e-18
	-1.154148325931872e-14
	1.834686462675859e-05
	1.270132663920559e-03
	1.443219555187088e-04
	4.021925319071561e-01

 71	7.100000000000004e-01
	-2.726897180127546e-15
	-4.098156685548639e-18
	-1.160811337147533e-14
	1.945523102214113e-05
	1.360615464152948e-03
	1.574670322052110e-04
	4.021938390319730e-01

 72	7.200000000000004e-01
	-2.716302445248744e-15
	-4.272669747479329e-18
	-1.167315716991595e-14
	2.061042768864259e-05
	1.454042756724298e-03
	1.715310014681805e-04
	4.021952375306065e-01

 73	7.300000000000004e-01
	-2.706234746536782e-15
	-4.452183063016358e-18
	-1.173663156912845e-14
	2.181315320892197e-05
	1.550137063078465e-03
	1.865418583718942e-04
	4.021967301856955e-01

 74	7.400000000000004e-01
	-2.696680828255803e-15
	-4.636842408580705e-18
	-1.179855451806199e-14
	2.306405045246052e-05
	1.648591059268826e-03
	2.025246687348453e-04
	4.021983194884283e-01

 75	7.500000000000004e-01
	-2.687627439367212e-15
	-4.826799697866784e-18
	-1.185894491936766e-14
	2.436370337525252e-05
	1.749071058306969e-03
	2.195012884958089e-04
	4.022000076106527e-01

 76	7.600000000000005e-01
	-2.679061356768731e-15
	-5.022213218352229e-18
	-1.191782255038228e-14
	2.571263384111667e-05
	1.851221039536600e-03
	2.374901208063661e-04
	4.022017963807280e-01

 77	7.700000000000005e-01
	-2.670969407201901e-15
	-5.223247875922842e-18
	-1.197520798603752e-14
	2.711129852829300e-05
	1.954667128273714e-03
	2.565059158281083e-04
	4.022036872636446e-01

 78	7.800000000000005e-01
	-2.663338487827142e-15
	-5.430075448196330e-18
	-1.203112252385809e-14
	2.856008599674488e-05
	2.059022414727130e-03
	2.765596171670207e-04
	4.022056813457590e-01

 79	7.900000000000005e-01
	-2.656155585472069e-15
	-5.642874847156939e-18
	-1.208558811119293e-14
	3.005931400043934e-05
	2.163891991409153e-03
	2.976582577120789e-04
	4.022077793244697e-01

 80	8.000000000000005e-01
	-2.649407794564036e-15
	-5.861832391757424e-18
	-1.213862727480588e-14
	3.160922713416010e-05
	2.268878083260367e-03
	3.198049064068375e-04
	4.022099815029323e-01

 81	8.100000000000005e-01
	-2.643082333763636e-15
	-6.087142091174836e-18
	-1.219026305293333e-14
	3.320999490560444e-05
	2.373585144662606e-03
	3.429986662204441e-04
	4.022122877898973e-01

 82	8.200000000000005e-01
	-2.637166561320467e-15
	-6.319005939446788e-18
	-1.224051892989883e-14
	3.486171032041739e-05
	2.477624802246237e-03
	3.672347223472984e-04
	4.022146977045026e-01

 83	8.300000000000005e-01
	-2.631647989177097e-15
	-6.557634222246162e-18
	-1.228941877335723e-14
	3.656438906043340e-05
	2.580620531500401e-03
	3.925044384979495e-04
	4.022172103858823e-01

 84	8.400000000000005e-01
	-2.626514295851117e-15
	-6.803245836588411e-18
	-1.233698677422385e-14
	3.831796932405235e-05
	2.682211968044515e-03
	4.187954980888587e-04
	4.022198246072209e-01

 85	8.500000000000005e-01
	-2.621753338128714e-15
	-7.056068624299777e-18
	-1.238324738932780e-14
	4.012231238288414e-05
	2.782058770225713e-03
	4.460920862283604e-04
	4.022225387938660e-01

 86	8.600000000000005e-01
	-2.617353161606432e-15
	-7.316339720106888e-18
	-1.242822528681322e-14
	4.197720389130239e-05
	2.879843967578508e-03
	4.743751076557071e-04
	4.022253510450163e-01

 87	8.700000000000006e-01
	-2.613302010120512e-15
	-7.584305915243257e-18
	-1.247194529429663e-14
	4.388235596622144e-05
	2.975276748687332e-03
	5.036224352351366e-04
	4.022282591584427e-01

 88	8.800000000000006e-01
	-2.609588334105306e-15
	-7.860224037500569e-18
	-1.251443234977529e-14
	4.583741003419138e-05
	3.068094661216450e-03
	5.338091832438284e-04
	4.022312606576791e-01

 89	8.900000000000006e-01
	-2.606200797924361e-15
	-8.144361348688875e-18
	-1.255571145526777e-14
	4.784194042277251e-05
	3.158065215476258e-03
	5.649079995192740e-04
	4.022343528210792e-01

 90	9.000000000000006e-01
	-2.603128286219065e-15
	-8.436995960503185e-18
	-1.259580763315635e-14
	4.989545865398435e-05
	3.244986900154161e-03
	5.968893705375397e-04
	4.022375327121631e-01

 91	9.100000000000006e-01
	-2.600359909320852e-15
	-8.738417269832912e-18
	-1.263474588518961e-14
	5.199741838025639e-05
	3.328689634173421e-03
	6.297219336627713e-04
	4.022407972106720e-01

 92	9.200000000000006e-01
	-2.597885007773647e-15
	-9.048926414588897e-18
	-1.267255115409388e-14
	5.414722088838072e-05
	3.409034691634236e-03
	6.633727911182804e-04
	4.022441430437933e-01

 93	9.300000000000006e-01
	-2.595693156013508e-15
	-9.368836751162096e-18
	-1.270924828773372e-14
	5.634422108497491e-05
	3.485914147182992e-03
	6.978078206557904e-04
	4.022475668170596e-01

 94	9.400000000000006e-01
	-2.593774165252558e-15
	-9.698474354676484e-18
	-1.274486200575380e-14
	5.858773386821441e-05
	3.559249896849056e-03
	7.329919784153031e-04
	4.022510650444608e-01

 95	9.500000000000006e-01
	-2.592118085613779e-15
	-1.003817854323956e-17
	-1.277941686862864e-14
	6.087704078520586e-05
	3.628992314423522e-03
	7.688895900466672e-04
	4.022546341774003e-01

 96	9.600000000000006e-01
	-2.590715207562960e-15
	-1.038830242745098e-17
	-1.281293724904102e-14
	6.321139687229711e-05
	3.695118605988174e-03
	8.054646267794516e-04
	4.022582706321385e-01

 97	9.700000000000006e-01
	-2.589556062682967e-15
	-1.074921348647552e-17
	-1.284544730550599e-14
	6.559003757666490e-05
	3.757630925481560e-03
	8.426809637563991e-04
	4.022619708154917e-01

 98	9.800000000000006e-01
	-2.588631423834751e-15
	-1.112129417205654e-17
	-1.287697095815416e-14
	6.801218566137920e-05
	3.816554312523048e-03
	8.805026185667802e-04
	4.022657311485361e-01

 99	9.900000000000007e-01
	-2.587932304748232e-15
	-1.150494254189258e-17
	-1.290753186658555e-14
	7.047705800238580e-05
	3.871934510448413e-03
	9.188939685113278e-04
	4.022695480882153e-01

 100	1.000000000000001e+00
	-2.587449959084745e-15
	-1.190057292388150e-17
	-1.293715340970401e-14
	7.298387219406333e-05
	3.923835718002458e-03
	9.578199456866206e-04
	4.022734181467401e-01

 101	1.010000000000001e+00
	-2.587175879011490e-15
	-1.230861661279788e-17
	-1.296585866744130e-14
	7.553185288967709e-05
