Title: ** sch_path: /home/andylithia/openmpw/project-yatsuhashi-chip1/xschem/gmid_test/nmos_test.sch
Date: Tue Jul 19 23:15:45  2022
Plotname: DC transfer characteristic
Flags: real
No. Variables: 8
No. Points: 181
Variables:
	0	v(v-sweep)	voltage
	1	@m.xm1.msky130_fd_pr__nfet_01v8[cgb]	capacitance
	2	@m.xm1.msky130_fd_pr__nfet_01v8[cgd]	capacitance
	3	@m.xm1.msky130_fd_pr__nfet_01v8[cgs]	capacitance
	4	@m.xm1.msky130_fd_pr__nfet_01v8[gds]	admittance
	5	@m.xm1.msky130_fd_pr__nfet_01v8[gm]	admittance
	6	i(@m.xm1.msky130_fd_pr__nfet_01v8[id])	current
	7	v(@m.xm1.msky130_fd_pr__nfet_01v8[vth])	voltage
Values:
 0	0.000000000000000e+00
	-1.203905035691031e-14
	-9.162651951930034e-19
	-2.350979382628735e-14
	4.263130591817945e-08
	1.623061234143260e-06
	2.119080758386094e-07
	1.837910336376418e-01

 1	1.000000000000000e-02
	-1.190958371257761e-14
	-9.373964319432155e-19
	-2.381759111048674e-14
	4.587559434048858e-08
	1.751085522697449e-06
	2.287706503181216e-07
	1.837910349067938e-01

 2	2.000000000000000e-02
	-1.178186069124642e-14
	-9.589760154084811e-19
	-2.412479723086831e-14
	4.935368823234429e-08
	1.889287094613553e-06
	2.469636795829895e-07
	1.837910362772800e-01

 3	3.000000000000000e-02
	-1.165590523937805e-14
	-9.810122801414731e-19
	-2.443131042634344e-14
	5.308110153930789e-08
	2.038508860411708e-06
	2.665930906942295e-07
	1.837910377573453e-01

 4	4.000000000000000e-02
	-1.153174046640652e-14
	-1.003513695355089e-18
	-2.473702971880079e-14
	5.707425026083059e-08
	2.199669228364148e-06
	2.877736114427307e-07
	1.837910393559519e-01

 5	5.000000000000000e-02
	-1.140938860385847e-14
	-1.026488867323921e-18
	-2.504185503125945e-14
	6.135049375381466e-08
	2.373769426000910e-06
	3.106295613526452e-07
	1.837910410828369e-01

 6	6.000000000000000e-02
	-1.128887096673814e-14
	-1.049946541856208e-18
	-2.534568730387649e-14
	6.592817704623197e-08
	2.561901540229901e-06
	3.352957194411013e-07
	1.837910429485915e-01

 7	7.000000000000001e-02
	-1.117020791724712e-14
	-1.073895606838466e-18
	-2.564842860753728e-14
	7.082667412058960e-08
	2.765257338336827e-06
	3.619182762285619e-07
	1.837910449647397e-01

 8	8.000000000000000e-02
	-1.105341883089957e-14
	-1.098345094855203e-18
	-2.594998225476654e-14
	7.606643212166935e-08
	2.985137935578115e-06
	3.906558781340665e-07
	1.837910471438333e-01

 9	9.000000000000000e-02
	-1.093852206508712e-14
	-1.123304185885854e-18
	-2.625025290770897e-14
	8.166901643744783e-08
	3.222964378378377e-06
	4.216807730633639e-07
	1.837910494995450e-01

 10	9.999999999999999e-02
	-1.082553493013938e-14
	-1.148782210081121e-18
	-2.654914668293693e-14
	8.765715659642347e-08
	3.480289215219095e-06
	4.551800667034981e-07
	1.837910520467874e-01

 11	1.100000000000000e-01
	-1.071447366291772e-14
	-1.174788650621331e-18
	-2.684657125285808e-14
	9.405479291874422e-08
	3.758809130075713e-06
	4.913570997724643e-07
	1.837910548018261e-01

 12	1.200000000000000e-01
	-1.060535340297256e-14
	-1.201333146658731e-18
	-2.714243594350537e-14
	1.008871238525194e-07
	4.060378715628538e-06
	5.304329572331223e-07
	1.837910577824216e-01

 13	1.300000000000000e-01
	-1.049818817128560e-14
	-1.228425496346616e-18
	-2.743665182850812e-14
	1.081806539205344e-07
	4.387025465335631e-06
	5.726481212626276e-07
	1.837910610079702e-01

 14	1.400000000000000e-01
	-1.039299085161040e-14
	-1.256075659957099e-18
	-2.772913181905483e-14
	1.159632421961936e-07
	4.740966064690781e-06
	6.182642805659938e-07
	1.837910644996709e-01

 15	1.500000000000000e-01
	-1.028977317441704e-14
	-1.284293763090882e-18
	-2.801979074967513e-14
	1.242641512209694e-07
	5.124624062468342e-06
	6.675663094286522e-07
	1.837910682807125e-01

 16	1.600000000000000e-01
	-1.018854570343727e-14
	-1.313090099980438e-18
	-2.830854545968359e-14
	1.331140962688630e-07
	5.540649002333310e-06
	7.208644307095149e-07
	1.837910723764546e-01

 17	1.700000000000000e-01
	-1.008931782480029e-14
	-1.342475136889866e-18
	-2.859531487014133e-14
	1.425452948562853e-07
	5.991937093708589e-06
	7.784965777727618e-07
	1.837910768146717e-01

 18	1.800000000000000e-01
	-9.992097738739515e-15
	-1.372459515614058e-18
	-2.888002005621270e-14
	1.525915163886048e-07
	6.481653498080832e-06
	8.408309711334296e-07
	1.837910816257703e-01

 19	1.900000000000000e-01
	-9.896892453844798e-15
	-1.403054057079256e-18
	-2.916258431480487e-14
	1.632881318268977e-07
	7.013256302793831e-06
	9.082689263332887e-07
	1.837910868430664e-01

 20	2.000000000000000e-01
	-9.803707783825671e-15
	-1.434269765048091e-18
	-2.944293322739950e-14
	1.746721632506612e-07
	7.590522248645502e-06
	9.812479102569034e-07
	1.837910925030768e-01

 21	2.100000000000000e-01
	-9.712548346744889e-15
	-1.466117829931639e-18
	-2.972099471800045e-14
	1.867823331839865e-07
	8.217574270055044e-06
	1.060244863724226e-06
	1.837910986458392e-01

 22	2.200000000000001e-01
	-9.623417566674190e-15
	-1.498609632711402e-18
	-2.999669910613812e-14
	1.996591135441482e-07
	8.898910896991782e-06
	1.145779808737180e-06
	1.837911053152595e-01

 23	2.300000000000001e-01
	-9.536317677717974e-15
	-1.531756748973747e-18
	-3.026997915488815e-14
	2.133447740625560e-07
	9.639437556035924e-06
	1.238419759191775e-06
	1.837911125595071e-01

 24	2.400000000000001e-01
	-9.451249730343717e-15
	-1.565570953059841e-18
	-3.054077011387922e-14
	2.278834300187151e-07
	1.044449979365419e-05
	1.338782954171435e-06
	1.837911204314281e-01

 25	2.500000000000001e-01
	-9.368213599952664e-15
	-1.600064222334315e-18
	-3.080900975728016e-14
	2.433210891180079e-07
	1.131991842778942e-05
	1.447543433084302e-06
	1.837911289890125e-01

 26	2.600000000000001e-01
	-9.287207997618752e-15
	-1.635248741574752e-18
	-3.107463841677258e-14
	2.597056973339066e-07
	1.227202661397409e-05
	1.565435971870765e-06
	1.837911382959007e-01

 27	2.700000000000001e-01
	-9.208230482918321e-15
	-1.671136907485700e-18
	-3.133759900953144e-14
	2.770871835245603e-07
	1.330770878916729e-05
	1.693261399256089e-06
	1.837911484219415e-01

 28	2.800000000000001e-01
	-9.131277478768568e-15
	-1.707741333340597e-18
	-3.159783706125160e-14
	2.955175026225750e-07
	1.443444143019512e-05
	1.831892311525265e-06
	1.837911594437790e-01

 29	2.900000000000001e-01
	-9.056344288189156e-15
	-1.745074853753459e-18
	-3.185530072427008e-14
	3.150506771852598e-07
	1.566033553386860e-05
	1.982279203518150e-06
	1.837911714455285e-01

 30	3.000000000000001e-01
	-8.983425112896426e-15
	-1.783150529585229e-18
	-3.210994079085246e-14
	3.357428370806748e-07
	1.699418069243588e-05
	2.145457032448893e-06
	1.837911845194815e-01

 31	3.100000000000001e-01
	-8.912513073637457e-15
	-1.821981652986677e-18
	-3.236171070172103e-14
	3.576522570724724e-07
	1.844549060087788e-05
	2.322552229705359e-06
	1.837911987668762e-01

 32	3.200000000000001e-01
	-8.843600232167796e-15
	-1.861581752581893e-18
	-3.261056654991707e-14
	3.808393920538572e-07
	2.002454979164102e-05
	2.514790173945923e-06
	1.837912142987522e-01

 33	3.300000000000001e-01
	-8.776677614774393e-15
	-1.901964598795898e-18
	-3.285646708010160e-14
	4.053669096681049e-07
	2.174246134772846e-05
	2.723503136545087e-06
	1.837912312368478e-01

 34	3.400000000000001e-01
	-8.711735237243112e-15
	-1.943144209329383e-18
	-3.309937368340980e-14
	4.312997200400177e-07
	2.361119529670446e-05
	2.950138707706485e-06
	1.837912497145889e-01

 35	3.500000000000001e-01
	-8.648762131169553e-15
	-1.985134854784624e-18
	-3.333925038798410e-14
	4.587050023295407e-07
	2.564363733629157e-05
	3.196268708328535e-06
	1.837912698781545e-01

 36	3.600000000000002e-01
	-8.587746371509373e-15
	-2.027951064446226e-18
	-3.357606384532266e-14
	4.876522278058331e-07
	2.785363748710052e-05
	3.463598588938830e-06
	1.837912918876048e-01

 37	3.700000000000002e-01
	-8.528675105265417e-15
	-2.071607632220067e-18
	-3.380978331258553e-14
	5.182131791272519e-07
	3.025605820998833e-05
	3.753977312676341e-06
	1.837913159181176e-01

 38	3.800000000000002e-01
	-8.471534581207392e-15
	-2.116119622735073e-18
	-3.404038063101232e-14
	5.504619655004819e-07
	3.286682146509994e-05
	4.069407714372351e-06
	1.837913421612930e-01

 39	3.900000000000002e-01
	-8.416310180520663e-15
	-2.161502377610985e-18
	-3.426783020060944e-14
	5.844750333805531e-07
	3.570295412739804e-05
	4.412057322236722e-06
	1.837913708265597e-01

 40	4.000000000000002e-01
	-8.362986448281399e-15
	-2.207771521896760e-18
	-3.449210895127270e-14
	6.203311723627516e-07
	3.878263111020528e-05
	4.784269622483970e-06
	1.837914021426667e-01

 41	4.100000000000002e-01
	-8.311547125656168e-15
	-2.254942970683825e-18
	-3.471319631051598e-14
	6.581115159083730e-07
	4.212521548486566e-05
	5.188575740426701e-06
	1.837914363592591e-01

 42	4.200000000000002e-01
	-8.261975182725182e-15
	-2.303032935897936e-18
	-3.493107416798115e-14
	6.978995365384248e-07
	4.575129482214330e-05
	5.627706504125391e-06
	1.837914737485789e-01

 43	4.300000000000002e-01
	-8.214252851830473e-15
	-2.352057933274970e-18
	-3.514572683690877e-14
	7.397810351241901e-07
	4.968271292065664e-05
	6.104604848632504e-06
	1.837915146072137e-01

 44	4.400000000000002e-01
	-8.168361661352101e-15
	-2.402034789524115e-18
	-3.535714101275075e-14
	7.838441238999922e-07
	5.394259603082826e-05
	6.622438510225039e-06
	1.837915592579760e-01

 45	4.500000000000002e-01
	-8.124282469817648e-15
	-2.452980649684437e-18
	-3.556530572910913e-14
	8.301792028240482e-07
	5.855537263112775e-05
	7.184612950839044e-06
	1.837916080518462e-01

 46	4.600000000000002e-01
	-8.081995500252990e-15
	-2.504912984678295e-18
	-3.577021231118654e-14
	8.788789289161954e-07
	6.354678576840051e-05
	7.794784443247328e-06
	1.837916613700084e-01

 47	4.700000000000003e-01
	-8.041480374684994e-15
	-2.557849599067647e-18
	-3.597185432693372e-14
	9.300381782091558e-07
	6.894389693768392e-05
	8.456873237445656e-06
	1.837917196259631e-01

 48	4.800000000000003e-01
	-8.002716148709861e-15
	-2.611808639017965e-18
	-3.617022753607982e-14
	9.837539999618484e-07
	7.477508045099671e-05
	9.175076718320799e-06
	1.837917832677082e-01

 49	4.900000000000003e-01
	-7.965681346043963e-15
	-2.666808600474920e-18
	-3.636532983723037e-14
	1.040125562800906e-06
	8.107000723118082e-05
	9.953882454086908e-06
	1.837918527799702e-01

 50	5.000000000000002e-01
	-7.930353992977690e-15
	-2.722868337559122e-18
	-3.655716121321553e-14
	1.099254092479547e-06
	8.785961696798306e-05
	1.079808102432305e-05
	1.837919286864961e-01

 51	5.100000000000002e-01
	-7.896711652655615e-15
	-2.780007071185271e-18
	-3.674572367487059e-14
	1.161242800972986e-06
	9.517607759129188e-05
	1.171277850589048e-05
	1.837920115523561e-01

 52	5.200000000000002e-01
	-7.864731459110942e-15
	-2.838244397910398e-18
	-3.693102120342638e-14
	1.226196806666117e-06
	1.030527310527069e-04
	1.270340848471611e-05
	1.837921019862643e-01

 53	5.300000000000002e-01
	-7.834390150985107e-15
	-2.897600299018207e-18
	-3.711305969168455e-14
	1.294223045433816e-06
	1.115240244633804e-04
	1.377574345160738e-05
	1.837922006429032e-01

 54	5.400000000000003e-01
	-7.805664104867551e-15
	-2.958095149845085e-18
	-3.729184688414980e-14
	1.365430172467178e-06
	1.206254257150013e-04
	1.493590543112111e-05
	1.837923082251851e-01

 55	5.500000000000003e-01
	-7.778529368194655e-15
	-3.019749729353953e-18
	-3.746739231628528e-14
	1.439928454759806e-06
	1.303933228133086e-04
	1.619037568426770e-05
	1.837924254864788e-01

 56	5.600000000000003e-01
	-7.752961691650461e-15
	-3.082585229962896e-18
	-3.763970725305444e-14
	1.517829654239194e-06
	1.408649062808819e-04
	1.754600331875314e-05
	1.837925532327250e-01

 57	5.700000000000003e-01
	-7.728936561016145e-15
	-3.146623267635543e-18
	-3.780880462690596e-14
	1.599246901607413e-06
	1.520780341387353e-04
	1.901001263477296e-05
	1.837926923244456e-01

 58	5.800000000000003e-01
	-7.706429228418530e-15
	-3.211885892239067e-18
	-3.797469897535474e-14
	1.684294561044574e-06
	1.640710791548612e-04
	2.059000903035712e-05
	1.837928436785708e-01

 59	5.900000000000003e-01
	-7.685414742932472e-15
	-3.278395598179088e-18
	-3.813740637830484e-14
	1.773088086026389e-06
	1.768827582518564e-04
	2.229398328815240e-05
	1.837930082700820e-01

 60	6.000000000000003e-01
	-7.665867980495515e-15
	-3.346175335316251e-18
	-3.829694439525513e-14
	1.865743866614580e-06
	1.905519441943410e-04
	2.413031406559699e-05
	1.837931871334182e-01

 61	6.100000000000003e-01
	-7.647763673096706e-15
	-3.415248520174663e-18
	-3.845333200252267e-14
	1.962379068694384e-06
	2.051174599283126e-04
	2.610776841290820e-05
	1.837933813635910e-01

 62	6.200000000000003e-01
	-7.631076437206110e-15
	-3.485639047448775e-18
	-3.860658953061113e-14
	2.063111465756780e-06
	2.206178562165543e-04
	2.823550014839526e-05
	1.837935921169732e-01

 63	6.300000000000003e-01
	-7.615780801414162e-15
	-3.557371301817445e-18
	-3.875673860184720e-14
	2.168059263953068e-06
	2.370911735035594e-04
	3.052304592851283e-05
	1.837938206117370e-01

 64	6.400000000000003e-01
	-7.601851233254502e-15
	-3.630470170073327e-18
	-3.890380206839950e-14
	2.277340921285147e-06
	2.545746892462856e-04
	3.298031886094770e-05
	1.837940681278624e-01

 65	6.500000000000004e-01
	-7.589262165186599e-15
	-3.704961053577484e-18
	-3.904780395078975e-14
	2.391074961934264e-06
	2.731046522586155e-04
	3.561759952298222e-05
	1.837943360066941e-01

 66	6.600000000000004e-01
	-7.577988019718872e-15
	-3.780869881046350e-18
	-3.918876937699735e-14
	2.509379786872500e-06
	2.927160059322717e-04
	3.844552426447050e-05
	1.837946256500150e-01

 67	6.700000000000004e-01
	-7.568003233655141e-15
	-3.858223121682564e-18
	-3.932672452225403e-14
	2.632373482043010e-06
	3.134421025090067e-04
	4.147507069500179e-05
	1.837949385185833e-01

 68	6.800000000000004e-01
	-7.559282281451218e-15
	-3.937047798658605e-18
	-3.946169654961732e-14
	2.760173625534691e-06
	3.353144108814450e-04
	4.471754027814704e-05
	1.837952761300883e-01

 69	6.900000000000004e-01
	-7.551799697671337e-15
	-4.017371502961884e-18
	-3.959371355140539e-14
	2.892897095310975e-06
	3.583622206857208e-04
	4.818453798193871e-05
	1.837956400565476e-01

 70	7.000000000000004e-01
	-7.545530098536546e-15
	-4.099222407614313e-18
	-3.972280449156991e-14
	3.030659879180553e-06
	3.826123457108341e-04
	5.188794896376244e-05
	1.837960319210604e-01

 71	7.100000000000004e-01
	-7.540448202560674e-15
	-4.182629282274616e-18
	-3.984899914907624e-14
	3.173576888814272e-06
	4.080888298795296e-04
	5.583991229929965e-05
	1.837964533939452e-01

 72	7.200000000000004e-01
	-7.536528850271548e-15
	-4.267621508235648e-18
	-3.997232806235580e-14
	3.321761779716780e-06
	4.348126592462780e-04
	6.005279179874896e-05
	1.837969061882388e-01

 73	7.300000000000004e-01
	-7.533747023018054e-15
	-4.354229093826699e-18
	-4.009282247488725e-14
	3.475326779149769e-06
	4.628014836022891e-04
	6.453914398881081e-05
	1.837973920545853e-01

 74	7.400000000000004e-01
	-7.532077860865294e-15
	-4.442482690234604e-18
	-4.021051428195975e-14
	3.634382524073940e-06
	4.920693513689540e-04
	6.931168337537116e-05
	1.837979127754634e-01

 75	7.500000000000004e-01
	-7.531496679583762e-15
	-4.532413607753306e-18
	-4.032543597866324e-14
	3.799037911224695e-06
	5.226264614936189e-04
	7.438324513885367e-05
	1.837984701588664e-01

 76	7.600000000000005e-01
	-7.531978986738754e-15
	-4.624053832474457e-18
	-4.043762060914799e-14
	3.969399961463478e-06
	5.544789360308449e-04
	7.976674545129807e-05
	1.837990660314054e-01

 77	7.700000000000005e-01
	-7.533500496889444e-15
	-4.717436043433192e-18
	-4.054710171718820e-14
	4.145573700546729e-06
	5.876286169944009e-04
	8.547513964062588e-05
	1.837997022308859e-01

 78	7.800000000000005e-01
	-7.536037145908690e-15
	-4.812593630220176e-18
	-4.065391329808043e-14
	4.327662058428385e-06
	6.220728908982449e-04
	9.152137846262062e-05
	1.838003805984496e-01

 79	7.900000000000005e-01
	-7.539565104435889e-15
	-4.909560711073703e-18
	-4.075808975190303e-14
	4.515765789159264e-06
	6.578045441686053e-04
	9.791836277422691e-05
	1.838011029703112e-01

 80	8.000000000000005e-01
	-7.544060790477294e-15
	-5.008372151465781e-18
	-4.085966583815704e-14
	4.709983413365005e-06
	6.948116523048004e-04
	1.046788969320865e-04
	1.838018711691969e-01

 81	8.100000000000005e-01
	-7.549500881169128e-15
	-5.109063583195773e-18
	-4.095867663180622e-14
	4.910411185175904e-06
	7.330775052972822e-04
	1.118156412671957e-04
	1.838026869955271e-01

 82	8.200000000000005e-01
	-7.555862323720762e-15
	-5.211671424005729e-18
	-4.105515748072860e-14
	5.117143085346553e-06
	7.725805713822415e-04
	1.193410640095019e-04
	1.838035522185008e-01

 83	8.300000000000005e-01
	-7.563122345555869e-15
	-5.316232897733037e-18
	-4.114914396458775e-14
	5.330270842142843e-06
	8.132945007299243e-04
	1.272673930546345e-04
	1.838044685671068e-01

 84	8.400000000000005e-01
	-7.571258463670718e-15
	-5.422786055014442e-18
	-4.124067185512998e-14
	5.549883981390263e-06
	8.551881701368229e-04
	1.356065679782599e-04
	1.838054377212240e-01

 85	8.500000000000005e-01
	-7.580248493229775e-15
	-5.531369794557460e-18
	-4.132977707790822e-14
	5.776069906874016e-06
	8.982257692301415e-04
	1.443701927113965e-04
	1.838064613028804e-01

 86	8.600000000000005e-01
	-7.590070555419579e-15
	-5.642023884996895e-18
	-4.141649567543141e-14
	6.008914012061062e-06
	9.423669281073856e-04
	1.535694892921093e-04
	1.838075408677896e-01

 87	8.700000000000006e-01
	-7.600703084582405e-15
	-5.754788987349688e-18
	-4.150086377173432e-14
	6.248499823880666e-06
	9.875668857365831e-04
	1.632152531051481e-04
	1.838086778972681e-01

 88	8.800000000000006e-01
	-7.612124834652004e-15
	-5.869706678089912e-18
	-4.158291753836084e-14
	6.494909179058653e-06
	1.033776697846319e-03
	1.733178100112765e-04
	1.838098737906185e-01

 89	8.900000000000006e-01
	-7.624314884914133e-15
	-5.986819472858060e-18
	-4.166269316175008e-14
	6.748222433253761e-06
	1.080943482451910e-03
	1.838869757522709e-04
	1.838111298581109e-01

 90	9.000000000000006e-01
	-7.637252645114679e-15
	-6.106170850825857e-18
	-4.174022681201271e-14
	7.008518703000360e-06
	1.129010700607865e-03
	1.949320179961480e-04
	1.838124473145788e-01

 91	9.100000000000006e-01
	-7.650917859939169e-15
	-6.227805279734500e-18
	-4.181555461308290e-14
	7.275876140220962e-06
	1.177918469458799e-03
	2.064616213603125e-04
	1.838138272737926e-01

 92	9.200000000000006e-01
	-7.665290612886468e-15
	-6.351768241628695e-18
	-4.188871261422864e-14
	7.550372238844141e-06
	1.227603904193128e-03
	2.184838557185882e-04
	1.838152707435958e-01

 93	9.300000000000006e-01
	-7.680351329560898e-15
	-6.478106259304262e-18
	-4.195973676290138e-14
	7.832084172848506e-06
	1.278001485095465e-03
	2.310061480619194e-04
	1.838167786219094e-01

 94	9.400000000000006e-01
	-7.696080780405724e-15
	-6.606866923495292e-18
	-4.202866287890427e-14
	8.121089164859170e-06
	1.329043445553695e-03
	2.440352581426494e-04
	1.838183516936158e-01

 95	9.500000000000006e-01
	-7.712460082901984e-15
	-6.738098920821305e-18
	-4.209552662985687e-14
	8.417464884252187e-06
	1.380660176611623e-03
	2.575772580893794e-04
	1.838199906283577e-01

 96	9.600000000000006e-01
	-7.729470703255490e-15
	-6.871852062519570e-18
	-4.216036350793204e-14
	8.721289873577764e-06
	1.432780643472487e-03
	2.716375161342349e-04
	1.838216959792768e-01

 97	9.700000000000006e-01
	-7.747094457595181e-15
	-7.008177313987486e-18
	-4.222320880784028e-14
	9.032644001999520e-06
	1.485332809255753e-03
	2.862206845478283e-04
	1.838234681826416e-01

 98	9.800000000000006e-01
	-7.765313512705851e-15
	-7.147126825161049e-18
	-4.228409760603458e-14
	9.351608944363601e-06
	1.538244061288849e-03
	3.013306918299523e-04
	1.838253075584164e-01

 99	9.900000000000007e-01
	-7.784110386317167e-15
	-7.288753961758533e-18
	-4.234306474110873e-14
	9.678268684464086e-06
	1.591441635276914e-03
	3.169707391571412e-04
	1.838272143116733e-01

 100	1.000000000000001e+00
	-7.803467946971630e-15
	-7.433113337414833e-18
	-4.240014479536041e-14
	1.001271004105628e-05
	1.644853032832065e-03
	3.331433010422292e-04
	1.838291885348665e-01

 101	1.010000000000001e+00
	-7.823369413492334e-15
	-7.580260846739846e-18
	-4.245537207748997e-14
