Title: ** sch_path: /home/andylithia/openmpw/project-yatsuhashi-chip1/xschem/gmid_test/nmos_test.sch
Date: Tue Jul 19 23:15:45  2022
Plotname: DC transfer characteristic
Flags: real
No. Variables: 8
No. Points: 181
Variables:
	0	v(v-sweep)	voltage
	1	@m.xm1.msky130_fd_pr__nfet_01v8[cgb]	capacitance
	2	@m.xm1.msky130_fd_pr__nfet_01v8[cgd]	capacitance
	3	@m.xm1.msky130_fd_pr__nfet_01v8[cgs]	capacitance
	4	@m.xm1.msky130_fd_pr__nfet_01v8[gds]	admittance
	5	@m.xm1.msky130_fd_pr__nfet_01v8[gm]	admittance
	6	i(@m.xm1.msky130_fd_pr__nfet_01v8[id])	current
	7	v(@m.xm1.msky130_fd_pr__nfet_01v8[vth])	voltage
Values:
 0	0.000000000000000e+00
	-1.049372786955613e-14
	-7.460427122841093e-19
	-1.978197954497453e-14
	2.583789685768878e-08
	1.015736350419119e-06
	1.284171410544610e-07
	1.936407476071823e-01

 1	1.000000000000000e-02
	-1.037841151187628e-14
	-7.637430825692463e-19
	-2.005457078415936e-14
	2.787571327730236e-08
	1.098504968487329e-06
	1.389829187942397e-07
	1.936407484475590e-01

 2	2.000000000000000e-02
	-1.026456672489252e-14
	-7.818286004712273e-19
	-2.032678620259981e-14
	3.006590397400127e-08
	1.188055952290096e-06
	1.504098336722368e-07
	1.936407493570925e-01

 3	3.000000000000000e-02
	-1.015221725004729e-14
	-8.003065390161470e-19
	-2.059852991389241e-14
	3.241897195587036e-08
	1.284966427573617e-06
	1.627685527585691e-07
	1.936407503415660e-01

 4	4.000000000000000e-02
	-1.004138608532229e-14
	-8.191842878140408e-19
	-2.086970662507878e-14
	3.494605509896057e-08
	1.389866516923989e-06
	1.761357751545972e-07
	1.936407514072676e-01

 5	5.000000000000000e-02
	-9.932095443028642e-15
	-8.384693550940388e-19
	-2.114022175642137e-14
	3.765895629595287e-08
	1.503444621163647e-06
	1.905947879376227e-07
	1.936407525610428e-01

 6	6.000000000000000e-02
	-9.824366709745811e-15
	-8.581693698026069e-19
	-2.140998155933183e-14
	4.057017434355757e-08
	1.626453236528855e-06
	2.062360775588418e-07
	1.936407538103495e-01

 7	7.000000000000001e-02
	-9.718220408490747e-15
	-8.782920837667959e-19
	-2.167889323215483e-14
	4.369293553121435e-08
	1.759715355849294e-06
	2.231580022909497e-07
	1.936407551633232e-01

 8	8.000000000000000e-02
	-9.613676163190933e-15
	-8.988453739247801e-19
	-2.194686503352057e-14
	4.704122588869887e-08
	1.904131504725020e-06
	2.414675318180615e-07
	1.936407566288271e-01

 9	9.000000000000000e-02
	-9.510752665527765e-15
	-9.198372446257541e-19
	-2.221380639298573e-14
	5.062982404506431e-08
	2.060687466338908e-06
	2.612810605837061e-07
	1.936407582165437e-01

 10	9.999999999999999e-02
	-9.409467644207755e-15
	-9.412758300008354e-19
	-2.247962801869773e-14
	5.447433464611714e-08
	2.230462750994796e-06
	2.827253020616603e-07
	1.936407599370505e-01

 11	1.100000000000000e-01
	-9.309837836710789e-15
	-9.631693964082582e-19
	-2.274424200182688e-14
	5.859122227217850e-08
	2.414639868653717e-06
	3.059382716862920e-07
	1.936407618018945e-01

 12	1.200000000000000e-01
	-9.211878963557064e-15
	-9.855263449533721e-19
	-2.300756191752220e-14
	6.299784579233828e-08
	2.614514464571568e-06
	3.310703667711715e-07
	1.936407638237213e-01

 13	1.300000000000000e-01
	-9.115605705123758e-15
	-1.008355214087523e-18
	-2.326950292216701e-14
	6.771249308577279e-08
	2.831506379528919e-06
	3.582855523533648e-07
	1.936407660163496e-01

 14	1.400000000000000e-01
	-9.021031681035894e-15
	-1.031664682286181e-18
	-2.352998184671676e-14
	7.275441605479942e-08
	3.067171696973429e-06
	3.877626625198090e-07
	1.936407683949251e-01

 15	1.500000000000000e-01
	-8.928169432145363e-15
	-1.055463570810268e-18
	-2.378891728592504e-14
	7.814386584847669e-08
	3.323215839563283e-06
	4.196968273973134e-07
	1.936407709760312e-01

 16	1.600000000000000e-01
	-8.837030405104266e-15
	-1.079760846551596e-18
	-2.404622968327471e-14
	8.390212820938764e-08
	3.601507776964029e-06
	4.543010366095956e-07
	1.936407737778473e-01

 17	1.700000000000000e-01
	-8.747624939529888e-15
	-1.104565624965753e-18
	-2.430184141145077e-14
	9.005155885002374e-08
	3.904095405182899e-06
	4.918078506164628e-07
	1.936407768203086e-01

 18	1.800000000000000e-01
	-8.659962257749706e-15
	-1.129887173093902e-18
	-2.455567684820755e-14
	9.661561875875663e-08
	4.233222155066854e-06
	5.324712719405235e-07
	1.936407801252841e-01

 19	1.900000000000000e-01
	-8.574050457107116e-15
	-1.155734912676603e-18
	-2.480766244750147e-14
	1.036189093287985e-07
	4.591344883685361e-06
	5.765687888445416e-07
	1.936407837167821e-01

 20	2.000000000000000e-01
	-8.489896504799613e-15
	-1.182118423361754e-18
	-2.505772680577833e-14
	1.110872071967736e-07
	4.981153096996461e-06
	6.244036045342689e-07
	1.936407876211561e-01

 21	2.100000000000000e-01
	-8.407506235214069e-15
	-1.209047446008824e-18
	-2.530580072332152e-14
	1.190474986705266e-07
	5.405589545275420e-06
	6.763070654120037e-07
	1.936407918673579e-01

 22	2.200000000000001e-01
	-8.326884349715318e-15
	-1.236531886092320e-18
	-2.555181726058752e-14
	1.275280136186674e-07
	5.867872224091494e-06
	7.326413022790626e-07
	1.936407964871913e-01

 23	2.300000000000001e-01
	-8.248034418837699e-15
	-1.264581817206691e-18
	-2.579571178947146e-14
	1.365582586868876e-07
	6.371517802956386e-06
	7.938020986610379e-07
	1.936408015156011e-01

 24	2.400000000000001e-01
	-8.170958886821806e-15
	-1.293207484675423e-18
	-2.603742203946424e-14
	1.461690496984863e-07
	6.920366490958597e-06
	8.602220005884999e-07
	1.936408069910007e-01

 25	2.500000000000001e-01
	-8.095659078432045e-15
	-1.322419309266497e-18
	-2.627688813868237e-14
	1.563925430887236e-07
	7.518608333558032e-06
	9.323736821851330e-07
	1.936408129556044e-01

 26	2.600000000000001e-01
	-8.022135207985214e-15
	-1.352227891017452e-18
	-2.651405264976511e-14
	1.672622662144900e-07
	8.170810917064861e-06
	1.010773581270027e-06
	1.936408194558205e-01

 27	2.700000000000001e-01
	-7.950386390513575e-15
	-1.382644013172215e-18
	-2.674886060065567e-14
	1.788131463725136e-07
	8.881948437018082e-06
	1.095985818846741e-06
	1.936408265426565e-01

 28	2.800000000000001e-01
	-7.880410654981619e-15
	-1.413678646232607e-18
	-2.698125951029603e-14
	1.910815383508516e-07
	9.657432063561038e-06
	1.188626415799832e-06
	1.936408342721760e-01

 29	2.900000000000001e-01
	-7.812204959470290e-15
	-1.445342952127326e-18
	-2.721119940928306e-14
	2.041052503297024e-07
	1.050314151087940e-05
	1.289367819322215e-06
	1.936408427059891e-01

 30	3.000000000000001e-01
	-7.745765208238536e-15
	-1.477648288501168e-18
	-2.743863285554852e-14
	2.179235679387957e-07
	1.142545768874025e-05
	1.398943750523914e-06
	1.936408519117921e-01

 31	3.100000000000001e-01
	-7.681086270568100e-15
	-1.510606213127450e-18
	-2.766351494514094e-14
	2.325772762697398e-07
	1.243129628211817e-05
	1.518154383294687e-06
	1.936408619639398e-01

 32	3.200000000000001e-01
	-7.618162001294426e-15
	-1.544228488446423e-18
	-2.788580331820004e-14
	2.481086796327423e-07
	1.352814206982885e-05
	1.647871862778549e-06
	1.936408729440824e-01

 33	3.300000000000001e-01
	-7.556985262923359e-15
	-1.578527086232856e-18
	-2.810545816022969e-14
	2.645616188383180e-07
	1.472408375510560e-05
	1.789046169739209e-06
	1.936408849418467e-01

 34	3.400000000000001e-01
	-7.497547949231515e-15
	-1.613514192395837e-18
	-2.832244219878645e-14
	2.819814857759220e-07
	1.602784904029247e-05
	1.942711334621692e-06
	1.936408980555561e-01

 35	3.500000000000001e-01
	-7.439841010246250e-15
	-1.649202211913534e-18
	-2.853672069571213e-14
	3.004152350529868e-07
	1.744883963453329e-05
	2.109992002220778e-06
	1.936409123930392e-01

 36	3.600000000000002e-01
	-7.383854478499608e-15
	-1.685603773907036e-18
	-2.874826143505117e-14
	3.199113924500201e-07
	1.899716583785175e-05
	2.292110344529255e-06
	1.936409280724584e-01

 37	3.700000000000002e-01
	-7.329577496450330e-15
	-1.722731736855437e-18
	-2.895703470680108e-14
	3.405200599399233e-07
	2.068368029775672e-05
	2.490393315534722e-06
	1.936409452232389e-01

 38	3.800000000000002e-01
	-7.276998344967283e-15
	-1.760599193956543e-18
	-2.916301328665525e-14
	3.622929170134213e-07
	2.252001048605661e-05
	2.706280237453156e-06
	1.936409639870162e-01

 39	3.900000000000002e-01
	-7.226104472767905e-15
	-1.799219478636024e-18
	-2.936617241190336e-14
	3.852832180467866e-07
	2.451858939455816e-05
	2.941330703115473e-06
	1.936409845186802e-01

 40	4.000000000000002e-01
	-7.176882526705905e-15
	-1.838606170208776e-18
	-2.956648975366269e-14
	4.095457854441401e-07
	2.669268389960050e-05
	3.197232773964857e-06
	1.936410069874736e-01

 41	4.100000000000002e-01
	-7.129318382803167e-15
	-1.878773099696026e-18
	-2.976394538561963e-14
	4.351369982839995e-07
	2.905642019784175e-05
	3.475811447380192e-06
	1.936410315781416e-01

 42	4.200000000000002e-01
	-7.083397177922434e-15
	-1.919734355802554e-18
	-2.995852174946452e-14
	4.621147761992128e-07
	3.162480567044190e-05
	3.779037360833212e-06
	1.936410584921580e-01

 43	4.300000000000002e-01
	-7.039103341979014e-15
	-1.961504291056603e-18
	-3.015020361720800e-14
	4.905385582211954e-07
	3.441374649098658e-05
	4.109035693743999e-06
	1.936410879490141e-01

 44	4.400000000000002e-01
	-6.996420630591505e-15
	-2.004097528117851e-18
	-3.033897805057060e-14
	5.204692763238671e-07
	3.744006025547262e-05
	4.468095220860298e-06
	1.936411201875525e-01

 45	4.500000000000002e-01
	-6.955332158074382e-15
	-2.047528966256415e-18
	-3.052483435763758e-14
	5.519693234102229e-07
	4.072148288186622e-05
	4.858677463606255e-06
	1.936411554673612e-01

 46	4.600000000000002e-01
	-6.915820430677720e-15
	-2.091813788007985e-18
	-3.070776404697484e-14
	5.851025154956595e-07
	4.427666900368123e-05
	5.283425878196505e-06
	1.936411940702273e-01

 47	4.700000000000003e-01
	-6.877867379982090e-15
	-2.136967466008604e-18
	-3.088776077940046e-14
	6.199340478573286e-07
	4.812518506829843e-05
	5.745175011476418e-06
	1.936412363016129e-01

 48	4.800000000000003e-01
	-6.841454396360488e-15
	-2.183005770014119e-18
	-3.106482031760639e-14
	6.565304449383934e-07
	5.228749434799234e-05
	6.246959547529803e-06
	1.936412824921916e-01

 49	4.900000000000003e-01
	-6.806562362421410e-15
	-2.229944774108696e-18
	-3.123894047382569e-14
	6.949595038207859e-07
	5.678493308151372e-05
	6.792023160212962e-06
	1.936413329993759e-01

 50	5.000000000000002e-01
	-6.773171686352251e-15
	-2.277800864106842e-18
	-3.141012105573526e-14
	7.352902311097886e-07
	6.163967698815230e-05
	7.383827079055774e-06
	1.936413882088934e-01

 51	5.100000000000002e-01
	-6.741262335084565e-15
	-2.326590745154587e-18
	-3.157836381078565e-14
	7.775927731099206e-07
	6.687469743606559e-05
	8.026058268578143e-06
	1.936414485363335e-01

 52	5.200000000000002e-01
	-6.710813867207367e-15
	-2.376331449534051e-18
	-3.174367236914343e-14
	8.219383392133361e-07
	7.251370660359374e-05
	8.722637114154306e-06
	1.936415144286865e-01

 53	5.300000000000002e-01
	-6.681805465558538e-15
	-2.427040344676696e-18
	-3.190605218542958e-14
	8.683991184706672e-07
	7.858109104753205e-05
	9.477724501307886e-06
	1.936415863658579e-01

 54	5.400000000000003e-01
	-6.654215969428201e-15
	-2.478735141391653e-18
	-3.206551047943234e-14
	9.170481893696186e-07
	8.510183318676756e-05
	1.029572816991824e-05
	1.936416648621058e-01

 55	5.500000000000003e-01
	-6.628023906312268e-15
	-2.531433902312926e-18
	-3.222205617596903e-14
	9.679594229088004e-07
	9.210142032386651e-05
	1.118130822045778e-05
	1.936417504674286e-01

 56	5.600000000000003e-01
	-6.603207523158537e-15
	-2.585155050572706e-18
	-3.237569984406511e-14
	1.021207379123749e-06
	9.960574096134882e-05
	1.213938164626798e-05
	1.936418437688312e-01

 57	5.700000000000003e-01
	-6.579744817051257e-15
	-2.639917378706344e-18
	-3.252645363561525e-14
	1.076867197298155e-06
	1.076409683231492e-04
	1.317512576420543e-05
	1.936419453914621e-01

 58	5.800000000000003e-01
	-6.557613565285715e-15
	-2.695740057794148e-18
	-3.267433122368186e-14
	1.135014480176081e-06
	1.162334311643657e-04
	1.429398041594931e-05
	1.936420559996181e-01

 59	5.900000000000003e-01
	-6.536791354786557e-15
	-2.752642646847804e-18
	-3.281934774058448e-14
	1.195725172580095e-06
	1.254094721424943e-04
	1.550164881404186e-05
	1.936421762975533e-01

 60	6.000000000000003e-01
	-6.517255610829333e-15
	-2.810645102447401e-18
	-3.296151971592382e-14
	1.259075434934665e-06
	1.351952942288689e-04
	1.680409691049031e-05
	1.936423070300717e-01

 61	6.100000000000003e-01
	-6.498983625027632e-15
	-2.869767788634516e-18
	-3.310086501467919e-14
	1.325141512293528e-06
	1.456167958574399e-04
	1.820755117164221e-05
	1.936424489828907e-01

 62	6.200000000000003e-01
	-6.481952582552918e-15
	-2.930031487071310e-18
	-3.323740277551053e-14
	1.393999599572668e-06
	1.566993957360333e-04
	1.971849465116730e-05
	1.936426029827187e-01

 63	6.300000000000003e-01
	-6.466139588557551e-15
	-2.991457407469330e-18
	-3.337115334938968e-14
	1.465725703795972e-06
	1.684678484789799e-04
	2.134366126341180e-05
	1.936427698970529e-01

 64	6.400000000000003e-01
	-6.451521693775264e-15
	-3.054067198298547e-18
	-3.350213823867864e-14
	1.540395504267068e-06
	1.809460524550400e-04
	2.309002817217610e-05
	1.936429506336306e-01

 65	6.500000000000004e-01
	-6.438075919277310e-15
	-3.117882957782388e-18
	-3.363038003676489e-14
	1.618084211686502e-06
	1.941568514759076e-04
	2.496480622508819e-05
	1.936431461395338e-01

 66	6.600000000000004e-01
	-6.425779280365716e-15
	-3.182927245187321e-18
	-3.375590236835738e-14
	1.698866427336547e-06
	2.081218321728390e-04
	2.697542838113850e-05
	1.936433573999154e-01

 67	6.700000000000004e-01
	-6.414608809588653e-15
	-3.249223092415882e-18
	-3.387872983053956e-14
	1.782816003554678e-06
	2.228611191164578e-04
	2.912953609849274e-05
	1.936435854363368e-01

 68	6.800000000000004e-01
	-6.404541578866132e-15
	-3.316794015910705e-18
	-3.399888793466834e-14
	1.870005906808838e-06
	2.383931699216250e-04
	3.143496367122655e-05
	1.936438313046861e-01

 69	6.900000000000004e-01
	-6.395554720717266e-15
	-3.385664028878462e-18
	-3.411640304920199e-14
	1.960508084770863e-06
	2.547345727395409e-04
	3.389972052688986e-05
	1.936440960926730e-01

 70	7.000000000000004e-01
	-6.387625448583618e-15
	-3.455857653843749e-18
	-3.423130234353207e-14
	2.054393338857005e-06
	2.718998486672896e-04
	3.653197152152265e-05
	1.936443809169044e-01

 71	7.100000000000004e-01
	-6.380731076245585e-15
	-3.527399935540710e-18
	-3.434361373288848e-14
	2.151731203763637e-06
	2.899012616954183e-04
	3.934001529454562e-05
	1.936446869195399e-01

 72	7.200000000000004e-01
	-6.374849036331740e-15
	-3.600316454153669e-18
	-3.445336582438011e-14
	2.252589835571095e-06
	3.087486388622133e-04
	4.233226077245958e-05
	1.936450152645129e-01

 73	7.300000000000004e-01
	-6.369956897923536e-15
	-3.674633338915068e-18
	-3.456058786422687e-14
	2.357035910015455e-06
	3.284492032847946e-04
	4.551720193701802e-05
	1.936453671333819e-01

 74	7.400000000000004e-01
	-6.366032383259946e-15
	-3.750377282072551e-18
	-3.466530968623357e-14
	2.465134532538076e-06
	3.490074226892913e-04
	4.890339100007349e-05
	1.936457437207696e-01

 75	7.500000000000004e-01
	-6.363053383549376e-15
	-3.827575553234267e-18
	-3.476756166154870e-14
	2.576949161711275e-06
	3.704248759626994e-04
	5.249941015304568e-05
	1.936461462295051e-01

 76	7.600000000000005e-01
	-6.360997973897326e-15
	-3.906256014104370e-18
	-3.486737464974752e-14
	2.692541547608376e-06
	3.927001400974189e-04
	5.631384208350063e-05
	1.936465758654066e-01

 77	7.700000000000005e-01
	-6.359844427361382e-15
	-3.986447133619266e-18
	-3.496477995127124e-14
	2.811971686633593e-06
	4.158286996958851e-04
	6.035523947403218e-05
	1.936470338318495e-01

 78	7.800000000000005e-01
	-6.359571228145862e-15
	-4.068178003496213e-18
	-3.505980926125043e-14
	2.935297794254651e-06
	4.398028809498211e-04
	6.463209371909852e-05
	1.936475213240996e-01

 79	7.900000000000005e-01
	-6.360157083950724e-15
	-4.151478354206625e-18
	-3.515249462473481e-14
	3.062576296987397e-06
	4.646118117094263e-04
	6.915280311312520e-05
	1.936480395235129e-01

 80	8.000000000000005e-01
	-6.361580937490488e-15
	-4.236378571385171e-18
	-3.524286839334746e-14
	3.193861844868751e-06
	4.902414089174365e-04
	7.392564077765058e-05
	1.936485895916397e-01

 81	8.100000000000005e-01
	-6.363821977200472e-15
	-4.322909712689123e-18
	-3.533096318337643e-14
	3.329207345523770e-06
	5.166743943075518e-04
	7.895872260616647e-05
	1.936491726643167e-01

 82	8.200000000000005e-01
	-6.366859647148619e-15
	-4.411103525119431e-18
	-3.541681183531289e-14
	3.468664020785625e-06
	5.438903388635007e-04
	8.425997551226268e-05
	1.936497898458051e-01

 83	8.300000000000005e-01
	-6.370673656172691e-15
	-4.500992462816988e-18
	-3.550044737484055e-14
	3.612281486667814e-06
	5.718657361124812e-04
	8.983710626952149e-05
	1.936504422030661e-01

 84	8.400000000000005e-01
	-6.375243986262983e-15
	-4.592609705349709e-18
	-3.558190297527758e-14
	3.760107857317419e-06
	6.005741038938398e-04
	9.569757123013999e-05
	1.936511307602099e-01

 85	8.500000000000005e-01
	-6.380550900211881e-15
	-4.685989176503245e-18
	-3.566121192146887e-14
	3.912189873400747e-06
	6.299861138101699e-04
	1.018485472034456e-04
	1.936518564932420e-01

 86	8.600000000000005e-01
	-6.386574948552199e-15
	-4.781165563590229e-18
	-3.573840757512243e-14
	4.068573055192230e-06
	6.600697471434874e-04
	1.082969037653817e-04
	1.936526203251006e-01

 87	8.700000000000006e-01
	-6.393296975807004e-15
	-4.878174337295509e-18
	-3.581352334158124e-14
	4.229301880455926e-06
	6.907904756129716e-04
	1.150491772557368e-04
	1.936534231211302e-01

 88	8.800000000000006e-01
	-6.400698126073412e-15
	-4.977051772070721e-18
	-3.588659263801921e-14
	4.394419987033065e-06
	7.221114649727625e-04
	1.221115467017254e-04
	1.936542656849811e-01

 89	8.900000000000006e-01
	-6.408759847964299e-15
	-5.077834967096971e-18
	-3.595764886304646e-14
	4.563970399879716e-06
	7.539937991063977e-04
	1.294898118847032e-04
	1.936551487550295e-01

 90	9.000000000000006e-01
	-6.417463898930770e-15
	-5.180561867832915e-18
	-3.602672536770725e-14
	4.737995782141277e-06
	7.863967219765809e-04
	1.371893737417976e-04
	1.936560730013262e-01

 91	9.100000000000006e-01
	-6.426792348989762e-15
	-5.285271288164726e-18
	-3.609385542785150e-14
	4.916538709708447e-06
	8.192778945412963e-04
	1.452152172665014e-04
	1.936570390231397e-01

 92	9.200000000000006e-01
	-6.436727583880023e-15
	-5.392002933178869e-18
	-3.615907221785908e-14
	5.099641968575037e-06
	8.525936635547491e-04
	1.535718970423364e-04
	1.936580473470911e-01

 93	9.300000000000006e-01
	-6.447252307670643e-15
	-5.500797422575840e-18
	-3.622240878569303e-14
	5.287348874215075e-06
	8.862993390376676e-04
	1.622635255121274e-04
	1.936590984259163e-01

 94	9.400000000000006e-01
	-6.458349544845312e-15
	-5.611696314745605e-18
	-3.628389802925821e-14
	5.479703612117396e-06
	9.203494771280405e-04
	1.712937640528350e-04
	1.936601926378446e-01

 95	9.500000000000006e-01
	-6.470002641886200e-15
	-5.724742131526862e-18
	-3.634357267403780e-14
	5.676751598561964e-06
	9.546981650104455e-04
	1.806658168928652e-04
	1.936613302865937e-01

 96	9.600000000000006e-01
	-6.482195268380442e-15
	-5.839978383670906e-18
	-3.640146525198161e-14
	5.878539860695133e-06
	9.892993046685494e-04
	1.903824278759290e-04
	1.936625116019681e-01

 97	9.700000000000006e-01
	-6.494911417672206e-15
	-5.957449597033689e-18
	-3.645760808161573e-14
	6.085117434962262e-06
	1.024106892308161e-03
	2.004458800434353e-04
	1.936637367410484e-01

 98	9.800000000000006e-01
	-6.508135407082964e-15
	-6.077201339520733e-18
	-3.651203324934517e-14
	6.296535782985457e-06
	1.059075290453365e-03
	2.108579979766119e-04
	1.936650057899052e-01

 99	9.900000000000007e-01
	-6.521851877722232e-15
	-6.199280248808263e-18
	-3.656477259191764e-14
	6.512849224031769e-06
	1.094159489920154e-03
	2.216201528105497e-04
	1.936663187658439e-01

 100	1.000000000000001e+00
	-6.536045793910336e-15
	-6.323734060868219e-18
	-3.661585768001755e-14
	6.734115383302930e-06
	1.129315359114680e-03
	2.327332698056152e-04
	1.936676756201037e-01

 101	1.010000000000001e+00
	-6.550702442234774e-15
	-6.450611639322630e-18
	-3.666531980295789e-14
