Title: ** sch_path: /home/andylithia/openmpw/project-yatsuhashi-chip1/xschem/gmid_test/nmos_test.sch
Date: Tue Jul 19 23:15:45  2022
Plotname: DC transfer characteristic
Flags: real
No. Variables: 8
No. Points: 181
Variables:
	0	v(v-sweep)	voltage
	1	@m.xm1.msky130_fd_pr__nfet_01v8[cgb]	capacitance
	2	@m.xm1.msky130_fd_pr__nfet_01v8[cgd]	capacitance
	3	@m.xm1.msky130_fd_pr__nfet_01v8[cgs]	capacitance
	4	@m.xm1.msky130_fd_pr__nfet_01v8[gds]	admittance
	5	@m.xm1.msky130_fd_pr__nfet_01v8[gm]	admittance
	6	i(@m.xm1.msky130_fd_pr__nfet_01v8[id])	current
	7	v(@m.xm1.msky130_fd_pr__nfet_01v8[vth])	voltage
Values:
 0	0.000000000000000e+00
	-1.169961800889410e-14
	-8.735549347951497e-19
	-2.257189563293568e-14
	2.403800736964896e-08
	9.390162824189013e-07
	1.199960121211793e-07
	1.855707896841610e-01

 1	1.000000000000000e-02
	-1.157160814139523e-14
	-8.940983384729162e-19
	-2.287572378850714e-14
	2.590806159067315e-08
	1.014772915534560e-06
	1.297600260691978e-07
	1.855707904609674e-01

 2	2.000000000000000e-02
	-1.144527573809593e-14
	-9.150856915741328e-19
	-2.317902995329055e-14
	2.791587608513603e-08
	1.096690477116364e-06
	1.403119941197249e-07
	1.855707913011100e-01

 3	3.000000000000000e-02
	-1.132064603436611e-14
	-9.365253715456318e-19
	-2.348170966920283e-14
	3.007079049247033e-08
	1.185290994597332e-06
	1.517160976065055e-07
	1.855707922098492e-01

 4	4.000000000000000e-02
	-1.119774341674841e-14
	-9.584258921939562e-19
	-2.378365923995530e-14
	3.238269841024039e-08
	1.281144307771545e-06
	1.640419734229976e-07
	1.855707931929075e-01

 5	5.000000000000000e-02
	-1.107659137917432e-14
	-9.807959061298468e-19
	-2.408477585788160e-14
	3.486207310892251e-08
	1.384872804474732e-06
	1.773652154434508e-07
	1.855707942565108e-01

 6	6.000000000000000e-02
	-1.095721248156282e-14
	-1.003644207286365e-18
	-2.438495772852984e-14
	3.751999385605479e-08
	1.497156629958718e-06
	1.917679256350322e-07
	1.855707954074430e-01

 7	7.000000000000001e-02
	-1.083962831088042e-14
	-1.026979733513454e-18
	-2.468410419271538e-14
	4.036817281903706e-08
	1.618739411572874e-06
	2.073393198039837e-07
	1.855707966530958e-01

 8	8.000000000000000e-02
	-1.072385944473405e-14
	-1.050811569251212e-18
	-2.498211584573933e-14
	4.341898251197727e-08
	1.750434542645266e-06
	2.241763933463528e-07
	1.855707980015299e-01

 9	9.000000000000000e-02
	-1.060992541755915e-14
	-1.075148948283817e-18
	-2.527889465348998e-14
	4.668548374801365e-08
	1.893132071614621e-06
	2.423846528236923e-07
	1.855707994615455e-01

 10	9.999999999999999e-02
	-1.049784468945655e-14
	-1.100001256577323e-18
	-2.557434406515692e-14
	5.018145405444246e-08
	2.047806244446979e-06
	2.620789196546972e-07
	1.855708010427422e-01

 11	1.100000000000000e-01
	-1.038763461772349e-14
	-1.125378035202934e-18
	-2.586836912229887e-14
	5.392141650379494e-08
	2.215523750115641e-06
	2.833842127029276e-07
	1.855708027556193e-01

 12	1.200000000000000e-01
	-1.027931143111386e-14
	-1.151288983349185e-18
	-2.616087656402505e-14
	5.792066890973584e-08
	2.397452720362583e-06
	3.064367170461478e-07
	1.855708046116514e-01

 13	1.300000000000000e-01
	-1.017289020685517e-14
	-1.177743961424638e-18
	-2.645177492805951e-14
	6.219531333224926e-08
	2.594872536011580e-06
	3.313848467304286e-07
	1.855708066233903e-01

 14	1.400000000000000e-01
	-1.006838485043859e-14
	-1.204752994254436e-18
	-2.674097464747933e-14
	6.676228583206240e-08
	2.809184492684781e-06
	3.583904098381820e-07
	1.855708088045781e-01

 15	1.500000000000000e-01
	-9.965808078191317e-15
	-1.232326274372817e-18
	-2.702838814293065e-14
	7.163938640968862e-08
	3.041923378788175e-06
	3.876298847284448e-07
	1.855708111702566e-01

 16	1.600000000000000e-01
	-9.865171402629852e-15
	-1.260474165414408e-18
	-2.731392991014538e-14
	7.684530905966014e-08
	3.294770017970394e-06
	4.192958168333868e-07
	1.855708137369176e-01

 17	1.700000000000000e-01
	-9.766485120584408e-15
	-1.289207205607225e-18
	-2.759751660260042e-14
	8.239967186572689e-08
	3.569564826815343e-06
	4.535983459107717e-07
	1.855708165226335e-01

 18	1.800000000000000e-01
	-9.669758304075840e-15
	-1.318536111369626e-18
	-2.787906710917733e-14
	8.832304705771397e-08
	3.868322436172801e-06
	4.907668741483192e-07
	1.855708195472242e-01

 19	1.900000000000000e-01
	-9.574998793917832e-15
	-1.348471781014274e-18
	-2.815850262670090e-14
	9.463699094559015e-08
	4.193247421139639e-06
	5.310518859839985e-07
	1.855708228324345e-01

 20	2.000000000000000e-01
	-9.482213196008560e-15
	-1.379025298562138e-18
	-2.843574672725284e-14
	1.013640736409674e-07
	4.546751180135883e-06
	5.747269309344232e-07
	1.855708264021360e-01

 21	2.100000000000000e-01
	-9.391406880267926e-15
	-1.410207937668739e-18
	-2.871072542017784e-14
	1.085279084707065e-07
	4.931469997633797e-06
	6.220907810995324e-07
	1.855708302825269e-01

 22	2.200000000000001e-01
	-9.302583982169280e-15
	-1.442031165666197e-18
	-2.898336720871431e-14
	1.161531809815995e-07
	5.350284317745908e-06
	6.734697753215333e-07
	1.855708345023833e-01

 23	2.300000000000001e-01
	-9.215747406805982e-15
	-1.474506647723780e-18
	-2.925360314120608e-14
	1.242656774291979e-07
	5.806339246914186e-06
	7.292203622047561e-07
	1.855708390933041e-01

 24	2.400000000000001e-01
	-9.130898835427652e-15
	-1.507646251129611e-18
	-2.952136685686539e-14
	1.328923126376961e-07
	6.303066293212293e-06
	7.897318543328151e-07
	1.855708440900024e-01

 25	2.500000000000001e-01
	-9.048038734373004e-15
	-1.541462049697468e-18
	-2.978659462607923e-14
	1.420611571114597e-07
	6.844206337137375e-06
	8.554294060329435e-07
	1.855708495306198e-01

 26	2.600000000000001e-01
	-8.967166366320761e-15
	-1.575966328300637e-18
	-3.004922538526797e-14
	1.518014632722187e-07
	7.433833814085560e-06
	9.267772269141788e-07
	1.855708554570490e-01

 27	2.700000000000001e-01
	-8.888279803774707e-15
	-1.611171587536989e-18
	-3.030920076632146e-14
	1.621436906891421e-07
	8.076382071846687e-06
	1.004282043124859e-06
	1.855708619153197e-01

 28	2.800000000000001e-01
	-8.811375944692710e-15
	-1.647090548527966e-18
	-3.056646512065798e-14
	1.731195301620580e-07
	8.776669847316260e-06
	1.088496817814444e-06
	1.855708689559914e-01

 29	2.900000000000001e-01
	-8.736450530166187e-15
	-1.683736157854856e-18
	-3.082096553796456e-14
	1.847619265108883e-07
	9.539928785106794e-06
	1.180024741620191e-06
	1.855708766345979e-01

 30	3.000000000000001e-01
	-8.663498164051336e-15
	-1.721121592635889e-18
	-3.107265185969508e-14
	1.971050999170320e-07
	1.037183189679309e-05
	1.279523503107945e-06
	1.855708850121149e-01

 31	3.100000000000001e-01
	-8.592512334450411e-15
	-1.759260265747356e-18
	-3.132147668741649e-14
	2.101845656550051e-07
	1.127852283311526e-05
	1.387709847952726e-06
	1.855708941554907e-01

 32	3.200000000000001e-01
	-8.523485436937574e-15
	-1.798165831192519e-18
	-3.156739538610873e-14
	2.240371520450792e-07
	1.226664581260771e-05
	1.505364434225244e-06
	1.855709041381923e-01

 33	3.300000000000001e-01
	-8.456408799422162e-15
	-1.837852189621669e-18
	-3.181036608253584e-14
	2.387010164501724e-07
	1.334337601888065e-05
	1.633336989429672e-06
	1.855709150408138e-01

 34	3.400000000000001e-01
	-8.391272708539202e-15
	-1.878333494007176e-18
	-3.205034965881940e-14
	2.542156591327558e-07
	1.451645024528210e-05
	1.772551772893714e-06
	1.855709269517317e-01

 35	3.500000000000001e-01
	-8.328066437455944e-15
	-1.919624155477141e-18
	-3.228730974135675e-14
	2.706219347802793e-07
	1.579419753009443e-05
	1.924013344721936e-06
	1.855709399678022e-01

 36	3.600000000000002e-01
	-8.266778274982231e-15
	-1.961738849311893e-18
	-3.252121268523659e-14
	2.879620615006327e-07
	1.718556948803433e-05
	2.088812639767903e-06
	1.855709541951161e-01

 37	3.700000000000002e-01
	-8.207395555871455e-15
	-2.004692521106551e-18
	-3.275202755431453e-14
	3.062796270826024e-07
	1.870017000497292e-05
	2.268133341943917e-06
	1.855709697498036e-01

 38	3.800000000000002e-01
	-8.149904692199109e-15
	-2.048500393104717e-18
	-3.297972609712006e-14
	3.256195923103111e-07
	2.034828392290129e-05
	2.463258550655634e-06
	1.855709867588995e-01

 39	3.900000000000002e-01
	-8.094291205706403e-15
	-2.093177970706359e-18
	-3.320428271877346e-14
	3.460282911154891e-07
	2.214090430177405e-05
	2.675577727216112e-06
	1.855710053612564e-01

 40	4.000000000000002e-01
	-8.040539760996931e-15
	-2.138741049155288e-18
	-3.342567444909804e-14
	3.675534273472513e-07
	2.408975780458397e-05
	2.906593904756079e-06
	1.855710257085172e-01

 41	4.100000000000002e-01
	-7.988634199475552e-15
	-2.185205720409540e-18
	-3.364388090711936e-14
	3.902440679360713e-07
	2.620732771259950e-05
	3.157931140410712e-06
	1.855710479661586e-01

 42	4.200000000000002e-01
	-7.938557573920741e-15
	-2.232588380200134e-18
	-3.385888426214675e-14
	4.141506322273444e-07
	2.850687403996850e-05
	3.431342183440595e-06
	1.855710723145649e-01

 43	4.300000000000002e-01
	-7.890292183583050e-15
	-2.280905735282310e-18
	-3.407066919163746e-14
	4.393248772602032e-07
	3.100245018178624e-05
	3.728716327455393e-06
	1.855710989501792e-01

 44	4.400000000000002e-01
	-7.843819609705117e-15
	-2.330174810884063e-18
	-3.427922283604472e-14
	4.658198787698216e-07
	3.370891549829964e-05
	4.052087409087501e-06
	1.855711280866998e-01

 45	4.500000000000002e-01
	-7.799120751360884e-15
	-2.380412958357169e-18
	-3.448453475085571e-14
	4.936900076964653e-07
	3.664194321128912e-05
	4.403641909349685e-06
	1.855711599563203e-01

 46	4.600000000000002e-01
	-7.756175861515251e-15
	-2.431637863035415e-18
	-3.468659685602304e-14
	5.229909019923351e-07
	3.981802296804448e-05
	4.785727107559939e-06
	1.855711948110369e-01

 47	4.700000000000003e-01
	-7.714964583207810e-15
	-2.483867552305857e-18
	-3.488540338299652e-14
	5.537794335283477e-07
	4.325445741500086e-05
	5.200859231196172e-06
	1.855712329239675e-01

 48	4.800000000000003e-01
	-7.675465985768300e-15
	-2.537120403897298e-18
	-3.508095081956000e-14
	5.861136699176519e-07
	4.696935211831956e-05
	5.651731538429276e-06
	1.855712745907300e-01

 49	4.900000000000003e-01
	-7.637658600975087e-15
	-2.591415154393656e-18
	-3.527323785267585e-14
	6.200528310914179e-07
	5.098159817381904e-05
	6.141222263472265e-06
	1.855713201308307e-01

 50	5.000000000000002e-01
	-7.601520459071329e-15
	-2.646770907974850e-18
	-3.546226530953994e-14
	6.556572404855557e-07
	5.531084686495214e-05
	6.672402348376545e-06
	1.855713698890756e-01

 51	5.100000000000002e-01
	-7.567029124557948e-15
	-2.703207145395001e-18
	-3.564803609704449e-14
	6.929882707248846e-07
	5.997747575624398e-05
	7.248542878625377e-06
	1.855714242369838e-01

 52	5.200000000000002e-01
	-7.534161731686598e-15
	-2.760743733199966e-18
	-3.583055513984444e-14
	7.321082837243940e-07
	6.500254565186436e-05
	7.873122133947447e-06
	1.855714835741922e-01

 53	5.300000000000002e-01
	-7.502895019579656e-15
	-2.819400933193805e-18
	-3.600982931721857e-14
	7.730805651657273e-07
	7.040774790581853e-05
	8.549832160342637e-06
	1.855715483298447e-01

 54	5.400000000000003e-01
	-7.473205366908783e-15
	-2.879199412158892e-18
	-3.618586739891179e-14
	8.159692533512972e-07
	7.621534164236612e-05
	9.282584764525197e-06
	1.855716189639142e-01

 55	5.500000000000003e-01
	-7.445068826068389e-15
	-2.940160251836835e-18
	-3.635867998014010e-14
	8.608392624884541e-07
	8.244808053327710e-05
	1.007551682800259e-05
	1.855716959685049e-01

 56	5.600000000000003e-01
	-7.418461156783796e-15
	-3.002304959177479e-18
	-3.652827941593385e-14
	9.077562005124051e-07
	8.912912888267396e-05
	1.093299483498718e-05
	1.855717798690462e-01

 57	5.700000000000003e-01
	-7.393357859098779e-15
	-3.065655476862534e-18
	-3.669467975499082e-14
	9.567862816187042e-07
	9.628196689035174e-05
	1.185961850643526e-05
	1.855718712253843e-01

 58	5.800000000000003e-01
	-7.369734205692050e-15
	-3.130234194111635e-18
	-3.685789667320073e-14
	1.007996233743936e-06
	1.039302851001356e-04
	1.286022343188681e-05
	1.855719706327720e-01

 59	5.900000000000003e-01
	-7.347565273474964e-15
	-3.196063957779133e-18
	-3.701794740700113e-14
	1.061453201307097e-06
	1.120978681901362e-04
	1.393988259159456e-05
	1.855720787226783e-01

 60	6.000000000000003e-01
	-7.326825974429297e-15
	-3.263168083747933e-18
	-3.717485068671287e-14
	1.117224643602708e-06
	1.208084684252245e-04
	1.510390666381097e-05
	1.855721961634449e-01

 61	6.100000000000003e-01
	-7.307491085645972e-15
	-3.331570368629828e-18
	-3.732862667000050e-14
	1.175378229320216e-06
	1.300856692668618e-04
	1.635784301618242e-05
	1.855723236607386e-01

 62	6.200000000000003e-01
	-7.289535278530884e-15
	-3.401295101781370e-18
	-3.747929687559334e-14
	1.235981727751570e-06
	1.399527398191586e-04
	1.770747328607465e-05
	1.855724619577542e-01

 63	6.300000000000003e-01
	-7.272933147148168e-15
	-3.472367077641968e-18
	-3.762688411739615e-14
	1.299102897338778e-06
	1.504324809798044e-04
	1.915880946239667e-05
	1.855726118351976e-01

 64	6.400000000000003e-01
	-7.257659235674111e-15
	-3.544811608405703e-18
	-3.777141243911226e-14
	1.364809372305742e-06
	1.615470643570286e-04
	2.071808839115760e-05
	1.855727741109490e-01

 65	6.500000000000004e-01
	-7.243688064940205e-15
	-3.618654537033942e-18
	-3.791290704949222e-14
	1.433168548210883e-06
	1.733178652051251e-04
	2.239176463856976e-05
	1.855729496394651e-01

 66	6.600000000000004e-01
	-7.230994158045804e-15
	-3.693922250620916e-18
	-3.805139425831641e-14
	1.504247467349268e-06
	1.857652908172971e-04
	2.418650165899792e-05
	1.855731393108170e-01

 67	6.700000000000004e-01
	-7.219552065026099e-15
	-3.770641694119759e-18
	-3.818690141321060e-14
	1.578112705022178e-06
	1.989086059910463e-04
	2.610916123034235e-05
	1.855733440494178e-01

 68	6.800000000000004e-01
	-7.209336386562904e-15
	-3.848840384441630e-18
	-3.831945683738716e-14
	1.654830257777745e-06
	2.127657573436013e-04
	2.816679113644585e-05
	1.855735648123568e-01

 69	6.900000000000004e-01
	-7.200321796730571e-15
	-3.928546424936601e-18
	-3.844908976839699e-14
	1.734465434805756e-06
	2.273531983980838e-04
	3.036661109463290e-05
	1.855738025873896e-01

 70	7.000000000000004e-01
	-7.192483064771116e-15
	-4.009788520269316e-18
	-3.857583029797053e-14
	1.817082753742207e-06
	2.426857174807639e-04
	3.271599694633777e-05
	1.855740583905457e-01

 71	7.100000000000004e-01
	-7.185795075896212e-15
	-4.092595991699091e-18
	-3.869970931301901e-14
	1.902745842202041e-06
	2.587762705613534e-04
	3.522246314967922e-05
	1.855743332633379e-01

 72	7.200000000000004e-01
	-7.180232851116511e-15
	-4.176998792777052e-18
	-3.882075843786066e-14
	1.991517346410582e-06
	2.756358212277720e-04
	3.789364363449693e-05
	1.855746282696163e-01

 73	7.300000000000004e-01
	-7.175771566101459e-15
	-4.263027525472504e-18
	-3.893900997772893e-14
	2.083458848343547e-06
	2.932731900106868e-04
	4.073727110244254e-05
	1.855749444920544e-01

 74	7.400000000000004e-01
	-7.172386569074540e-15
	-4.350713456741278e-18
	-3.905449686361526e-14
	2.178630792811477e-06
	3.116949152584745e-04
	4.376115487684449e-05
	1.855752830282733e-01

 75	7.500000000000004e-01
	-7.170053397752263e-15
	-4.440088535547261e-18
	-3.916725259849108e-14
	2.277092425934494e-06
	3.309051277079365e-04
	4.697315742883161e-05
	1.855756449866582e-01

 76	7.600000000000005e-01
	-7.168747795336678e-15
	-4.531185410353029e-18
	-3.927731120494817e-14
	2.378901746447878e-06
	3.509054407990456e-04
	5.038116972720996e-05
	1.855760314818762e-01

 77	7.700000000000005e-01
	-7.168445725573029e-15
	-4.624037447090629e-18
	-3.938470717429181e-14
	2.484115471256969e-06
	3.716948586430180e-04
	5.399308557941383e-05
	1.855764436301329e-01

 78	7.800000000000005e-01
	-7.169123386886730e-15
	-4.718678747629073e-18
	-3.948947541711427e-14
	2.592789016620446e-06
	3.932697033729834e-04
	5.781677514906793e-05
	1.855768825442116e-01

 79	7.900000000000005e-01
	-7.170757225615240e-15
	-4.815144168750499e-18
	-3.959165121537134e-14
	2.704976496285547e-06
	4.156235633876043e-04
	6.186005785192275e-05
	1.855773493283676e-01

 80	8.000000000000005e-01
	-7.173323948351267e-15
	-4.913469341652087e-18
	-3.969127017598083e-14
	2.820730737826793e-06
	4.387472637433166e-04
	6.613067484577374e-05
	1.855778450730899e-01

 81	8.100000000000005e-01
	-7.176800533416318e-15
	-5.013690691988763e-18
	-3.978836818595557e-14
	2.940103318352716e-06
	4.626288596646110e-04
	7.063626134110462e-05
	1.855783708498129e-01

 82	8.200000000000005e-01
	-7.181164241484017e-15
	-5.115845460471092e-18
	-3.988298136907977e-14
	3.063144620644220e-06
	4.872536538292496e-04
	7.538431896732477e-05
	1.855789277056518e-01

 83	8.300000000000005e-01
	-7.186392625374277e-15
	-5.219971724036526e-18
	-3.997514604413354e-14
	3.189903910675800e-06
	5.126042377526094e-04
	8.038218843437420e-05
	1.855795166581952e-01

 84	8.400000000000005e-01
	-7.192463539039572e-15
	-5.326108417610879e-18
	-4.006489868466637e-14
	3.320429437348148e-06
	5.386605572491327e-04
	8.563702273094956e-05
	1.855801386904375e-01

 85	8.500000000000005e-01
	-7.199355145766582e-15
	-5.434295356477130e-18
	-4.015227588031606e-14
	3.454768555131603e-06
	5.654000015966610e-04
	9.115576109860722e-05
	1.855807947459130e-01

 86	8.600000000000005e-01
	-7.207045925616093e-15
	-5.544573259268237e-18
	-4.023731429966725e-14
	3.592967870185671e-06
	5.927975156785953e-04
	9.694510401545322e-05
	1.855814857240853e-01

 87	8.700000000000006e-01
	-7.215514682125513e-15
	-5.656983771606835e-18
	-4.032005065463913e-14
	3.735073410385272e-06
	6.208257340373044e-04
	1.030114894141367e-04
	1.855822124760740e-01

 88	8.800000000000006e-01
	-7.224740548298124e-15
	-5.771569490407080e-18
	-4.040052166639012e-14
	3.881130819551053e-06
	6.494551354473035e-04
	1.093610703465149e-04
	1.855829758007360e-01

 89	8.900000000000006e-01
	-7.234702991904050e-15
	-5.888373988861092e-18
	-4.047876403272382e-14
	4.031185576053503e-06
	6.786542163157337e-04
	1.159996942918840e-04
	1.855837764411902e-01

 90	9.000000000000006e-01
	-7.245381820118073e-15
	-6.007441842131505e-18
	-4.055481439697818e-14
	4.185283235841334e-06
	7.083896809470201e-04
	1.229328842873213e-04
	1.855846150817997e-01

 91	9.100000000000006e-01
	-7.256757183519328e-15
	-6.128818653769660e-18
	-4.062870931837767e-14
	4.343469699837311e-06
	7.386266464740996e-04
	1.301658220378263e-04
	1.855854923456676e-01

 92	9.200000000000006e-01
	-7.268809579478348e-15
	-6.252551082885038e-18
	-4.070048524382587e-14
	4.505791505552322e-06
	7.693288600649493e-04
	1.377033331409295e-04
	1.855864087926504e-01

 93	9.300000000000006e-01
	-7.281519854956783e-15
	-6.378686872087438e-18
	-4.077017848111349e-14
	4.672296142693571e-06
	8.004589258639682e-04
	1.455498745357083e-04
	1.855873649179389e-01

 94	9.400000000000006e-01
	-7.294869208744719e-15
	-6.507274876227450e-18
	-4.083782517351666e-14
	4.843032392488920e-06
	8.319785390256721e-04
	1.537095242601824e-04
	1.855883611511902e-01

 95	9.500000000000006e-01
	-7.308839193160813e-15
	-6.638365091960493e-18
	-4.090346127575675e-14
	5.018050690417718e-06
	8.638487241441304e-04
	1.621859735742952e-04
	1.855893978562226e-01

 96	9.600000000000006e-01
	-7.323411715239841e-15
	-6.772008688161900e-18
	-4.096712253129273e-14
	5.197403512031790e-06
	8.960300753757336e-04
	1.709825214786399e-04
	1.855904753312655e-01

 97	9.700000000000006e-01
	-7.338569037432228e-15
	-6.908258037218354e-18
	-4.102884445091596e-14
	5.381145781569863e-06
	9.284829955939502e-04
	1.801020716322142e-04
	1.855915938097536e-01

 98	9.800000000000006e-01
	-7.354293777839349e-15
	-7.047166747228437e-18
	-4.108866229261524e-14
	5.569335303116315e-06
	9.611679320003798e-04
	1.895471316462841e-04
	1.855927534616196e-01

 99	9.900000000000007e-01
	-7.370568910008574e-15
	-7.188789695138611e-18
	-4.114661104268021e-14
	5.762033214130501e-06
	9.940456057430009e-04
	1.993198147062391e-04
	1.855939543950914e-01

 100	1.000000000000001e+00
	-7.387377762310996e-15
	-7.333183060847228e-18
	-4.120272539800941e-14
	5.959304461278596e-06
	1.027077233256297e-03
	2.094218434496700e-04
	1.855951966589218e-01

 101	1.010000000000001e+00
	-7.404704016924428e-15
	-7.480404362310182e-18
	-4.125703974958934e-14
