Title: ** sch_path: /home/andylithia/openmpw/project-yatsuhashi-chip1/xschem/gmid_test/nmos_test.sch
Date: Sun Jul 17 22:51:45  2022
Plotname: DC transfer characteristic
Flags: real
No. Variables: 8
No. Points: 181
Variables:
	0	v(v-sweep)	voltage
	1	@m.xm1.msky130_fd_pr__nfet_01v8[cgb]	capacitance
	2	@m.xm1.msky130_fd_pr__nfet_01v8[cgd]	capacitance
	3	@m.xm1.msky130_fd_pr__nfet_01v8[cgs]	capacitance
	4	@m.xm1.msky130_fd_pr__nfet_01v8[gds]	admittance
	5	@m.xm1.msky130_fd_pr__nfet_01v8[gm]	admittance
	6	i(@m.xm1.msky130_fd_pr__nfet_01v8[id])	current
	7	v(@m.xm1.msky130_fd_pr__nfet_01v8[vth])	voltage
Values:
 0	0.000000000000000e+00
	-1.359281133511376e-14
	-7.402506483989346e-18
	-2.736111577241945e-14
	3.973661147422254e-08
	1.262421824258588e-06
	1.657937763941809e-07
	1.730418845496427e-01

 1	1.000000000000000e-02
	-1.344750173052304e-14
	-7.598999172434936e-18
	-2.770840996834967e-14
	4.270861232478099e-08
	1.362290240538728e-06
	1.789108698268203e-07
	1.730418861322233e-01

 2	2.000000000000000e-02
	-1.330421138349377e-14
	-7.800880404621106e-18
	-2.805489184764827e-14
	4.589099382530451e-08
	1.470236941844405e-06
	1.930664864639610e-07
	1.730418878401153e-01

 3	3.000000000000000e-02
	-1.316296547092031e-14
	-8.008305949941959e-18
	-2.840045017775894e-14
	4.929747208319585e-08
	1.586953660424824e-06
	2.083448165043434e-07
	1.730418896834779e-01

 4	4.000000000000000e-02
	-1.302378820223692e-14
	-8.221436477068045e-18
	-2.874497473283325e-14
	5.294254983549811e-08
	1.713196476748697e-06
	2.248372841104327e-07
	1.730418916733414e-01

 5	5.000000000000000e-02
	-1.288670277758529e-14
	-8.440437725478217e-18
	-2.908835641791663e-14
	5.684155269715574e-08
	1.849792196572944e-06
	2.426432222726215e-07
	1.730418938217002e-01

 6	6.000000000000000e-02
	-1.275173134849549e-14
	-8.665480683687151e-18
	-2.943048739053636e-14
	6.101066645163542e-08
	1.997645350766501e-06
	2.618706145144532e-07
	1.730418961415818e-01

 7	7.000000000000001e-02
	-1.261889498114478e-14
	-8.896741774449532e-18
	-2.977126117941609e-14
	6.546697537885421e-08
	2.157745870313175e-06
	2.826369099259158e-07
	1.730418986471624e-01

 8	8.000000000000000e-02
	-1.248821362224901e-14
	-9.134403047247639e-18
	-3.011057280005666e-14
	7.022850161417684e-08
	2.331177491647880e-06
	3.050699185500544e-07
	1.730419013538703e-01

 9	9.000000000000000e-02
	-1.235970606763412e-14
	-9.378652378377157e-18
	-3.044831886693227e-14
	7.531424553105196e-08
	2.519126950070606e-06
	3.293087947125495e-07
	1.730419042785002e-01

 10	9.999999999999999e-02
	-1.223338993352704e-14
	-9.629683678962384e-18
	-3.078439770206240e-14
	8.074422713891384e-08
	2.722894021377851e-06
	3.555051164735471e-07
	1.730419074393477e-01

 11	1.100000000000000e-01
	-1.210928163059622e-14
	-9.887697111245487e-18
	-3.111870943973561e-14
	8.653952848714849e-08
	2.943902473983652e-06
	3.838240699933023e-07
	1.730419108563515e-01

 12	1.200000000000000e-01
	-1.198739634076384e-14
	-1.015289931351704e-17
	-3.145115612717376e-14
	9.272233706524564e-08
	3.183711995596359e-06
	4.144457482350714e-07
	1.730419145512500e-01

 13	1.300000000000000e-01
	-1.186774799680352e-14
	-1.042550363406550e-17
	-3.178164182094035e-14
	9.931599018879996e-08
	3.444031159890394e-06
	4.475665740765810e-07
	1.730419185477539e-01

 14	1.400000000000000e-01
	-1.175034926472825e-14
	-1.070573037454433e-17
	-3.211007267891187e-14
	1.063450203607577e-07
	3.726731499469666e-06
	4.834008585604409e-07
	1.730419228717342e-01

 15	1.500000000000000e-01
	-1.163521152896520e-14
	-1.099380704317625e-17
	-3.243635704764805e-14
	1.138352015971939e-07
	4.033862751658879e-06
	5.221825056784697e-07
	1.730419275514278e-01

 16	1.600000000000000e-01
	-1.152234488030571e-14
	-1.128996861823089e-17
	-3.276040554501096e-14
	1.218135967070823e-07
	4.367669343167810e-06
	5.641668757483523e-07
	1.730419326176649e-01

 17	1.700000000000000e-01
	-1.141175810661035e-14
	-1.159445782223709e-17
	-3.308213113790296e-14
	1.303086055158663e-07
	4.730608178329403e-06
	6.096328200954064e-07
	1.730419381041074e-01

 18	1.800000000000000e-01
	-1.130345868624130e-14
	-1.190752540740759e-17
	-3.340144921500648e-14
	1.393500140232497e-07
	5.125367793281995e-06
	6.588849003881974e-07
	1.730419440475287e-01

 19	1.900000000000000e-01
	-1.119745278418594e-14
	-1.222943045278504e-17
	-3.371827765443020e-14
	1.489690444864971e-07
	5.554888935010645e-06
	7.122558065841360e-07
	1.730419504880913e-01

 20	2.000000000000000e-01
	-1.109374525082880e-14
	-1.256044067363467e-17
	-3.403253688617935e-14
	1.591984064216476e-07
	6.022386619427499e-06
	7.701089880072779e-07
	1.730419574696828e-01

 21	2.100000000000000e-01
	-1.099233962332082e-14
	-1.290083274364233e-17
	-3.434414994938887e-14
	1.700723485164981e-07
	6.531373716506068e-06
	8.328415125928506e-07
	1.730419650402448e-01

 22	2.200000000000001e-01
	-1.089323812948910e-14
	-1.325089263049641e-17
	-3.465304254427186e-14
	1.816267114508701e-07
	7.085686102715643e-06
	9.008871697749362e-07
	1.730419732521594e-01

 23	2.300000000000001e-01
	-1.079644169422235e-14
	-1.361091594546916e-17
	-3.495914307875670e-14
	1.938989816218876e-07
	7.689509411473686e-06
	9.747198328502321e-07
	1.730419821626463e-01

 24	2.400000000000001e-01
	-1.070194994826278e-14
	-1.398120830763306e-17
	-3.526238270979877e-14
	2.069283457742533e-07
	8.347407400860963e-06
	1.054857096901285e-06
	1.730419918342110e-01

 25	2.500000000000001e-01
	-1.060976123932748e-14
	-1.436208572339080e-17
	-3.556269537937356e-14
	2.207557465385815e-07
	9.064351944270561e-06
	1.141864208488978e-06
	1.730420023351141e-01

 26	2.600000000000001e-01
	-1.051987264547893e-14
	-1.475387498202068e-17
	-3.586001784517057e-14
	2.354239388840328e-07
	9.845754633807579e-06
	1.236358303302435e-06
	1.730420137398865e-01

 27	2.700000000000001e-01
	-1.043227999065720e-14
	-1.515691406798036e-17
	-3.615428970602558e-14
	2.509775474955043e-07
	1.069749996797099e-05
	1.339012967762850e-06
	1.730420261298785e-01

 28	2.800000000000001e-01
	-1.034697786228429e-14
	-1.557155259074927e-17
	-3.644545342214234e-14
	2.674631250900397e-07
	1.162598007428044e-05
	1.450563140189977e-06
	1.730420395938546e-01

 29	2.900000000000001e-01
	-1.026395963084485e-14
	-1.599815223302376e-17
	-3.673345433017034e-14
	2.849292116924072e-07
	1.263813089392717e-05
	1.571810366530047e-06
	1.730420542286322e-01

 30	3.000000000000001e-01
	-1.018321747134520e-14
	-1.643708721812695e-17
	-3.701824065321964e-14
	3.034263948958646e-07
	1.374146972912857e-05
	1.703628424784331e-06
	1.730420701397498e-01

 31	3.100000000000001e-01
	-1.010474238654957e-14
	-1.688874479753282e-17
	-3.729976350590462e-14
	3.230073711410306e-07
	1.494413402455486e-05
	1.846969331138193e-06
	1.730420874422075e-01

 32	3.200000000000001e-01
	-1.002852423188860e-14
	-1.735352575945311e-17
	-3.757797689452520e-14
	3.437270080540513e-07
	1.625492122195635e-05
	2.002869739344973e-06
	1.730421062612338e-01

 33	3.300000000000001e-01
	-9.954551741934724e-15
	-1.783184495948352e-17
	-3.785283771250146e-14
	3.656424078946346e-07
	1.768332949192559e-05
	2.172457743134591e-06
	1.730421267331058e-01

 34	3.400000000000001e-01
	-9.882812558335910e-15
	-1.832413187435314e-17
	-3.812430573119152e-14
	3.888129721754822e-07
	1.923959910865072e-05
	2.356960089266198e-06
	1.730421490060309e-01

 35	3.500000000000001e-01
	-9.813293259098523e-15
	-1.883083117988267e-17
	-3.839234358623240e-14
	4.133004675274439e-07
	2.093475419266861e-05
	2.557709806299403e-06
	1.730421732410547e-01

 36	3.600000000000002e-01
	-9.745979389110104e-15
	-1.935240335429709e-17
	-3.865691675955020e-14
	4.391690928995103e-07
	2.278064450317873e-05
	2.776154251190274e-06
	1.730421996130536e-01

 37	3.700000000000002e-01
	-9.680855491790284e-15
	-1.988932530812198e-17
	-3.891799355719963e-14
	4.664855482000589e-07
	2.478998691571930e-05
	3.013863572405598e-06
	1.730422283117408e-01

 38	3.800000000000002e-01
	-9.617905141761220e-15
	-2.044209104192945e-17
	-3.917554508319416e-14
	4.953191045057281e-07
	2.697640617325847e-05
	3.272539584365781e-06
	1.730422595427503e-01

 39	3.900000000000002e-01
	-9.557110978426328e-15
	-2.101121233328697e-17
	-3.942954520950053e-14
	5.257416759876392e-07
	2.935447444948916e-05
	3.554025043659848e-06
	1.730422935287521e-01

 40	4.000000000000002e-01
	-9.498454740349321e-15
	-2.159721945431576e-17
	-3.967997054237307e-14
	5.578278937316285e-07
	3.193974921286715e-05
	3.860313312609226e-06
	1.730423305106292e-01

 41	4.100000000000002e-01
	-9.441917300325491e-15
	-2.220066192135284e-17
	-3.992680038521036e-14
	5.916551816605375e-07
	3.474880882938215e-05
	4.193558390387040e-06
	1.730423707486857e-01

 42	4.200000000000002e-01
	-9.387478701038969e-15
	-2.282210927827599e-17
	-4.017001669812099e-14
	6.273038348028009e-07
	3.779928529194996e-05
	4.556085286023474e-06
	1.730424145238963e-01

 43	4.300000000000002e-01
	-9.335118191202191e-15
	-2.346215191514114e-17
	-4.040960405438637e-14
	6.648571001933870e-07
	4.110989341558893e-05
	4.950400701257889e-06
	1.730424621392148e-01

 44	4.400000000000002e-01
	-9.284814262075096e-15
	-2.412140192386437e-17
	-4.064554959401419e-14
	7.044012607416679e-07
	4.470045579119729e-05
	5.379203984352584e-06
	1.730425139208761e-01

 45	4.500000000000002e-01
	-9.236544684265198e-15
	-2.480049399277093e-17
	-4.087784297457419e-14
	7.460257224561050e-07
	4.859192274789646e-05
	5.845398308687085e-06
	1.730425702197697e-01

 46	4.600000000000002e-01
	-9.190286544711127e-15
	-2.550008634193211e-17
	-4.110647631951221e-14
	7.898231054798777e-07
	5.280638653584565e-05
	6.352102022255147e-06
	1.730426314127951e-01

 47	4.700000000000003e-01
	-9.146016283756456e-15
	-2.622086170130700e-17
	-4.133144416413589e-14
	8.358893394645372e-07
	5.736708890944085e-05
	6.902660106132977e-06
	1.730426979042596e-01

 48	4.800000000000003e-01
	-9.103709732223180e-15
	-2.696352833382422e-17
	-4.155274339946633e-14
	8.843237638927550e-07
	6.229842126639536e-05
	7.500655671655237e-06
	1.730427701272573e-01

 49	4.900000000000003e-01
	-9.063342148397452e-15
	-2.772882110563116e-17
	-4.177037321414839e-14
	9.352292340566467e-07
	6.762591648279649e-05
	8.149921417499386e-06
	1.730428485450609e-01

 50	5.000000000000002e-01
	-9.024888254844613e-15
	-2.851750260588080e-17
	-4.198433503460986e-14
	9.887122335070239e-07
	7.337623157944252e-05
	8.854550959243989e-06
	1.730429336524865e-01

 51	5.100000000000002e-01
	-8.988322274973013e-15
	-2.933036431852866e-17
	-4.219463246365808e-14
	1.044882993912307e-06
	7.957712036211028e-05
	9.618909935341785e-06
	1.730430259772355e-01

 52	5.200000000000002e-01
	-8.953617969271073e-15
	-3.016822784876801e-17
	-4.240127121769872e-14
	1.103855623405572e-06
	8.625739519943866e-05
	1.044764678496508e-05
	1.730431260811960e-01

 53	5.300000000000002e-01
	-8.920748671145111e-15
	-3.103194620684460e-17
	-4.260425906275853e-14
	1.165748244656160e-06
	9.344687713831971e-05
	1.134570308498507e-05
	1.730432345616865e-01

 54	5.400000000000003e-01
	-8.889687322289874e-15
	-3.192240515215985e-17
	-4.280360574948877e-14
	1.230683144079914e-06
	1.011763336094132e-04
	1.231832332559307e-05
	1.730433520526388e-01

 55	5.500000000000003e-01
	-8.860406507527884e-15
	-3.284052460072088e-17
	-4.299932294732228e-14
	1.298786933801980e-06
	1.094774030458704e-04
	1.337106399693636e-05
	1.730434792256931e-01

 56	5.600000000000003e-01
	-8.832878489056702e-15
	-3.378726009915022e-17
	-4.319142417795254e-14
	1.370190728209954e-06
	1.183825058275491e-04
	1.450980185280461e-05
	1.730436167911872e-01

 57	5.700000000000003e-01
	-8.807075240048978e-15
	-3.476360436865664e-17
	-4.337992474829630e-14
	1.445030337185497e-06
	1.279247410716506e-04
	1.574074121205587e-05
	1.730437654990346e-01

 58	5.800000000000003e-01
	-8.782968477552547e-15
	-3.577058892253270e-17
	-4.356484168309684e-14
	1.523446478381794e-06
	1.381377689192017e-04
	1.707042015431255e-05
	1.730439261394729e-01

 59	5.900000000000003e-01
	-8.760529694642872e-15
	-3.680928576094963e-17
	-4.374619365731930e-14
	1.605585011225176e-06
	1.490556781151593e-04
	1.850571546368621e-05
	1.730440995436547e-01

 60	6.000000000000003e-01
	-8.739730191783522e-15
	-3.788080914702242e-17
	-4.392400092848210e-14
	1.691597195664533e-06
	1.607128388476836e-04
	2.005384617310108e-05
	1.730442865840644e-01

 61	6.100000000000003e-01
	-8.720541107354759e-15
	-3.898631746831934e-17
	-4.409828526906317e-14
	1.781639979075210e-06
	1.731437409983894e-04
	2.172237556237104e-05
	1.730444881747562e-01

 62	6.200000000000003e-01
	-8.702933447313503e-15
	-4.012701518822588e-17
	-4.426906989911321e-14
	1.875876315148169e-06
	1.863828181587074e-04
	2.351921146572380e-05
	1.730447052713811e-01

 63	6.300000000000003e-01
	-8.686878113952491e-15
	-4.130415489181206e-17
	-4.443637941920043e-14
	1.974475519064010e-06
	2.004642579858042e-04
	2.545260474911379e-05
	1.730449388710036e-01

 64	6.400000000000003e-01
	-8.672345933729130e-15
	-4.251903943109439e-17
	-4.460023974380591e-14
	2.077613663769599e-06
	2.154217997022805e-04
	2.753114582456990e-05
	1.730451900116667e-01

 65	6.500000000000004e-01
	-8.659307684138828e-15
	-4.377302417485444e-17
	-4.476067803528134e-14
	2.185474022746616e-06
	2.312885197838402e-04
	2.976375907808267e-05
	1.730454597717138e-01

 66	6.600000000000004e-01
	-8.647734119610559e-15
	-4.506751936844855e-17
	-4.491772263847383e-14
	2.298247565292010e-06
	2.480966071245510e-04
	3.215969509922800e-05
	1.730457492688463e-01

 67	6.700000000000004e-01
	-8.637595996405911e-15
	-4.640399260934823e-17
	-4.507140301611598e-14
	2.416133511026568e-06
	2.658771292159606e-04
	3.472852061488978e-05
	1.730460596588980e-01

 68	6.800000000000004e-01
	-8.628864096505683e-15
	-4.778397144444583e-17
	-4.522174968507300e-14
	2.539339951115402e-06
	2.846597911192471e-04
	3.748010604605054e-05
	1.730463921343317e-01

 69	6.900000000000004e-01
	-8.621509250471527e-15
	-4.920904609549986e-17
	-4.536879415353114e-14
	2.668084544532936e-06
	3.044726892437936e-04
	4.042461062563409e-05
	1.730467479224379e-01

 70	7.000000000000004e-01
	-8.615502359272393e-15
	-5.068087231943444e-17
	-4.551256885920611e-14
	2.802595298642502e-06
	3.253420621653205e-04
	4.357246503665752e-05
	1.730471282832345e-01

 71	7.100000000000004e-01
	-8.610814415068782e-15
	-5.220117441056112e-17
	-4.565310710864261e-14
	2.943111444399840e-06
	3.472920409165478e-04
	4.693435155334135e-05
	1.730475345070688e-01

 72	7.200000000000004e-01
	-8.607416520949869e-15
	-5.377174835219538e-17
	-4.579044301767098e-14
	3.089884417642034e-06
	3.703444013573088e-04
	5.052118169307810e-05
	1.730479679119217e-01

 73	7.300000000000004e-01
	-8.605279909621315e-15
	-5.539446512552818e-17
	-4.592461145307944e-14
	3.243178959205692e-06
	3.945183213736918e-04
	5.434407141401317e-05
	1.730484298404085e-01

 74	7.400000000000004e-01
	-8.604375961043313e-15
	-5.707127418402762e-17
	-4.605564797555573e-14
	3.403274348046692e-06
	4.198301457615100e-04
	5.841431392106646e-05
	1.730489216565095e-01

 75	7.500000000000004e-01
	-8.604676219020945e-15
	-5.880420710213461e-17
	-4.618358878394485e-14
	3.570465783132417e-06
	4.462931617136134e-04
	6.274335017217808e-05
	1.730494447420023e-01

 76	7.600000000000005e-01
	-8.606152406750490e-15
	-6.059538140742953e-17
	-4.630847066086500e-14
	3.745065931668947e-06
	4.739173878486105e-04
	6.734273720589697e-05
	1.730500004926570e-01

 77	7.700000000000005e-01
	-8.608776441327148e-15
	-6.244700460600643e-17
	-4.643033091971761e-14
	3.927406663241936e-06
	5.027093796872600e-04
	7.222411444071975e-05
	1.730505903141613e-01

 78	7.800000000000005e-01
	-8.612520447221190e-15
	-6.436137841125458e-17
	-4.654920735312293e-14
	4.117840991725384e-06
	5.326720543994330e-04
	7.739916812528679e-05
	1.730512156178453e-01

 79	7.900000000000005e-01
	-8.617356768731127e-15
	-6.634090318684314e-17
	-4.666513818280624e-14
	4.316745249388604e-06
	5.638045375077113e-04
	8.287959414613620e-05
	1.730518778161973e-01

 80	8.000000000000005e-01
	-8.623257981423114e-15
	-6.838808261525885e-17
	-4.677816201095713e-14
	4.524521520558490e-06
	5.961020340432070e-04
	8.867705942567147e-05
	1.730525783182111e-01

 81	8.100000000000005e-01
	-8.630196902568086e-15
	-7.050552860385733e-17
	-4.688831777307743e-14
	4.741600365527936e-06
	6.295557264060430e-04
	9.480316216676917e-05
	1.730533185245920e-01

 82	8.200000000000005e-01
	-8.638146600587759e-15
	-7.269596644103047e-17
	-4.699564469233068e-14
	4.968443869211077e-06
	6.641527008895175e-04
	1.012693912215292e-04
	1.730540998228604e-01

 83	8.300000000000005e-01
	-8.647080403522385e-15
	-7.496224021575737e-17
	-4.710018223540127e-14
	5.205549053410986e-06
	6.998759044870651e-04
	1.080870848795760e-04
	1.730549235823830e-01

 84	8.400000000000005e-01
	-8.656971906533350e-15
	-7.730731851452081e-17
	-4.720197006986756e-14
	5.453451696579395e-06
	7.367041332196335e-04
	1.152673893856017e-04
	1.730557911493562e-01

 85	8.500000000000005e-01
	-8.667794978454885e-15
	-7.973430041026960e-17
	-4.730104802308933e-14
	5.712730610719538e-06
	7.746120528040960e-04
	1.228212175060916e-04
	1.730567038418256e-01

 86	8.600000000000005e-01
	-8.679523767408241e-15
	-8.224642175894129e-17
	-4.739745604260775e-14
	5.984012431744667e-06
	8.135702520384860e-04
	1.307592074711706e-04
	1.730576629447075e-01

 87	8.700000000000006e-01
	-8.692132705493839e-15
	-8.484706181978781e-17
	-4.749123415805089e-14
	6.267976987301268e-06
	8.535453288144104e-04
	1.390916826188345e-04
	1.730586697049288e-01

 88	8.800000000000006e-01
	-8.705596512575291e-15
	-8.753975021665962e-17
	-4.758242244453652e-14
	6.565363314982036e-06
	8.945000081907676e-04
	1.478286120655516e-04
	1.730597253266635e-01

 89	8.900000000000006e-01
	-8.719890199170548e-15
	-9.032817425821875e-17
	-4.767106098756007e-14
	6.876976414190447e-06
	9.363932914839620e-04
	1.569795727190494e-04
	1.730608309667399e-01

 90	9.000000000000006e-01
	-8.734989068464716e-15
	-9.321618663601529e-17
	-4.775718984935352e-14
	7.203694826926125e-06
	9.791806348582201e-04
	1.665537129362415e-04
	1.730619877302529e-01

 91	9.100000000000006e-01
	-8.750868717458847e-15
	-9.620781352027827e-17
	-4.784084903669852e-14
	7.546479156721469e-06
	1.022814155444076e-03
	1.765597181117176e-04
	1.730631966663848e-01

 92	9.200000000000006e-01
	-8.767505037269555e-15
	-9.930726307428351e-17
	-4.792207847017427e-14
	7.906381651212531e-06
	1.067242862582159e-03
	1.870057784602228e-04
	1.730644587645173e-01

 93	9.300000000000006e-01
	-8.784874212592550e-15
	-1.025189344091616e-16
	-4.800091795481979e-14
	8.284556992769901e-06
	1.112412911391665e-03
	1.978995592304800e-04
	1.730657749506062e-01

 94	9.400000000000006e-01
	-8.802952720344445e-15
	-1.058474270020825e-16
	-4.807740715218664e-14
	8.682274463707376e-06
	1.158267875504269e-03
	2.092481735577557e-04
	1.730671460839122e-01

 95	9.500000000000006e-01
	-8.821717327494968e-15
	-1.092975506018642e-16
	-4.815158555375820e-14
	9.100931678382448e-06
	1.204749035491807e-03
	2.210581581293704e-04
	1.730685729540311e-01

 96	9.600000000000006e-01
	-8.841145088102427e-15
	-1.128743356471237e-16
	-4.822349245570835e-14
	9.542070104635255e-06
	1.251795679252731e-03
	2.333354518011650e-04
	1.730700562783182e-01

 97	9.700000000000006e-01
	-8.861213339563652e-15
	-1.165830442233268e-16
	-4.829316693497221e-14
	1.000739263224584e-05
	1.299345410412564e-03
	2.460853772645186e-04
	1.730715966996529e-01

 98	9.800000000000006e-01
	-8.881899698089471e-15
	-1.204291815861908e-16
	-4.836064782659967e-14
	1.049878348729535e-05
	1.347334460636896e-03
	2.593126258231303e-04
	1.730731947846012e-01

 99	9.900000000000007e-01
	-8.903182053415388e-15
	-1.244185082801800e-16
	-4.842597370236145e-14
	1.101833083953816e-05
	1.395698001652792e-03
	2.730212452972436e-04
	1.730748510219441e-01

 100	1.000000000000001e+00
	-8.925038562757034e-15
	-1.285570528819961e-16
	-4.848918285057559e-14
	1.156835250632517e-05
	1.444370452722538e-03
	2.872146310305946e-04
	1.730765658215926e-01

 101	1.010000000000001e+00
	-8.947447644017726e-15
	-1.328511254002721e-16
	-4.855031325712329e-14
