Title: ** sch_path: /home/andylithia/openmpw/project-yatsuhashi-chip1/xschem/gmid_test/nmos_test.sch
Date: Sun Jul 17 22:51:45  2022
Plotname: DC transfer characteristic
Flags: real
No. Variables: 8
No. Points: 181
Variables:
	0	v(v-sweep)	voltage
	1	@m.xm1.msky130_fd_pr__nfet_01v8[cgb]	capacitance
	2	@m.xm1.msky130_fd_pr__nfet_01v8[cgd]	capacitance
	3	@m.xm1.msky130_fd_pr__nfet_01v8[cgs]	capacitance
	4	@m.xm1.msky130_fd_pr__nfet_01v8[gds]	admittance
	5	@m.xm1.msky130_fd_pr__nfet_01v8[gm]	admittance
	6	i(@m.xm1.msky130_fd_pr__nfet_01v8[id])	current
	7	v(@m.xm1.msky130_fd_pr__nfet_01v8[vth])	voltage
Values:
 0	0.000000000000000e+00
	-3.269407228936099e-15
	-4.688115291065570e-19
	-3.283462562675951e-15
	6.486792495660193e-09
	2.742827790002108e-07
	2.527392226909037e-08
	3.403319692073623e-01

 1	1.000000000000000e-02
	-3.232740367075217e-15
	-4.848677880009519e-19
	-3.363861021255565e-15
	7.221509687850406e-09
	3.052484061290876e-07
	2.816885978888351e-08
	3.403319695242244e-01

 2	2.000000000000000e-02
	-3.196197948238842e-15
	-5.014594468070011e-19
	-3.445041512779935e-15
	8.037151899352534e-09
	3.396520960756035e-07
	3.139034564200120e-08
	3.403319698768293e-01

 3	3.000000000000000e-02
	-3.159794856968557e-15
	-5.186032771122798e-19
	-3.526962207751499e-15
	8.942250414025099e-09
	3.778711164920578e-07
	3.497461385059945e-08
	3.403319702691422e-01

 4	4.000000000000000e-02
	-3.123546242171046e-15
	-5.363165353382661e-19
	-3.609579790747782e-15
	9.946173923903926e-09
	4.203245046177355e-07
	3.896187612818468e-08
	3.403319707055660e-01

 5	5.000000000000000e-02
	-3.087467473855182e-15
	-5.546169768550493e-19
	-3.692849544170183e-15
	1.105920100497038e-08
	4.674779541977389e-07
	4.339676351235299e-08
	3.403319711909850e-01

 6	6.000000000000000e-02
	-3.051574098866069e-15
	-5.735228706320123e-19
	-3.776725437798039e-15
	1.229259739384118e-08
	5.198493408859452e-07
	4.832881998680607e-08
	3.403319717308199e-01

 7	7.000000000000001e-02
	-3.015881795807419e-15
	-5.930530144498808e-19
	-3.861160223807645e-15
	1.365869816506857e-08
	5.780149788327683e-07
	5.381305493045262e-08
	3.403319723310957e-01

 8	8.000000000000000e-02
	-2.980406329351532e-15
	-6.132267507014305e-19
	-3.946105536878339e-15
	1.517099487535575e-08
	6.426167144334200e-07
	5.991056222361872e-08
	3.403319729984968e-01

 9	9.000000000000000e-02
	-2.945163504142575e-15
	-6.340639828081764e-19
	-4.031511998971307e-15
	1.684422770171862e-08
	7.143699779029136e-07
	6.668921497335784e-08
	3.403319737404540e-01

 10	9.999999999999999e-02
	-2.910169118503831e-15
	-6.555851922825881e-19
	-4.117329328334510e-15
	1.869448255522508e-08
	7.940729294278448e-07
	7.422444610582964e-08
	3.403319745652239e-01

 11	1.100000000000000e-01
	-2.875438918162874e-15
	-6.778114564654888e-19
	-4.203506452256485e-15
	2.073929310016125e-08
	8.826168540308847e-07
	8.260012652705341e-08
	3.403319754819862e-01

 12	1.200000000000000e-01
	-2.840988550210328e-15
	-7.007644669702975e-19
	-4.289991623065021e-15
	2.299774755024103e-08
	9.809979778001596e-07
	9.190955418642305e-08
	3.403319765009539e-01

 13	1.300000000000000e-01
	-2.806833517507940e-15
	-7.244665488664231e-19
	-4.376732536843629e-15
	2.549060004878333e-08
	1.090330897502109e-06
	1.022565692001209e-07
	3.403319776334935e-01

 14	1.400000000000000e-01
	-2.772989133759961e-15
	-7.489406806357347e-19
	-4.463676454319004e-15
	2.824038636878529e-08
	1.211863835403769e-06
	1.137568122105774e-07
	3.403319788922631e-01

 15	1.500000000000000e-01
	-2.739470479458537e-15
	-7.742105149372665e-19
	-4.550770323357533e-15
	3.127154359182932e-08
	1.346995950813094e-06
	1.265391453751146e-07
	3.403319802913696e-01

 16	1.600000000000000e-01
	-2.706292358908742e-15
	-8.003004002164710e-19
	-4.637960902497782e-15
	3.461053334224717e-08
	1.497296958654980e-06
	1.407472577870673e-07
	3.403319818465383e-01

 17	1.700000000000000e-01
	-2.673469258532248e-15
	-8.272354031972046e-19
	-4.725194884938856e-15
	3.828596806560265e-08
	1.664529322376224e-06
	1.565414797225692e-07
	3.403319835753223e-01

 18	1.800000000000000e-01
	-2.641015306640417e-15
	-8.550413322956530e-19
	-4.812419022402907e-15
	4.232873974922566e-08
	1.850673302421510e-06
	1.741008328519085e-07
	3.403319854973183e-01

 19	1.900000000000000e-01
	-2.608944234857883e-15
	-8.837447619973534e-19
	-4.899580248291622e-15
	4.677215038827087e-08
	2.057955150989772e-06
	1.936253464182648e-07
	3.403319876344192e-01

 20	2.000000000000000e-01
	-2.577269341366630e-15
	-9.133730582396502e-19
	-4.986625799563453e-15
	5.165204340491921e-08
	2.288878747044116e-06
	2.153386723158406e-07
	3.403319900111141e-01

 21	2.100000000000000e-01
	-2.546003456128119e-15
	-9.439544048443228e-19
	-5.073503336770056e-15
	5.700693513238621e-08
	2.546260960605506e-06
	2.394910349220033e-07
	3.403319926547891e-01

 22	2.200000000000001e-01
	-2.515158908227574e-15
	-9.755178310459876e-19
	-5.160161061704592e-15
	6.287814538093580e-08
	2.833271019931947e-06
	2.663625543604159e-07
	3.403319955961095e-01

 23	2.300000000000001e-01
	-2.484747495469980e-15
	-1.008093240164576e-18
	-5.246547832135342e-15
	6.930992601219882e-08
	3.153474126756136e-06
	2.962669844778113e-07
	3.403319988694243e-01

 24	2.400000000000001e-01
	-2.454780456341840e-15
	-1.041711439471717e-18
	-5.332613273120793e-15
	7.634958636256634e-08
	3.510879520590304e-06
	3.295559090616131e-07
	3.403320025132205e-01

 25	2.500000000000001e-01
	-2.425268444436827e-15
	-1.076404171303051e-18
	-5.418307884429362e-15
	8.404761427859589e-08
	3.909993130351556e-06
	3.666234415380031e-07
	3.403320065706403e-01

 26	2.600000000000001e-01
	-2.396221505426596e-15
	-1.112204145470448e-18
	-5.503583143617646e-15
	9.245779145942386e-08
	4.355874867316784e-06
	4.079114743697422e-07
	3.403320110900646e-01

 27	2.700000000000001e-01
	-2.367649056641164e-15
	-1.149145073031045e-18
	-5.588391604354395e-15
	1.016373017454702e-07
	4.854200504880288e-06
	4.539155243909559e-07
	3.403320161257366e-01

 28	2.800000000000001e-01
	-2.339559869306006e-15
	-1.187261701471410e-18
	-5.672686989612866e-15
	1.116468309514823e-07
	5.411327955214569e-06
	5.051912191159021e-07
	3.403320217384873e-01

 29	2.900000000000001e-01
	-2.311962053465728e-15
	-1.226589851368721e-18
	-5.756424279393278e-15
	1.225506568176656e-07
	6.034367588653074e-06
	5.623614663621337e-07
	3.403320279965098e-01

 30	3.000000000000001e-01
	-2.284863045607136e-15
	-1.267166454592749e-18
	-5.839559792676296e-15
	1.344167276472421e-07
	6.731256047025179e-06
	6.261243450372783e-07
	3.403320349762301e-01

 31	3.100000000000001e-01
	-2.258269598977679e-15
	-1.309029594115651e-18
	-5.922051263350461e-15
	1.473167282145685e-07
	7.510832776869718e-06
	6.972617483482698e-07
	3.403320427632537e-01

 32	3.200000000000001e-01
	-2.232187776578894e-15
	-1.352218545499530e-18
	-6.003857909898681e-15
	1.613261315666065e-07
	8.382918253249439e-06
	7.766488016968228e-07
	3.403320514533888e-01

 33	3.300000000000001e-01
	-2.206622946798710e-15
	-1.396773820134664e-18
	-6.084940498671666e-15
	1.765242354037710e-07
	9.358392582167710e-06
	8.652640658372361e-07
	3.403320611537756e-01

 34	3.400000000000001e-01
	-2.181579781631515e-15
	-1.442737210304888e-18
	-6.165261400619561e-15
	1.929941818153822e-07
	1.044927286357616e-05
	9.642005212368132e-07
	3.403320719840813e-01

 35	3.500000000000001e-01
	-2.157062257420558e-15
	-1.490151836159734e-18
	-6.244784641395712e-15
	2.108229592609533e-07
	1.166878737399140e-05
	1.074677311791291e-06
	3.403320840777870e-01

 36	3.600000000000002e-01
	-2.133073658044309e-15
	-1.539062194676990e-18
	-6.323475944788152e-15
	2.301013858320951e-07
	1.303144429650015e-05
	1.198052204980307e-06
	3.403320975835561e-01

 37	3.700000000000002e-01
	-2.109616580455841e-15
	-1.589514210703053e-18
	-6.401302769476261e-15
	2.509240730010623e-07
	1.455309239759650e-05
	1.335834701172090e-06
	3.403321126666654e-01

 38	3.800000000000002e-01
	-2.086692942473683e-15
	-1.641555290162428e-18
	-6.478234339148772e-15
	2.733893692605186e-07
	1.625097073855516e-05
	1.489699697196979e-06
	3.403321295105080e-01

 39	3.900000000000002e-01
	-2.064303992712397e-15
	-1.695234375532241e-18
	-6.554241666057782e-15
	2.975992832843406e-07
	1.814374423004113e-05
	1.661501578752286e-06
	3.403321483181297e-01

 40	4.000000000000002e-01
	-2.042450322532664e-15
	-1.750602003681635e-18
	-6.629297568119126e-15
	3.236593864895684e-07
	2.025152161065669e-05
	1.853288583091809e-06
	3.403321693138102e-01

 41	4.100000000000002e-01
	-2.021131879883259e-15
	-1.807710366181694e-18
	-6.703376679703001e-15
	3.516786951533582e-07
	2.259585227312194e-05
	2.067317238403151e-06
	3.403321927446362e-01

 42	4.200000000000002e-01
	-2.000347984901177e-15
	-1.866613372195286e-18
	-6.776455456290074e-15
	3.817695325329734e-07
	2.519969829672968e-05
	2.306066650097273e-06
	3.403322188820710e-01

 43	4.300000000000002e-01
	-1.980097347131370e-15
	-1.927366714062198e-18
	-6.848512173196569e-15
	4.140473717486483e-07
	2.808737809269397e-05
	2.572252367955112e-06
	3.403322480234762e-01

 44	4.400000000000002e-01
	-1.960378084223890e-15
	-1.990027935700306e-18
	-6.919526918597955e-15
	4.486306605142482e-07
	3.128447825003888e-05
	2.868839532926442e-06
	3.403322804935503e-01

 45	4.500000000000002e-01
	-1.941187741963947e-15
	-2.054656503949594e-18
	-6.989481581103326e-15
	4.856406291345948e-07
	3.481773050142855e-05
	3.199054969779012e-06
	3.403323166456434e-01

 46	4.600000000000002e-01
	-1.922523315489255e-15
	-2.121313882990672e-18
	-7.058359832152419e-15
	5.252010835255314e-07
	3.871485122467194e-05
	3.566397863331855e-06
	3.403323568629473e-01

 47	4.700000000000003e-01
	-1.904381271548788e-15
	-2.190063611977829e-18
	-7.126147103524766e-15
	5.674381853475058e-07
	4.300434156506604e-05
	3.974648633372077e-06
	3.403324015594445e-01

 48	4.800000000000003e-01
	-1.886757571658328e-15
	-2.260971386031180e-18
	-7.192830560263545e-15
	6.124802216681807e-07
	4.771524710785011e-05
	4.427875608289089e-06
	3.403324511806589e-01

 49	4.900000000000003e-01
	-1.869647696010001e-15
	-2.334105140741411e-18
	-7.258399069328611e-15
	6.604573668779844e-07
	5.287687704230574e-05
	4.930439091696265e-06
	3.403325062040875e-01

 50	5.000000000000002e-01
	-1.853046667996043e-15
	-2.409535140346332e-18
	-7.322843164300705e-15
	7.115014398655731e-07
	5.851848392337961e-05
	5.486992421445346e-06
	3.403325671393203e-01

 51	5.100000000000002e-01
	-1.836949079210772e-15
	-2.487334069747475e-18
	-7.386155006464733e-15
	7.657456597107421e-07
	6.466890642717465e-05
	6.102479637884244e-06
	3.403326345277896e-01

 52	5.200000000000002e-01
	-1.821349114799235e-15
	-2.567577130542752e-18
	-7.448328342602667e-15
	8.233244033615766e-07
	7.135617887688960e-05
	6.782129409045945e-06
	3.403327089420920e-01

 53	5.300000000000002e-01
	-1.806240579026231e-15
	-2.650342141259019e-18
	-7.509358459826903e-15
	8.843729689225029e-07
	7.860711273965099e-05
	7.531444905358869e-06
	3.403327909848908e-01

 54	5.400000000000003e-01
	-1.791616920945157e-15
	-2.735709641979069e-18
	-7.569242137783088e-15
	9.490273482833614e-07
	8.644685670747714e-05
	8.356189375613809e-06
	3.403328812873259e-01

 55	5.500000000000003e-01
	-1.777471260052362e-15
	-2.823763003565855e-18
	-7.627977598547044e-15
	1.017424012859170e-06
	9.489844331572020e-05
	9.262367248881495e-06
	3.403329805069462e-01

 56	5.600000000000003e-01
	-1.763796411819354e-15
	-2.914588541697043e-18
	-7.685564454534630e-15
	1.089699716181383e-06
	1.039823312542879e-04
	1.025620067280831e-05
	3.403330893251377e-01

 57	5.700000000000003e-01
	-1.750584913002151e-15
	-3.008275635934402e-18
	-7.742003654735208e-15
	1.165991316979602e-06
	1.137159535242427e-04
	1.134410149549629e-05
	3.403332084440547e-01

 58	5.800000000000003e-01
	-1.737829046634306e-15
	-3.104916854063890e-18
	-7.797297429570092e-15
	1.246435626217001e-06
	1.241132823216825e-04
	1.253263880363876e-05
	3.403333385830592e-01

 59	5.900000000000003e-01
	-1.725520866617408e-15
	-3.204608081952900e-18
	-7.851449234666502e-15
	1.331169281292986e-06
	1.351844219355488e-04
	1.382850224074986e-05
	3.403334804747019e-01

 60	6.000000000000003e-01
	-1.713652221830348e-15
	-3.307448659186022e-18
	-7.904463693825456e-15
	1.420328650307168e-06
	1.469352409808328e-04
	1.523846144272142e-05
	3.403336348602863e-01

 61	6.100000000000003e-01
	-1.702214779686021e-15
	-3.413541520753163e-18
	-7.956346541449230e-15
	1.514049768895144e-06
	1.593670549226862e-04
	1.676932203968730e-05
	3.403338024850351e-01

 62	6.200000000000003e-01
	-1.691200049071614e-15
	-3.522993345077661e-18
	-8.007104564679863e-15
	1.612468311707491e-06
	1.724763690670591e-04
	1.842787877917550e-05
	3.403339840929643e-01

 63	6.300000000000003e-01
	-1.680599402615735e-15
	-3.635914708688962e-18
	-8.056745545486150e-15
	1.715719600121436e-06
	1.862546910066122e-04
	2.022086642167620e-05
	3.403341804215065e-01

 64	6.400000000000003e-01
	-1.670404098232992e-15
	-3.752420247859010e-18
	-8.105278202921334e-15
	1.823938647262677e-06
	2.006884199442067e-04
	2.215490914207994e-05
	3.403343921959599e-01

 65	6.500000000000004e-01
	-1.660605299903271e-15
	-3.872628827539647e-18
	-8.152712135758703e-15
	1.937260240888694e-06
	2.157588184183624e-04
	2.423646923537744e-05
	3.403346201238862e-01

 66	6.600000000000004e-01
	-1.651194097649919e-15
	-3.996663717956466e-18
	-8.199057765696846e-15
	2.055819064162232e-06
	2.314420697924958e-04
	2.647179596957905e-05
	3.403348648894923e-01

 67	6.700000000000004e-01
	-1.642161526687215e-15
	-4.124652779233076e-18
	-8.244326281310852e-15
	2.179749853839992e-06
	2.477094225246722e-04
	2.886687545073185e-05
	3.403351271481607e-01

 68	6.800000000000004e-01
	-1.633498585713735e-15
	-4.256728654440884e-18
	-8.288529582910559e-15
	2.309187594935979e-06
	2.645274198010746e-04
	3.142738236287107e-05
	3.403354075211509e-01

 69	6.900000000000004e-01
	-1.625196254333967e-15
	-4.393028971490944e-18
	-8.331680228451668e-15
	2.444267750504241e-06
	2.818582106940669e-04
	3.415863441929977e-05
	3.403357065906234e-01

 70	7.000000000000004e-01
	-1.617245509596005e-15
	-4.533696554306594e-18
	-8.373791380630706e-15
	2.585126524837776e-06
	2.996599366956557e-04
	3.706555031142468e-05
	3.403360248950341e-01

 71	7.100000000000004e-01
	-1.609637341638191e-15
	-4.678879643740046e-18
	-8.414876755280392e-15
	2.731901158107816e-06
	3.178871853746354e-04
	4.015261186905253e-05
	3.403363629249915e-01

 72	7.200000000000004e-01
	-1.602362768442377e-15
	-4.828732128720783e-18
	-8.454950571167711e-15
	2.884730250278628e-06
	3.364915010960189e-04
	4.342383105411385e-05
	3.403367211196517e-01

 73	7.300000000000004e-01
	-1.595412849695883e-15
	-4.983413788150775e-18
	-8.494027501283528e-15
	3.043754112031034e-06
	3.554219412944159e-04
	4.688272230152116e-05
	3.403370998636934e-01

 74	7.400000000000004e-01
	-1.588778699768097e-15
	-5.143090544090229e-18
	-8.532122625699571e-15
	3.209115140412416e-06
	3.746256657599776e-04
	5.053228060018988e-05
	3.403374994849016e-01

 75	7.500000000000004e-01
	-1.582451499811659e-15
	-5.307934726803082e-18
	-8.569251386055704e-15
	3.380958216997118e-06
	3.940485458062336e-04
	5.437496557843537e-05
	3.403379202524601e-01

 76	7.600000000000005e-01
	-1.576422509001058e-15
	-5.478125352268964e-18
	-8.605429541729230e-15
	3.559431126485649e-06
	4.136357800521831e-04
	5.841269172560078e-05
	3.403383623758564e-01

 77	7.700000000000005e-01
	-1.570683074924814e-15
	-5.653848412794804e-18
	-8.640673127726098e-15
	3.744684993877095e-06
	4.333325038519533e-04
	6.264682475018404e-05
	3.403388260044903e-01

 78	7.800000000000005e-01
	-1.565224643149950e-15
	-5.835297181395932e-18
	-8.674998414323376e-15
	3.936874738611868e-06
	4.530843801120735e-04
	6.707818394831396e-05
	3.403393112279477e-01

 79	7.900000000000005e-01
	-1.560038765979587e-15
	-6.022672530654405e-18
	-8.708421868482998e-15
	4.136159544383757e-06
	4.728381602985210e-04
	7.170705033889852e-05
	3.403398180768749e-01

 80	8.000000000000005e-01
	-1.555117110426886e-15
	-6.216183266795669e-18
	-8.740960117046614e-15
	4.342703343647169e-06
	4.925422057904745e-04
	7.653318021636850e-05
	3.403403465244786e-01

 81	8.100000000000005e-01
	-1.550451465429835e-15
	-6.416046479769916e-18
	-8.772629911713732e-15
	4.556675316187881e-06
	5.121469613142839e-04
	8.155582368133931e-05
	3.403408964885404e-01

 82	8.200000000000005e-01
	-1.546033748333230e-15
	-6.622487910160727e-18
	-8.803448095796711e-15
	4.778250401465466e-06
	5.316053739132508e-04
	8.677374763540552e-05
	3.403414678339499e-01

 83	8.300000000000005e-01
	-1.541856010665017e-15
	-6.835742333793786e-18
	-8.833431572739478e-15
	5.007609824768403e-06
	5.508732527017123e-04
	9.218526266990210e-05
	3.403420603756357e-01

 84	8.400000000000005e-01
	-1.537910443235309e-15
	-7.056053964960070e-18
	-8.862597276379972e-15
	5.244941637533368e-06
	5.699095664432603e-04
	9.778825323998904e-05
	3.403426738818741e-01

 85	8.500000000000005e-01
	-1.534189380586953e-15
	-7.283676879219400e-18
	-8.890962142930524e-15
	5.490441272467576e-06
	5.886766777188353e-04
	1.035802104946371e-04
	3.403433080778864e-01

 86	8.600000000000005e-01
	-1.530685304827009e-15
	-7.518875456802336e-18
	-8.918543084645141e-15
	5.744312114369632e-06
	6.071405140555617e-04
	1.095582671289785e-04
	3.403439626496456e-01

 87	8.700000000000006e-01
	-1.527390848868810e-15
	-7.761924847681233e-18
	-8.945356965137981e-15
	6.006766087768983e-06
	6.252706778276964e-04
	1.157192336366178e-04
	3.403446372478561e-01

 88	8.800000000000006e-01
	-1.524298799114258e-15
	-8.013111459440817e-18
	-8.971420576313101e-15
	6.278024262699014e-06
	6.430404979851928e-04
	1.220596353641034e-04
	3.403453314919985e-01

 89	8.900000000000006e-01
	-1.521402097606026e-15
	-8.272733469136312e-18
	-8.996750616862275e-15
	6.558317480082583e-06
	6.604270276925540e-04
	1.285757498056676e-04
	3.403460449744233e-01

 90	9.000000000000006e-01
	-1.518693843679004e-15
	-8.541101360395101e-18
	-9.021363672284456e-15
	6.847886998349521e-06
	6.774109927624851e-04
	1.352636436214487e-04
	3.403467772643951e-01

 91	9.100000000000006e-01
	-1.516167295139984e-15
	-8.818538487082072e-18
	-9.045276196378191e-15
	7.146985163023329e-06
	6.939766963460137e-04
	1.421192089143368e-04
	3.403475279120657e-01

 92	9.200000000000006e-01
	-1.513815869004135e-15
	-9.105381664919366e-18
	-9.068504494156005e-15
	7.455876101118183e-06
	7.101118857033458e-04
	1.491381983572239e-04
	3.403482964523235e-01

 93	9.300000000000006e-01
	-1.511633141816075e-15
	-9.401981792530182e-18
	-9.091064706128520e-15
	7.774836442281019e-06
	7.258075870441756e-04
	1.563162588216749e-04
	3.403490824084731e-01

 94	9.400000000000006e-01
	-1.509612849582827e-15
	-9.708704503449003e-18
	-9.112972793904587e-15
	8.104156068703021e-06
	7.410579144140657e-04
	1.636489632190014e-04
	3.403498852957199e-01

 95	9.500000000000006e-01
	-1.507748887344990e-15
	-1.002593085072932e-17
	-9.134244527053124e-15
	8.444138895915507e-06
	7.558598584399182e-04
	1.711318403237691e-04
	3.403507046244372e-01

 96	9.600000000000006e-01
	-1.506035308411815e-15
	-1.035405802586265e-17
	-9.154895471171767e-15
	8.795103686682854e-06
	7.702130604590612e-04
	1.787604024065520e-04
	3.403515399031923e-01

 97	9.700000000000006e-01
	-1.504466323284707e-15
	-1.069350011381623e-17
	-9.174940977107399e-15
	9.157384900312396e-06
	7.841195771699933e-04
	1.865301705560979e-04
	3.403523906415150e-01

 98	9.800000000000006e-01
	-1.503036298293123e-15
	-1.104468888609500e-17
	-9.194396171273460e-15
	9.531333579822279e-06
	7.975836404844116e-04
	1.944366976201779e-04
	3.403532563524173e-01

 99	9.900000000000007e-01
	-1.501739753965358e-15
	-1.140807463383004e-17
	-9.213275947009887e-15
	9.917318279547913e-06
	8.106114167542389e-04
	2.024755887386857e-04
	3.403541365546311e-01

 100	1.000000000000001e+00
	-1.500571363156240e-15
	-1.178412704300646e-17
	-9.231594956931379e-15
	1.031572603592229e-05
	8.232107690154376e-04
	2.106425194815724e-04
	3.403550307746036e-01

 101	1.010000000000001e+00
	-1.499525948952309e-15
	-1.217333611405397e-17
	-9.249367606211045e-15
