Title: ** sch_path: /home/andylithia/openmpw/project-yatsuhashi-chip1/xschem/gmid_test/nmos_test.sch
Date: Sun Jul 17 22:51:45  2022
Plotname: DC transfer characteristic
Flags: real
No. Variables: 8
No. Points: 181
Variables:
	0	v(v-sweep)	voltage
	1	@m.xm1.msky130_fd_pr__nfet_01v8[cgb]	capacitance
	2	@m.xm1.msky130_fd_pr__nfet_01v8[cgd]	capacitance
	3	@m.xm1.msky130_fd_pr__nfet_01v8[cgs]	capacitance
	4	@m.xm1.msky130_fd_pr__nfet_01v8[gds]	admittance
	5	@m.xm1.msky130_fd_pr__nfet_01v8[gm]	admittance
	6	i(@m.xm1.msky130_fd_pr__nfet_01v8[id])	current
	7	v(@m.xm1.msky130_fd_pr__nfet_01v8[vth])	voltage
Values:
 0	0.000000000000000e+00
	-7.456462535157380e-15
	-2.428479330824914e-18
	-1.177498200962274e-14
	4.993276904062058e-08
	1.671626704478060e-06
	1.977381316519944e-07
	2.490013116543942e-01

 1	1.000000000000000e-02
	-7.374864235058885e-15
	-2.497073495082990e-18
	-1.196265832158838e-14
	5.420196440004478e-08
	1.817433657898258e-06
	2.151732736318857e-07
	2.490013136430948e-01

 2	2.000000000000000e-02
	-7.294133153511305e-15
	-2.567610660782753e-18
	-1.215054061612339e-14
	5.882065894215274e-08
	1.975953596960168e-06
	2.341291419917194e-07
	2.490013158052611e-01

 3	3.000000000000000e-02
	-7.214290125255668e-15
	-2.640146236914832e-18
	-1.233855485067789e-14
	6.381563493875451e-08
	2.148324574104753e-06
	2.547384700397031e-07
	2.490013181560354e-01

 4	4.000000000000000e-02
	-7.135355622855994e-15
	-2.714737280744704e-18
	-1.252662682093115e-14
	6.921552306290407e-08
	2.335793682657040e-06
	2.771459076657845e-07
	2.490013207119172e-01

 5	5.000000000000000e-02
	-7.057349713745101e-15
	-2.791442552096722e-18
	-1.271468226744852e-14
	7.505090885030290e-08
	2.539728545926682e-06
	3.015091681651440e-07
	2.490013234909014e-01

 6	6.000000000000000e-02
	-6.980292018552234e-15
	-2.870322569669342e-18
	-1.290264698242880e-14
	8.135444331193180e-08
	2.761630091898597e-06
	3.280002962687120e-07
	2.490013265126123e-01

 7	7.000000000000001e-02
	-6.904201670823216e-15
	-2.951439669464637e-18
	-1.309044691623221e-14
	8.816095769549361e-08
	3.003146750287746e-06
	3.568070709107183e-07
	2.490013297984748e-01

 8	8.000000000000000e-02
	-6.829097278238653e-15
	-3.034858065420326e-18
	-1.327800828338244e-14
	9.550758238032850e-08
	3.266090219861542e-06
	3.881345576865849e-07
	2.490013333718801e-01

 9	9.000000000000000e-02
	-6.754996885430723e-15
	-3.120643912334485e-18
	-1.346525766773542e-14
	1.034338698772579e-07
	3.552452965201207e-06
	4.222068274894288e-07
	2.490013372583953e-01

 10	9.999999999999999e-02
	-6.681917938492605e-15
	-3.208865371179218e-18
	-1.365212212651381e-14
	1.119819218917121e-07
	3.864427613314556e-06
	4.592688594616084e-07
	2.490013414859678e-01

 11	1.100000000000000e-01
	-6.609877251268542e-15
	-3.299592676902559e-18
	-1.383852929290880e-14
	1.211965203953358e-07
	4.204428431508269e-06
	4.995886481566771e-07
	2.490013460851752e-01

 12	1.200000000000000e-01
	-6.538890973505372e-15
	-3.392898208822282e-18
	-1.402440747695942e-14
	1.311252626385277e-07
	4.575115078431807e-06
	5.434595366742915e-07
	2.490013510894820e-01

 13	1.300000000000000e-01
	-6.468974560939379e-15
	-3.488856563721228e-18
	-1.420968576442531e-14
	1.418187000238902e-07
	4.979418829910115e-06
	5.912027994985420e-07
	2.490013565355476e-01

 14	1.400000000000000e-01
	-6.400142747384315e-15
	-3.587544631757049e-18
	-1.439429411338056e-14
	1.533304807488274e-07
	5.420571489744459e-06
	6.431705008303056e-07
	2.490013624635375e-01

 15	1.500000000000000e-01
	-6.332409518879005e-15
	-3.689041675306345e-18
	-1.457816344826389e-14
	1.657174961143164e-07
	5.902137202665039e-06
	6.997486563416937e-07
	2.490013689174999e-01

 16	1.600000000000000e-01
	-6.265788089944459e-15
	-3.793429410866182e-18
	-1.476122575113492e-14
	1.790400303867973e-07
	6.428047391614069e-06
	7.613607284794236e-07
	2.490013759457508e-01

 17	1.700000000000000e-01
	-6.200290881992097e-15
	-3.900792094144704e-18
	-1.494341414989689e-14
	1.933619140908464e-07
	7.002639043986888e-06
	8.284714876793198e-07
	2.490013836013207e-01

 18	1.800000000000000e-01
	-6.135929503916613e-15
	-4.011216608475034e-18
	-1.512466300326119e-14
	2.087506806023893e-07
	7.630696570787790e-06
	9.015912740995388e-07
	2.490013919424448e-01

 19	1.900000000000000e-01
	-6.072714734897840e-15
	-4.124792556697317e-18
	-1.530490798224380e-14
	2.252777259055912e-07
	8.317497458212549e-06
	9.812806967001565e-07
	2.490014010330971e-01

 20	2.000000000000000e-01
	-6.010656509427900e-15
	-4.241612356655081e-18
	-1.548408614799921e-14
	2.430184713713509e-07
	9.068861922241662e-06
	1.068155808650212e-06
	2.490014109435677e-01

 21	2.100000000000000e-01
	-5.949763904571223e-15
	-4.361771340464170e-18
	-1.566213602581296e-14
	2.620525294117249e-07
	9.891206762650276e-06
	1.162893800081588e-06
	2.490014217511417e-01

 22	2.200000000000001e-01
	-5.890045129456321e-15
	-4.485367857716487e-18
	-1.583899767509347e-14
	2.824638718629472e-07
	1.079160359259968e-05
	1.266239251076992e-06
	2.490014335407866e-01

 23	2.300000000000001e-01
	-5.831507516990195e-15
	-4.612503382789891e-18
	-1.601461275521805e-14
	3.043410009493852e-07
	1.177784159277899e-05
	1.379010989408201e-06
	2.490014464059481e-01

 24	2.400000000000001e-01
	-5.774157517777750e-15
	-4.743282626442412e-18
	-1.618892458710877e-14
	3.277771226829658e-07
	1.285849490404443e-05
	1.502109598861540e-06
	2.490014604494036e-01

 25	2.500000000000001e-01
	-5.718000696221019e-15
	-4.877813651879994e-18
	-1.636187821043027e-14
	3.528703225563460e-07
	1.404299472869817e-05
	1.636525624912683e-06
	2.490014757842038e-01

 26	2.600000000000001e-01
	-5.663041728764762e-15
	-5.016207995492429e-18
	-1.653342043632159e-14
	3.797237433942722e-07
	1.534170615705606e-05
	1.783348524953297e-06
	2.490014925346880e-01

 27	2.700000000000001e-01
	-5.609284404248152e-15
	-5.158580792464798e-18
	-1.670349989559100e-14
	4.084457652357917e-07
	1.676600967183801e-05
	1.943776410123497e-06
	2.490015108376017e-01

 28	2.800000000000001e-01
	-5.556731626314988e-15
	-5.305050907479226e-18
	-1.687206708232252e-14
	4.391501871305886e-07
	1.832838720732835e-05
	2.119126624958197e-06
	2.490015308433014e-01

 29	2.900000000000001e-01
	-5.505385417828134e-15
	-5.455741070733012e-18
	-1.703907439286057e-14
	4.719564107457759e-07
	2.004251255239033e-05
	2.310847209391767e-06
	2.490015527170719e-01

 30	3.000000000000001e-01
	-5.455246927227749e-15
	-5.610778019511648e-18
	-1.720447616015775e-14
	5.069896256950301e-07
	2.192334578560736e-05
	2.520529285058504e-06
	2.490015766405282e-01

 31	3.100000000000001e-01
	-5.406316436767207e-15
	-5.770292645563031e-18
	-1.736822868348716e-14
	5.443809965201242e-07
	2.398723131653441e-05
	2.749920404142881e-06
	2.490016028131527e-01

 32	3.200000000000001e-01
	-5.358593372554844e-15
	-5.934420148535677e-18
	-1.753029025353981e-14
	5.842678512761371e-07
	2.625199897896924e-05
	3.000938894138856e-06
	2.490016314539248e-01

 33	3.300000000000001e-01
	-5.312076316325325e-15
	-6.103300195752758e-18
	-1.769062117294277e-14
	6.267938716954925e-07
	2.873706748021201e-05
	3.275689225630058e-06
	2.490016628030836e-01

 34	3.400000000000001e-01
	-5.266763018859596e-15
	-6.277077088609922e-18
	-1.784918377225034e-14
	6.721092849334783e-07
	3.146354935474599e-05
	3.576478422468107e-06
	2.490016971239994e-01

 35	3.500000000000001e-01
	-5.222650414968867e-15
	-6.455899935897065e-18
	-1.800594242147626e-14
	7.203710569284088e-07
	3.445435640224199e-05
	3.905833524368049e-06
	2.490017347051699e-01

 36	3.600000000000002e-01
	-5.179734639954426e-15
	-6.639922834360235e-18
	-1.816086353724876e-14
	7.717430874442025e-07
	3.773430440935172e-05
	4.266520100836153e-06
	2.490017758623282e-01

 37	3.700000000000002e-01
	-5.138011047452655e-15
	-6.829305056833844e-18
	-1.831391558568449e-14
	8.263964069013276e-07
	4.133021576393850e-05
	4.661561802379982e-06
	2.490018209406949e-01

 38	3.800000000000002e-01
	-5.097474228571717e-15
	-7.024211248293293e-18
	-1.846506908109053e-14
	8.845093751452894e-07
	4.527101837138027e-05
	5.094260920037575e-06
	2.490018703173058e-01

 39	3.900000000000002e-01
	-5.058118032225271e-15
	-7.224811630191109e-18
	-1.861429658061463e-14
	9.462678823487860e-07
	4.958783907802819e-05
	5.568219907321026e-06
	2.490019244034851e-01

 40	4.000000000000002e-01
	-5.019935586566683e-15
	-7.431282213458462e-18
	-1.876157267497575e-14
	1.011865552296699e-06
	5.431408960033570e-05
	6.087363799675189e-06
	2.490019836474095e-01

 41	4.100000000000002e-01
	-4.982919321426689e-15
	-7.643805020578882e-18
	-1.890687397541675e-14
	1.081503948361157e-06
	5.948554275363583e-05
	6.655963445493316e-06
	2.490020485367496e-01

 42	4.200000000000002e-01
	-4.947060991657136e-15
	-7.862568317150702e-18
	-1.905017909702930e-14
	1.155392782537841e-06
	6.514039657693443e-05
	7.278659439656291e-06
	2.490021196014160e-01

 43	4.300000000000002e-01
	-4.912351701283462e-15
	-8.087766853386201e-18
	-1.919146863861010e-14
	1.233750127985498e-06
	7.131932376503152e-05
	7.960486625571038e-06
	2.490021974163559e-01

 44	4.400000000000002e-01
	-4.878781928369220e-15
	-8.319602116009332e-18
	-1.933072515921346e-14
	1.316802635587902e-06
	7.806550365307624e-05
	8.706899004927880e-06
	2.490022826043994e-01

 45	4.500000000000002e-01
	-4.846341550496828e-15
	-8.558282591044083e-18
	-1.946793315157194e-14
	1.404785755142049e-06
	8.542463385832757e-05
	9.523794866102858e-06
	2.490023758391322e-01

 46	4.600000000000002e-01
	-4.815019870770317e-15
	-8.804024038003076e-18
	-1.960307901256080e-14
	1.497943961868608e-06
	9.344491857704514e-05
	1.041754191259743e-05
	2.490024778477622e-01

 47	4.700000000000003e-01
	-4.784805644247535e-15
	-9.057049776017613e-18
	-1.973615101088633e-14
	1.596530989040341e-06
	1.021770304690997e-04
	1.139500214250414e-05
	2.490025894139721e-01

 48	4.800000000000003e-01
	-4.755687104711106e-15
	-9.317590982474608e-18
	-1.986713925218130e-14
	1.700810067632224e-06
	1.116740430475546e-04
	1.246355619918227e-05
	2.490027113806885e-01

 49	4.900000000000003e-01
	-4.727651991690353e-15
	-9.585887004752788e-18
	-1.999603564169158e-14
	1.811054174012227e-06
	1.219913305335026e-04
	1.363112688264925e-05
	2.490028446527736e-01

 50	5.000000000000002e-01
	-4.700687577648823e-15
	-9.862185685682921e-18
	-2.012283384474002e-14
	1.927546286814876e-06
	1.331864322463383e-04
	1.490620148128454e-05
	2.490029901995801e-01

 51	5.100000000000002e-01
	-4.674780695254725e-15
	-1.014674370338739e-17
	-2.024752924515364e-14
	2.050579654269917e-06
	1.453188787842961e-04
	1.629785255500646e-05
	2.490031490573113e-01

 52	5.200000000000002e-01
	-4.649917764655655e-15
	-1.043982692618501e-17
	-2.037011890183836e-14
	2.180458073394213e-06
	1.584499775166171e-04
	1.781575677489732e-05
	2.490033223311799e-01

 53	5.300000000000002e-01
	-4.626084820681427e-15
	-1.074171078328272e-17
	-2.049060150368548e-14
	2.317496182596442e-06
	1.726425552632946e-04
	1.947021140118575e-05
	2.490035111972914e-01

 54	5.400000000000003e-01
	-4.603267539902780e-15
	-1.105268065201494e-17
	-2.060897732299106e-14
	2.462019769388880e-06
	1.879606564854481e-04
	2.127214796244355e-05
	2.490037169041855e-01

 55	5.500000000000003e-01
	-4.581451267477923e-15
	-1.137303226242063e-17
	-2.072524816756549e-14
	2.614366095045984e-06
	2.044691958515378e-04
	2.323314268474939e-05
	2.490039407740421e-01

 56	5.600000000000003e-01
	-4.560621043721701e-15
	-1.170307211999954e-17
	-2.083941733170907e-14
	2.774884238195504e-06
	2.222335646823438e-04
	2.536542321140282e-05
	2.490041842034221e-01

 57	5.700000000000003e-01
	-4.540761630337048e-15
	-1.204311794751862e-17
	-2.095148954622260e-14
	2.943935459468033e-06
	2.413191915080985e-04
	2.768187115243426e-05
	2.490044486635770e-01

 58	5.800000000000003e-01
	-4.521857536251657e-15
	-1.239349914679381e-17
	-2.106147092761952e-14
	3.121893589465948e-06
	2.617910577892107e-04
	3.019602000961275e-05
	2.490047357001800e-01

 59	5.900000000000003e-01
	-4.503893043007323e-15
	-1.275455728141168e-17
	-2.116936892669904e-14
	3.309145442435075e-06
	2.837131707483912e-04
	3.292204803768037e-05
	2.490050469325107e-01

 60	6.000000000000003e-01
	-4.486852229653067e-15
	-1.312664658140710e-17
	-2.127519227663514e-14
	3.506091258130732e-06
	3.071479962244156e-04
	3.587476562690797e-05
	2.490053840520119e-01

 61	6.100000000000003e-01
	-4.470718997097205e-15
	-1.351013447096159e-17
	-2.137895094073022e-14
	3.713145174459067e-06
	3.321558554700115e-04
	3.906959682633764e-05
	2.490057488201547e-01

 62	6.200000000000003e-01
	-4.455477091877851e-15
	-1.390540212024652e-17
	-2.148065605997491e-14
	3.930735733538403e-06
	3.587942908584264e-04
	4.252255467163409e-05
	2.490061430656239e-01

 63	6.300000000000003e-01
	-4.441110129314636e-15
	-1.431284502258150e-17
	-2.158031990055019e-14
	4.159306423862719e-06
	3.871174065121465e-04
	4.625021003653836e-05
	2.490065686807436e-01

 64	6.400000000000003e-01
	-4.427601616008811e-15
	-1.473287359815095e-17
	-2.167795580140045e-14
	4.399316261252273e-06
	4.171751908962084e-04
	5.026965379238535e-05
	2.490070276171407e-01

 65	6.500000000000004e-01
	-4.414934971662487e-15
	-1.516591382557259e-17
	-2.177357812199900e-14
	4.651240411243398e-06
	4.490128293988864e-04
	5.459845213570588e-05
	2.490075218806441e-01

 66	6.600000000000004e-01
	-4.403093550191212e-15
	-1.561240790268792e-17
	-2.186720219042136e-14
	4.915570855496387e-06
	4.826700158231507e-04
	5.925459502892053e-05
	2.490080535253828e-01

 67	6.700000000000004e-01
	-4.392060660107956e-15
	-1.607281493800797e-17
	-2.195884425183357e-14
	5.192817104684679e-06
	5.181802725014737e-04
	6.425643779258977e-05
	2.490086246471083e-01

 68	6.800000000000004e-01
	-4.381819584159701e-15
	-1.654761167432753e-17
	-2.204852141749651e-14
	5.483506960168901e-06
	5.555702893922678e-04
	6.962263598832344e-05
	2.490092373757489e-01

 69	6.900000000000004e-01
	-4.372353598201350e-15
	-1.703729324609402e-17
	-2.213625161437947e-14
	5.788187326556685e-06
	5.948592929881052e-04
	7.537207383769611e-05
	2.490098938672409e-01

 70	7.000000000000004e-01
	-4.363645989294618e-15
	-1.754237397220524e-17
	-2.222205353546991e-14
	6.107425077004522e-06
	6.360584561354778e-04
	8.152378653245342e-05
	2.490105962946540e-01

 71	7.100000000000004e-01
	-4.355680073022432e-15
	-1.806338818599681e-17
	-2.230594659085913e-14
	6.441807972835411e-06
	6.791703599089418e-04
	8.809687690278589e-05
	2.490113468386642e-01

 72	7.200000000000004e-01
	-4.348439210012840e-15
	-1.860089110427095e-17
	-2.238795085967640e-14
	6.791945638730799e-06
	7.241885184794505e-04
	9.511042702109661e-05
	2.490121476774783e-01

 73	7.300000000000004e-01
	-4.341906821667899e-15
	-1.915545973731940e-17
	-2.246808704293906e-14
	7.158470594417124e-06
	7.710969774545993e-04
	1.025834054260081e-04
	2.490130009762367e-01

 74	7.400000000000004e-01
	-4.336066405097006e-15
	-1.972769384199808e-17
	-2.254637641737742e-14
	7.542039343412397e-06
	8.198699954408903e-04
	1.105345707526255e-04
	2.490139088760203e-01

 75	7.500000000000004e-01
	-4.330901547255047e-15
	-2.031821692002030e-17
	-2.262284079028973e-14
	7.943333519043529e-06
	8.704718175876413e-04
	1.189823726477474e-04
	2.490148734825451e-01

 76	7.600000000000005e-01
	-4.326395938288955e-15
	-2.092767726375102e-17
	-2.269750245547433e-14
	8.363061087598795e-06
	9.228565486287431e-04
	1.279448509300961e-04
	2.490158968546575e-01

 77	7.700000000000005e-01
	-4.322533384097822e-15
	-2.155674905191182e-17
	-2.277038415028175e-14
	8.801957608162663e-06
	9.769681314622308e-04
	1.374395340233943e-04
	2.490169809927499e-01

 78	7.800000000000005e-01
	-4.319297818113582e-15
	-2.220613349773384e-17
	-2.284150901382374e-14
	9.260787548402965e-06
	1.032740435625964e-03
	1.474833377419494e-04
	2.490181278272246e-01

 79	7.900000000000005e-01
	-4.316673312311036e-15
	-2.287656005223760e-17
	-2.291090054637079e-14
	9.740345655365775e-06
	1.090097458177449e-03
	1.580924655425557e-04
	2.490193392071066e-01

 80	8.000000000000005e-01
	-4.314644087457887e-15
	-2.356878766545960e-17
	-2.297858256996466e-14
	1.024145838019105e-05
	1.148953637509485e-03
	1.692823113713870e-04
	2.490206168889695e-01

 81	8.100000000000005e-01
	-4.313194522616104e-15
	-2.428360610860362e-17
	-2.304457919026857e-14
	1.076498535561560e-05
	1.209214278580976e-03
	1.810673662292599e-04
	2.490219625262840e-01

 82	8.200000000000005e-01
	-4.312309163907954e-15
	-2.502183736025730e-17
	-2.310891475967180e-14
	1.131182092518823e-05
	1.270776085966568e-03
	1.934611295526149e-04
	2.490233776593030e-01

 83	8.300000000000005e-01
	-4.311972732560910e-15
	-2.578433705998021e-17
	-2.317161384166257e-14
	1.188289572329991e-05
	1.333527799086151e-03
	2.064760264608709e-04
	2.490248637056334e-01

 84	8.400000000000005e-01
	-4.312170132246292e-15
	-2.657199603275928e-17
	-2.323270117647835e-14
	1.247917830543988e-05
	1.397350922021637e-03
	2.201233318541309e-04
	2.490264219515648e-01

 85	8.500000000000005e-01
	-4.312886455728189e-15
	-2.738574188800462e-17
	-2.329220164803858e-14
	1.310167682853155e-05
	1.462120538518301e-03
	2.344131022596360e-04
	2.490280535443083e-01

 86	8.600000000000005e-01
	-4.314106990838894e-15
	-2.822654069697047e-17
	-2.335014025216268e-14
	1.375144078178652e-05
	1.527706201152270e-03
	2.493541162227287e-04
	2.490297594851836e-01

 87	8.700000000000006e-01
	-4.315817225798806e-15
	-2.909539875268481e-17
	-2.340654206607050e-14
	1.442956276923418e-05
	1.593972882268651e-03
	2.649538239203936e-04
	2.490315406238794e-01

 88	8.800000000000006e-01
	-4.318002853898477e-15
	-2.999336441669770e-17
	-2.346143221916168e-14
	1.513718034594193e-05
	1.660781973194604e-03
	2.812183065455096e-04
	2.490333976538084e-01

 89	8.900000000000006e-01
	-4.320649777561111e-15
	-3.092153005718426e-17
	-2.351483586506560e-14
	1.587547791091815e-05
	1.727992317435742e-03
	2.981522458704662e-04
	2.490353311086347e-01

 90	9.000000000000006e-01
	-4.323744111804463e-15
	-3.188103408318158e-17
	-2.356677815495150e-14
	1.664568866078397e-05
	1.795461263092140e-03
	3.157589042531436e-04
	2.490373413599870e-01

 91	9.100000000000006e-01
	-4.327272187120856e-15
	-3.287306307999236e-17
	-2.361728421208532e-14
	1.744909660948617e-05
	1.863045719589065e-03
	3.340401151995263e-04
	2.490394286163803e-01

 92	9.200000000000006e-01
	-4.331220551794237e-15
	-3.389885405104968e-17
	-2.366637910761831e-14
	1.828703868059096e-05
	1.930603204005462e-03
	3.529962844488957e-04
	2.490415929233276e-01

 93	9.300000000000006e-01
	-4.335575973673766e-15
	-3.495969677181138e-17
	-2.371408783758830e-14
	1.916090688001726e-05
	1.997992862786622e-03
	3.726264014026641e-04
	2.490438341646557e-01

 94	9.400000000000006e-01
	-4.340325441422182e-15
	-3.605693626155668e-17
	-2.376043530111468e-14
	2.007215055843081e-05
	2.065076455425074e-03
	3.929280605798225e-04
	2.490461520649308e-01

 95	9.500000000000006e-01
	-4.345456165258650e-15
	-3.719197537923598e-17
	-2.380544627976391e-14
	2.102227877388234e-05
	2.131719287753085e-03
	4.138974926529988e-04
	2.490485461930112e-01

 96	9.600000000000006e-01
	-4.350955577214068e-15
	-3.836627754985699e-17
	-2.384914541806228e-14
	2.201286276663821e-05
	2.197791083775805e-03
	4.355296045022529e-04
	2.490510159666117e-01

 97	9.700000000000006e-01
	-4.356811330917560e-15
	-3.958136962821927e-17
	-2.389155720512993e-14
	2.304553855947803e-05
	2.263166786441292e-03
	4.578180276205164e-04
	2.490535606578230e-01

 98	9.800000000000006e-01
	-4.363011300932122e-15
	-4.083884490713721e-17
	-2.393270595740906e-14
	2.412200969801208e-05
	2.327727279347073e-03
	4.807551741168715e-04
	2.490561793995112e-01

 99	9.900000000000007e-01
	-4.369543581656900e-15
	-4.214036627766239e-17
	-2.397261580245771e-14
	2.524405014678752e-05
	2.391360023074789e-03
	5.043322994927271e-04
	2.490588711924792e-01

 100	1.000000000000001e+00
	-4.376396485813367e-15
	-4.348766954918626e-17
	-2.401131066377953e-14
	2.641350735808562e-05
	2.453959601576479e-03
	5.285395713119123e-04
	2.490616349133048e-01

 101	1.010000000000001e+00
	-4.383558542532022e-15
	-4.488256693767707e-17
	-2.404881424665847e-14
