Title: ** sch_path: /home/andylithia/openmpw/project-yatsuhashi-chip1/xschem/gmid_test/nmos_test.sch
Date: Sun Jul 17 22:51:45  2022
Plotname: DC transfer characteristic
Flags: real
No. Variables: 8
No. Points: 181
Variables:
	0	v(v-sweep)	voltage
	1	@m.xm1.msky130_fd_pr__nfet_01v8[cgb]	capacitance
	2	@m.xm1.msky130_fd_pr__nfet_01v8[cgd]	capacitance
	3	@m.xm1.msky130_fd_pr__nfet_01v8[cgs]	capacitance
	4	@m.xm1.msky130_fd_pr__nfet_01v8[gds]	admittance
	5	@m.xm1.msky130_fd_pr__nfet_01v8[gm]	admittance
	6	i(@m.xm1.msky130_fd_pr__nfet_01v8[id])	current
	7	v(@m.xm1.msky130_fd_pr__nfet_01v8[vth])	voltage
Values:
 0	0.000000000000000e+00
	-2.504958041818810e-15
	-1.480410267027878e-19
	-1.409877513777312e-15
	1.011230581791447e-09
	5.495843610433154e-08
	3.918479151766268e-09
	4.146211157788058e-01

 1	1.000000000000000e-02
	-2.479416797632963e-15
	-1.543930667392706e-19
	-1.462222474726542e-15
	1.162950671450381e-09
	6.313617016748010e-08
	4.508020638422092e-09
	4.146211158411025e-01

 2	2.000000000000000e-02
	-2.453719015916080e-15
	-1.610101588961538e-19
	-1.515835679746114e-15
	1.337087216358378e-09
	7.251041454525070e-08
	5.185188565703085e-09
	4.146211159126575e-01

 3	3.000000000000000e-02
	-2.427873036233967e-15
	-1.679024001627217e-19
	-1.570701302627645e-15
	1.536872596850626e-09
	8.325226492138825e-08
	5.962784933505283e-09
	4.146211159948249e-01

 4	4.000000000000000e-02
	-2.401888201113655e-15
	-1.750801980834964e-19
	-1.626800235699580e-15
	1.765987239577137e-09
	9.555659621349545e-08
	6.855439080522756e-09
	4.146211160891522e-01

 5	5.000000000000000e-02
	-2.375774842066623e-15
	-1.825542765525483e-19
	-1.684110046871922e-15
	2.028617686833080e-09
	1.096452780668442e-07
	7.879861216303854e-09
	4.146211161974013e-01

 6	6.000000000000000e-02
	-2.349544259669007e-15
	-1.903356816823397e-19
	-1.742604953726022e-15
	2.329521302675569e-09
	1.257708239299990e-07
	9.055130227694898e-09
	4.146211163215912e-01

 7	7.000000000000001e-02
	-2.323208697612823e-15
	-1.984357877672283e-19
	-1.802255815534903e-15
	2.674098179679769e-09
	1.442205366691090e-07
	1.040302040196350e-08
	4.146211164640201e-01

 8	8.000000000000000e-02
	-2.296781310700958e-15
	-2.068663033635533e-19
	-1.863030143958283e-15
	3.068470814266268e-09
	1.653212246374507e-07
	1.194837239154375e-08
	4.146211166273163e-01

 9	9.000000000000000e-02
	-2.270276126820100e-15
	-2.156392775104561e-19
	-1.924892133000867e-15
	3.519572110715011e-09
	1.894445753196518e-07
	1.371951454849213e-08
	4.146211168144713e-01

 10	9.999999999999999e-02
	-2.243708002989247e-15
	-2.247671061174416e-19
	-1.987802708651821e-15
	4.035242251228075e-09
	2.170132895431293e-07
	1.574874170486869e-08
	4.146211170288980e-01

 11	1.100000000000000e-01
	-2.217092575645975e-15
	-2.342625385466720e-19
	-2.051719598441710e-15
	4.624334928336594e-09
	2.485080982598019e-07
	1.807285959742579e-08
	4.146211172744834e-01

 12	1.200000000000000e-01
	-2.190446205397445e-15
	-2.441386844197388e-19
	-2.116597420960727e-15
	5.296833372829704e-09
	2.844758065350416e-07
	2.073380446494049e-08
	4.146211175556627e-01

 13	1.300000000000000e-01
	-2.163785916526952e-15
	-2.544090206805538e-19
	-2.182387795183524e-15
	6.063976521235776e-09
	3.255385361138206e-07
	2.377934892296123e-08
	4.146211178774825e-01

 14	1.400000000000000e-01
	-2.137129331609069e-15
	-2.650873989474613e-19
	-2.249039469241457e-15
	6.938395547524177e-09
	3.724043691800521e-07
	2.726390708672912e-08
	4.146211182456924e-01

 15	1.500000000000000e-01
	-2.110494601645549e-15
	-2.761880531893926e-19
	-2.316498468078473e-15
	7.934260829926986e-09
	4.258796319690107e-07
	3.124945411533798e-08
	4.146211186668415e-01

 16	1.600000000000000e-01
	-2.083900332189759e-15
	-2.877256077621192e-19
	-2.384708259222608e-15
	9.067439231538250e-09
	4.868830977899118e-07
	3.580657793726410e-08
	4.146211191483893e-01

 17	1.700000000000000e-01
	-2.057365505977902e-15
	-2.997150858421551e-19
	-2.453609935706252e-15
	1.035566133897056e-08
	5.564624344662887e-07
	4.101568393663610e-08
	4.146211196988325e-01

 18	1.800000000000000e-01
	-2.030909402630402e-15
	-3.121719182968093e-19
	-2.523142414976860e-15
	1.181869802385878e-08
	6.358132703861815e-07
	4.696837687296237e-08
	4.146211203278485e-01

 19	1.900000000000000e-01
	-2.004551516025152e-15
	-3.251119530300552e-19
	-2.593242652459562e-15
	1.347854536547443e-08
	7.263013047353787e-07
	5.376904830483341e-08
	4.146211210464721e-01

 20	2.000000000000000e-01
	-1.978311469975585e-15
	-3.385514648447301e-19
	-2.663845868267217e-15
	1.535961659868689e-08
	8.294879385796987e-07
	6.153670230081962e-08
	4.146211218672774e-01

 21	2.100000000000000e-01
	-1.952208932869962e-15
	-3.525071658622421e-19
	-2.734885785403387e-15
	1.748893933141360e-08
	9.471599505769510e-07
	7.040705722808624e-08
	4.146211228046044e-01

 22	2.200000000000001e-01
	-1.926263531943349e-15
	-3.669962165418271e-19
	-2.806294877674241e-15
	1.989635581341250e-08
	1.081363779084469e-06
	8.053496684704852e-08
	4.146211238748186e-01

 23	2.300000000000001e-01
	-1.900494767860211e-15
	-3.820362373415429e-19
	-2.878004625416998e-15
	2.261472354049375e-08
	1.234444994425797e-06
	9.209720968451070e-08
	4.146211250966008e-01

 24	2.400000000000001e-01
	-1.874921930283450e-15
	-3.976453210639955e-19
	-2.949945777067323e-15
	2.568011295501548e-08
	1.409093542349039e-06
	1.052957015062007e-07
	4.146211264912869e-01

 25	2.500000000000001e-01
	-1.849564015094587e-15
	-4.138420459296975e-19
	-3.022048614528685e-15
	2.913199846864412e-08
	1.608395301559457e-06
	1.203611913633420e-07
	4.146211280832625e-01

 26	2.600000000000001e-01
	-1.824439643910300e-15
	-4.306454894215554e-19
	-3.094243220272683e-15
	3.301343850448137e-08
	1.835890412113067e-06
	1.375575067314454e-07
	4.146211299004067e-01

 27	2.700000000000001e-01
	-1.799566986512735e-15
	-4.480752429437522e-19
	-3.166459744091926e-15
	3.737123975441925e-08
	2.095638683422518e-06
	1.571864171442982e-07
	4.146211319746099e-01

 28	2.800000000000001e-01
	-1.774963686775458e-15
	-4.661514273386990e-19
	-3.238628667446362e-15
	4.225610039948454e-08
	2.392292165901027e-06
	1.795931877594308e-07
	4.146211343423564e-01

 29	2.900000000000001e-01
	-1.750646792624209e-15
	-4.848947093056284e-19
	-3.310681063389053e-15
	4.772272667461457e-08
	2.731174654452919e-06
	2.051728936330921e-07
	4.146211370453969e-01

 30	3.000000000000001e-01
	-1.726632690522728e-15
	-5.043263187644725e-19
	-3.382548850127654e-15
	5.382991690594588e-08
	3.118367472641273e-06
	2.343775611574623e-07
	4.146211401315016e-01

 31	3.100000000000001e-01
	-1.702937044919265e-15
	-5.244680672088848e-19
	-3.454165036371735e-15
	6.064060704056843e-08
	3.560800354924657e-06
	2.677241940379441e-07
	4.146211436553058e-01

 32	3.200000000000001e-01
	-1.679574743030537e-15
	-5.453423670920056e-19
	-3.525463956731545e-15
	6.822187175763986e-08
	4.066345598790610e-06
	3.058037262264258e-07
	4.146211476792581e-01

 33	3.300000000000001e-01
	-1.656559845277217e-15
	-5.669722522893121e-19
	-3.596381495569148e-15
	7.664487552523255e-08
	4.643912906039211e-06
	3.492909222629796e-07
	4.146211522746683e-01

 34	3.400000000000001e-01
	-1.633905541620249e-15
	-5.893813996823734e-19
	-3.666855297854712e-15
	8.598476847403314e-08
	5.303541491963514e-06
	3.989552155275417e-07
	4.146211575228523e-01

 35	3.500000000000001e-01
	-1.611624113980811e-15
	-6.125941519084370e-19
	-3.736824965747299e-15
	9.632052271481155e-08
	6.056485146269432e-06
	4.556724362403668e-07
	4.146211635163644e-01

 36	3.600000000000002e-01
	-1.589726904860423e-15
	-6.366355413204429e-19
	-3.806232239796262e-15
	1.077347057395885e-07
	6.915285029987254e-06
	5.204373333656595e-07
	4.146211703603356e-01

 37	3.700000000000002e-01
	-1.568224292211620e-15
	-6.615313152034098e-19
	-3.875021163845850e-15
	1.203131888135241e-07
	7.893824154740520e-06
	5.943767381393863e-07
	4.146211781738517e-01

 38	3.800000000000002e-01
	-1.547125670545838e-15
	-6.873079622930163e-19
	-3.943138232914910e-15
	1.341447897685783e-07
	9.007356796244993e-06
	6.787631527720456e-07
	4.146211870913978e-01

 39	3.900000000000002e-01
	-1.526439438203722e-15
	-7.139927406439150e-19
	-4.010532523516526e-15
	1.493208513200028e-07
	1.027250563631930e-05
	7.750284778662340e-07
	4.146211972643044e-01

 40	4.000000000000002e-01
	-1.506172990655171e-15
	-7.416137068955920e-19
	-4.077155806073137e-15
	1.659347578961579e-07
	1.170721930613764e-05
	8.847775190991225e-07
	4.146212088621762e-01

 41	4.100000000000002e-01
	-1.486332719643026e-15
	-7.701997469854901e-19
	-4.142962639269472e-15
	1.840813959407682e-07
	1.333068331416629e-05
	1.009800841600860e-06
	4.146212220742566e-01

 42	4.200000000000002e-01
	-1.466924017935371e-15
	-7.997806083599630e-19
	-4.207910446366223e-15
	2.038565646417355e-07
	1.516317816771075e-05
	1.152086473963878e-06
	4.146212371106549e-01

 43	4.300000000000002e-01
	-1.447951289408148e-15
	-8.303869337357652e-19
	-4.271959573668009e-15
	2.253563459795737e-07
	1.722587989396091e-05
	1.313829908402436e-06
	4.146212542034127e-01

 44	4.400000000000002e-01
	-1.429417964141967e-15
	-8.620502964662680e-19
	-4.335073331499748e-15
	2.486764447837784e-07
	1.954060015366209e-05
	1.497441805094274e-06
	4.146212736073110e-01

 45	4.500000000000002e-01
	-1.411326518185282e-15
	-8.948032375687915e-19
	-4.397218018191946e-15
	2.739115110480348e-07
	2.212946568828811e-05
	1.705552792973794e-06
	4.146212956003882e-01

 46	4.600000000000002e-01
	-1.393678497610249e-15
	-9.286793044719262e-19
	-4.458362927709021e-15
	3.011544580010792e-07
	2.501453986434226e-05
	1.941014771437445e-06
	4.146213204840655e-01

 47	4.700000000000003e-01
	-1.376474546467941e-15
	-9.637130915438810e-19
	-4.518480341671334e-15
	3.304957902844714e-07
	2.821739243259086e-05
	2.206898161643868e-06
	4.146213485828654e-01

 48	4.800000000000003e-01
	-1.359714438235720e-15
	-9.999402824661878e-19
	-4.577545506623690e-15
	3.620229569927662e-07
	3.175862710835777e-05
	2.506484634717554e-06
	4.146213802436403e-01

 49	4.900000000000003e-01
	-1.343397110341511e-15
	-1.037397694519641e-18
	-4.635536597487549e-15
	3.958197442452268e-07
	3.565737996146800e-05
	2.843254957360094e-06
	4.146214158342858e-01

 50	5.000000000000002e-01
	-1.327520701347015e-15
	-1.076123324853374e-18
	-4.692434668202892e-15
	4.319657213653209e-07
	3.993080461650037e-05
	3.220871740770666e-06
	4.146214557419228e-01

 51	5.100000000000002e-01
	-1.312082590374193e-15
	-1.116156398810998e-18
	-4.748223590618041e-15
	4.705357536529999e-07
	4.459356263987975e-05
	3.643157051331064e-06
	4.146215003705205e-01

 52	5.200000000000002e-01
	-1.297079438366485e-15
	-1.157537420392155e-18
	-4.802889982721899e-15
	5.115995931794072e-07
	4.965733898951271e-05
	4.114065033619222e-06
	4.146215501380148e-01

 53	5.300000000000002e-01
	-1.282507230787085e-15
	-1.200308224932076e-18
	-4.856423127335347e-15
	5.552215570731152e-07
	5.513040283663302e-05
	4.637649898218760e-06
	4.146216054729153e-01

 54	5.400000000000003e-01
	-1.268361321371632e-15
	-1.244512034086405e-18
	-4.908814882385459e-15
	6.014603004803991e-07
	6.101723332470416e-05
	5.218029827188122e-06
	4.146216668104925e-01

 55	5.500000000000003e-01
	-1.254636476570399e-15
	-1.290193513213590e-18
	-4.960059583881247e-15
	6.503686888668025e-07
	6.731822788492593e-05
	5.859347536969912e-06
	4.146217345886051e-01

 56	5.600000000000003e-01
	-1.241326920335605e-15
	-1.337398831252756e-18
	-5.010153942692259e-15
	7.019937716905025e-07
	7.402950765929150e-05
	6.565728400248354e-06
	4.146218092432825e-01

 57	5.700000000000003e-01
	-1.228426378932170e-15
	-1.386175723200456e-18
	-5.059096936203932e-15
	7.563768568326724e-07
	8.114283056336762e-05
	7.341237154361883e-06
	4.146218912041341e-01

 58	5.800000000000003e-01
	-1.215928125474390e-15
	-1.436573555296454e-18
	-5.106889695886333e-15
	8.135536826256700e-07
	8.864561780698159e-05
	8.189834306052239e-06
	4.146219808897552e-01

 59	5.900000000000003e-01
	-1.203825023916394e-15
	-1.488643393034976e-18
	-5.153535391768702e-15
	8.735546819793512e-07
	9.652109459603003e-05
	9.115333375177890e-06
	4.146220787031937e-01

 60	6.000000000000003e-01
	-1.192109572250403e-15
	-1.542438072124767e-18
	-5.199039114760299e-15
	9.364053310550881e-07
	1.047485406063622e-04
	1.012136010141740e-05
	4.146221850276507e-01

 61	6.100000000000003e-01
	-1.180773944693003e-15
	-1.598012272529276e-18
	-5.243407757702034e-15
	1.002126573246569e-06
	1.133036409929594e-04
	1.121131466931639e-05
	4.146223002224789e-01

 62	6.200000000000003e-01
	-1.169810032666177e-15
	-1.655422595725749e-18
	-5.286649895972073e-15
	1.070735307941373e-06
	1.221589244826542e-04
	1.238833789289355e-05
	4.146224246196116e-01

 63	6.300000000000003e-01
	-1.159209484405565e-15
	-1.714727645329998e-18
	-5.328775668405286e-15
	1.142244932683026e-06
	1.312842717457249e-04
	1.365528214887849e-05
	4.146225585204935e-01

 64	6.400000000000003e-01
	-1.148963743053722e-15
	-1.775988111243182e-18
	-5.369796659220877e-15
	1.216665926929859e-06
	1.406474749217564e-04
	1.501468766704150e-05
	4.146227021935694e-01

 65	6.500000000000004e-01
	-1.139064083120453e-15
	-1.839266857484799e-18
	-5.409725781585902e-15
	1.294006465594897e-06
	1.502148279715853e-04
	1.646876458782075e-05
	4.146228558723949e-01

 66	6.600000000000004e-01
	-1.129501645215481e-15
	-1.904629013886586e-18
	-5.448577163376161e-15
	1.374273050912921e-06
	1.599517274354844e-04
	1.801938099277912e-05
	4.146230197543677e-01

 67	6.700000000000004e-01
	-1.120267468980539e-15
	-1.972142071831505e-18
	-5.486366035630367e-15
	1.457471151864804e-06
	1.698232641138565e-04
	1.966805691308119e-05
	4.146231940000965e-01

 68	6.800000000000004e-01
	-1.111352524168578e-15
	-2.041875984232019e-18
	-5.523108624129115e-15
	1.543605841334820e-06
	1.797947880021415e-04
	2.141596413476129e-05
	4.146233787333849e-01

 69	6.900000000000004e-01
	-1.102747739836522e-15
	-2.113903269953687e-18
	-5.558822044468632e-15
	1.632682422318152e-06
	1.898324313126242e-04
	2.326393145490531e-05
	4.146235740417816e-01

 70	7.000000000000004e-01
	-1.094444031635637e-15
	-2.188299122900409e-18
	-5.593524200939403e-15
	1.724707035767248e-06
	1.999035773845029e-04
	2.521245490576682e-05
	4.146237799776668e-01

 71	7.100000000000004e-01
	-1.086432327199178e-15
	-2.265141525990153e-18
	-5.627233689463687e-15
	1.819687244004197e-06
	2.099772664981120e-04
	2.726171235784648e-05
	4.146239965597990e-01

 72	7.200000000000004e-01
	-1.078703589641186e-15
	-2.344511370262640e-18
	-5.659969704792868e-15
	1.917632584975259e-06
	2.200245328614844e-04
	2.941158183947909e-05
	4.146242237752423e-01

 73	7.300000000000004e-01
	-1.071248839192967e-15
	-2.426492579372713e-18
	-5.691751952115901e-15
	2.018555093934092e-06
	2.300186701465663e-04
	3.166166286892688e-05
	4.146244615816302e-01

 74	7.400000000000004e-01
	-1.064059173014648e-15
	-2.511172239738342e-18
	-5.722600563184677e-15
	2.122469790373856e-06
	2.399354257738984e-04
	3.401130008320462e-05
	4.146247099096604e-01

 75	7.500000000000004e-01
	-1.057125783228893e-15
	-2.598640736625129e-18
	-5.752536017019976e-15
	2.229395129154961e-06
	2.497531265744087e-04
	3.645960846240012e-05
	4.146249686657578e-01

 76	7.600000000000005e-01
	-1.050439973231759e-15
	-2.688991896465485e-18
	-5.781579065223779e-15
	2.339353415775339e-06
	2.594527404320766e-04
	3.900549948485136e-05
	4.146252377348523e-01

 77	7.700000000000005e-01
	-1.043993172342497e-15
	-2.782323135727095e-18
	-5.809750661889521e-15
	2.452371186593491e-06
	2.690178800064387e-04
	4.164770760250499e-05
	4.146255169831573e-01

 78	7.800000000000005e-01
	-1.037776948859559e-15
	-2.878735616660519e-18
	-5.837071898071220e-15
	2.568479555535507e-06
	2.784347556559504e-04
	4.438481649227443e-05
	4.146258062609578e-01

 79	7.900000000000005e-01
	-1.031783021594235e-15
	-2.978334410276032e-18
	-5.863563940745771e-15
	2.687714529401770e-06
	2.876920852650067e-04
	4.721528461372343e-05
	4.146261054053056e-01

 80	8.000000000000005e-01
	-1.026003269956615e-15
	-3.081228666916452e-18
	-5.889247976179389e-15
	2.810117294341697e-06
	2.967809688693492e-04
	5.013746968169250e-05
	4.146264142426130e-01

 81	8.100000000000005e-01
	-1.020429742670696e-15
	-3.187531794814844e-18
	-5.914145157589021e-15
	2.935734476398826e-06
	3.056947358388799e-04
	5.314965174101366e-05
	4.146267325910803e-01

 82	8.200000000000005e-01
	-1.015054665196829e-15
	-3.297361647044723e-18
	-5.938276556972734e-15
	3.064618379255735e-06
	3.144287719803370e-04
	5.625005460624766e-05
	4.146270602629710e-01

 83	8.300000000000005e-01
	-1.009870445940120e-15
	-3.410840717294800e-18
	-5.961663120969128e-15
	3.196827202444548e-06
	3.229803333317874e-04
	5.943686550019207e-05
	4.146273970666793e-01

 84	8.400000000000005e-01
	-1.004869681323270e-15
	-3.528096344921813e-18
	-5.984325630594502e-15
	3.332425243347348e-06
	3.313483526989357e-04
	6.270825278908530e-05
	4.146277428086086e-01

 85	8.500000000000005e-01
	-1.000045159801527e-15
	-3.649260929761270e-18
	-6.006284664697628e-15
	3.471483086307301e-06
	3.395332441858103e-04
	6.606238176897907e-05
	4.146280972948436e-01

 86	8.600000000000005e-01
	-9.953898648959988e-16
	-3.774472157201377e-18
	-6.027560566965604e-15
	3.614077782118892e-06
	3.475367101468426e-04
	6.949742850615005e-05
	4.146284603326030e-01

 87	8.700000000000006e-01
	-9.908969773199714e-16
	-3.903873234052518e-18
	-6.048173416309459e-15
	3.760293021075416e-06
	3.553615541719747e-04
	7.301159177456145e-05
	4.146288317315081e-01

 88	8.800000000000006e-01
	-9.865598762705244e-16
	-4.037613135774360e-18
	-6.068143000455685e-15
	3.910219302637193e-06
	3.630115029407459e-04
	7.660310316558318e-05
	4.146292113046497e-01

 89	8.900000000000006e-01
	-9.823721399553614e-16
	-4.175846865654192e-18
	-6.087488792568712e-15
	4.063954104651763e-06
	3.704910390661386e-04
	8.027023546988562e-05
	4.146295988694702e-01

 90	9.000000000000006e-01
	-9.783275454221091e-16
	-4.318735726559235e-18
	-6.106229930729621e-15
	4.221602054916594e-06
	3.778052464078937e-04
	8.401130944933734e-05
	4.146299942484883e-01

 91	9.100000000000006e-01
	-9.744200677542816e-16
	-4.466447605925027e-18
	-6.124385200098070e-15
	4.383275107733566e-06
	3.849596687754036e-04
	8.782469912867661e-05
	4.146303972698455e-01

 92	9.200000000000006e-01
	-9.706438786952497e-16
	-4.619157274671920e-18
	-6.141973017586866e-15
	4.549092727964596e-06
	3.919601824640941e-04
	9.170883574343749e-05
	4.146308077677325e-01

 93	9.300000000000006e-01
	-9.669933447582715e-16
	-4.777046700785647e-18
	-6.159011418882375e-15
	4.719182084968006e-06
	3.988128826749647e-04
	9.566221048303037e-05
	4.146312255826772e-01

 94	9.400000000000006e-01
	-9.634630248775186e-16
	-4.940305378332739e-18
	-6.175518047648130e-15
	4.893678258674839e-06
	4.055239835497845e-04
	9.968337616670232e-05
	4.146316505617195e-01

 95	9.500000000000006e-01
	-9.600476676518134e-16
	-5.109130672728256e-18
	-6.191510146753929e-15
	5.072724459958439e-06
	4.120997313079885e-04
	1.037709479861399e-04
	4.146320825584882e-01

 96	9.600000000000006e-01
	-9.567422082295976e-16
	-5.283728183114004e-18
	-6.207004551378224e-15
	5.256472267359271e-06
	4.185463297878397e-04
	1.079236034423571e-04
	4.146325214332018e-01

 97	9.700000000000006e-01
	-9.535417648804645e-16
	-5.464312122756133e-18
	-6.222017683837413e-15
	5.445081882153691e-06
	4.248698775658169e-04
	1.121400815968681e-04
	4.146329670525816e-01

 98	9.800000000000006e-01
	-9.504416352954965e-16
	-5.651105718416225e-18
	-6.236565550001725e-15
	5.638722403697037e-06
	4.310763157460678e-04
	1.164191817484066e-04
	4.146334192897195e-01

 99	9.900000000000007e-01
	-9.474372926556347e-16
	-5.844341629706486e-18
	-6.250663737163796e-15
	5.837572126933589e-06
	4.371713854684979e-04
	1.207597616371558e-04
	4.146338780238759e-01

 100	1.000000000000001e+00
	-9.445243815043639e-16
	-6.044262389490826e-18
	-6.264327413232443e-15
	6.041818863943211e-06
	4.431605941720034e-04
	1.251607352688179e-04
	4.146343431402663e-01

 101	1.010000000000001e+00
	-9.416987134581119e-16
	-6.251120866454486e-18
	-6.277571327130708e-15
