Title: ** sch_path: /home/andylithia/openmpw/project-yatsuhashi-chip1/xschem/gmid_test/nmos_test.sch
Date: Tue Jul 19 23:15:45  2022
Plotname: DC transfer characteristic
Flags: real
No. Variables: 8
No. Points: 181
Variables:
	0	v(v-sweep)	voltage
	1	@m.xm1.msky130_fd_pr__nfet_01v8[cgb]	capacitance
	2	@m.xm1.msky130_fd_pr__nfet_01v8[cgd]	capacitance
	3	@m.xm1.msky130_fd_pr__nfet_01v8[cgs]	capacitance
	4	@m.xm1.msky130_fd_pr__nfet_01v8[gds]	admittance
	5	@m.xm1.msky130_fd_pr__nfet_01v8[gm]	admittance
	6	i(@m.xm1.msky130_fd_pr__nfet_01v8[id])	current
	7	v(@m.xm1.msky130_fd_pr__nfet_01v8[vth])	voltage
Values:
 0	0.000000000000000e+00
	-3.606734863504451e-15
	-5.075865414314113e-20
	-2.550246197149067e-15
	1.192106644364762e-09
	7.544022852877122e-08
	5.693706823385211e-09
	3.789183563710398e-01

 1	1.000000000000000e-02
	-3.566987817535115e-15
	-5.272235391720326e-20
	-2.635098679386363e-15
	1.360078552761080e-09
	8.596785895207287e-08
	6.499622129697385e-09
	3.789183564481883e-01

 2	2.000000000000000e-02
	-3.527103224739727e-15
	-5.475595732876036e-20
	-2.721560493127702e-15
	1.551231813184625e-09
	9.793408726584120e-08
	7.417856837694218e-09
	3.789183565360907e-01

 3	3.000000000000000e-02
	-3.487098605167966e-15
	-5.686147063027772e-20
	-2.809589594116487e-15
	1.768661458551461e-09
	1.115302040021533e-07
	8.463734020918380e-09
	3.789183566362195e-01

 4	4.000000000000000e-02
	-3.446992630914720e-15
	-5.904092845539566e-20
	-2.899139768915548e-15
	2.015853802587083e-09
	1.269721688333843e-07
	9.654610560295615e-09
	3.789183567502349e-01

 5	5.000000000000000e-02
	-3.406805072657678e-15
	-6.129639288972624e-20
	-2.990160688051344e-15
	2.296731363768436e-09
	1.445037275627456e-07
	1.101013910569169e-08
	3.789183568800231e-01

 6	6.000000000000000e-02
	-3.366556739417329e-15
	-6.362995251416988e-20
	-3.082597981578103e-15
	2.615702022065403e-09
	1.643999333324346e-07
	1.255256318298303e-08
	3.789183570277174e-01

 7	7.000000000000001e-02
	-3.326269411771902e-15
	-6.604372142633956e-20
	-3.176393337179376e-15
	2.977712618901774e-09
	1.869711311484152e-07
	1.430704977648209e-08
	3.789183571957311e-01

 8	8.000000000000000e-02
	-3.285965768827488e-15
	-6.853983824585196e-20
	-3.271484620725088e-15
	3.388307179698927e-09
	2.125674750196922e-07
	1.630206435714645e-08
	3.789183573867987e-01

 9	9.000000000000000e-02
	-3.245669309309643e-15
	-7.112046510965336e-20
	-3.367806018998103e-15
	3.853689895971063e-09
	2.415840589836617e-07
	1.856979407828658e-08
	3.789183576040062e-01

 10	9.999999999999999e-02
	-3.205404267206785e-15
	-7.378778666363110e-20
	-3.465288204095591e-15
	4.380792948495372e-09
	2.744667572225262e-07
	2.114662574115006e-08
	3.789183578508518e-01

 11	1.100000000000000e-01
	-3.165195522455829e-15
	-7.654400905706285e-20
	-3.563858518803882e-15
	4.977349182865568e-09
	3.117188845103352e-07
	2.407368616320329e-08
	3.789183581312836e-01

 12	1.200000000000000e-01
	-3.125068507217101e-15
	-7.939135894648295e-20
	-3.663441182038701e-15
	5.651969562050374e-09
	3.539088064273595e-07
	2.739745378347622e-08
	3.789183584497734e-01

 13	1.300000000000000e-01
	-3.085049108336204e-15
	-8.233208251573247e-20
	-3.763957513244339e-15
	6.414225215888619e-09
	4.016786490787734e-07
	3.117045173353423e-08
	3.789183588113748e-01

 14	1.400000000000000e-01
	-3.045163566635834e-15
	-8.536844451892989e-20
	-3.865326174452764e-15
	7.274733783415569e-09
	4.557542802159891e-07
	3.545203420938976e-08
	3.789183592217985e-01

 15	1.500000000000000e-01
	-3.005438373718806e-15
	-8.850272735311612e-20
	-3.967463428524031e-15
	8.245249599585411e-09
	5.169567571924096e-07
	4.030927981543646e-08
	3.789183596875065e-01

 16	1.600000000000000e-01
	-2.965900166994338e-15
	-9.173723016728116e-20
	-4.070283411923391e-15
	9.338757112872618e-09
	5.862154612702718e-07
	4.581800762620591e-08
	3.789183602158086e-01

 17	1.700000000000000e-01
	-2.926575623662872e-15
	-9.507426801436815e-20
	-4.173698420240394e-15
	1.056956673459238e-08
	6.645831611889369e-07
	5.206393402504338e-08
	3.789183608149796e-01

 18	1.800000000000000e-01
	-2.887491354409137e-15
	-9.851617105262571e-20
	-4.277619204525190e-15
	1.195341211563876e-08
	7.532532698483292e-07
	5.914399091553230e-08
	3.789183614943785e-01

 19	1.900000000000000e-01
	-2.848673797559349e-15
	-1.020652838026374e-19
	-4.381955276406597e-15
	1.350754762372502e-08
	8.535795740796308e-07
	6.716782862570412e-08
	3.789183622646146e-01

 20	2.000000000000000e-01
	-2.810149114455472e-15
	-1.057239644659017e-19
	-4.486615219870701e-15
	1.525084455740779e-08
	9.670987257035436e-07
	7.625952967397843e-08
	3.789183631376953e-01

 21	2.100000000000000e-01
	-2.771943086788117e-15
	-1.094945843106840e-19
	-4.591507007514180e-15
	1.720388438671215e-08
	1.095555778594034e-06
	8.655956244171563e-08
	3.789183641272403e-01

 22	2.200000000000001e-01
	-2.734081016609288e-15
	-1.133795271305044e-19
	-4.696538319050107e-15
	1.938904706017448e-08
	1.240933036703305e-06
	9.822700656127433e-08
	3.789183652486968e-01

 23	2.300000000000001e-01
	-2.696587629717669e-15
	-1.173811887802073e-19
	-4.801616859830725e-15
	2.183059217211570e-08
	1.405482436687664e-06
	1.114420842915324e-07
	3.789183665195845e-01

 24	2.400000000000001e-01
	-2.659486983072980e-15
	-1.215019767941634e-19
	-4.906650677164892e-15
	2.455473055113386e-08
	1.591761620095739e-06
	1.264090340709271e-07
	3.789183679597976e-01

 25	2.500000000000001e-01
	-2.622802376851804e-15
	-1.257443100908056e-19
	-5.011548472247579e-15
	2.758968362179468e-08
	1.802673747963873e-06
	1.433593635073109e-07
	3.789183695919233e-01

 26	2.600000000000001e-01
	-2.586556271707338e-15
	-1.301106187671007e-19
	-5.116219905581137e-15
	3.096572771817029e-08
	2.041510969178677e-06
	1.625555189196626e-07
	3.789183714416210e-01

 27	2.700000000000001e-01
	-2.550770211739053e-15
	-1.346033439862349e-19
	-5.220575893855902e-15
	3.471522040317606e-08
	2.312001267914368e-06
	1.842950067686704e-07
	3.789183735380331e-01

 28	2.800000000000001e-01
	-2.515464753617397e-15
	-1.392249379611311e-19
	-5.324528896365655e-15
	3.887260578500309e-08
	2.618358181083841e-06
	2.089149984351284e-07
	3.789183759142666e-01

 29	2.900000000000001e-01
	-2.480659402243444e-15
	-1.439778640361489e-19
	-5.427993189163372e-15
	4.347439583484780e-08
	2.965332592649396e-06
	2.367974433347280e-07
	3.789183786079090e-01

 30	3.000000000000001e-01
	-2.446372553255422e-15
	-1.488645968685536e-19
	-5.530885125308451e-15
	4.855912481133200e-08
	3.358265479717225e-06
	2.683747058037842e-07
	3.789183816616236e-01

 31	3.100000000000001e-01
	-2.412621442624164e-15
	-1.538876227110479e-19
	-5.633123379719725e-15
	5.416727409790381e-08
	3.803140111817058e-06
	3.041357281020857e-07
	3.789183851237796e-01

 32	3.200000000000001e-01
	-2.379422103508617e-15
	-1.590494397960826e-19
	-5.734629177322357e-15
	6.034116506908722e-08
	4.306631801116679e-06
	3.446327048923775e-07
	3.789183890491680e-01

 33	3.300000000000001e-01
	-2.346789330471824e-15
	-1.643525588221781e-19
	-5.835326503362692e-15
	6.712481802569088e-08
	4.876152885015461e-06
	3.904882334525548e-07
	3.789183934997545e-01

 34	3.400000000000001e-01
	-2.314736651088312e-15
	-1.697995035420599e-19
	-5.935142294955889e-15
	7.456377577980775e-08
	5.519890217416306e-06
	4.424028786430381e-07
	3.789183985454911e-01

 35	3.500000000000001e-01
	-2.283276304906265e-15
	-1.753928114519497e-19
	-6.034006613127652e-15
	8.270489112485857e-08
	6.246832081009737e-06
	5.011630625452410e-07
	3.789184042651735e-01

 36	3.600000000000002e-01
	-2.252419229663254e-15
	-1.811350345809319e-19
	-6.131852794808261e-15
	9.159607818584888e-08
	7.066781145472757e-06
	5.676491562921051e-07
	3.789184107473448e-01

 37	3.700000000000002e-01
	-2.222175054593450e-15
	-1.870287403789298e-19
	-6.228617584433243e-15
	1.012860284966095e-07
	7.990349924636757e-06
	6.428436168871932e-07
	3.789184180911950e-01

 38	3.800000000000002e-01
	-2.192552100607797e-15
	-1.930765127015317e-19
	-6.324241244995540e-15
	1.118238935742681e-07
	9.028935169622334e-06
	7.278389761110810e-07
	3.789184264074940e-01

 39	3.900000000000002e-01
	-2.163557387077014e-15
	-1.992809528894093e-19
	-6.418667648580100e-15
	1.232589367316016e-07
	1.019466781276264e-05
	8.238454536965797e-07
	3.789184358194791e-01

 40	4.000000000000002e-01
	-2.135196644901322e-15
	-2.056446809400009e-19
	-6.511844346586860e-15
	1.356401578547568e-07
	1.150033548074213e-05
	9.321979349205133e-07
	3.789184464637195e-01

 41	4.100000000000002e-01
	-2.107474335510339e-15
	-2.121703367686930e-19
	-6.603722620014130e-15
	1.490158958431987e-07
	1.295927524624269e-05
	1.054362025988066e-06
	3.789184584908993e-01

 42	4.200000000000002e-01
	-2.080393675402403e-15
	-2.188605815566670e-19
	-6.694257510327005e-15
	1.634334143234385e-07
	1.458523519216262e-05
	1.191938881593848e-06
	3.789184720664956e-01

 43	4.300000000000002e-01
	-2.053956665804301e-15
	-2.257180991821868e-19
	-6.783407831574759e-15
	1.789384770701468e-07
	1.639220450935678e-05
	1.346668490330573e-06
	3.789184873713183e-01

 44	4.400000000000002e-01
	-2.028164127010516e-15
	-2.327455977322288e-19
	-6.871136164545223e-15
	1.955749202599519e-07
	1.839421320491350e-05
	1.520431107455251e-06
	3.789185046018801e-01

 45	4.500000000000002e-01
	-2.003015736944870e-15
	-2.399458110910243e-19
	-6.957408833853430e-15
	2.133842292096262e-07
	2.060510400832403e-05
	1.715246542750674e-06
	3.789185239705612e-01

 46	4.600000000000002e-01
	-1.978510073477597e-15
	-2.473215006020645e-19
	-7.042195868954368e-15
	2.324051275808391e-07
	2.303828065173616e-05
	1.933271045016954e-06
	3.789185457055146e-01

 47	4.700000000000003e-01
	-1.954644660026317e-15
	-2.548754568001778e-19
	-7.125470950145829e-15
	2.526731871436255e-07
	2.570643827466351e-05
	2.176791574422805e-06
	3.789185700503369e-01

 48	4.800000000000003e-01
	-1.931416013969960e-15
	-2.626105012100648e-19
	-7.207211340689378e-15
	2.742204660643026e-07
	2.862128315844554e-05
	2.448217318882110e-06
	3.789185972634072e-01

 49	4.900000000000003e-01
	-1.908819697410840e-15
	-2.705294882080549e-19
	-7.287397806220457e-15
	2.970751833127821e-07
	3.179325022291688e-05
	2.750068389053070e-06
	3.789186276169419e-01

 50	5.000000000000002e-01
	-1.886850369829711e-15
	-2.786353069433128e-19
	-7.366014522650168e-15
	3.212614361726903e-07
	3.523122761424045e-05
	3.084961715692350e-06
	3.789186613957338e-01

 51	5.100000000000002e-01
	-1.865501842193049e-15
	-2.869308833155835e-19
	-7.443048973776130e-15
	3.467989669983098e-07
	3.894229819066572e-05
	3.455594269166320e-06
	3.789186988955477e-01

 52	5.200000000000002e-01
	-1.844767132089402e-15
	-2.954191820058765e-19
	-7.518491839821616e-15
	3.737029843187015e-07
	4.293150770818722e-05
	3.864723819393097e-06
	3.789187404212418e-01

 53	5.300000000000002e-01
	-1.824638519492131e-15
	-3.041032085572057e-19
	-7.592336878112541e-15
	4.019840421748779e-07
	4.720166898836577e-05
	4.315147550352326e-06
	3.789187862845969e-01

 54	5.400000000000003e-01
	-1.805107602768974e-15
	-3.129860115023615e-19
	-7.664580797080228e-15
	4.316479802314143e-07
	5.175321031973624e-05
	4.809678931384593e-06
	3.789188368018966e-01

 55	5.500000000000003e-01
	-1.786165354584005e-15
	-3.220706845358857e-19
	-7.735223124746269e-15
	4.626959257771208e-07
	5.658407484395602e-05
	5.351123322878510e-06
	3.789188922913054e-01

 56	5.600000000000003e-01
	-1.767802177364035e-15
	-3.313603687277164e-19
	-7.804266072805667e-15
	4.951243572717413e-07
	6.168967578543454e-05
	5.942252852272808e-06
	3.789189530701082e-01

 57	5.700000000000003e-01
	-1.750007958029153e-15
	-3.408582547760748e-19
	-7.871714397376897e-15
	5.289252276602230e-07
	6.706291020598292e-05
	6.585781134179682e-06
	3.789190194518484e-01

 58	5.800000000000003e-01
	-1.732772121715386e-15
	-3.505675852974439e-19
	-7.937575257433127e-15
	5.640861443142490e-07
	7.269423163275232e-05
	7.284338423640493e-06
	3.789190917434495e-01

 59	5.900000000000003e-01
	-1.716083684245881e-15
	-3.604916571516314e-19
	-8.001858071870060e-15
	6.005906012207217e-07
	7.857177955804383e-05
	8.040447783197155e-06
	3.789191702423758e-01

 60	6.000000000000003e-01
	-1.699931303135487e-15
	-3.706338238002964e-19
	-8.064574376102378e-15
	6.384182579599156e-07
	8.468156158229710e-05
	8.856502813131659e-06
	3.789192552339086e-01

 61	6.100000000000003e-01
	-1.684303326941407e-15
	-3.809974976974193e-19
	-8.125737679015262e-15
	6.775452591357526e-07
	9.100768199376703e-05
	9.734747441773165e-06
	3.789193469885853e-01

 62	6.200000000000003e-01
	-1.669187842799928e-15
	-3.915861527105307e-19
	-8.185363321029260e-15
	7.179445872604281e-07
	9.753260895550436e-05
	1.067725820223549e-05
	3.789194457598780e-01

 63	6.300000000000003e-01
	-1.654572722015489e-15
	-4.024033265716983e-19
	-8.243468333968236e-15
	7.595864416689044e-07
	1.042374712789979e-04
	1.168592933729395e-05
	3.789195517821570e-01

 64	6.400000000000003e-01
	-1.640445663593323e-15
	-4.134526233576675e-19
	-8.300071303351493e-15
	8.024386358478026e-07
	1.111023750478833e-04
	1.276246097990257e-05
	3.789196652689577e-01

 65	6.500000000000004e-01
	-1.626794235630878e-15
	-4.247377159985514e-19
	-8.355192233662783e-15
	8.464670056001011e-07
	1.181067301240468e-04
	1.390835055791262e-05
	3.789197864116155e-01

 66	6.600000000000004e-01
	-1.613605914505546e-15
	-4.362623488150684e-19
	-8.408852417082154e-15
	8.916358207152915e-07
	1.252295768000126e-04
	1.512488747266030e-05
	3.789199153782652e-01

 67	6.700000000000004e-01
	-1.600868121816803e-15
	-4.480303400840467e-19
	-8.461074306102281e-15
	9.379081932492633e-07
	1.324499035057922e-04
	1.641315100662839e-05
	3.789200523132149e-01

 68	6.800000000000004e-01
	-1.588568259060383e-15
	-4.600455846328491e-19
	-8.511881390387924e-15
	9.852464761092443e-07
	1.397469474646489e-04
	1.777401132914952e-05
	3.789201973366893e-01

 69	6.900000000000004e-01
	-1.576693740029395e-15
	-4.723120564628706e-19
	-8.561298078177993e-15
	1.033612646352356e-06
	1.471004714360448e-04
	1.920813339410957e-05
	3.789203505449388e-01

 70	7.000000000000004e-01
	-1.565232020953299e-15
	-4.848338114029116e-19
	-8.609349582473304e-15
	1.082968668406423e-06
	1.544910110949953e-04
	2.071598346195784e-05
	3.789205120106702e-01

 71	7.100000000000004e-01
	-1.554170628399875e-15
	-4.976149897934671e-19
	-8.656061812200020e-15
	1.133276833272685e-06
	1.619000890857337e-04
	2.229783793124669e-05
	3.789206817837972e-01

 72	7.200000000000004e-01
	-1.543497184977874e-15
	-5.106598192027610e-19
	-8.701461268489722e-15
	1.184500070639232e-06
	1.693103932717058e-04
	2.395379413278099e-05
	3.789208598924385e-01

 73	7.300000000000004e-01
	-1.533199432889150e-15
	-5.239726171760614e-19
	-8.745574946171113e-15
	1.236602231690040e-06
	1.767059181124738e-04
	2.568378272181642e-05
	3.789210463441657e-01

 74	7.400000000000004e-01
	-1.523265255388591e-15
	-5.375577940195162e-19
	-8.788430240526792e-15
	1.289548341212898e-06
	1.840720693748982e-04
	2.748758129959378e-05
	3.789212411274134e-01

 75	7.500000000000004e-01
	-1.513682696218135e-15
	-5.514198556202870e-19
	-8.830054859330390e-15
	1.343304818367711e-06
	1.913957334900887e-04
	2.936482890325323e-05
	3.789214442130490e-01

 76	7.600000000000005e-01
	-1.504439977088080e-15
	-5.655634063046087e-19
	-8.870476740145084e-15
	1.397839666160205e-06
	1.986653137743482e-04
	3.131504102101569e-05
	3.789216555560300e-01

 77	7.700000000000005e-01
	-1.495525513284117e-15
	-5.799931517357653e-19
	-8.909723972833804e-15
	1.453122630262990e-06
	2.058707364310876e-04
	3.333762481537509e-05
	3.789218750971380e-01

 78	7.800000000000005e-01
	-1.486927927482919e-15
	-5.947139018540179e-19
	-8.947824727204609e-15
	1.509125328331308e-06
	2.130034297437893e-04
	3.543189426886925e-05
	3.789221027647097e-01

 79	7.900000000000005e-01
	-1.478636061862264e-15
	-6.097305738605817e-19
	-8.984807185690614e-15
	1.565821351371603e-06
	2.200562801695788e-04
	3.759708500274265e-05
	3.789223384763902e-01

 80	8.000000000000005e-01
	-1.470638988593746e-15
	-6.250481952482062e-19
	-9.020699480943890e-15
	1.623186339040874e-06
	2.270235691688248e-04
	3.983236855669802e-05
	3.789225821408249e-01

 81	8.100000000000005e-01
	-1.462926018807504e-15
	-6.406719068802249e-19
	-9.055529638205083e-15
	1.681198030986585e-06
	2.339008945826951e-04
	4.213686595627438e-05
	3.789228336592940e-01

 82	8.200000000000005e-01
	-1.455486710118836e-15
	-6.566069661214064e-19
	-9.089325522296054e-15
	1.739836296489162e-06
	2.406850802250387e-04
	4.450966043187707e-05
	3.789230929272708e-01

 83	8.300000000000005e-01
	-1.448310872806257e-15
	-6.728587500224021e-19
	-9.122114789071062e-15
	1.799083144749590e-06
	2.473740771148282e-04
	4.694980918901668e-05
	3.789233598358777e-01

 84	8.400000000000005e-01
	-1.441388574729703e-15
	-6.894327585611655e-19
	-9.153924841152643e-15
	1.858922718182967e-06
	2.539668594671597e-04
	4.945635416207720e-05
	3.789236342732321e-01

 85	8.500000000000005e-01
	-1.434710145076198e-15
	-7.063346179439442e-19
	-9.184782787771113e-15
	1.919341271044833e-06
	2.604633182087359e-04
	5.202833171337949e-05
	3.789239161256692e-01

 86	8.600000000000005e-01
	-1.428266177018304e-15
	-7.235700839685845e-19
	-9.214715408521559e-15
	1.980327135640209e-06
	2.668641544090259e-04
	5.466478126509237e-05
	3.789242052788631e-01

 87	8.700000000000006e-01
	-1.422047529368445e-15
	-7.411450454536865e-19
	-9.243749120849170e-15
	2.041870678255367e-06
	2.731707746388119e-04
	5.736475287356379e-05
	3.789245016188013e-01

 88	8.800000000000006e-01
	-1.416045327309520e-15
	-7.590655277362209e-19
	-9.271909951071771e-15
	2.103964246816818e-06
	2.793851898977064e-04
	6.012731377387747e-05
	3.789248050326585e-01

 89	8.900000000000006e-01
	-1.410250962279337e-15
	-7.773376962411908e-19
	-9.299223508748783e-15
	2.166602112130063e-06
	2.855099194025241e-04
	6.295155393709845e-05
	3.789251154095326e-01

 90	9.000000000000006e-01
	-1.404656091083343e-15
	-7.959678601264961e-19
	-9.325714964206526e-15
	2.229780404387361e-06
	2.915479002066230e-04
	6.583659069393055e-05
	3.789254326410947e-01

 91	9.100000000000006e-01
	-1.399252634306713e-15
	-8.149624760064597e-19
	-9.351409029032654e-15
	2.293497046466705e-06
	2.975024033316759e-04
	6.878157248676033e-05
	3.789257566221018e-01

 92	9.200000000000006e-01
	-1.394032774093673e-15
	-8.343281517575458e-19
	-9.376329939355240e-15
	2.357751685375992e-06
	3.033769568400859e-04
	7.178568181754366e-05
	3.789260872508435e-01

 93	9.300000000000006e-01
	-1.388988951358272e-15
	-8.540716504098365e-19
	-9.400501441726565e-15
	2.422545623033227e-06
	3.091752760594932e-04
	7.484813746218803e-05
	3.789264244294634e-01

 94	9.400000000000006e-01
	-1.384113862487572e-15
	-8.741998941279809e-19
	-9.423946781436215e-15
	2.487881747416081e-06
	3.149012009893171e-04
	7.796819602322978e-05
	3.789267680642320e-01

 95	9.500000000000006e-01
	-1.379400455594447e-15
	-8.947199682854849e-19
	-9.446688693083643e-15
	2.553764464966586e-06
	3.205586407715624e-04
	8.114515289216002e-05
	3.789271180657137e-01

 96	9.600000000000006e-01
	-1.374841926373963e-15
	-9.156391256360999e-19
	-9.468749393246096e-15
	2.620199634999028e-06
	3.261515249911970e-04
	8.437834269094551e-05
	3.789274743488926e-01

 97	9.700000000000006e-01
	-1.370431713613777e-15
	-9.369647905863437e-19
	-9.490150575084017e-15
	2.687194506733322e-06
	3.316837614824414e-04
	8.766713925948914e-05
	3.789278368332227e-01

 98	9.800000000000006e-01
	-1.366163494405654e-15
	-9.587045635734802e-19
	-9.510913404732533e-15
	2.754757659461961e-06
	3.371592002527708e-04
	9.101095525218199e-05
	3.789282054426416e-01

 99	9.900000000000007e-01
	-1.362031179101866e-15
	-9.808662255527536e-19
	-9.531058519334424e-15
	2.822898946257173e-06
	3.425816030931012e-04
	9.440924140260396e-05
	3.789285801055154e-01

 100	1.000000000000001e+00
	-1.358028906057341e-15
	-1.003457742598522e-18
	-9.550606026576389e-15
	2.891629441533937e-06
	3.479546184169958e-04
	9.786148551093326e-05
	3.789289607545867e-01

 101	1.010000000000001e+00
	-1.354151036194949e-15
	-1.026487270623603e-18
	-9.569575505597701e-15
