Title: ** sch_path: /home/andylithia/openmpw/project-yatsuhashi-chip1/xschem/gmid_test/nmos_test.sch
Date: Sun Jul 17 22:51:45  2022
Plotname: DC transfer characteristic
Flags: real
No. Variables: 8
No. Points: 181
Variables:
	0	v(v-sweep)	voltage
	1	@m.xm1.msky130_fd_pr__nfet_01v8[cgb]	capacitance
	2	@m.xm1.msky130_fd_pr__nfet_01v8[cgd]	capacitance
	3	@m.xm1.msky130_fd_pr__nfet_01v8[cgs]	capacitance
	4	@m.xm1.msky130_fd_pr__nfet_01v8[gds]	admittance
	5	@m.xm1.msky130_fd_pr__nfet_01v8[gm]	admittance
	6	i(@m.xm1.msky130_fd_pr__nfet_01v8[id])	current
	7	v(@m.xm1.msky130_fd_pr__nfet_01v8[vth])	voltage
Values:
 0	0.000000000000000e+00
	-6.697776529008730e-15
	-1.682663607602358e-18
	-9.235790241752263e-15
	5.857462917339137e-09
	2.316431624978056e-07
	2.379197055457980e-08
	2.698094264486282e-01

 1	1.000000000000000e-02
	-6.618678990260544e-15
	-1.735683172287174e-18
	-9.416154811997844e-15
	6.440405494137715e-09
	2.550391109544046e-07
	2.622351561291586e-08
	2.698094267310815e-01

 2	2.000000000000000e-02
	-6.540178358563774e-15
	-1.790354593837936e-18
	-9.597220361447415e-15
	7.079043673864726e-09
	2.807869982785074e-07
	2.890058942602695e-08
	2.698094270420573e-01

 3	3.000000000000000e-02
	-6.462302811530944e-15
	-1.846728440208004e-18
	-9.778897120247873e-15
	7.778369311508199e-09
	3.091273948018539e-07
	3.184789371149415e-08
	2.698094273844238e-01

 4	4.000000000000000e-02
	-6.385080336210398e-15
	-1.904856841776217e-18
	-9.961094353125681e-15
	8.543776839599222e-09
	3.403269160868653e-07
	3.509266369011457e-08
	2.698094277613441e-01

 5	5.000000000000000e-02
	-6.308538658735577e-15
	-1.964793543872469e-18
	-1.014372052967350e-14
	9.381089939609888e-09
	3.746813144245215e-07
	3.866494368576034e-08
	2.698094281763128e-01

 6	6.000000000000000e-02
	-6.232705175039284e-15
	-2.026593961349162e-18
	-1.032668349725637e-14
	1.029658927065754e-08
	4.125189644967618e-07
	4.259789557241117e-08
	2.698094286331771e-01

 7	7.000000000000001e-02
	-6.157606882893461e-15
	-2.090315235286831e-18
	-1.050989065588235e-14
	1.129704121188029e-08
	4.542047916729480e-07
	4.692814424857695e-08
	2.698094291361929e-01

 8	8.000000000000000e-02
	-6.083270315528586e-15
	-2.156016291928139e-18
	-1.069324913437323e-14
	1.238972756257053e-08
	5.001446959362329e-07
	5.169616482662075e-08
	2.698094296900645e-01

 9	9.000000000000000e-02
	-6.009721477079997e-15
	-2.223757903937650e-18
	-1.087666596716090e-14
	1.358247613109037e-08
	5.507905289800115e-07
	5.694671677717614e-08
	2.698094302999890e-01

 10	9.999999999999999e-02
	-5.936985780099129e-15
	-2.293602754089723e-18
	-1.106004827103230e-14
	1.488369212982869e-08
	6.066456864626309e-07
	6.272933086661494e-08
	2.698094309717247e-01

 11	1.100000000000000e-01
	-5.865087985357314e-15
	-2.365615501491773e-18
	-1.124330342114717e-14
	1.630239027910243e-08
	6.682713816170400e-07
	6.909885536673439e-08
	2.698094317116403e-01

 12	1.200000000000000e-01
	-5.794052144157728e-15
	-2.439862850454853e-18
	-1.142633922565645e-14
	1.784822750803249e-08
	7.362936702051452e-07
	7.611606869713297e-08
	2.698094325267981e-01

 13	1.300000000000000e-01
	-5.723901543357638e-15
	-2.516413622129343e-18
	-1.160906409826004e-14
	1.953153612522472e-08
	8.114112999766875e-07
	8.384836637714411e-08
	2.698094334250238e-01

 14	1.400000000000000e-01
	-5.654658653288648e-15
	-2.595338829028260e-18
	-1.179138722805464e-14
	2.136335731664344e-08
	8.944044600921914e-07
	9.237053090805175e-08
	2.698094344150141e-01

 15	1.500000000000000e-01
	-5.586345078746566e-15
	-2.676711752567677e-18
	-1.197321874604170e-14
	2.335547481262247e-08
	9.861445071178800e-07
	1.017655939678040e-07
	2.698094355064087e-01

 16	1.600000000000000e-01
	-5.518981513206156e-15
	-2.760608023758107e-18
	-1.215446988768444e-14
	2.552044855060278e-08
	1.087604743872849e-06
	1.121258010660904e-07
	2.698094367099262e-01

 17	1.700000000000000e-01
	-5.452587696398144e-15
	-2.847105707189200e-18
	-1.233505315093042e-14
	2.787164814523144e-08
	1.199872325251043e-06
	1.235536895614543e-07
	2.698094380374801e-01

 18	1.800000000000000e-01
	-5.387182375367298e-15
	-2.936285388454984e-18
	-1.251488244914372e-14
	3.042328596299766e-08
	1.324161360755433e-06
	1.361632916632933e-07
	2.698094395023209e-01

 19	1.900000000000000e-01
	-5.322783269112104e-15
	-3.028230265175468e-18
	-1.269387325842222e-14
	3.319044958492193e-08
	1.461827276449939e-06
	1.500814747062021e-07
	2.698094411191868e-01

 20	2.000000000000000e-01
	-5.259407036886494e-15
	-3.123026241776018e-18
	-1.287194275881131e-14
	3.618913342812985e-08
	1.614382488908928e-06
	1.654494315631998e-07
	2.698094429044835e-01

 21	2.100000000000000e-01
	-5.197069250225108e-15
	-3.220762028195983e-18
	-1.304900996896159e-14
	3.943626928570738e-08
	1.783513430067857e-06
	1.824243345249136e-07
	2.698094448764734e-01

 22	2.200000000000001e-01
	-5.135784368733560e-15
	-3.321529242704298e-18
	-1.322499587381915e-14
	4.294975553425204e-08
	1.971098944192761e-06
	2.011811662758018e-07
	2.698094470554850e-01

 23	2.300000000000001e-01
	-5.075565719665878e-15
	-3.425422519008994e-18
	-1.339982354497697e-14
	4.674848475026723e-08
	2.179230056049183e-06
	2.219147417037294e-07
	2.698094494641602e-01

 24	2.400000000000001e-01
	-5.016425481291509e-15
	-3.532539617857705e-18
	-1.357341825336142e-14
	5.085236947025601e-08
	2.410231082358458e-06
	2.448419341392171e-07
	2.698094521276945e-01

 25	2.500000000000001e-01
	-4.958374670035918e-15
	-3.642981543333218e-18
	-1.374570757396966e-14
	5.528236582524676e-08
	2.666682026429798e-06
	2.702041191846864e-07
	2.698094550741333e-01

 26	2.600000000000001e-01
	-4.901423131359887e-15
	-3.756852664061132e-18
	-1.391662148242099e-14
	6.006049477885709e-08
	2.951442158194660e-06
	2.982698485091742e-07
	2.698094583346849e-01

 27	2.700000000000001e-01
	-4.845579534324747e-15
	-3.874260839555147e-18
	-1.408609244313069e-14
	6.520986069906314e-08
	3.267674638595153e-06
	3.293377647943123e-07
	2.698094619440526e-01

 28	2.800000000000001e-01
	-4.790851369774358e-15
	-3.995317551936862e-18
	-1.425405548895925e-14
	7.075466699783844e-08
	3.618871998394365e-06
	3.637397673667273e-07
	2.698094659408018e-01

 29	2.900000000000001e-01
	-4.737244952047807e-15
	-4.120138043279734e-18
	-1.442044829223689e-14
	7.672022858010601e-08
	4.008882227170383e-06
	4.018444358852912e-07
	2.698094703677664e-01

 30	3.000000000000001e-01
	-4.684765424122015e-15
	-4.248841458837341e-18
	-1.458521122710811e-14
	8.313298085414630e-08
	4.441935168929622e-06
	4.440607167162304e-07
	2.698094752724661e-01

 31	3.100000000000001e-01
	-4.633416766069355e-15
	-4.381550996430781e-18
	-1.474828742318366e-14
	9.002048507010532e-08
	4.922668857084399e-06
	4.908418732777169e-07
	2.698094807075765e-01

 32	3.200000000000001e-01
	-4.583201806702410e-15
	-4.518394062282489e-18
	-1.490962281053175e-14
	9.741142977179287e-08
	5.456155354431334e-06
	5.426896976295482e-07
	2.698094867314114e-01

 33	3.300000000000001e-01
	-4.534122238266169e-15
	-4.659502433598352e-18
	-1.506916615608016e-14
	1.053356281697980e-07
	6.047925594491064e-06
	6.001589758938972e-07
	2.698094934084462e-01

 34	3.400000000000001e-01
	-4.486178634027791e-15
	-4.805012428215069e-18
	-1.522686909154108e-14
	1.138240112714964e-07
	6.703992650724986e-06
	6.638621947068318e-07
	2.698095008098593e-01

 35	3.500000000000001e-01
	-4.439370468604757e-15
	-4.955065081645862e-18
	-1.538268613300693e-14
	1.229086166359393e-07
	7.430872791660470e-06
	7.344744698200247e-07
	2.698095090141149e-01

 36	3.600000000000002e-01
	-4.393696140864214e-15
	-5.109806331874436e-18
	-1.553657469240202e-14
	1.326225726594024e-07
	8.235603615125654e-06
	8.127386712237650e-07
	2.698095181075489e-01

 37	3.700000000000002e-01
	-4.349152999220308e-15
	-5.269387212263240e-18
	-1.568849508100546e-14
	1.430000783406515e-07
	9.125758496217779e-06
	8.994707117939500e-07
	2.698095281849883e-01

 38	3.800000000000002e-01
	-4.305737369150499e-15
	-5.433964052963848e-18
	-1.583841050529254e-14
	1.540763785242634e-07
	1.010945653422264e-05
	9.955649585554810e-07
	2.698095393503845e-01

 39	3.900000000000002e-01
	-4.263444582748518e-15
	-5.603698691232999e-18
	-1.598628705536840e-14
	1.658877346758050e-07
	1.119536714659943e-05
	1.101999717308636e-06
	2.698095517174428e-01

 40	4.000000000000002e-01
	-4.222269010128600e-15
	-5.778758691081873e-18
	-1.613209368629224e-14
	1.784713913046511e-07
	1.239270843664909e-05
	1.219842732723363e-06
	2.698095654102674e-01

 41	4.100000000000002e-01
	-4.182204092494517e-15
	-5.959317572705196e-18
	-1.627580219261226e-14
	1.918655382189586e-07
	1.371123845895005e-05
	1.350256637242117e-06
	2.698095805639951e-01

 42	4.200000000000002e-01
	-4.143242376686505e-15
	-6.145555052163009e-18
	-1.641738717645090e-14
	2.061092688729895e-07
	1.516123852635592e-05
	1.494504273450793e-06
	2.698095973254066e-01

 43	4.300000000000002e-01
	-4.105375551020482e-15
	-6.337657291807035e-18
	-1.655682600949452e-14
	2.212425351496759e-07
	1.675348774736157e-05
	1.653953806217284e-06
	2.698096158535354e-01

 44	4.400000000000002e-01
	-4.068594482235385e-15
	-6.535817161975856e-18
	-1.669409878925658e-14
	2.373060990111456e-07
	1.849922805564524e-05
	1.830083533126387e-06
	2.698096363202120e-01

 45	4.500000000000002e-01
	-4.032889253368135e-15
	-6.740234514504086e-18
	-1.682918828999221e-14
	2.543414815465582e-07
	2.041011909665871e-05
	2.024486294846515e-06
	2.698096589105862e-01

 46	4.600000000000002e-01
	-3.998249202379023e-15
	-6.951116468621382e-18
	-1.696207990865065e-14
	2.723909100500581e-07
	2.249818247064247e-05
	2.238873381359756e-06
	2.698096838235813e-01

 47	4.700000000000003e-01
	-3.964662961355487e-15
	-7.168677709849514e-18
	-1.709276160625661e-14
	2.914972638712429e-07
	2.477573499775217e-05
	2.475077825786211e-06
	2.698097112722634e-01

 48	4.800000000000003e-01
	-3.932118496127746e-15
	-7.393140802531514e-18
	-1.722122384511365e-14
	3.117040198956805e-07
	2.725531086838568e-05
	2.735056975153011e-06
	2.698097414841579e-01

 49	4.900000000000003e-01
	-3.900603146135649e-15
	-7.624736516667482e-18
	-1.734745952222382e-14
	3.330551986330624e-07
	2.994957276832036e-05
	3.020894227201883e-06
	2.698097747014426e-01

 50	5.000000000000002e-01
	-3.870103664393157e-15
	-7.863704169760442e-18
	-1.747146389931454e-14
	3.555953120141289e-07
	3.287121232051036e-05
	3.334799824468576e-06
	2.698098111810374e-01

 51	5.100000000000002e-01
	-3.840606257404339e-15
	-8.110291984417156e-18
	-1.759323452985955e-14
	3.793693141234695e-07
	3.603284045857284e-05
	3.679110601640011e-06
	2.698098511945775e-01

 52	5.200000000000002e-01
	-3.812096624891922e-15
	-8.364757462485735e-18
	-1.771277118347511e-14
	4.044225562222672e-07
	3.944686863487563e-05
	4.056288589779951e-06
	2.698098950282486e-01

 53	5.300000000000002e-01
	-3.784559999208170e-15
	-8.627367776554484e-18
	-1.783007576806348e-14
	4.308007475410251e-07
	4.312538206111949e-05
	4.468918391519503e-06
	2.698099429824835e-01

 54	5.400000000000003e-01
	-3.757981184305759e-15
	-8.898400179680295e-18
	-1.794515225006711e-14
	4.585499234458136e-07
	4.708000647262584e-05
	4.919703254765529e-06
	2.698099953715026e-01

 55	5.500000000000003e-01
	-3.732344594154993e-15
	-9.178142434260320e-18
	-1.805800657318499e-14
	4.877164227004379e-07
	5.132177018942248e-05
	5.411459788820622e-06
	2.698100525226904e-01

 56	5.600000000000003e-01
	-3.707634290502462e-15
	-9.466893261009932e-18
	-1.816864657589021e-14
	5.183468756592617e-07
	5.586096350729958e-05
	5.947111285867649e-06
	2.698101147758397e-01

 57	5.700000000000003e-01
	-3.683834019874707e-15
	-9.764962809063263e-18
	-1.827708190807515e-14
	5.504882053296843e-07
	6.070699767967311e-05
	6.529679632282058e-06
	2.698101824821852e-01

 58	5.800000000000003e-01
	-3.660927249739369e-15
	-1.007267314826524e-17
	-1.838332394713474e-14
	5.841876433371508e-07
	6.586826593585636e-05
	7.162275817809906e-06
	2.698102560033158e-01

 59	5.900000000000003e-01
	-3.638897203744812e-15
	-1.039035878478179e-17
	-1.848738571378436e-14
	6.194927629085613e-07
	7.135200911357086e-05
	7.848089075823472e-06
	2.698103357099047e-01

 60	6.000000000000003e-01
	-3.617726895967684e-15
	-1.071836720121914e-17
	-1.858928178789216e-14
	6.564515310604437e-07
	7.716418855461299e-05
	8.590374714058235e-06
	2.698104219802950e-01

 61	6.100000000000003e-01
	-3.597399164106254e-15
	-1.105705942250465e-17
	-1.868902822458969e-14
	6.951123822361763e-07
	8.330936891574338e-05
	9.392440721802785e-06
	2.698105151989421e-01

 62	6.200000000000003e-01
	-3.577896701565446e-15
	-1.140681060884993e-17
	-1.878664247090773e-14
	7.355243156823859e-07
	8.979061347740103e-05
	1.025763326575359e-05
	2.698106157547281e-01

 63	6.300000000000003e-01
	-3.559202088387328e-15
	-1.176801067719457e-17
	-1.888214328316775e-14
	7.777370188891646e-07
	9.660939438854436e-05
	1.118932121191387e-05
	2.698107240391632e-01

 64	6.400000000000003e-01
	-3.541297820988285e-15
	-1.214106495259727e-17
	-1.897555064534206e-14
	8.218010194443605e-07
	1.037655200674410e-04
	1.219087983426914e-05
	2.698108404444883e-01

 65	6.500000000000004e-01
	-3.524166340671634e-15
	-1.252639485112969e-17
	-1.906688568857905e-14
	8.677678676716556e-07
	1.112570816890517e-04
	1.326567389177816e-05
	2.698109653617167e-01

 66	6.600000000000004e-01
	-3.507790060890885e-15
	-1.292443859590969e-17
	-1.915617061207331e-14
	9.156903524397221e-07
	1.190804203362734e-04
	1.441704027280575e-05
	2.698110991786089e-01

 67	6.700000000000004e-01
	-3.492151393245865e-15
	-1.333565196800434e-17
	-1.924342860544343e-14
	9.656227525503978e-07
	1.272301159838876e-04
	1.564827041988951e-05
	2.698112422776401e-01

 68	6.800000000000004e-01
	-3.477232772199741e-15
	-1.376050909402562e-17
	-1.932868377276474e-14
	1.017621126143827e-06
	1.356989990323184e-04
	1.696259275718562e-05
	2.698113950339497e-01

 69	6.900000000000004e-01
	-3.463016678510919e-15
	-1.419950327234594e-17
	-1.941196105838815e-14
	1.071743640605137e-06
	1.444781846268815e-04
	1.836315534771289e-05
	2.698115578133352e-01

 70	7.000000000000004e-01
	-3.449485661379249e-15
	-1.465314783996822e-17
	-1.949328617466082e-14
	1.128050945528443e-06
	1.535571295022323e-04
	1.985300900738582e-05
	2.698117309702864e-01

 71	7.100000000000004e-01
	-3.436622359310821e-15
	-1.512197708219617e-17
	-1.957268553164986e-14
	1.186606591399191e-06
	1.629237105971074e-04
	2.143509109773143e-05
	2.698119148461103e-01

 72	7.200000000000004e-01
	-3.424409519710290e-15
	-1.560654718737206e-17
	-1.965018616895617e-14
	1.247477496804611e-06
	1.725643242071692e-04
	2.311221020921693e-05
	2.698121097671453e-01

 73	7.300000000000004e-01
	-3.412830017214046e-15
	-1.610743724907797e-17
	-1.972581568969148e-14
	1.310734467185209e-06
	1.824640039991700e-04
	2.488703193252156e-05
	2.698123160431120e-01

 74	7.400000000000004e-01
	-3.401866870781162e-15
	-1.662525031832373e-17
	-1.979960219667899e-14
	1.376452768408995e-06
	1.926065558117778e-04
	2.676206589627229e-05
	2.698125339656129e-01

 75	7.500000000000004e-01
	-3.391503259562686e-15
	-1.716061450839667e-17
	-1.987157423092578e-14
	1.444712758796556e-06
	2.029747068294116e-04
	2.873965422725918e-05
	2.698127638067828e-01

 76	7.600000000000005e-01
	-3.381722537572845e-15
	-1.771418415518676e-17
	-1.994176071240331e-14
	1.515600583661093e-06
	2.135502664448696e-04
	3.082196156357592e-05
	2.698130058181404e-01

 77	7.700000000000005e-01
	-3.372508247188510e-15
	-1.828664103596607e-17
	-2.001019088316141e-14
	1.589208936967482e-06
	2.243142959315109e-04
	3.301096672325153e-05
	2.698132602296122e-01

 78	7.800000000000005e-01
	-3.363844131505741e-15
	-1.887869564976573e-17
	-2.007689425279094e-14
	1.665637895370555e-06
	2.352472839298601e-04
	3.530845610147741e-05
	2.698135272487775e-01

 79	7.900000000000005e-01
	-3.355714145584024e-15
	-1.949108856266980e-17
	-2.014190054624111e-14
	1.744995830682097e-06
	2.463293247178732e-04
	3.771601883935021e-05
	2.698138070602817e-01

 80	8.000000000000005e-01
	-3.348102466611194e-15
	-2.012459182152603e-17
	-2.020523965398736e-14
	1.827400407752001e-06
	2.575402962761579e-04
	4.023504377686135e-05
	2.698140998255164e-01

 81	8.100000000000005e-01
	-3.340993503022608e-15
	-2.078001043978134e-17
	-2.026694158453928e-14
	1.912979675852653e-06
	2.688600352748001e-04
	4.286671817352564e-05
	2.698144056824410e-01

 82	8.200000000000005e-01
	-3.334371902610213e-15
	-2.145818395934282e-17
	-2.032703641926880e-14
	2.001873262942635e-06
	2.802685062892004e-04
	4.561202815213027e-05
	2.698147247456456e-01

 83	8.300000000000005e-01
	-3.328222559657459e-15
	-2.215998809258917e-17
	-2.038555426953300e-14
	2.094233683682284e-06
	2.917459627898403e-04
	4.847176079532784e-05
	2.698150571065990e-01

 84	8.400000000000005e-01
	-3.322530621136819e-15
	-2.288633644889132e-17
	-2.044252523605941e-14
	2.190227773802462e-06
	3.032730977341791e-04
	5.144650780162885e-05
	2.698154028340594e-01

 85	8.500000000000005e-01
	-3.317281492007443e-15
	-2.363818235023011e-17
	-2.049797937055567e-14
	2.290038265419186e-06
	3.148311819065024e-04
	5.453667058719427e-05
	2.698157619746789e-01

 86	8.600000000000005e-01
	-3.312460839650174e-15
	-2.441652074077142e-17
	-2.055194663950074e-14
	2.393865520176163e-06
	3.264021884918386e-04
	5.774246670299928e-05
	2.698161345537343e-01

 87	8.700000000000006e-01
	-3.308054597477523e-15
	-2.522239019550613e-17
	-2.060445689007030e-14
	2.501929439722577e-06
	3.379689027210079e-04
	6.106393742353908e-05
	2.698165205760231e-01

 88	8.800000000000006e-01
	-3.304048967756010e-15
	-2.605687503336721e-17
	-2.065553981814470e-14
	2.614471576045197e-06
	3.495150157748193e-04
	6.450095635341083e-05
	2.698169200268526e-01

 89	8.900000000000006e-01
	-3.300430423677743e-15
	-2.692110754051303e-17
	-2.070522493834489e-14
	2.731757467624945e-06
	3.610252024758632e-04
	6.805323889169059e-05
	2.698173328731446e-01

 90	9.000000000000006e-01
	-3.297185710717913e-15
	-2.781627030979526e-17
	-2.075354155603830e-14
	2.854079231346458e-06
	3.724851826178238e-04
	7.172035239096192e-05
	2.698177590646071e-01

 91	9.100000000000006e-01
	-3.294301847314088e-15
	-2.874359870274079e-17
	-2.080051874125433e-14
	2.981758444630916e-06
	3.838817660771055e-04
	7.550172684784791e-05
	2.698181985349863e-01

 92	9.200000000000006e-01
	-3.291766124902381e-15
	-2.970438344073938e-17
	-2.084618530444747e-14
	3.115149357479379e-06
	3.952028821143078e-04
	7.939666596471135e-05
	2.698186512033477e-01

 93	9.300000000000006e-01
	-3.289566107344974e-15
	-3.069997333247553e-17
	-2.089056977404346e-14
	3.254642480111550e-06
	4.064375934993111e-04
	8.340435842742594e-05
	2.698191169753850e-01

 94	9.400000000000006e-01
	-3.287689629782261e-15
	-3.173177814503004e-17
	-2.093370037570382e-14
	3.400668598788616e-06
	4.175760962809938e-04
	8.752388925143912e-05
	2.698195957447417e-01

 95	9.500000000000006e-01
	-3.286124796941913e-15
	-3.280127162647279e-17
	-2.097560501324216e-14
	3.553703280362996e-06
	4.286097061696675e-04
	9.175425105733887e-05
	2.698200873943186e-01

 96	9.600000000000006e-01
	-3.284859980936314e-15
	-3.390999468817815e-17
	-2.101631125112545e-14
	3.714271935270124e-06
	4.395308326072567e-04
	9.609435514737955e-05
	2.698205917975629e-01

 97	9.700000000000006e-01
	-3.283883818578161e-15
	-3.505955875553519e-17
	-2.105584629849355e-14
	3.882955519262962e-06
	4.503329416684107e-04
	1.005430422655626e-04
	2.698211088197234e-01

 98	9.800000000000006e-01
	-3.283185208243203e-15
	-3.625164929617740e-17
	-2.109423699462952e-14
	4.060396966410202e-06
	4.610105089671223e-04
	1.050990929354840e-04
	2.698216383190408e-01

 99	9.900000000000007e-01
	-3.282753306307750e-15
	-3.748802953531794e-17
	-2.113150979581392e-14
	4.247308459988795e-06
	4.715589637407973e-04
	1.097612372819141e-04
	2.698221801479039e-01

 100	1.000000000000001e+00
	-3.282577523187067e-15
	-3.877054436828618e-17
	-2.116769076349671e-14
	4.444479664189166e-06
	4.819746252505649e-04
	1.145281642536792e-04
	2.698227341539111e-01

 101	1.010000000000001e+00
	-3.282647518999752e-15
	-4.010112448085669e-17
	-2.120280555372106e-14
