Title: ** sch_path: /home/andylithia/openmpw/project-yatsuhashi-chip1/xschem/gmid_test/nmos_test.sch
Date: Sun Jul 17 22:51:45  2022
Plotname: DC transfer characteristic
Flags: real
No. Variables: 8
No. Points: 181
Variables:
	0	v(v-sweep)	voltage
	1	@m.xm1.msky130_fd_pr__nfet_01v8[cgb]	capacitance
	2	@m.xm1.msky130_fd_pr__nfet_01v8[cgd]	capacitance
	3	@m.xm1.msky130_fd_pr__nfet_01v8[cgs]	capacitance
	4	@m.xm1.msky130_fd_pr__nfet_01v8[gds]	admittance
	5	@m.xm1.msky130_fd_pr__nfet_01v8[gm]	admittance
	6	i(@m.xm1.msky130_fd_pr__nfet_01v8[id])	current
	7	v(@m.xm1.msky130_fd_pr__nfet_01v8[vth])	voltage
Values:
 0	0.000000000000000e+00
	-1.341689223087088e-14
	-7.137480438101684e-18
	-2.676001228574269e-14
	5.045003979676591e-08
	1.592438575976334e-06
	2.093365088540141e-07
	1.770566466681640e-01

 1	1.000000000000000e-02
	-1.327386985390528e-14
	-7.326378698160149e-18
	-2.710121577642236e-14
	5.422678342432908e-08
	1.718171942942416e-06
	2.258814436856324e-07
	1.770566486546460e-01

 2	2.000000000000000e-02
	-1.313282428441360e-14
	-7.520434771192107e-18
	-2.744166098973711e-14
	5.827132282349952e-08
	1.854040724460510e-06
	2.437336990971941e-07
	1.770566507981088e-01

 3	3.000000000000000e-02
	-1.299378046487028e-14
	-7.719796851031095e-18
	-2.778123850121637e-14
	6.260116817671216e-08
	2.000908502418839e-06
	2.629988833172048e-07
	1.770566531112342e-01

 4	4.000000000000000e-02
	-1.285676240429147e-14
	-7.924617757894947e-18
	-2.811983982647711e-14
	6.723483908871599e-08
	2.159718809565763e-06
	2.837916338126658e-07
	1.770566556077916e-01

 5	5.000000000000000e-02
	-1.272179313642107e-14
	-8.135055099108906e-18
	-2.845735754373899e-14
	7.219191159568379e-08
	2.331503038056433e-06
	3.062364557129190e-07
	1.770566583027313e-01

 6	6.000000000000000e-02
	-1.258889468035469e-14
	-8.351271436051996e-18
	-2.879368541390019e-14
	7.749306657201466e-08
	2.517389122457271e-06
	3.304686431363688e-07
	1.770566612123048e-01

 7	7.000000000000001e-02
	-1.245808800366625e-14
	-8.573434457591992e-18
	-2.912871849790539e-14
	8.316013953295840e-08
	2.718611062987107e-06
	3.566352914903668e-07
	1.770566643541793e-01

 8	8.000000000000000e-02
	-1.232939298809459e-14
	-8.801717160288619e-18
	-2.946235327114333e-14
	8.921617182981644e-08
	2.936519358292456e-06
	3.848964094898470e-07
	1.770566677475742e-01

 9	9.000000000000000e-02
	-1.220282839783874e-14
	-9.036298035655063e-18
	-2.979448773462586e-14
	9.568546323334871e-08
	3.172592420417333e-06
	4.154261403502808e-07
	1.770566714134064e-01

 10	9.999999999999999e-02
	-1.207841185050342e-14
	-9.277361264785982e-18
	-3.012502152270933e-14
	1.025936259000437e-07
	3.428449047760288e-06
	4.484141023528732e-07
	1.770566753744515e-01

 11	1.100000000000000e-01
	-1.195615979072724e-14
	-9.525096920668535e-18
	-3.045385600713352e-14
	1.099676397152080e-07
	3.705862034631887e-06
	4.840668597522073e-07
	1.770566796555242e-01

 12	1.200000000000000e-01
	-1.183608746651829e-14
	-9.779701178513781e-18
	-3.078089439716670e-14
	1.178359090063448e-07
	4.006772998440208e-06
	5.226095357950033e-07
	1.770566842836664e-01

 13	1.300000000000000e-01
	-1.171820890831341e-14
	-1.004137653445746e-17
	-3.110604183565812e-14
	1.262283206200940e-07
	4.333308507435421e-06
	5.642875804388038e-07
	1.770566892883623e-01

 14	1.400000000000000e-01
	-1.160253691076913e-14
	-1.031033203299922e-17
	-3.142920549081566e-14
	1.351763033560525e-07
	4.687797593219799e-06
	6.093687061954894e-07
	1.770566947017745e-01

 15	1.500000000000000e-01
	-1.148908301728333e-14
	-1.058678350356301e-17
	-3.175029464354142e-14
	1.447128887512043e-07
	5.072790732748173e-06
	6.581450063697935e-07
	1.770567005589938e-01

 16	1.600000000000000e-01
	-1.137785750723979e-14
	-1.087095380658376e-17
	-3.206922077017290e-14
	1.548727732093264e-07
	5.491080384161067e-06
	7.109352708087924e-07
	1.770567068983182e-01

 17	1.700000000000000e-01
	-1.126886938595854e-14
	-1.116307308954246e-17
	-3.238589762049449e-14
	1.656923814707991e-07
	5.945723159356960e-06
	7.680875151154221e-07
	1.770567137615577e-01

 18	1.800000000000000e-01
	-1.116212637732750e-14
	-1.146337905339098e-17
	-3.270024129090035e-14
	1.772099314195598e-07
	6.440063713550172e-06
	8.299817400955208e-07
	1.770567211943739e-01

 19	1.900000000000000e-01
	-1.105763491908314e-14
	-1.177211722983449e-17
	-3.301217029260733e-14
	1.894655002257714e-07
	6.977760428000931e-06
	8.970329389912616e-07
	1.770567292466246e-01

 20	2.000000000000000e-01
	-1.095540016070072e-14
	-1.208954126995334e-17
	-3.332160561483082e-14
	2.025010918247493e-07
	7.562812956444061e-06
	9.696943707878723e-07
	1.770567379727737e-01

 21	2.100000000000000e-01
	-1.085542596384675e-14
	-1.241591324467968e-17
	-3.362847078285706e-14
	2.163607057354108e-07
	8.199591698295319e-06
	1.048461118550414e-06
	1.770567474323081e-01

 22	2.200000000000001e-01
	-1.075771490534050e-14
	-1.275150395766059e-17
	-3.393269191095887e-14
	2.310904072243457e-07
	8.892869252248730e-06
	1.133873952331370e-06
	1.770567576902156e-01

 23	2.300000000000001e-01
	-1.066226828256339e-14
	-1.309659327107072e-17
	-3.423419775012234e-14
	2.467383988252211e-07
	9.647853892197782e-06
	1.226523516669599e-06
	1.770567688174650e-01

 24	2.400000000000001e-01
	-1.056908612125092e-14
	-1.345147044496245e-17
	-3.453291973056269e-14
	2.633550932270752e-07
	1.047022509327204e-05
	1.327054863050213e-06
	1.770567808915829e-01

 25	2.500000000000001e-01
	-1.047816718559367e-14
	-1.381643449077289e-17
	-3.482879199903191e-14
	2.809931875498411e-07
	1.136617111898461e-05
	1.436172347891734e-06
	1.770567939972156e-01

 26	2.600000000000001e-01
	-1.038950899057036e-14
	-1.419179453963491e-17
	-3.512175145092901e-14
	2.997077390305016e-07
	1.234242866077909e-05
	1.554644916638390e-06
	1.770568082267774e-01

 27	2.700000000000001e-01
	-1.030310781643011e-14
	-1.457787022617327e-17
	-3.541173775724383e-14
	3.195562421493282e-07
	1.340632449846956e-05
	1.683311794336877e-06
	1.770568236811350e-01

 28	2.800000000000001e-01
	-1.021895872523638e-14
	-1.497499208849844e-17
	-3.569869338637936e-14
	3.405987072324674e-07
	1.456581912395772e-05
	1.823088602632387e-06
	1.770568404703445e-01

 29	2.900000000000001e-01
	-1.013705557938166e-14
	-1.538350198515251e-17
	-3.598256362091165e-14
	3.628977405748221e-07
	1.582955224102427e-05
	1.974973922396334e-06
	1.770568587144304e-01

 30	3.000000000000001e-01
	-1.005739106197760e-14
	-1.580375352978842e-17
	-3.626329656935957e-14
	3.865186261359938e-07
	1.720689002076026e-05
	2.140056320160859e-06
	1.770568785442474e-01

 31	3.100000000000001e-01
	-9.979956699022132e-15
	-1.623611254441494e-17
	-3.654084317305297e-14
	4.115294088721358e-07
	1.870797395523069e-05
	2.319521855148118e-06
	1.770569001023722e-01

 32	3.200000000000001e-01
	-9.904742883243303e-15
	-1.668095753207205e-17
	-3.681515720819569e-14
	4.380009797780254e-07
	2.034377111114664e-05
	2.514662081904240e-06
	1.770569235440703e-01

 33	3.300000000000001e-01
	-9.831738899515646e-15
	-1.713868016985120e-17
	-3.708619528323642e-14
	4.660071627267538e-07
	2.212612554067233e-05
	2.726882561343654e-06
	1.770569490383220e-01

 34	3.400000000000001e-01
	-9.760932951744776e-15
	-1.760968582321884e-17
	-3.735391683166803e-14
	4.956248032095657e-07
	2.406781055803475e-05
	2.957711890338567e-06
	1.770569767689035e-01

 35	3.500000000000001e-01
	-9.692312191113325e-15
	-1.809439408264797e-17
	-3.761828410038810e-14
	5.269338590955484e-07
	2.618258153846945e-05
	3.208811256814170e-06
	1.770570069355432e-01

 36	3.600000000000002e-01
	-9.625862745580972e-15
	-1.859323932361933e-17
	-3.787926213376184e-14
	5.600174935507163e-07
	2.848522884043016e-05
	3.481984523596605e-06
	1.770570397551386e-01

 37	3.700000000000002e-01
	-9.561569750530451e-15
	-1.910667129110456e-17
	-3.813681875353874e-14
	5.949621702788802e-07
	3.099163039323289e-05
	3.779188839975509e-06
	1.770570754630189e-01

 38	3.800000000000002e-01
	-9.499417380451927e-15
	-1.963515570969644e-17
	-3.839092453477928e-14
	6.318577512727111e-07
	3.371880343079438e-05
	4.102545775053322e-06
	1.770571143143009e-01

 39	3.900000000000002e-01
	-9.439388881557652e-15
	-2.017917492062202e-17
	-3.864155277795828e-14
	6.707975972936637e-07
	3.668495478844501e-05
	4.454352961440365e-06
	1.770571565852851e-01

 40	4.000000000000002e-01
	-9.381466605220203e-15
	-2.073922854692677e-17
	-3.888867947741498e-14
	7.118786713340607e-07
	3.990952911458570e-05
	4.837096231693188e-06
	1.770572025749120e-01

 41	4.100000000000002e-01
	-9.325632042128353e-15
	-2.131583418819087e-17
	-3.913228328632610e-14
	7.552016453542387e-07
	4.341325428306564e-05
	5.253462223076481e-06
	1.770572526062897e-01

 42	4.200000000000002e-01
	-9.271865857055898e-15
	-2.190952814620937e-17
	-3.937234547838327e-14
	8.008710106336026e-07
	4.721818322655816e-05
	5.706351418754103e-06
	1.770573070282511e-01

 43	4.300000000000002e-01
	-9.220147924141188e-15
	-2.252086618313560e-17
	-3.960884990635751e-14
	8.489951921266724e-07
	5.134773134701088e-05
	6.198891585386835e-06
	1.770573662169831e-01

 44	4.400000000000002e-01
	-9.170457362576148e-15
	-2.315042431367637e-17
	-3.984178295773933e-14
	8.996866672753510e-07
	5.582670859777910e-05
	6.734451558360514e-06
	1.770574305776776e-01

 45	4.500000000000002e-01
	-9.122772572607047e-15
	-2.379879963299747e-17
	-4.007113350764149e-14
	9.530620897973340e-07
	6.068134527471143e-05
	7.316655316514915e-06
	1.770575005462291e-01

 46	4.600000000000002e-01
	-9.077071271750769e-15
	-2.446661118209631e-17
	-4.029689286915598e-14
	1.009242419049092e-06
	6.593931050189475e-05
	7.949396278347613e-06
	1.770575765909559e-01

 47	4.700000000000003e-01
	-9.033330531134324e-15
	-2.515450085248118e-17
	-4.051905474135398e-14
	1.068353055651169e-06
	7.162972235367907e-05
	8.636851741288720e-06
	1.770576592143349e-01

 48	4.800000000000003e-01
	-8.991526811867262e-15
	-2.586313433210122e-17
	-4.073761515512050e-14
	1.130523984165487e-06
	7.778314851988942e-05
	9.383497374870732e-06
	1.770577489547419e-01

 49	4.900000000000003e-01
	-8.951636001361162e-15
	-2.659320209456082e-17
	-4.095257241701066e-14
	1.195889923729548e-06
	8.443159639772620e-05
	1.019412166755170e-05
	1.770578463881987e-01

 50	5.000000000000002e-01
	-8.913633449512204e-15
	-2.734542043378074e-17
	-4.116392705131750e-14
	1.264590487683418e-06
	9.160849148382388e-05
	1.107384021571902e-05
	1.770579521300776e-01

 51	5.100000000000002e-01
	-8.877494004668345e-15
	-2.812053254635432e-17
	-4.137168174053406e-14
	1.336770353372819e-06
	9.934864294531297e-05
	1.202810973214153e-05
	1.770580668367986e-01

 52	5.200000000000002e-01
	-8.843192049304289e-15
	-2.891930966399050e-17
	-4.157584126439403e-14
	1.412579443478091e-06
	1.076881952716048e-04
	1.306274164002307e-05
	1.770581912074522e-01

 53	5.300000000000002e-01
	-8.810701535333104e-15
	-2.974255223854665e-17
	-4.177641243766864e-14
	1.492173120405806e-06
	1.166645649509682e-04
	1.418391510801924e-05
	1.770583259853679e-01

 54	5.400000000000003e-01
	-8.779996018985562e-15
	-3.059109118229343e-17
	-4.197340404689559e-14
	1.575712395489084e-06
	1.263163611796540e-04
	1.539818937131829e-05
	1.770584719595953e-01

 55	5.500000000000003e-01
	-8.751048695193450e-15
	-3.146578916619199e-17
	-4.216682678621109e-14
	1.663364154977182e-06
	1.366832896980669e-04
	1.671251517438190e-05
	1.770586299662698e-01

 56	5.600000000000003e-01
	-8.723832431416371e-15
	-3.236754197910846e-17
	-4.235669319245020e-14
	1.755301405055581e-06
	1.478060389596569e-04
	1.813424516242218e-05
	1.770588008898630e-01

 57	5.700000000000003e-01
	-8.698319800855652e-15
	-3.329727995105231e-17
	-4.254301757967764e-14
	1.851703538428486e-06
	1.597261479749551e-04
	1.967114304142080e-05
	1.770589856642814e-01

 58	5.800000000000003e-01
	-8.674483115003005e-15
	-3.425596944368919e-17
	-4.272581597330439e-14
	1.952756625317305e-06
	1.724858553361271e-04
	2.133139132072052e-05
	1.770591852737716e-01

 59	5.900000000000003e-01
	-8.652294455475744e-15
	-3.524461441153328e-17
	-4.290510604393938e-14
	2.058653732084823e-06
	1.861279291167846e-04
	2.312359744821082e-05
	1.770594007536815e-01

 60	6.000000000000003e-01
	-8.631725705093573e-15
	-3.626425803744274e-17
	-4.308090704112135e-14
	2.169595271088091e-06
	2.006954775572281e-04
	2.505679814615546e-05
	1.770596331909483e-01

 61	6.100000000000003e-01
	-8.612748578156509e-15
	-3.731598444619610e-17
	-4.325323972706832e-14
	2.285789385795490e-06
	2.162317406856963e-04
	2.714046175600955e-05
	1.770598837243831e-01

 62	6.200000000000003e-01
	-8.595334649887093e-15
	-3.840092050015314e-17
	-4.342212631057579e-14
	2.407452375679238e-06
	2.327798632899494e-04
	2.938448840340945e-05
	1.770601535446762e-01

 63	6.300000000000003e-01
	-8.579455385003536e-15
	-3.952023768120751e-17
	-4.358759038118938e-14
	2.534809165916105e-06
	2.503826499381281e-04
	3.179920780010027e-05
	1.770604438941341e-01

 64	6.400000000000003e-01
	-8.565082165393976e-15
	-4.067515406347429e-17
	-4.374965684377020e-14
	2.668093827500392e-06
	2.690823030500616e-04
	3.439537450809059e-05
	1.770607560660855e-01

 65	6.500000000000004e-01
	-8.552186316866048e-15
	-4.186693638137008e-17
	-4.390835185356475e-14
	2.807550153997441e-06
	2.889201453360280e-04
	3.718416050294127e-05
	1.770610914039960e-01

 66	6.600000000000004e-01
	-8.540739134948656e-15
	-4.309690219802833e-17
	-4.406370275188481e-14
	2.953432301848705e-06
	3.099363282446784e-04
	4.017714488793775e-05
	1.770614513002107e-01

 67	6.700000000000004e-01
	-8.530711909726564e-15
	-4.436642217921872e-17
	-4.421573800249582e-14
	3.106005501883616e-06
	3.321695283897080e-04
	4.338630062899169e-05
	1.770618371943546e-01

 68	6.800000000000004e-01
	-8.522075949691383e-15
	-4.567692247824574e-17
	-4.436448712880547e-14
	3.265546850506557e-06
	3.556566342498645e-04
	4.682397820150170e-05
	1.770622505713627e-01

 69	6.900000000000004e-01
	-8.514802604595392e-15
	-4.702988723758295e-17
	-4.450998065193841e-14
	3.432346189914310e-06
	3.804324257520839e-04
	5.050288606499254e-05
	1.770626929591302e-01

 70	7.000000000000004e-01
	-8.508863287297597e-15
	-4.842686121330835e-17
	-4.465225002977548e-14
	3.606707087667852e-06
	4.065292496456576e-04
	5.443606790901069e-05
	1.770631659257676e-01

 71	7.100000000000004e-01
	-8.504229494594114e-15
	-4.986945252873156e-17
	-4.479132759703052e-14
	3.788947927001474e-06
	4.339766938488646e-04
	5.863687664428563e-05
	1.770636710764784e-01

 72	7.200000000000004e-01
	-8.500872827027462e-15
	-5.135933556396188e-17
	-4.492724650643033e-14
	3.979403120411416e-06
	4.628012641906428e-04
	6.311894514627380e-05
	1.770642100500391e-01

 73	7.300000000000004e-01
	-8.498765007671713e-15
	-5.289825398849164e-17
	-4.506004067105866e-14
	4.178424460337591e-06
	4.930260671709632e-04
	6.789615379351941e-05
	1.770647845149063e-01

 74	7.400000000000004e-01
	-8.497877899892439e-15
	-5.448802394430587e-17
	-4.518974470791819e-14
	4.386382622150053e-06
	5.246705025174087e-04
	7.298259488037655e-05
	1.770653961649344e-01

 75	7.500000000000004e-01
	-8.498183524083277e-15
	-5.613053738737064e-17
	-4.531639388275845e-14
	4.603668836192224e-06
	5.577499694149601e-04
	7.839253402198859e-05
	1.770660467147494e-01

 76	7.600000000000005e-01
	-8.499654073381641e-15
	-5.782776559582387e-17
	-4.544002405621361e-14
	4.830696747336526e-06
	5.922755903254036e-04
	8.414036870848990e-05
	1.770667378947752e-01

 77	7.700000000000005e-01
	-8.502261928368834e-15
	-5.958176285361408e-17
	-4.556067163128652e-14
	5.067904482397297e-06
	6.282539562868707e-04
	9.024058420451232e-05
	1.770674714459410e-01

 78	7.800000000000005e-01
	-8.505979670760897e-15
	-6.139467031880171e-17
	-4.567837350221240e-14
	5.315756947847946e-06
	6.656868974890406e-04
	9.670770702858337e-05
	1.770682491141009e-01

 79	7.900000000000005e-01
	-8.510780096098409e-15
	-6.326872008624468e-17
	-4.579316700472829e-14
	5.574748382636982e-06
	7.045712827531906e-04
	1.035562562841991e-04
	1.770690726441983e-01

 80	8.000000000000005e-01
	-8.516636225444082e-15
	-6.520623945489713e-17
	-4.590508986777252e-14
	5.845405193527875e-06
	7.448988513077494e-04
	1.108006931495059e-04
	1.770699437742014e-01

 81	8.100000000000005e-01
	-8.523521316099154e-15
	-6.720965541049750e-17
	-4.601418016663062e-14
	6.128289103344415e-06
	7.866560799402704e-04
	1.184553688649218e-04
	1.770708642288703e-01

 82	8.200000000000005e-01
	-8.531408871349170e-15
	-6.928149933500130e-17
	-4.612047627754332e-14
	6.424000645837873e-06
	8.298240882286250e-04
	1.265344715869650e-04
	1.770718357133730e-01

 83	8.300000000000005e-01
	-8.540272649252508e-15
	-7.142441195471387e-17
	-4.622401683378465e-14
	6.733183044664369e-06
	8.743785841123674e-04
	1.350519725013864e-04
	1.770728599068215e-01

 84	8.400000000000005e-01
	-8.550086670483607e-15
	-7.364114853970710e-17
	-4.632484068321804e-14
	7.056526518238050e-06
	9.202898515658911e-04
	1.440215716087831e-04
	1.770739384557624e-01

 85	8.500000000000005e-01
	-8.560825225245594e-15
	-7.593458436776668e-17
	-4.642298684733087e-14
	7.394773057089793e-06
	9.675227815864983e-04
	1.534566436107146e-04
	1.770750729676743e-01

 86	8.600000000000005e-01
	-8.572462879265634e-15
	-7.830772046681813e-17
	-4.651849448174799e-14
	7.748721725901838e-06
	1.016036947122246e-03
	1.633701843334572e-04
	1.770762650045414e-01

 87	8.700000000000006e-01
	-8.584974478887871e-15
	-8.076368965050472e-17
	-4.661140283821956e-14
	8.119234548715358e-06
	1.065786721947506e-03
	1.737747581296384e-04
	1.770775160765148e-01

 88	8.800000000000006e-01
	-8.598335155278812e-15
	-8.330576286232605e-17
	-4.670175122807534e-14
	8.507243043038001e-06
	1.116721442860090e-03
	1.846824466947500e-04
	1.770788276357730e-01

 89	8.900000000000006e-01
	-8.612520327759862e-15
	-8.593735584459022e-17
	-4.678957898713655e-14
	8.913755476860701e-06
	1.168785613935882e-03
	1.961047997260336e-04
	1.770802010705762e-01

 90	9.000000000000006e-01
	-8.627505706281802e-15
	-8.866203614920316e-17
	-4.687492544207213e-14
	9.339864932079223e-06
	1.221919150946975e-03
	2.080527878352297e-04
	1.770816376996018e-01

 91	9.100000000000006e-01
	-8.643267293056544e-15
	-9.148353050821986e-17
	-4.695782987818416e-14
	9.786758268703958e-06
	1.276057663441455e-03
	2.205367581046153e-04
	1.770831387665930e-01

 92	9.200000000000006e-01
	-8.659781383360228e-15
	-9.440573258296425e-17
	-4.703833150860604e-14
	1.025572609673551e-05
	1.331132771408463e-03
	2.335663926476654e-04
	1.770847054353673e-01

 93	9.300000000000006e-01
	-8.677024565522342e-15
	-9.743271111144828e-17
	-4.711646944489337e-14
	1.074817387693706e-05
	1.387072452923415e-03
	2.471506705021197e-04
	1.770863387852203e-01

 94	9.400000000000006e-01
	-8.694973720114731e-15
	-1.005687184748167e-16
	-4.719228266898655e-14
	1.126563428822555e-05
	1.443801418695212e-03
	2.612978331446512e-04
	1.770880398067664e-01

 95	9.500000000000006e-01
	-8.713606018354391e-15
	-1.038181997044801e-16
	-4.726581000652232e-14
	1.180978101835813e-05
	1.501241509028988e-03
	2.760153538733330e-04
	1.770898093982557e-01

 96	9.600000000000006e-01
	-8.732898919732544e-15
	-1.071858019527115e-16
	-4.733709010146897e-14
	1.238244415638080e-05
	1.559312108381873e-03
	2.913099112574441e-04
	1.770916483623602e-01

 97	9.700000000000006e-01
	-8.752830168882412e-15
	-1.106763844504726e-16
	-4.740616139206034e-14
	1.298562739035205e-05
	1.617930572429838e-03
	3.071873668044211e-04
	1.770935574034791e-01

 98	9.800000000000006e-01
	-8.773377791698168e-15
	-1.142950289773525e-16
	-4.747306208799936e-14
	1.362152724264896e-05
	1.677012662385038e-03
	3.236527469419933e-04
	1.770955371255706e-01

 99	9.900000000000007e-01
	-8.794520090714807e-15
	-1.180470508696342e-16
	-4.753783014890396e-14
	1.429255460825076e-05
	1.736472981205274e-03
	3.407102293602874e-04
	1.770975880304949e-01

 100	1.000000000000001e+00
	-8.816235639760032e-15
	-1.219380105935907e-16
	-4.760050326396477e-14
	1.500135889940571e-05
	1.796225406319220e-03
	3.583631337049382e-04
	1.770997105168969e-01

 101	1.010000000000001e+00
	-8.838503277886757e-15
	-1.259737259123443e-16
	-4.766111883278381e-14
