Title: ** sch_path: /home/andylithia/openmpw/project-yatsuhashi-chip1/xschem/gmid_test/nmos_test.sch
Date: Tue Jul 19 23:15:45  2022
Plotname: DC transfer characteristic
Flags: real
No. Variables: 8
No. Points: 181
Variables:
	0	v(v-sweep)	voltage
	1	@m.xm1.msky130_fd_pr__nfet_01v8[cgb]	capacitance
	2	@m.xm1.msky130_fd_pr__nfet_01v8[cgd]	capacitance
	3	@m.xm1.msky130_fd_pr__nfet_01v8[cgs]	capacitance
	4	@m.xm1.msky130_fd_pr__nfet_01v8[gds]	admittance
	5	@m.xm1.msky130_fd_pr__nfet_01v8[gm]	admittance
	6	i(@m.xm1.msky130_fd_pr__nfet_01v8[id])	current
	7	v(@m.xm1.msky130_fd_pr__nfet_01v8[vth])	voltage
Values:
 0	0.000000000000000e+00
	-2.059323365328012e-14
	-1.962070990913673e-18
	-4.459186705331831e-14
	4.572373922672472e-08
	1.669635338462329e-06
	2.314578437884603e-07
	1.454365857924843e-01

 1	1.000000000000000e-02
	-2.038045313677356e-14
	-2.005146178346586e-18
	-4.510883308716336e-14
	4.895412294950374e-08
	1.794097093173467e-06
	2.487689162011127e-07
	1.454365870352631e-01

 2	2.000000000000000e-02
	-2.017091264591479e-14
	-2.049101061072114e-18
	-4.562404441847785e-14
	5.239957211693619e-08
	1.928012558857845e-06
	2.673712671875646e-07
	1.454365883723464e-01

 3	3.000000000000000e-02
	-1.996464209130866e-14
	-2.093951861424334e-18
	-4.613735158123510e-14
	5.607318909371437e-08
	2.072139897207680e-06
	2.873631718221721e-07
	1.454365898111323e-01

 4	4.000000000000000e-02
	-1.976166992734949e-14
	-2.139715079046932e-18
	-4.664860694767586e-14
	5.998877075228715e-08
	2.227303257334258e-06
	3.088508118184203e-07
	1.454365913596441e-01

 5	5.000000000000000e-02
	-1.956202310640923e-14
	-2.186407496260412e-18
	-4.715766487535752e-14
	6.416083731027147e-08
	2.394398888995950e-06
	3.319489655165476e-07
	1.454365930265899e-01

 6	6.000000000000000e-02
	-1.936572703643096e-14
	-2.234046183573978e-18
	-4.766438185012441e-14
	6.860466182862140e-08
	2.574401812010456e-06
	3.567817617480719e-07
	1.454365948214262e-01

 7	7.000000000000001e-02
	-1.917280554197424e-14
	-2.282648505347513e-18
	-4.816861662472034e-14
	7.333630035411477e-08
	2.768373085110867e-06
	3.834835033534703e-07
	1.454365967544170e-01

 8	8.000000000000000e-02
	-1.898328082875072e-14
	-2.332232125605841e-18
	-4.867023035277478e-14
	7.837262268767026e-08
	2.977467719523239e-06
	4.121995665718396e-07
	1.454365988367346e-01

 9	9.000000000000000e-02
	-1.879717345167712e-14
	-2.382815014011477e-18
	-4.916908671791589e-14
	8.373134375804789e-08
	3.202943284451852e-06
	4.430873829841133e-07
	1.454366010805166e-01

 10	9.999999999999999e-02
	-1.861450228646389e-14
	-2.434415451999291e-18
	-4.966505205777289e-14
	8.943105557824481e-08
	3.446169253408750e-06
	4.763175111716250e-07
	1.454366034989835e-01

 11	1.100000000000000e-01
	-1.843528450474827e-14
	-2.487052039077892e-18
	-5.015799548265199e-14
	9.549125975980283e-08
	3.708637141882158e-06
	5.120748057495748e-07
	1.454366061065285e-01

 12	1.200000000000000e-01
	-1.825953555276992e-14
	-2.540743699302690e-18
	-5.064778898868615e-14
	1.019324005579078e-07
	3.991971488142273e-06
	5.505596919462763e-07
	1.454366089188315e-01

 13	1.300000000000000e-01
	-1.808726913357899e-14
	-2.595509687924061e-18
	-5.113430756527499e-14
	1.087758984177799e-07
	4.297941729983724e-06
	5.919895544223162e-07
	1.454366119529927e-01

 14	1.400000000000000e-01
	-1.791849719275549e-14
	-2.651369598217597e-18
	-5.161742929665359e-14
	1.160441839903960e-07
	4.628475030837287e-06
	6.366002495553240e-07
	1.454366152276544e-01

 15	1.500000000000000e-01
	-1.775322990761122e-14
	-2.708343368499248e-18
	-5.209703545744364e-14
	1.237607325829041e-07
	4.985670108877890e-06
	6.846477509513139e-07
	1.454366187631643e-01

 16	1.600000000000000e-01
	-1.759147567983542e-14
	-2.766451289331372e-18
	-5.257301060206157e-14
	1.319500990063863e-07
	5.371812122443547e-06
	7.364099384789807e-07
	1.454366225817364e-01

 17	1.700000000000000e-01
	-1.743324113153624e-14
	-2.825714010925457e-18
	-5.304524264787834e-14
	1.406379527806239e-07
	5.789388664172437e-06
	7.921885416520208e-07
	1.454366267076293e-01

 18	1.800000000000000e-01
	-1.727853110462295e-14
	-2.886152550744989e-18
	-5.351362295204260e-14
	1.498511136524481e-07
	6.241106914681977e-06
	8.523112487012730e-07
	1.454366311673512e-01

 19	1.900000000000000e-01
	-1.712734866346419e-14
	-2.947788301315924e-18
	-5.397804638189942e-14
	1.596175873808954e-07
	6.729912004258994e-06
	9.171339931754281e-07
	1.454366359898736e-01

 20	2.000000000000000e-01
	-1.697969510075087e-14
	-3.010643038248539e-18
	-5.443841137895668e-14
	1.699666017388598e-07
	7.259006627805720e-06
	9.870434303781282e-07
	1.454366412068711e-01

 21	2.100000000000000e-01
	-1.683556994648390e-14
	-3.074738928477709e-18
	-5.489462001636921e-14
	1.809286426771039e-07
	7.831871954089683e-06
	1.062459616381335e-06
	1.454366468529810e-01

 22	2.200000000000001e-01
	-1.669497098000109e-14
	-3.140098538725932e-18
	-5.534657804992907e-14
	1.925354905924128e-07
	8.452289865067387e-06
	1.143838902739469e-06
	1.454366529660973e-01

 23	2.300000000000001e-01
	-1.655789424494986e-14
	-3.206744844196650e-18
	-5.579419496257128e-14
	2.048202566373391e-07
	9.124366554584914e-06
	1.231677060355212e-06
	1.454366595876718e-01

 24	2.400000000000001e-01
	-1.642433406710704e-14
	-3.274701237502126e-18
	-5.623738400241840e-14
	2.178174190042428e-07
	9.852557507979562e-06
	1.326512646202089e-06
	1.454366667630733e-01

 25	2.500000000000001e-01
	-1.629428307494098e-14
	-3.343991537833596e-18
	-5.667606221440959e-14
	2.315628591113854e-07
	1.064169387491643e-05
	1.428930626779782e-06
	1.454366745419501e-01

 26	2.600000000000001e-01
	-1.616773222280673e-14
	-3.414640000379589e-18
	-5.711015046557231e-14
	2.460938976133957e-07
	1.149701023706050e-05
	1.539566272247868e-06
	1.454366829786343e-01

 27	2.700000000000001e-01
	-1.604467081665916e-14
	-3.486671325998162e-18
	-5.753957346401386e-14
	2.614493301527448e-07
	1.242417375981164e-05
	1.659109335138844e-06
	1.454366921326009e-01

 28	2.800000000000001e-01
	-1.592508654216636e-14
	-3.560110671150672e-18
	-5.796425977172521e-14
	2.776694627627284e-07
	1.342931470320632e-05
	1.788308527373971e-06
	1.454367020689420e-01

 29	2.900000000000001e-01
	-1.580896549510076e-14
	-3.634983658103818e-18
	-5.838414181130417e-14
	2.947961468259899e-07
	1.451905825111348e-05
	1.927976308976961e-06
	1.454367128588947e-01

 30	3.000000000000001e-01
	-1.569629221388296e-14
	-3.711316385406226e-18
	-5.879915586671876e-14
	3.128728134856791e-07
	1.570055759994416e-05
	2.078994001383127e-06
	1.454367245804147e-01

 31	3.100000000000001e-01
	-1.558704971415067e-14
	-3.789135438648056e-18
	-5.920924207824598e-14
	3.319445073991469e-07
	1.698152822817865e-05
	2.242317237554873e-06
	1.454367373187999e-01

 32	3.200000000000001e-01
	-1.548121952522278e-14
	-3.868467901509194e-18
	-5.961434443173360e-14
	3.520579197163649e-07
	1.837028324603952e-05
	2.418981760218043e-06
	1.454367511673651e-01

 33	3.300000000000001e-01
	-1.537878172832726e-14
	-3.949341367106176e-18
	-6.001441074234393e-14
	3.732614201573380e-07
	1.987576970057213e-05
	2.610109578406979e-06
	1.454367662281583e-01

 34	3.400000000000001e-01
	-1.527971499646114e-14
	-4.031783949643005e-18
	-6.040939263294756e-14
	3.956050880543642e-07
	2.150760568523473e-05
	2.816915491127822e-06
	1.454367826127641e-01

 35	3.500000000000001e-01
	-1.518399663574878e-14
	-4.115824296375366e-18
	-6.079924550735005e-14
	4.191407422164541e-07
	2.327611807488075e-05
	3.040713985299930e-06
	1.454368004431468e-01

 36	3.600000000000002e-01
	-1.509160262816598e-14
	-4.201491599896985e-18
	-6.118392851853734e-14
	4.439219694643906e-07
	2.519238067679951e-05
	3.282926513192557e-06
	1.454368198525605e-01

 37	3.700000000000002e-01
	-1.500250767549752e-14
	-4.288815610754630e-18
	-6.156340453213743e-14
	4.700041516757933e-07
	2.726825255637703e-05
	3.545089152318831e-06
	1.454368409865439e-01

 38	3.800000000000002e-01
	-1.491668524439595e-14
	-4.377826650402543e-18
	-6.193764008530233e-14
	4.974444911705501e-07
	2.951641626212111e-05
	3.828860648165505e-06
	1.454368640039704e-01

 39	3.900000000000002e-01
	-1.483410761241111e-14
	-4.468555624504029e-18
	-6.230660534122004e-14
	5.263020342578833e-07
	3.195041563945542e-05
	4.136030837205543e-06
	1.454368890781803e-01

 40	4.000000000000002e-01
	-1.475474591486237e-14
	-4.561034036589973e-18
	-6.267027403947050e-14
	5.566376927573028e-07
	3.458469288611557e-05
	4.468529444349739e-06
	1.454369163981971e-01

 41	4.100000000000002e-01
	-1.467857019242535e-14
	-4.655294002083542e-18
	-6.302862344244703e-14
	5.885142632970641e-07
	3.743462446451328e-05
	4.828435245332640e-06
	1.454369461700055e-01

 42	4.200000000000002e-01
	-1.460554943930997e-14
	-4.751368262700650e-18
	-6.338163427806318e-14
	6.219964441855525e-07
	4.051655544846441e-05
	5.217985580487638e-06
	1.454369786179411e-01

 43	4.300000000000002e-01
	-1.453565165190761e-14
	-4.849290201236711e-18
	-6.372929067897271e-14
	6.571508496433617e-07
	4.384783184370599e-05
	5.639586201947590e-06
	1.454370139861341e-01

 44	4.400000000000002e-01
	-1.446884387778854e-14
	-4.949093856749940e-18
	-6.407158011852793e-14
	6.940460211771354e-07
	4.744683038418153e-05
	6.095821431508385e-06
	1.454370525400629e-01

 45	4.500000000000002e-01
	-1.440509226493448e-14
	-5.050813940151602e-18
	-6.440849334370580e-14
	7.327524358705967e-07
	5.133298526981616e-05
	6.589464601227530e-06
	1.454370945681694e-01

 46	4.600000000000002e-01
	-1.434436211109470e-14
	-5.154485850213396e-18
	-6.474002430522742e-14
	7.733425113638964e-07
	5.552681127710268e-05
	7.123488743307070e-06
	1.454371403835833e-01

 47	4.700000000000003e-01
	-1.428661791315719e-14
	-5.260145690006687e-18
	-6.506617008509984e-14
	8.158906072898850e-07
	6.004992264210191e-05
	7.701077489959686e-06
	1.454371903259068e-01

 48	4.800000000000003e-01
	-1.423182341643143e-14
	-5.367830283779541e-18
	-6.538693082180548e-14
	8.604730229352376e-07
	6.492504708723828e-05
	8.325636137802515e-06
	1.454372447630890e-01

 49	4.900000000000003e-01
	-1.417994166374253e-14
	-5.477577194288853e-18
	-6.570230963336158e-14
	9.071679908962572e-07
	7.017603433948285e-05
	9.000802824909699e-06
	1.454373040933760e-01

 50	5.000000000000002e-01
	-1.413093504424186e-14
	-5.589424740598208e-18
	-6.601231253847204e-14
	9.560556665036447e-07
	7.582785846914560e-05
	9.730459762030388e-06
	1.454373687473236e-01

 51	5.100000000000002e-01
	-1.408476534184285e-14
	-5.703412016352060e-18
	-6.631694837598689e-14
	1.007218112798234e-06
	8.190661336651968e-05
	1.051874445269928e-05
	1.454374391898803e-01

 52	5.200000000000002e-01
	-1.404139378319529e-14
	-5.819578908543727e-18
	-6.661622872288550e-14
	1.060739280851032e-06
	8.843950066914049e-05
	1.137006083010832e-05
	1.454375159225033e-01

 53	5.300000000000002e-01
	-1.400078108511729e-14
	-5.937966116786058e-18
	-6.691016781098939e-14
	1.116704985236044e-06
	9.545480945643063e-05
	1.228909023174177e-05
	1.454375994853438e-01

 54	5.400000000000003e-01
	-1.396288750140701e-14
	-6.058615173104047e-18
	-6.719878244261057e-14
	1.175202874484415e-06
	1.029818870421223e-04
	1.328080212600545e-05
	1.454376904594205e-01

 55	5.500000000000003e-01
	-1.392767286896254e-14
	-6.181568462257845e-18
	-6.748209190533261e-14
	1.236322396372709e-06
	1.110511002189910e-04
	1.435046449848803e-05
	1.454377894688405e-01

 56	5.600000000000003e-01
	-1.389509665314196e-14
	-6.306869242617753e-18
	-6.776011788611794e-14
	1.300154757928530e-06
	1.196937863461791e-04
	1.550365379921120e-05
	1.454378971829829e-01

 57	5.700000000000003e-01
	-1.386511799230123e-14
	-6.434561667601138e-18
	-6.803288438492658e-14
	1.366792880072218e-06
	1.289421937174560e-04
	1.674626434635265e-05
	1.454380143186670e-01

 58	5.800000000000003e-01
	-1.383769574145174e-14
	-6.564690807691130e-18
	-6.830041762802738e-14
	1.436331346855339e-06
	1.388294107099889e-04
	1.808451707660723e-05
	1.454381416422700e-01

 59	5.900000000000003e-01
	-1.381278851498403e-14
	-6.697302673051377e-18
	-6.856274598117374e-14
	1.508866349305117e-06
	1.493892832881132e-04
	1.952496752771323e-05
	1.454382799717504e-01

 60	6.000000000000003e-01
	-1.379035472840957e-14
	-6.832444236755068e-18
	-6.881989986281038e-14
	1.584495623938950e-06
	1.606563205255470e-04
	2.107451293484939e-05
	1.454384301785896e-01

 61	6.100000000000003e-01
	-1.377035263907556e-14
	-6.970163458647861e-18
	-6.907191165746993e-14
	1.663318386075486e-06
	1.726655879127305e-04
	2.274039831975837e-05
	1.454385931895622e-01

 62	6.200000000000003e-01
	-1.375274038581415e-14
	-7.110509309857346e-18
	-6.931881562951030e-14
	1.745435258137632e-06
	1.854525883332208e-04
	2.453022144969431e-05
	1.454387699883788e-01

 63	6.300000000000003e-01
	-1.373747602748961e-14
	-7.253531797977063e-18
	-6.956064783733756e-14
	1.830948193219448e-06
	1.990531307240972e-04
	2.645193654279362e-05
	1.454389616170779e-01

 64	6.400000000000003e-01
	-1.372451758041334e-14
	-7.399281992934912e-18
	-6.979744604824976e-14
	1.919960394271978e-06
	2.135031865792159e-04
	2.851385659733031e-05
	1.454391691772221e-01

 65	6.500000000000004e-01
	-1.371382305459936e-14
	-7.547812053576018e-18
	-7.002924965403092e-14
	2.012576229353485e-06
	2.288387346099727e-04
	3.072465422470015e-05
	1.454393938307788e-01

 66	6.600000000000004e-01
	-1.370535048883723e-14
	-7.699175254973059e-18
	-7.025609958741584e-14
	2.108901143485904e-06
	2.450955940443497e-04
	3.309336086995415e-05
	1.454396368007119e-01

 67	6.700000000000004e-01
	-1.369905798456339e-14
	-7.853426016492106e-18
	-7.047803823954028e-14
	2.209041567762180e-06
	2.623092472197780e-04
	3.562936430940435e-05
	1.454398993712111e-01

 68	6.800000000000004e-01
	-1.369490373851590e-14
	-8.010619930633321e-18
	-7.069510937848012e-14
	2.313104826457023e-06
	2.805146523064016e-04
	3.834240432230146e-05
	1.454401828875286e-01

 69	6.900000000000004e-01
	-1.369284607416033e-14
	-8.170813792672117e-18
	-7.090735806897985e-14
	2.421199043006230e-06
	2.997460471821257e-04
	4.124256644289268e-05
	1.454404887554016e-01

 70	7.000000000000004e-01
	-1.369284347187797e-14
	-8.334065631122458e-18
	-7.111483059346166e-14
	2.533433045836042e-06
	3.200367456665325e-04
	4.434027371034632e-05
	1.454408184399942e-01

 71	7.100000000000004e-01
	-1.369485459791335e-14
	-8.500434739051180e-18
	-7.131757437439493e-14
	2.649916275142506e-06
	3.414189275039210e-04
	4.764627634703413e-05
	1.454411734643889e-01

 72	7.200000000000004e-01
	-1.369883833207563e-14
	-8.669981706267262e-18
	-7.151563789810854e-14
	2.770758691841719e-06
	3.639234236631781e-04
	5.117163931050795e-05
	1.454415554075177e-01

 73	7.300000000000004e-01
	-1.370475379419856e-14
	-8.842768452411622e-18
	-7.170907064010975e-14
	2.896070690031407e-06
	3.875794986898286e-04
	5.492772768104260e-05
	1.454419659015878e-01

 74	7.400000000000004e-01
	-1.371256036935987e-14
	-9.018858260979375e-18
	-7.189792299197608e-14
	3.025963014423985e-06
	4.124146320000109e-04
	5.892618986480201e-05
	1.454424066289449e-01

 75	7.500000000000004e-01
	-1.372221773186851e-14
	-9.198315814298853e-18
	-7.208224618987448e-14
	3.160546684327578e-06
	4.384543001431202e-04
	6.317893861231036e-05
	1.454428793183688e-01

 76	7.600000000000005e-01
	-1.373368586802757e-14
	-9.381207229500068e-18
	-7.226209224475779e-14
	3.299932925863503e-06
	4.657217621757497e-04
	6.769812987280391e-05
	1.454433857408099e-01

 77	7.700000000000005e-01
	-1.374692509768493e-14
	-9.567600095500533e-18
	-7.243751387428272e-14
	3.444233114215641e-06
	4.942378503807009e-04
	7.249613952697917e-05
	1.454439277045712e-01

 78	7.800000000000005e-01
	-1.376189609458500e-14
	-9.757563511042921e-18
	-7.260856443648483e-14
	3.593558727806843e-06
	5.240207686277685e-04
	7.758553806335621e-05
	1.454445070499260e-01

 79	7.900000000000005e-01
	-1.377855990553718e-14
	-9.951168123813001e-18
	-7.277529786524529e-14
	3.748021316388683e-06
	5.550859007046592e-04
	8.297906328664741e-05
	1.454451256432418e-01

 80	8.000000000000005e-01
	-1.379687796841931e-14
	-1.014848617067386e-17
	-7.293776860757243e-14
	3.907732485113145e-06
	5.874456309443731e-04
	8.868959116985813e-05
	1.454457853705959e-01

 81	8.100000000000005e-01
	-1.381681212903466e-14
	-1.034959151904933e-17
	-7.309603156272182e-14
	4.072803896726409e-06
	6.211091794374757e-04
	9.473010498495698e-05
	1.454464881309550e-01

 82	8.200000000000005e-01
	-1.383832465684469e-14
	-1.055455970949010e-17
	-7.325014202316959e-14
	4.243347294085307e-06
	6.560824540427405e-04
	1.011136628695120e-04
	1.454472358289565e-01

 83	8.300000000000005e-01
	-1.386137825959923e-14
	-1.076346799946202e-17
	-7.340015561745107e-14
	4.419474545246377e-06
	6.923679212970495e-04
	1.078533640083014e-04
	1.454480303673553e-01

 84	8.400000000000005e-01
	-1.388593609688986e-14
	-1.097639540838725e-17
	-7.354612825487025e-14
	4.601297713414686e-06
	7.299644981753714e-04
	1.149623136291906e-04
	1.454488736392265e-01

 85	8.500000000000005e-01
	-1.391196179264991e-14
	-1.119342276398350e-17
	-7.368811607208540e-14
	4.788929154066053e-06
	7.688674664653147e-04
	1.224535870311809e-04
	1.454497675199480e-01

 86	8.600000000000005e-01
	-1.393941944662957e-14
	-1.141463274993174e-17
	-7.382617538156683e-14
	4.982481641571695e-06
	8.090684112999365e-04
	1.303401928790797e-04
	1.454507138591151e-01

 87	8.700000000000006e-01
	-1.396827364487279e-14
	-1.164010995491879e-17
	-7.396036262192315e-14
	5.182068527660578e-06
	8.505551851401668e-04
	1.386350360134327e-04
	1.454517144724227e-01

 88	8.800000000000006e-01
	-1.399848946922472e-14
	-1.186994092309110e-17
	-7.409073431008769e-14
	5.387803934052827e-06
	8.933118982178208e-04
	1.473508800358604e-04
	1.454527711336392e-01

 89	8.900000000000006e-01
	-1.403003250589936e-14
	-1.210421420596287e-17
	-7.421734699535226e-14
	5.599802981589648e-06
	9.373189361462099e-04
	1.565003099385174e-04
	1.454538855667638e-01

 90	9.000000000000006e-01
	-1.406286885313684e-14
	-1.234302041582401e-17
	-7.434025721523417e-14
	5.818182058174309e-06
	9.825530050828473e-04
	1.660956950518308e-04
	1.454550594384304e-01

 91	9.100000000000006e-01
	-1.409696512798141e-14
	-1.258645228068562e-17
	-7.445952145315900e-14
	6.043059127826255e-06
	1.028987204493055e-03
	1.761491525867869e-04
	1.454562943507222e-01

 92	9.200000000000006e-01
	-1.413228847221049e-14
	-1.283460470081724e-17
	-7.457519609793831e-14
	6.274554083141980e-06
	1.076591127220855e-03
	1.866725120467817e-04
	1.454575918344177e-01

 93	9.300000000000006e-01
	-1.416880655744676e-14
	-1.308757480691607e-17
	-7.468733740501934e-14
	6.512789143453254e-06
	1.125330986230090e-03
	1.976772807793194e-04
	1.454589533428076e-01

 94	9.400000000000006e-01
	-1.420648758948330e-14
	-1.334546201996040e-17
	-7.479600145948317e-14
	6.757889300981894e-06
	1.175169767041200e-03
	2.091746109297333e-04
	1.454603802461345e-01

 95	9.500000000000006e-01
	-1.424530031185420e-14
	-1.360836811279956e-17
	-7.490124414076239e-14
	7.009982817313289e-06
	1.226067404563382e-03
	2.211752680476349e-04
	1.454618738267335e-01

 96	9.600000000000006e-01
	-1.428521400868139e-14
	-1.387639727352739e-17
	-7.500312108905169e-14
	7.269201772554577e-06
	1.277980982714369e-03
	2.336896015821795e-04
	1.454634352749518e-01

 97	9.700000000000006e-01
	-1.432619850682822e-14
	-1.414965617070202e-17
	-7.510168767337923e-14
	7.535682669611975e-06
	1.330864954936440e-03
	2.467275174846507e-04
	1.454650656858684e-01

 98	9.800000000000006e-01
	-1.436822417739144e-14
	-1.442825402046086e-17
	-7.519699896130746e-14
	7.809567096120976e-06
	1.384671383462644e-03
	2.602984531165679e-04
	1.454667660568890e-01

 99	9.900000000000007e-01
	-1.441126193656061e-14
	-1.471230265559807e-17
	-7.528910969023077e-14
	8.091002446699232e-06
	1.439350194966345e-03
	2.744113546388890e-04
	1.454685372862008e-01

 100	1.000000000000001e+00
	-1.445528324587542e-14
	-1.500191659666259e-17
	-7.537807424023426e-14
	8.380142708369210e-06
	1.494849450043519e-03
	2.890746570331611e-04
	1.454703801721168e-01

 101	1.010000000000001e+00
	-1.450026011191010e-14
	-1.529721312513956e-17
	-7.546394660847936e-14
