Title: ** sch_path: /home/andylithia/openmpw/project-yatsuhashi-chip1/xschem/gmid_test/nmos_test.sch
Date: Tue Jul 19 23:15:45  2022
Plotname: DC transfer characteristic
Flags: real
No. Variables: 8
No. Points: 181
Variables:
	0	v(v-sweep)	voltage
	1	@m.xm1.msky130_fd_pr__nfet_01v8[cgb]	capacitance
	2	@m.xm1.msky130_fd_pr__nfet_01v8[cgd]	capacitance
	3	@m.xm1.msky130_fd_pr__nfet_01v8[cgs]	capacitance
	4	@m.xm1.msky130_fd_pr__nfet_01v8[gds]	admittance
	5	@m.xm1.msky130_fd_pr__nfet_01v8[gm]	admittance
	6	i(@m.xm1.msky130_fd_pr__nfet_01v8[id])	current
	7	v(@m.xm1.msky130_fd_pr__nfet_01v8[vth])	voltage
Values:
 0	0.000000000000000e+00
	-7.375220278956326e-15
	-1.215601245835108e-19
	-9.935289042201246e-15
	6.196429325661417e-08
	2.544849552094146e-06
	2.853424339522586e-07
	2.907905020341713e-01

 1	1.000000000000000e-02
	-7.295690090595629e-15
	-1.278933151910709e-19
	-1.011437316470564e-14
	6.763912559909655e-08
	2.777915308645450e-06
	3.119394890487633e-07
	2.907905040358574e-01

 2	2.000000000000000e-02
	-7.216859484818727e-15
	-1.344568140844410e-19
	-1.029407447091459e-14
	7.381453076192074e-08
	3.031958841109951e-06
	3.409705882842291e-07
	2.907905062215128e-01

 3	3.000000000000000e-02
	-7.138751812716126e-15
	-1.412554061564578e-19
	-1.047431670564811e-14
	8.053216842406657e-08
	3.308858027429456e-06
	3.726547605314177e-07
	2.907905086078352e-01

 4	4.000000000000000e-02
	-7.061390268401721e-15
	-1.482938708235542e-19
	-1.065502281883142e-14
	8.783685293959431e-08
	3.610663577847808e-06
	4.072306637881013e-07
	2.907905112130481e-01

 5	5.000000000000000e-02
	-6.984797835556007e-15
	-1.555769801781135e-19
	-1.083611508606869e-14
	9.577675496524529e-08
	3.939616293943425e-06
	4.449583982449911e-07
	2.907905140570436e-01

 6	6.000000000000000e-02
	-6.908997234748714e-15
	-1.631094973100372e-19
	-1.101751523121783e-14
	1.044036117526903e-07
	4.298166253385042e-06
	4.861215013877502e-07
	2.907905171615389e-01

 7	7.000000000000001e-02
	-6.834010871702958e-15
	-1.708961748071923e-19
	-1.119914455058158e-14
	1.137729460095994e-07
	4.688994145842277e-06
	5.310291454974328e-07
	2.907905205502602e-01

 8	8.000000000000000e-02
	-6.759860786660043e-15
	-1.789417534437839e-19
	-1.138092403832269e-14
	1.239442931712611e-07
	5.115035008739439e-06
	5.800185602830434e-07
	2.907905242491305e-01

 9	9.000000000000000e-02
	-6.686568605000754e-15
	-1.872509610647517e-19
	-1.156277451270205e-14
	1.349814368564354e-07
	5.579504636066203e-06
	6.334577059878609e-07
	2.907905282864998e-01

 10	9.999999999999999e-02
	-6.614155489273987e-15
	-1.958285116739305e-19
	-1.174461674273655e-14
	1.469526522076947e-07
	6.085928959055109e-06
	6.917482251705960e-07
	2.907905326933704e-01

 11	1.100000000000000e-01
	-6.542642092778623e-15
	-2.046791047324572e-19
	-1.192637157486809e-14
	1.599309567373796e-07
	6.638176723902589e-06
	7.553287044808874e-07
	2.907905375036801e-01

 12	1.200000000000000e-01
	-6.472048514837969e-15
	-2.138074246736197e-19
	-1.210796005923728e-14
	1.739943682159885e-07
	7.240495818486582e-06
	8.246782811341608e-07
	2.907905427545950e-01

 13	1.300000000000000e-01
	-6.402394257899257e-15
	-2.232181406392207e-19
	-1.228930357515559e-14
	1.892261690500861e-07
	7.897553626720220e-06
	9.003206324432520e-07
	2.907905484868338e-01

 14	1.400000000000000e-01
	-6.333698186582987e-15
	-2.329159064414222e-19
	-1.247032395537398e-14
	2.057151765020204e-07
	8.614481815180775e-06
	9.828283906805363e-07
	2.907905547450459e-01

 15	1.500000000000000e-01
	-6.265978488798413e-15
	-2.429053607538575e-19
	-1.265094360875257e-14
	2.235560180041927e-07
	9.396925981231070e-06
	1.072828029714592e-06
	2.907905615782208e-01

 16	1.600000000000000e-01
	-6.199252639032347e-15
	-2.531911275341907e-19
	-1.283108564094406e-14
	2.428494107163887e-07
	1.025110061411184e-05
	1.171005274269901e-06
	2.907905690401411e-01

 17	1.700000000000000e-01
	-6.133537363909137e-15
	-2.637778166798865e-19
	-1.301067397271329e-14
	2.637024443662481e-07
	1.118384983938685e-05
	1.278111087269364e-06
	2.907905771898905e-01

 18	1.800000000000000e-01
	-6.068848610109270e-15
	-2.746700249176624e-19
	-1.318963345552807e-14
	2.862288663005870e-07
	1.220271443144278e-05
	1.394968295497465e-06
	2.907905860924297e-01

 19	1.900000000000000e-01
	-6.005201514723663e-15
	-2.858723369269181e-19
	-1.336788998407101e-14
	3.105493675595858e-07
	1.331600558708455e-05
	1.522478918714777e-06
	2.907905958192183e-01

 20	2.000000000000000e-01
	-5.942610378109950e-15
	-2.973893266955426e-19
	-1.354537060533691e-14
	3.367918686669374e-07
	1.453288595401522e-05
	1.661632272292807e-06
	2.907906064489194e-01

 21	2.100000000000000e-01
	-5.881088639305708e-15
	-3.092255591066241e-19
	-1.372200362399866e-14
	3.650918037077177e-07
	1.586345839937079e-05
	1.813513918339045e-06
	2.907906180681812e-01

 22	2.200000000000001e-01
	-5.820648854042432e-15
	-3.213855917531443e-19
	-1.389771870374371e-14
	3.955924011424399e-07
	1.731886298350587e-05
	1.979315545040869e-06
	2.907906307725082e-01

 23	2.300000000000001e-01
	-5.761302675392583e-15
	-3.338739769774439e-19
	-1.407244696430328e-14
	4.284449596809170e-07
	1.891138257072616e-05
	2.160345858449521e-06
	2.907906446672255e-01

 24	2.400000000000001e-01
	-5.703060837070484e-15
	-3.466952641308480e-19
	-1.424612107391855e-14
	4.638091174140942e-07
	2.065455745930878e-05
	2.358042575005177e-06
	2.907906598685485e-01

 25	2.500000000000001e-01
	-5.645933139396357e-15
	-3.598540020488129e-19
	-1.441867533701112e-14
	5.018531122761869e-07
	2.256330934544577e-05
	2.573985606599051e-06
	2.907906765047722e-01

 26	2.600000000000001e-01
	-5.589928437921968e-15
	-3.733547417359272e-19
	-1.459004577684755e-14
	5.427540317845406e-07
	2.465407484711711e-05
	2.809911532683882e-06
	2.907906947175923e-01

 27	2.700000000000001e-01
	-5.535054634704252e-15
	-3.872020392545577e-19
	-1.476017021301461e-14
	5.866980498809602e-07
	2.694494870167396e-05
	3.067729455655641e-06
	2.907907146635507e-01

 28	2.800000000000001e-01
	-5.481318672203724e-15
	-4.014004588102441e-19
	-1.492898833354386e-14
	6.338806485768059e-07
	2.945583661243796e-05
	3.349538336187215e-06
	2.907907365156593e-01

 29	2.900000000000001e-01
	-5.428726529772612e-15
	-4.159545760269166e-19
	-1.509644176155269e-14
	6.845068219863967e-07
	3.220861755233788e-05
	3.657645904126776e-06
	2.907907604651540e-01

 30	3.000000000000001e-01
	-5.377283222688793e-15
	-4.308689814037704e-19
	-1.526247411629170e-14
	7.387912602191580e-07
	3.522731513405110e-05
	3.994589237672036e-06
	2.907907867234636e-01

 31	3.100000000000001e-01
	-5.326992803680945e-15
	-4.461482839461323e-19
	-1.542703106851652e-14
	7.969585104933029e-07
	3.853827742423232e-05
	4.363157098482477e-06
	2.907908155243440e-01

 32	3.200000000000001e-01
	-5.277858366881822e-15
	-4.617971149616956e-19
	-1.559006039012561e-14
	8.592431127323070e-07
	4.217036431240174e-05
	4.766414102841780e-06
	2.907908471262270e-01

 33	3.300000000000001e-01
	-5.229882054137712e-15
	-4.778201320135164e-19
	-1.575151199803201e-14
	9.258897068127529e-07
	4.615514124182699e-05
	5.207726798582331e-06
	2.907908818147955e-01

 34	3.400000000000001e-01
	-5.183065063594117e-15
	-4.942220230209211e-19
	-1.591133799226150e-14
	9.971531085495449e-07
	5.052707776981174e-05
	5.690791703863948e-06
	2.907909199057775e-01

 35	3.500000000000001e-01
	-5.137407660470461e-15
	-5.110075104994710e-19
	-1.606949268829349e-14
	1.073298351433569e-06
	5.532374904866992e-05
	6.219665346693244e-06
	2.907909617479930e-01

 36	3.600000000000002e-01
	-5.092909189930071e-15
	-5.281813559305273e-19
	-1.622593264368427e-14
	1.154600691080189e-06
	6.058603790792365e-05
	6.798796322925368e-06
	2.907910077266704e-01

 37	3.700000000000002e-01
	-5.049568091945074e-15
	-5.457483642522305e-19
	-1.638061667903602e-14
	1.241345569306787e-06
	6.635833477581264e-05
	7.433059365073724e-06
	2.907910582669977e-01

 38	3.800000000000002e-01
	-5.007381918051612e-15
	-5.637133884617434e-19
	-1.653350589339399e-14
	1.333828534735325e-06
	7.268873220842171e-05
	8.127791384262115e-06
	2.907911138379897e-01

 39	3.900000000000002e-01
	-4.966347349885164e-15
	-5.820813343211091e-19
	-1.668456367417754e-14
	1.432355116816473e-06
	7.962921030385498e-05
	8.888829412857538e-06
	2.907911749566010e-01

 40	4.000000000000002e-01
	-4.926460219382585e-15
	-6.008571651569932e-19
	-1.683375570176763e-14
	1.537240650195387e-06
	8.723580877484569e-05
	9.722550335529880e-06
	2.907912421921557e-01

 41	4.100000000000002e-01
	-4.887715530534152e-15
	-6.200459067467157e-19
	-1.698104994889283e-14
	1.648810046391680e-06
	9.556878094626151e-05
	1.063591225163494e-05
	2.907913161710234e-01

 42	4.200000000000002e-01
	-4.850107482566558e-15
	-6.396526522816841e-19
	-1.712641667497107e-14
	1.767397509848011e-06
	1.046927244463154e-04
	1.163649726191859e-05
	2.907913975816122e-01

 43	4.300000000000002e-01
	-4.813629494436041e-15
	-6.596825674008183e-19
	-1.726982841558105e-14
	1.893346195519401e-06
	1.146766828866991e-04
	1.273255541778362e-05
	2.907914871795930e-01

 44	4.400000000000002e-01
	-4.778274230509866e-15
	-6.801408952863309e-19
	-1.741125996724944e-14
	2.027007805329136e-06
	1.255942123939523e-04
	1.393304951204081e-05
	2.907915857934019e-01

 45	4.500000000000002e-01
	-4.744033627314217e-15
	-7.010329618148006e-19
	-1.755068836775326e-14
	2.168742121013971e-06
	1.375234064813885e-04
	1.524770032671648e-05
	2.907916943299375e-01

 46	4.600000000000002e-01
	-4.710898921226520e-15
	-7.223641807567726e-19
	-1.768809287214697e-14
	2.318916471121163e-06
	1.505468724585524e-04
	1.668703188678229e-05
	2.907918137804708e-01

 47	4.700000000000003e-01
	-4.678860676991542e-15
	-7.441400590190012e-19
	-1.782345492473292e-14
	2.477905130209403e-06
	1.647516523862379e-04
	1.826241619955929e-05
	2.907919452266939e-01

 48	4.800000000000003e-01
	-4.647908816941793e-15
	-7.663662019233882e-19
	-1.795675812720213e-14
	2.646088648645661e-06
	1.802290815231843e-04
	1.998611688916485e-05
	2.907920898468588e-01

 49	4.900000000000003e-01
	-4.618032650805032e-15
	-7.890483185176739e-19
	-1.808798820317735e-14
	2.823853111783560e-06
	1.970745772998827e-04
	2.187133106511239e-05
	2.907922489219598e-01

 50	5.000000000000002e-01
	-4.589220905984091e-15
	-8.121922269129989e-19
	-1.821713295939633e-14
	3.011589327759822e-06
	2.153873521196671e-04
	2.393222869569753e-05
	2.907924238418703e-01

 51	5.100000000000002e-01
	-4.561461758197270e-15
	-8.358038596449269e-19
	-1.834418224377568e-14
	3.209691943652823e-06
	2.352700437500364e-04
	2.618398869196044e-05
	2.907926161113326e-01

 52	5.200000000000002e-01
	-4.534742862371109e-15
	-8.598892690534716e-19
	-1.846912790059746e-14
	3.418558490313036e-06
	2.568282577485968e-04
	2.864283084890054e-05
	2.907928273557536e-01

 53	5.300000000000002e-01
	-4.509051383680912e-15
	-8.844546326801793e-19
	-1.859196372306198e-14
	3.638588356800647e-06
	2.801700172854262e-04
	3.132604273954656e-05
	2.907930593266231e-01

 54	5.400000000000003e-01
	-4.484374028638912e-15
	-9.095062586792049e-19
	-1.871268540344842e-14
	3.870181696044908e-06
	3.054051168889591e-04
	3.425200061682321e-05
	2.907933139064984e-01

 55	5.500000000000003e-01
	-4.460697076133857e-15
	-9.350505912410350e-19
	-1.883129048112416e-14
	4.113738264075706e-06
	3.326443780624571e-04
	3.744018335050408e-05
	2.907935931133688e-01

 56	5.600000000000003e-01
	-4.438006408331230e-15
	-9.610942160271090e-19
	-1.894777828863907e-14
	4.369656195959916e-06
	3.619988063909854e-04
	4.091117841437006e-05
	2.907938991043029e-01

 57	5.700000000000003e-01
	-4.416287541347353e-15
	-9.876438656150555e-19
	-1.906214989613873e-14
	4.638330722403746e-06
	3.935786516752046e-04
	4.468667894457782e-05
	2.907942341781806e-01

 58	5.800000000000003e-01
	-4.395525655616404e-15
	-1.014706424954043e-18
	-1.917440805432357e-14
	4.920152831843038e-06
	4.274923747678861e-04
	4.878947091644935e-05
	2.907946007773904e-01

 59	5.900000000000003e-01
	-4.375705625874088e-15
	-1.042288936830242e-18
	-1.928455713617632e-14
	5.215507883732279e-06
	4.638455271218530e-04
	5.324340953557755e-05
	2.907950014883201e-01

 60	6.000000000000003e-01
	-4.356812050687093e-15
	-1.070398607343426e-18
	-1.939260307767263e-14
	5.524774179645246e-06
	5.027395515420805e-04
	5.807338401199925e-05
	2.907954390404704e-01

 61	6.100000000000003e-01
	-4.338829281462829e-15
	-1.099042811395451e-18
	-1.949855331768244e-14
	5.848321499703127e-06
	5.442705152169052e-04
	6.330526998446950e-05
	2.907959163040624e-01

 62	6.200000000000003e-01
	-4.321741450879051e-15
	-1.128229098191803e-18
	-1.960241673726189e-14
	6.186509612734990e-06
	5.885277887197114e-04
	6.896586898625591e-05
	2.907964362859789e-01

 63	6.300000000000003e-01
	-4.305532500678461e-15
	-1.157965196758427e-18
	-1.970420359852644e-14
	6.539686769434410e-06
	6.355926872490046e-04
	7.508283449431628e-05
	2.907970021239099e-01

 64	6.400000000000003e-01
	-4.290186208778511e-15
	-1.188259021474992e-18
	-1.980392548328731e-14
	6.908188188585062e-06
	6.855370928287835e-04
	8.168458427938984e-05
	2.907976170786262e-01

 65	6.500000000000004e-01
	-4.275686215651596e-15
	-1.219118677627332e-18
	-1.990159523162445e-14
	7.292334547173339e-06
	7.384220784343578e-04
	8.880019897379595e-05
	2.907982845242338e-01

 66	6.600000000000004e-01
	-4.262016049936273e-15
	-1.250552466981009e-18
	-1.999722688055873e-14
	7.692430485860933e-06
	7.942965569484197e-04
	9.645930699389220e-05
	2.907990079364308e-01

 67	6.700000000000004e-01
	-4.249159153244612e-15
	-1.282568893378471e-18
	-2.009083560297745e-14
	8.108763141845020e-06
	8.531959793972687e-04
	1.046919561918219e-04
	2.907997908786936e-01

 68	6.800000000000004e-01
	-4.237098904135822e-15
	-1.315176668362328e-18
	-2.018243764695743e-14
	8.541600721561514e-06
	9.151411079786470e-04
	1.135284728618098e-04
	2.908006369864329e-01

 69	6.900000000000004e-01
	-4.225818641230749e-15
	-1.348384716827423e-18
	-2.027205027562007e-14
	8.991191125976532e-06
	9.801368898915662e-04
	1.229993089846957e-04
	2.908015499491778e-01

 70	7.000000000000004e-01
	-4.215301685446545e-15
	-1.382202182703815e-18
	-2.035969170764297e-14
	9.457760641343010e-06
	1.048171457846596e-03
	1.331348788545123e-04
	2.908025334909140e-01

 71	7.100000000000004e-01
	-4.205531361334382e-15
	-1.416638434674076e-18
	-2.044538105854519e-14
	9.941512708265644e-06
	1.119215282322522e-03
	1.439653864862598e-04
	2.908035913486823e-01

 72	7.200000000000004e-01
	-4.196491017508065e-15
	-1.451703071926720e-18
	-2.052913828285120e-14
	1.044262678169957e-05
	1.193220499110377e-03
	1.555206454473927e-04
	2.908047272496875e-01

 73	7.300000000000004e-01
	-4.188164046154388e-15
	-1.487405929949221e-18
	-2.061098411723258e-14
	1.096125729410936e-05
	1.270120433443542e-03
	1.678298929799655e-04
	2.908059448871285e-01

 74	7.400000000000004e-01
	-4.180533901620086e-15
	-1.523757086362769e-18
	-2.069094002471647e-14
	1.149753273342519e-05
	1.349829339071374e-03
	1.809216004785956e-04
	2.908072478950262e-01

 75	7.500000000000004e-01
	-4.173584118073792e-15
	-1.560766866801977e-18
	-2.076902814004133e-14
	1.205155484665316e-05
	1.432242367040680e-03
	1.948232825546488e-04
	2.908086398224044e-01

 76	7.600000000000005e-01
	-4.167298326244033e-15
	-1.598445850842165e-18
	-2.084527121623433e-14
	1.262339797903981e-05
	1.517235774779585e-03
	2.095613070433088e-04
	2.908101241071111e-01

 77	7.700000000000005e-01
	-4.161660269238024e-15
	-1.636804877978044e-18
	-2.091969257247493e-14
	1.321310855755369e-05
	1.604667381430736e-03
	2.251607083919407e-04
	2.908117040497111e-01

 78	7.800000000000005e-01
	-4.156653817448105e-15
	-1.675855053656493e-18
	-2.099231604330404e-14
	1.382070472615601e-05
	1.694377270380918e-03
	2.416450069015568e-04
	2.908133827877770e-01

 79	7.900000000000005e-01
	-4.152262982555710e-15
	-1.715607755367464e-18
	-2.106316592922975e-14
	1.444617613889360e-05
	1.786188734723039e-03
	2.590360362751399e-04
	2.908151632710240e-01

 80	8.000000000000005e-01
	-4.148471930644726e-15
	-1.756074638797527e-18
	-2.113226694877511e-14
	1.508948391529296e-05
	1.879909456122776e-03
	2.773537818561304e-04
	2.908170482376037e-01

 81	8.100000000000005e-01
	-4.145264994438582e-15
	-1.797267644049614e-18
	-2.119964419200649e-14
	1.575056076087456e-05
	1.975332902408118e-03
	2.966162318174920e-04
	2.908190401919924e-01

 82	8.200000000000005e-01
	-4.142626684677146e-15
	-1.839199001935302e-18
	-2.126532307557536e-14
	1.642931125388349e-05
	2.072239924322889e-03
	3.168392433888416e-04
	2.908211413847649e-01

 83	8.300000000000005e-01
	-4.140541700651197e-15
	-1.881881240344085e-18
	-2.132932929930075e-14
	1.712561229755919e-05
	2.170400527441314e-03
	3.380364259893944e-04
	2.908233537945960e-01

 84	8.400000000000005e-01
	-4.138994939914080e-15
	-1.925327190696711e-18
	-2.139168880431367e-14
	1.783931373548529e-05
	2.269575791376484e-03
	3.602190428733824e-04
	2.908256791127437e-01

 85	8.500000000000005e-01
	-4.137971507191367e-15
	-1.969549994488970e-18
	-2.145242773277992e-14
	1.857023912579095e-05
	2.369519905254251e-03
	3.833959325983808e-04
	2.908281187302645e-01

 86	8.600000000000005e-01
	-4.137456722510539e-15
	-2.014563109933285e-18
	-2.151157238921247e-14
	1.931818666825617e-05
	2.469982286066435e-03
	4.075734513035056e-04
	2.908306737280905e-01

 87	8.700000000000006e-01
	-4.137436128573864e-15
	-2.060380318706970e-18
	-2.156914920337995e-14
	2.008293027672388e-05
	2.570709745030009e-03
	4.327554364417695e-04
	2.908333448701374e-01

 88	8.800000000000006e-01
	-4.137895497398582e-15
	-2.107015732815020e-18
	-2.162518469481223e-14
	2.086422078768134e-05
	2.671448666501013e-03
	4.589431922584337e-04
	2.908361325994582e-01

 89	8.900000000000006e-01
	-4.138820836249105e-15
	-2.154483801577610e-18
	-2.167970543890121e-14
	2.166178729445611e-05
	2.771947164323202e-03
	4.861354969536165e-04
	2.908390370374744e-01

 90	9.000000000000006e-01
	-4.140198392886899e-15
	-2.202799318751446e-18
	-2.173273803458846e-14
	2.247533859520813e-05
	2.871957181702566e-03
	5.143286311220216e-04
	2.908420579862366e-01

 91	9.100000000000006e-01
	-4.142014660163741e-15
	-2.251977429796209e-18
	-2.178430907362916e-14
	2.330456474180900e-05
	2.971236502727562e-03
	5.435164267338436e-04
	2.908451949335824e-01

 92	9.200000000000006e-01
	-4.144256379984790e-15
	-2.302033639296905e-18
	-2.183444511141667e-14
	2.414913867579248e-05
	3.069550646410827e-03
	5.736903356162310e-04
	2.908484470610729e-01

 93	9.300000000000006e-01
	-4.146910546668173e-15
	-2.352983818552362e-18
	-2.188317263934856e-14
	2.500871793685749e-05
	3.166674617500790e-03
	6.048395161211225e-04
	2.908518132545059e-01

 94	9.400000000000006e-01
	-4.149964409727583e-15
	-2.404844213343387e-18
	-2.193051805871143e-14
	2.588294642891031e-05
	3.262394492171602e-03
	6.369509364281051e-04
	2.908552921167669e-01

 95	9.500000000000006e-01
	-4.153405476104667e-15
	-2.457631451890543e-18
	-2.197650765605893e-14
	2.677145622835065e-05
	3.356508820907952e-03
	6.700094927343482e-04
	2.908588819827618e-01

 96	9.600000000000006e-01
	-4.157221511878099e-15
	-2.511362553014854e-18
	-2.202116758005357e-14
	2.767386941923803e-05
	3.448829835314787e-03
	7.039981404303346e-04
	2.908625809361784e-01

 97	9.700000000000006e-01
	-4.161400543475644e-15
	-2.566054934513168e-18
	-2.206452381974047e-14
	2.858979994011865e-05
	3.539184450059781e-03
	7.388980362515032e-04
	2.908663868277596e-01

 98	9.800000000000006e-01
	-4.165930858415469e-15
	-2.621726421760060e-18
	-2.210660218421928e-14
	2.951885542763519e-05
	3.627415055564477e-03
	7.746886893316513e-04
	2.908702972947702e-01

 99	9.900000000000007e-01
	-4.170801005603046e-15
	-2.678395256548656e-18
	-2.214742828367663e-14
	3.046063904257330e-05
	3.713380101277120e-03
	8.113481190628114e-04
	2.908743097814329e-01

 100	1.000000000000001e+00
	-4.175999795208555e-15
	-2.736080106182934e-18
	-2.218702751174175e-14
	3.141475126471064e-05
	3.796954473283442e-03
	8.488530176860988e-04
	2.908784215599376e-01

 101	1.010000000000001e+00
	-4.181516298150559e-15
	-2.794800072832186e-18
	-2.222542502912376e-14
