Title: ** sch_path: /home/andylithia/openmpw/project-yatsuhashi-chip1/xschem/gmid_test/nmos_test.sch
Date: Tue Jul 19 23:15:45  2022
Plotname: DC transfer characteristic
Flags: real
No. Variables: 8
No. Points: 181
Variables:
	0	v(v-sweep)	voltage
	1	@m.xm1.msky130_fd_pr__nfet_01v8[cgb]	capacitance
	2	@m.xm1.msky130_fd_pr__nfet_01v8[cgd]	capacitance
	3	@m.xm1.msky130_fd_pr__nfet_01v8[cgs]	capacitance
	4	@m.xm1.msky130_fd_pr__nfet_01v8[gds]	admittance
	5	@m.xm1.msky130_fd_pr__nfet_01v8[gm]	admittance
	6	i(@m.xm1.msky130_fd_pr__nfet_01v8[id])	current
	7	v(@m.xm1.msky130_fd_pr__nfet_01v8[vth])	voltage
Values:
 0	0.000000000000000e+00
	-1.481727803536800e-14
	-1.240702820956759e-18
	-3.018952544910160e-14
	2.821943982996061e-08
	1.071959546698909e-06
	1.418935286121228e-07
	1.670726557094719e-01

 1	1.000000000000000e-02
	-1.465866188355520e-14
	-1.269024542309477e-18
	-3.056982235334647e-14
	3.032417744223754e-08
	1.155546494958508e-06
	1.530257665811309e-07
	1.670726565668200e-01

 2	2.000000000000000e-02
	-1.450227397978253e-14
	-1.297943529798024e-18
	-3.094916073204990e-14
	3.257720262936581e-08
	1.245737561115690e-06
	1.650264570969134e-07
	1.670726574919077e-01

 3	3.000000000000000e-02
	-1.434814154101152e-14
	-1.327470953012029e-18
	-3.132741916408183e-14
	3.498810128304788e-08
	1.343080048340536e-06
	1.779643386322340e-07
	1.670726584902280e-01

 4	4.000000000000000e-02
	-1.419629070002972e-14
	-1.357618168299281e-18
	-3.170447741124116e-14
	3.756699953444525e-08
	1.448170415112626e-06
	1.919138646794561e-07
	1.670726595677394e-01

 5	5.000000000000000e-02
	-1.404674646103108e-14
	-1.388396722264897e-18
	-3.208021655299202e-14
	4.032458752371333e-08
	1.561659013753379e-06
	2.069557186293416e-07
	1.670726607309275e-01

 6	6.000000000000000e-02
	-1.389953265799807e-14
	-1.419818355371459e-18
	-3.245451911817223e-14
	4.327214371345342e-08
	1.684255283539209e-06
	2.231773782769318e-07
	1.670726619868396e-01

 7	7.000000000000001e-02
	-1.375467191595167e-14
	-1.451895005641212e-18
	-3.282726921337788e-14
	4.642155972385777e-08
	1.816733436091452e-06
	2.406737346870145e-07
	1.670726633431512e-01

 8	8.000000000000000e-02
	-1.361218561512500e-14
	-1.484638812464528e-18
	-3.319835264774591e-14
	4.978536566472335e-08
	1.959938672631928e-06
	2.595477705382935e-07
	1.670726648082149e-01

 9	9.000000000000000e-02
	-1.347209385810811e-14
	-1.518062120517260e-18
	-3.356765705386440e-14
	5.337675593679484e-08
	2.114793974473519e-06
	2.799113034701192e-07
	1.670726663911412e-01

 10	9.999999999999999e-02
	-1.333441544000153e-14
	-1.552177483790315e-18
	-3.393507200455974e-14
	5.720961547215972e-08
	2.282307509743645e-06
	3.018858003777463e-07
	1.670726681018612e-01

 11	1.100000000000000e-01
	-1.319916782160813e-14
	-1.586997669734432e-18
	-3.430048912531988e-14
	6.129854638056155e-08
	2.463580700763130e-06
	3.256032690392078e-07
	1.670726699512109e-01

 12	1.200000000000000e-01
	-1.306636710568162e-14
	-1.622535663523961e-18
	-3.466380220213298e-14
	6.565889496559436e-08
	2.659816997672572e-06
	3.512072339072578e-07
	1.670726719510141e-01

 13	1.300000000000000e-01
	-1.293602801624279e-14
	-1.658804672442188e-18
	-3.502490728453392e-14
	7.030677907172758e-08
	2.872331404749554e-06
	3.788538033601833e-07
	1.670726741141930e-01

 14	1.400000000000000e-01
	-1.280816388096313e-14
	-1.695818130392183e-18
	-3.538370278367183e-14
	7.525911572002473e-08
	3.102560806328672e-06
	4.087128361724717e-07
	1.670726764548714e-01

 15	1.500000000000000e-01
	-1.268278661660796e-14
	-1.733589702536676e-18
	-3.574008956522699e-14
	8.053364898719496e-08
	3.352075139245478e-06
	4.409692154357316e-07
	1.670726789884899e-01

 16	1.600000000000000e-01
	-1.255990671752143e-14
	-1.772133290069777e-18
	-3.609397103702418e-14
	8.614897807928600e-08
	3.622589458197661e-06
	4.758242386272710e-07
	1.670726817319408e-01

 17	1.700000000000000e-01
	-1.243953324712655e-14
	-1.811463035125133e-18
	-3.644525323120926e-14
	9.212458554787961e-08
	3.915976939264145e-06
	5.134971329824383e-07
	1.670726847037086e-01

 18	1.800000000000000e-01
	-1.232167383240537e-14
	-1.851593325823281e-18
	-3.679384488087333e-14
	9.848086559301014e-08
	4.234282864951287e-06
	5.542267057703122e-07
	1.670726879240385e-01

 19	1.900000000000000e-01
	-1.220633466131576e-14
	-1.892538801462248e-18
	-3.713965749102876e-14
	1.052391523932710e-07
	4.579739631447963e-06
	5.982731394933282e-07
	1.670726914151032e-01

 20	2.000000000000000e-01
	-1.209352048309306e-14
	-1.934314357855346e-18
	-3.748260540385957e-14
	1.124217483996051e-07
	4.954782815160526e-06
	6.459199424207499e-07
	1.670726952011912e-01

 21	2.100000000000000e-01
	-1.198323461137722e-14
	-1.976935152820026e-18
	-3.782260585818820e-14
	1.200519525250961e-07
	5.362068330957096e-06
	6.974760652141258e-07
	1.670726993089295e-01

 22	2.200000000000001e-01
	-1.187547893009870e-14
	-2.020416611821189e-18
	-3.815957904311974e-14
	1.281540881587544e-07
	5.804490708766100e-06
	7.532781946992473e-07
	1.670727037674999e-01

 23	2.300000000000001e-01
	-1.177025390204941e-14
	-2.064774433773794e-18
	-3.849344814584205e-14
	1.367535309266214e-07
	6.285202508126558e-06
	8.136932360708901e-07
	1.670727086089042e-01

 24	2.400000000000001e-01
	-1.166755858005847e-14
	-2.110024597008211e-18
	-3.882413939358118e-14
	1.458767361187507e-07
	6.807634881868973e-06
	8.791209949718423e-07
	1.670727138682271e-01

 25	2.500000000000001e-01
	-1.156739062068629e-14
	-2.156183365402857e-18
	-3.915158208972535e-14
	1.555512656954323e-07
	7.375519290190917e-06
	9.499970709504520e-07
	1.670727195839523e-01

 26	2.600000000000001e-01
	-1.146974630034500e-14
	-2.203267294688273e-18
	-3.947570864415338e-14
	1.658058147807777e-07
	7.992910354881601e-06
	1.026795973757603e-06
	1.670727257982802e-01

 27	2.700000000000001e-01
	-1.137462053374822e-14
	-2.251293238927073e-18
	-3.979645459781504e-14
	1.766702375460184e-07
	8.664209830226371e-06
	1.110034473775949e-06
	1.670727325574960e-01

 28	2.800000000000001e-01
	-1.128200689458839e-14
	-2.300278357174762e-18
	-4.011375864163150e-14
	1.881755723790984e-07
	9.394191652104311e-06
	1.200275197566054e-06
	1.670727399123534e-01

 29	2.900000000000001e-01
	-1.119189763833554e-14
	-2.350240120324321e-18
	-4.042756262979688e-14
	2.003540662308749e-07
	1.018802800988560e-05
	1.298130479045357e-06
	1.670727479185053e-01

 30	3.000000000000001e-01
	-1.110428372704836e-14
	-2.401196318141739e-18
	-4.073781158757821e-14
	2.132391980218600e-07
	1.105131636688539e-05
	1.404266476168969e-06
	1.670727566369655e-01

 31	3.100000000000001e-01
	-1.101915485608457e-14
	-2.453165066495366e-18
	-4.104445371372456e-14
	2.268657009867888e-07
	1.199010733428950e-05
	1.519407562135607e-06
	1.670727661346096e-01

 32	3.200000000000001e-01
	-1.093649948259582e-14
	-2.506164814784665e-18
	-4.134744037761003e-14
	2.412695838274039e-07
	1.301093328062165e-05
	1.644340999077774e-06
	1.670727764847176e-01

 33	3.300000000000001e-01
	-1.085630485568957e-14
	-2.560214353573629e-18
	-4.164672611124701e-14
	2.564881505368244e-07
	1.412083753398791e-05
	1.779921900892577e-06
	1.670727877675582e-01

 34	3.400000000000001e-01
	-1.077855704813940e-14
	-2.615332822433964e-18
	-4.194226859631744e-14
	2.725600187516768e-07
	1.532740400756538e-05
	1.927078490308538e-06
	1.670728000710341e-01

 35	3.500000000000001e-01
	-1.070324098952347e-14
	-2.671539718002853e-18
	-4.223402864638312e-14
	2.895251364810457e-07
	1.663878705020549e-05
	2.086817653446439e-06
	1.670728134913466e-01

 36	3.600000000000002e-01
	-1.063034050067148e-14
	-2.728854902261457e-18
	-4.252197018444047e-14
	3.074247970539320e-07
	1.806374129372516e-05
	2.260230792998332e-06
	1.670728281337487e-01

 37	3.700000000000002e-01
	-1.055983832929864e-14
	-2.787298611039917e-18
	-4.280606021600012e-14
	3.263016521200426e-07
	1.961165123669994e-05
	2.448499978707204e-06
	1.670728441133114e-01

 38	3.800000000000002e-01
	-1.049171618670751e-14
	-2.846891462753114e-18
	-4.308626879787389e-14
	3.461997225316442e-07
	2.129256027157434e-05
	2.652904391060471e-06
	1.670728615557909e-01

 39	3.900000000000002e-01
	-1.042595478543743e-14
	-2.907654467375122e-18
	-4.336256900286331e-14
	3.671644069279500e-07
	2.311719882804569e-05
	2.874827051010245e-06
	1.670728805985023e-01

 40	4.000000000000002e-01
	-1.036253387774396e-14
	-2.969609035657715e-18
	-4.363493688054553e-14
	3.892424878373222e-07
	2.509701127131507e-05
	3.115761825087581e-06
	1.670729013912939e-01

 41	4.100000000000002e-01
	-1.030143229479214e-14
	-3.032776988597571e-18
	-4.390335141435994e-14
	4.124821351074077e-07
	2.724418115945499e-05
	3.377320691491327e-06
	1.670729240975697e-01

 42	4.200000000000002e-01
	-1.024262798644752e-14
	-3.097180567162006e-18
	-4.416779447520319e-14
	4.369329064688928e-07
	2.957165443035033e-05
	3.661241248602855e-06
	1.670729488953471e-01

 43	4.300000000000002e-01
	-1.018609806155497e-14
	-3.162842442276459e-18
	-4.442825077174025e-14
	4.626457450351890e-07
	3.209316005606198e-05
	3.969394442914888e-06
	1.670729759784095e-01

 44	4.400000000000002e-01
	-1.013181882859378e-14
	-3.229785725082653e-18
	-4.468470779764481e-14
	4.896729735385508e-07
	3.482322767178618e-05
	4.303792488585032e-06
	1.670730055575029e-01

 45	4.500000000000002e-01
	-1.007976583660364e-14
	-3.298033977473854e-18
	-4.493715577598180e-14
	5.180682851027359e-07
	3.777720165859595e-05
	4.666596945750809e-06
	1.670730378615825e-01

 46	4.600000000000002e-01
	-1.002991391627750e-14
	-3.367611222914110e-18
	-4.518558760094579e-14
	5.478867303539699e-07
	4.097125113473503e-05
	5.060126919406639e-06
	1.670730731391248e-01

 47	4.700000000000003e-01
	-9.982237221122003e-15
	-3.438541957549938e-18
	-4.542999877716760e-14
	5.791847006758730e-07
	4.442237529032218e-05
	5.486867335085535e-06
	1.670731116594872e-01

 48	4.800000000000003e-01
	-9.936709268588792e-15
	-3.510851161621155e-18
	-4.567038735680284e-14
	6.120199074204378e-07
	4.814840348587830e-05
	5.949477241856793e-06
	1.670731537143227e-01

 49	4.900000000000003e-01
	-9.893302981084537e-15
	-3.584564311178754e-18
	-4.590675387461153e-14
	6.464513568966097e-07
	5.216798952714232e-05
	6.450798087307917e-06
	1.670731996190094e-01

 50	5.000000000000002e-01
	-9.851990726771738e-15
	-3.659707390119249e-18
	-4.613910128123716e-14
	6.825393209706285e-07
	5.650059952821381e-05
	6.993861903291313e-06
	1.670732497141515e-01

 51	5.100000000000002e-01
	-9.812744360075670e-15
	-3.736306902542706e-18
	-4.636743487488981e-14
	7.203453031287973e-07
	6.116649278321644e-05
	7.581899335370272e-06
	1.670733043670664e-01

 52	5.200000000000002e-01
	-9.775535261818226e-15
	-3.814389885443479e-18
	-4.659176223163466e-14
	7.599319998736092e-07
	6.618669508438120e-05
	8.218347443176965e-06
	1.670733639733166e-01

 53	5.300000000000002e-01
	-9.740334378902976e-15
	-3.893983921743081e-18
	-4.681209313448179e-14
	8.013632573491375e-07
	7.158296395270452e-05
	8.906857193407517e-06
	1.670734289582212e-01

 54	5.400000000000003e-01
	-9.707112263480577e-15
	-3.975117153673926e-18
	-4.702843950147007e-14
	8.447040231209804e-07
	7.737774528696177e-05
	9.651300562026649e-06
	1.670734997783647e-01

 55	5.500000000000003e-01
	-9.675839111528083e-15
	-4.057818296524066e-18
	-4.724081531293157e-14
	8.900202930707019e-07
	8.359412098864349e-05
	1.045577715756255e-05
	1.670735769230745e-01

 56	5.600000000000003e-01
	-9.646484800780193e-15
	-4.142116652752313e-18
	-4.744923653811708e-14
	9.373790534045943e-07
	9.025574718486855e-05
	1.132462027325992e-05
	1.670736609158483e-01

 57	5.700000000000003e-01
	-9.619018927955265e-15
	-4.228042126484953e-18
	-4.765372106135813e-14
	9.868482178217832e-07
	9.738678274895034e-05
	1.226240227245874e-05
	1.670737523157269e-01

 58	5.800000000000003e-01
	-9.593410845222661e-15
	-4.315625238402799e-18
	-4.785428860793416e-14
	1.038496559937881e-06
	1.050118079091776e-04
	1.327393920901003e-05
	1.670738517185659e-01

 59	5.900000000000003e-01
	-9.569629695863495e-15
	-4.404897141032172e-18
	-4.805096066980667e-14
	1.092393641116891e-06
	1.131557328404224e-04
	1.436429458295882e-05
	1.670739597582036e-01

 60	6.000000000000003e-01
	-9.547644449080176e-15
	-4.495889634448750e-18
	-4.824376043137533e-14
	1.148609733926344e-06
	1.218436962499762e-04
	1.553878213124848e-05
	1.670740771074943e-01

 61	6.100000000000003e-01
	-9.527423933915438e-15
	-4.588635182407836e-18
	-4.843271269540461e-14
	1.207215741498396e-06
	1.311009540978064e-04
	1.680296755395695e-05
	1.670742044791806e-01

 62	6.200000000000003e-01
	-9.508936872244858e-15
	-4.683166928911594e-18
	-4.861784380926136e-14
	1.268283113152619e-06
	1.409527587311066e-04
	1.816266907867498e-05
	1.670743426265813e-01

 63	6.300000000000003e-01
	-9.492151910811938e-15
	-4.779518715227490e-18
	-4.879918159159688e-14
	1.331883756713742e-06
	1.514242288620777e-04
	1.962395676918263e-05
	1.670744923440549e-01

 64	6.400000000000003e-01
	-9.477037652277880e-15
	-4.877725097369505e-18
	-4.897675525959986e-14
	1.398089948039642e-06
	1.625402109744914e-04
	2.119315048965746e-05
	1.670746544672391e-01

 65	6.500000000000004e-01
	-9.463562685262889e-15
	-4.977821364056549e-18
	-4.915059535693876e-14
	1.466974238360279e-06
	1.743251329064881e-04
	2.287681644232389e-05
	1.670748298730095e-01

 66	6.600000000000004e-01
	-9.451695613359263e-15
	-5.079843555161265e-18
	-4.932073368250468e-14
	1.538609360116483e-06
	1.868028505216186e-04
	2.468176220476031e-05
	1.670750194791535e-01

 67	6.700000000000004e-01
	-9.441405083099934e-15
	-5.183828480664656e-18
	-4.948720322005909e-14
	1.613068132077316e-06
	1.999964885444516e-04
	2.661503020304175e-05
	1.670752242437138e-01

 68	6.800000000000004e-01
	-9.432659810870464e-15
	-5.289813740129881e-18
	-4.965003806888205e-14
	1.690423364605310e-06
	2.139282767978188e-04
	2.868388956847854e-05
	1.670754451640084e-01

 69	6.900000000000004e-01
	-9.425428608754494e-15
	-5.397837742712489e-18
	-4.980927337551104e-14
	1.770747766028877e-06
	2.286193832325846e-04
	3.089582633888120e-05
	1.670756832752740e-01

 70	7.000000000000004e-01
	-9.419680409307328e-15
	-5.507939727720711e-18
	-4.996494526665187e-14
	1.854113851169087e-06
	2.440897452839179e-04
	3.325853197992611e-05
	1.670759396489433e-01

 71	7.100000000000004e-01
	-9.415384289254434e-15
	-5.620159785745020e-18
	-5.011709078333642e-14
	1.940593853152967e-06
	2.603579012168417e-04
	3.577989021821782e-05
	1.670762153905327e-01

 72	7.200000000000004e-01
	-9.412509492114534e-15
	-5.734538880371304e-18
	-5.026574781639649e-14
	2.030259639725510e-06
	2.774408232344883e-04
	3.846796219485473e-05
	1.670765116371305e-01

 73	7.300000000000004e-01
	-9.411025449750472e-15
	-5.851118870496027e-18
	-5.041095504331375e-14
	2.123182635346542e-06
	2.953537542114699e-04
	4.133096996652139e-05
	1.670768295544869e-01

 74	7.400000000000004e-01
	-9.410901802852688e-15
	-5.969942533262880e-18
	-5.055275186650142e-14
	2.219433750424879e-06
	3.141100499786768e-04
	4.437727840010862e-05
	1.670771703337168e-01

 75	7.500000000000004e-01
	-9.412108420363132e-15
	-6.091053587637073e-18
	-5.069117835306694e-14
	2.319083319100116e-06
	3.337210291216883e-04
	4.761537552635071e-05
	1.670775351876080e-01

 76	7.600000000000005e-01
	-9.414615417849830e-15
	-6.214496718637763e-18
	-5.082627517609659e-14
	2.422201047029603e-06
	3.541958322600912e-04
	5.105385143764734e-05
	1.670779253465693e-01

 77	7.700000000000005e-01
	-9.418393174843596e-15
	-6.340317602248415e-18
	-5.095808355750039e-14
	2.528855970674485e-06
	3.755412927475138e-04
	5.470137583481398e-05
	1.670783420542294e-01

 78	7.800000000000005e-01
	-9.423412351151874e-15
	-6.468562931025355e-18
	-5.108664521244679e-14
	2.639116429603396e-06
	3.977618206706371e-04
	5.856667434663168e-05
	1.670787865627254e-01

 79	7.900000000000005e-01
	-9.429643902164529e-15
	-6.599280440424294e-18
	-5.121200229541477e-14
	2.753050053343736e-06
	4.208593019292427e-04
	6.265850376439867e-05
	1.670792601277128e-01

 80	8.000000000000005e-01
	-9.437059093170230e-15
	-6.732518935868127e-18
	-5.133419734788151e-14
	2.870723764309746e-06
	4.448330140487323e-04
	6.698562635088480e-05
	1.670797640031415e-01

 81	8.100000000000005e-01
	-9.445629512701621e-15
	-6.868328320577585e-18
	-5.145327324766370e-14
	2.992203798322124e-06
	4.696795602124895e-04
	7.155678339880480e-05
	1.670802994358470e-01

 82	8.200000000000005e-01
	-9.455327084930665e-15
	-7.006759624185352e-18
	-5.156927315992158e-14
	3.117555744207652e-06
	4.953928228059183e-04
	7.638066822784191e-05
	1.670808676600153e-01

 83	8.300000000000005e-01
	-9.466124081135083e-15
	-7.147865032161685e-18
	-5.168224048983387e-14
	3.246844603928381e-06
	5.219639375396864e-04
	8.146589882106178e-05
	1.670814698915782e-01

 84	8.400000000000005e-01
	-9.477993130259650e-15
	-7.291697916071718e-18
	-5.179221883694485e-14
	3.380134874640764e-06
	5.493812889701969e-04
	8.682099031098409e-05
	1.670821073226050e-01

 85	8.500000000000005e-01
	-9.490907228595280e-15
	-7.438312864689692e-18
	-5.189925195118389e-14
	3.517490654026230e-06
	5.776305279649854e-04
	9.245432753241188e-05
	1.670827811157483e-01

 86	8.600000000000005e-01
	-9.504839748601512e-15
	-7.587765715999887e-18
	-5.200338369055053e-14
	3.658975770168077e-06
	6.066946113743660e-04
	9.837413786313888e-05
	1.670834923988272e-01

 87	8.700000000000006e-01
	-9.519764446897577e-15
	-7.740113590104931e-18
	-5.210465798045807e-14
	3.804653937178091e-06
	6.365538638739592e-04
	1.045884645747807e-04
	1.670842422596038e-01

 88	8.800000000000006e-01
	-9.535655471447469e-15
	-7.895414923074086e-18
	-5.220311877472441e-14
	3.954588937700833e-06
	6.671860616412588e-04
	1.111051409140697e-04
	1.670850317408124e-01

 89	8.900000000000006e-01
	-9.552487367966928e-15
	-8.053729501756460e-18
	-5.229881001819411e-14
	4.108844833348844e-06
	6.985665372295068e-04
	1.179317651300627e-04
	1.670858618355369e-01

 90	9.000000000000006e-01
	-9.570235085577807e-15
	-8.215118499590387e-18
	-5.239177561097602e-14
	4.267486204049288e-06
	7.306683047097097e-04
	1.250756766548328e-04
	1.670867334829503e-01

 91	9.100000000000006e-01
	-9.588873981738123e-15
	-8.379644513439310e-18
	-5.248205937427621e-14
	4.430578417215871e-06
	7.634622038727641e-04
	1.325439336344756e-04
	1.670876475645202e-01

 92	9.200000000000006e-01
	-9.608379826474447e-15
	-8.547371601484902e-18
	-5.256970501780424e-14
	4.598187927602944e-06
	7.969170620241099e-04
	1.403432919938443e-04
	1.670886049006825e-01

 93	9.300000000000006e-01
	-9.628728805944308e-15
	-8.718365322210797e-18
	-5.265475610872825e-14
	4.770382608653315e-06
	8.309998716680595e-04
	1.484801862024929e-04
	1.670896062480700e-01

 94	9.400000000000006e-01
	-9.649897525355875e-15
	-8.892692774511644e-18
	-5.273725604215404e-14
	4.947232116123326e-06
	8.656759821730721e-04
	1.569607118912166e-04
	1.670906522972806e-01

 95	9.500000000000006e-01
	-9.671863011272151e-15
	-9.070422638962239e-18
	-5.281724801309876e-14
	5.128808284759035e-06
	9.009093033360416e-04
	1.657906104485355e-04
	1.670917436712542e-01

 96	9.600000000000006e-01
	-9.694602713326715e-15
	-9.251625220283445e-18
	-5.289477498993152e-14
	5.315185558811624e-06
	9.366625186267819e-04
	1.749752557049170e-04
	1.670928809242526e-01

 97	9.700000000000006e-01
	-9.718094505377388e-15
	-9.436372491044741e-18
	-5.296987968924909e-14
	5.506441457220220e-06
	9.728973057951542e-04
	1.845196427897883e-04
	1.670940645414352e-01

 98	9.800000000000006e-01
	-9.742316686124423e-15
	-9.624738136642430e-18
	-5.304260455215551e-14
	5.702657074360227e-06
	1.009574562463934e-03
	1.944283792228582e-04
	1.670952949390355e-01

 99	9.900000000000007e-01
	-9.767247979219418e-15
	-9.816797601594504e-18
	-5.311299172191189e-14
	5.903917617357492e-06
	1.046654634310849e-03
	2.047056782773365e-04
	1.670965724651598e-01

 100	1.000000000000001e+00
	-9.792867532889548e-15
	-1.001262813719765e-17
	-5.318108302292341e-14
	6.110312981107699e-06
	1.084097543462773e-03
	2.153553546287487e-04
	1.670978974011043e-01

 101	1.010000000000001e+00
	-9.819154919102753e-15
	-1.021230885059230e-17
	-5.324691994102794e-14
