Title: ** sch_path: /home/andylithia/openmpw/project-yatsuhashi-chip1/xschem/gmid_test/nmos_test.sch
Date: Sun Jul 17 22:51:45  2022
Plotname: DC transfer characteristic
Flags: real
No. Variables: 8
No. Points: 181
Variables:
	0	v(v-sweep)	voltage
	1	@m.xm1.msky130_fd_pr__nfet_01v8[cgb]	capacitance
	2	@m.xm1.msky130_fd_pr__nfet_01v8[cgd]	capacitance
	3	@m.xm1.msky130_fd_pr__nfet_01v8[cgs]	capacitance
	4	@m.xm1.msky130_fd_pr__nfet_01v8[gds]	admittance
	5	@m.xm1.msky130_fd_pr__nfet_01v8[gm]	admittance
	6	i(@m.xm1.msky130_fd_pr__nfet_01v8[id])	current
	7	v(@m.xm1.msky130_fd_pr__nfet_01v8[vth])	voltage
Values:
 0	0.000000000000000e+00
	-5.755588114190732e-15
	-1.668059915913837e-18
	-8.584039285718697e-15
	1.408553101012468e-08
	5.156806082000353e-07
	5.677760950655705e-08
	2.577569648941591e-01

 1	1.000000000000000e-02
	-5.689577921375340e-15
	-1.717719901106932e-18
	-8.735263602203535e-15
	1.538526818411684e-08
	5.641489031989434e-07
	6.217313746524062e-08
	2.577569655176105e-01

 2	2.000000000000000e-02
	-5.624170620296628e-15
	-1.768852482248722e-18
	-8.886841324980315e-15
	1.679994264870200e-08
	6.171644000568916e-07
	6.807573771343055e-08
	2.577569661996563e-01

 3	3.000000000000000e-02
	-5.559386312779310e-15
	-1.821501185797453e-18
	-9.038705128264998e-15
	1.833907131534413e-08
	6.751636883797157e-07
	7.453302988259092e-08
	2.577569669457996e-01

 4	4.000000000000000e-02
	-5.495244847447960e-15
	-1.875710862262369e-18
	-9.190787297749225e-15
	2.001287929320054e-08
	7.386280390145053e-07
	8.159721894646704e-08
	2.577569677620724e-01

 5	5.000000000000000e-02
	-5.431765774421002e-15
	-1.931527730376240e-18
	-9.343019842438022e-15
	2.183234333252211e-08
	8.080884253353759e-07
	8.932556666433070e-08
	2.577569686550905e-01

 6	6.000000000000000e-02
	-5.368968301071508e-15
	-1.988999422949022e-18
	-9.495334607241266e-15
	2.380923693389336e-08
	8.841311455333993e-07
	9.778091618706774e-08
	2.577569696321169e-01

 7	7.000000000000001e-02
	-5.306871248995870e-15
	-2.048175034473614e-18
	-9.647663385944530e-15
	2.595617708505868e-08
	9.674041144283339e-07
	1.070322761738009e-07
	2.577569707011284e-01

 8	8.000000000000000e-02
	-5.245493012326362e-15
	-2.109105170558065e-18
	-9.799938034183030e-15
	2.828667257518774e-08
	1.058623899206377e-06
	1.171554714812657e-07
	2.577569718708853e-01

 9	9.000000000000000e-02
	-5.184851517517988e-15
	-2.171841999262418e-18
	-9.952090582041992e-15
	3.081517382400397e-08
	1.158583579403017e-06
	1.282338682617511e-07
	2.577569731510237e-01

 10	9.999999999999999e-02
	-5.124964184733612e-15
	-2.236439304421440e-18
	-1.010405334590902e-14
	3.355712415033317e-08
	1.268161517271566e-06
	1.403591821378757e-07
	2.577569745521425e-01

 11	1.100000000000000e-01
	-5.065847890944209e-15
	-2.302952541038816e-18
	-1.025575903920771e-14
	3.652901239138970e-08
	1.388331130254497e-06
	1.536323790119553e-07
	2.577569760859090e-01

 12	1.200000000000000e-01
	-5.007518934853378e-15
	-2.371438892841554e-18
	-1.040714088164762e-14
	3.974842677064539e-08
	1.520171762426365e-06
	1.681646790110651e-07
	2.577569777651790e-01

 13	1.300000000000000e-01
	-4.949993003746690e-15
	-2.441957332088740e-18
	-1.055813270663464e-14
	4.323410989851570e-08
	1.664880756288685e-06
	1.840786750607637e-07
	2.577569796041188e-01

 14	1.400000000000000e-01
	-4.893285142357789e-15
	-2.514568681731343e-18
	-1.070866906649447e-14
	4.700601477647358e-08
	1.823786829917151e-06
	2.015095786130809e-07
	2.577569816183563e-01

 15	1.500000000000000e-01
	-4.837409723833527e-15
	-2.589335680026391e-18
	-1.085868533517507e-14
	5.108536166172338e-08
	1.998364866903631e-06
	2.206066061177227e-07
	2.577569838251360e-01

 16	1.600000000000000e-01
	-4.782380422870804e-15
	-2.666323047711748e-18
	-1.100811780810656e-14
	5.549469563632101e-08
	2.190252227469334e-06
	2.415345209057696e-07
	2.577569862435017e-01

 17	1.700000000000000e-01
	-4.728210191087531e-15
	-2.745597557854139e-18
	-1.115690379891327e-14
	6.025794471183670e-08
	2.401266688187355e-06
	2.644753462359283e-07
	2.577569888944912e-01

 18	1.800000000000000e-01
	-4.674911234679815e-15
	-2.827228108487241e-18
	-1.130498173268871e-14
	6.540047828836573e-08
	2.633426114534697e-06
	2.896302663135743e-07
	2.577569918013587e-01

 19	1.900000000000000e-01
	-4.622494994406912e-15
	-2.911285798163560e-18
	-1.145229123556317e-14
	7.094916577516939e-08
	2.888969964556245e-06
	3.172217331077126e-07
	2.577569949898140e-01

 20	2.000000000000000e-01
	-4.570972127934784e-15
	-2.997844004547521e-18
	-1.159877322031279e-14
	7.693243516951277e-08
	3.170382712789703e-06
	3.474957977307624e-07
	2.577569984882986e-01

 21	2.100000000000000e-01
	-4.520352494558335e-15
	-3.086978466185955e-18
	-1.174436996778012e-14
	8.338033138060484e-08
	3.480419270772559e-06
	3.807246859766050e-07
	2.577570023282785e-01

 22	2.200000000000001e-01
	-4.470645142311961e-15
	-3.178767367596129e-18
	-1.188902520389725e-14
	9.032457407702571e-08
	3.822132463406663e-06
	4.172096382936874e-07
	2.577570065445713e-01

 23	2.300000000000001e-01
	-4.421858297467190e-15
	-3.273291427819536e-18
	-1.203268417212579e-14
	9.779861482883688e-08
	4.198902598668004e-06
	4.572840349577117e-07
	2.577570111757144e-01

 24	2.400000000000001e-01
	-4.373999356406174e-15
	-3.370633992596683e-18
	-1.217529370115052e-14
	1.058376933098924e-07
	4.614469141094172e-06
	5.013168274523269e-07
	2.577570162643567e-01

 25	2.500000000000001e-01
	-4.327074879849440e-15
	-3.470881130325184e-18
	-1.231680226768743e-14
	1.144788923217773e-07
	5.072964466657660e-06
	5.497162970108911e-07
	2.577570218576968e-01

 26	2.600000000000001e-01
	-4.281090589406705e-15
	-3.574121731971102e-18
	-1.245716005429087e-14
	1.237611913986058e-07
	5.578949637583019e-06
	6.029341608582424e-07
	2.577570280079455e-01

 27	2.700000000000001e-01
	-4.236051366410155e-15
	-3.680447615111979e-18
	-1.259631900206760e-14
	1.337255187515984e-07
	6.137452089988412e-06
	6.614700458533227e-07
	2.577570347728685e-01

 28	2.800000000000001e-01
	-4.191961252980526e-15
	-3.789953632299639e-18
	-1.273423285823149e-14
	1.444148013144029e-07
	6.754005074635479e-06
	7.258763479050922e-07
	2.577570422163193e-01

 29	2.900000000000001e-01
	-4.148823455268160e-15
	-3.902737783936990e-18
	-1.287085721845352e-14
	1.558740126542872e-07
	7.434688631352047e-06
	7.967634936426633e-07
	2.577570504088726e-01

 30	3.000000000000001e-01
	-4.106640348802817e-15
	-4.018901335876773e-18
	-1.300614956398843e-14
	1.681502185214495e-07
	8.186171810850277e-06
	8.748056182979929e-07
	2.577570594284606e-01

 31	3.100000000000001e-01
	-4.065413485879343e-15
	-4.138548941955837e-18
	-1.314006929357870e-14
	1.812926198182805e-07
	9.015755783824751e-06
	9.607466705310351e-07
	2.577570693610946e-01

 32	3.200000000000001e-01
	-4.025143604898908e-15
	-4.261788771693037e-18
	-1.327257775016199e-14
	1.953525927834909e-07
	9.931417396801481e-06
	1.055406950928930e-06
	2.577570803016139e-01

 33	3.300000000000001e-01
	-3.985830641579852e-15
	-4.388732643387179e-18
	-1.340363824242747e-14
	2.103837262022402e-07
	1.094185264784112e-05
	1.159690086076184e-06
	2.577570923544955e-01

 34	3.400000000000001e-01
	-3.947473741946633e-15
	-4.519496162864351e-18
	-1.353321606128774e-14
	2.264418554735775e-07
	1.205651946384971e-05
	1.274590434369465e-06
	2.577571056347079e-01

 35	3.500000000000001e-01
	-3.910071277000477e-15
	-4.654198868136693e-18
	-1.366127849135281e-14
	2.435850933907206e-07
	1.328567906619168e-05
	1.401200913093301e-06
	2.577571202686169e-01

 36	3.600000000000002e-01
	-3.873620858971504e-15
	-4.792964380245760e-18
	-1.378779481751019e-14
	2.618738575185147e-07
	1.464043511419022e-05
	1.540721228653309e-06
	2.577571363949449e-01

 37	3.700000000000002e-01
	-3.838119359048314e-15
	-4.935920560580123e-18
	-1.391273632673374e-14
	2.813708940862635e-07
	1.613276971897754e-05
	1.694466483270878e-06
	2.577571541657541e-01

 38	3.800000000000002e-01
	-3.803562926478770e-15
	-5.083199674968290e-18
	-1.403607630525798e-14
	3.021412983533654e-07
	1.777557532545505e-05
	1.863876121888266e-06
	2.577571737474938e-01

 39	3.900000000000002e-01
	-3.769947008933183e-15
	-5.234938564866034e-18
	-1.415779003127110e-14
	3.242525314506036e-07
	1.958268137069964e-05
	2.050523172556013e-06
	2.577571953220589e-01

 40	4.000000000000002e-01
	-3.737266374020013e-15
	-5.391278825969437e-18
	-1.427785476329213e-14
	3.477744337517881e-07
	2.156887454621852e-05
	2.256123722241436e-06
	2.577572190878986e-01

 41	4.100000000000002e-01
	-3.705515131843336e-15
	-5.552366994606559e-18
	-1.439624972440964e-14
	3.727792348895571e-07
	2.374991142262009e-05
	2.482546557913186e-06
	2.577572452611185e-01

 42	4.200000000000002e-01
	-3.674686758491184e-15
	-5.718354742273282e-18
	-1.451295608257021e-14
	3.993415605958442e-07
	2.614252214239980e-05
	2.731822890059607e-06
	2.577572740766162e-01

 43	4.300000000000002e-01
	-3.644774120344277e-15
	-5.889399078701568e-18
	-1.462795692711367e-14
	4.275384366226849e-07
	2.876440385378407e-05
	3.006156062671948e-06
	2.577573057891989e-01

 44	4.400000000000002e-01
	-3.615769499095753e-15
	-6.065662563865106e-18
	-1.474123724176011e-14
	4.574492900828216e-07
	3.163420255014021e-05
	3.307931140385276e-06
	2.577573406746960e-01

 45	4.500000000000002e-01
	-3.587664617373931e-15
	-6.247313529349386e-18
	-1.485278387425917e-14
	4.891559486428544e-07
	3.477148199962150e-05
	3.639724250189338e-06
	2.577573790310362e-01

 46	4.600000000000002e-01
	-3.560450664862274e-15
	-6.434526309534495e-18
	-1.496258550291799e-14
	5.227426381045588e-07
	3.819667850253013e-05
	4.004311542201530e-06
	2.577574211792864e-01

 47	4.700000000000003e-01
	-3.534118324813069e-15
	-6.627481483061954e-18
	-1.507063260022685e-14
	5.582959790229697e-07
	4.193104030312664e-05
	4.404677621783411e-06
	2.577574674646237e-01

 48	4.800000000000003e-01
	-3.508657800854448e-15
	-6.826366125080583e-18
	-1.517691739380420e-14
	5.959049831329290e-07
	4.599655061150124e-05
	4.844023294159563e-06
	2.577575182572384e-01

 49	4.900000000000003e-01
	-3.484058843993258e-15
	-7.031374070791763e-18
	-1.528143382488389e-14
	6.356610504890927e-07
	5.041583336216324e-05
	5.325772453075394e-06
	2.577575739531242e-01

 50	5.000000000000002e-01
	-3.460310779720411e-15
	-7.242706190842197e-18
	-1.538417750456689e-14
	6.776579683676016e-07
	5.521204105071563e-05
	5.853577937336555e-06
	2.577576349747509e-01

 51	5.100000000000002e-01
	-3.437402535128768e-15
	-7.460570679137929e-18
	-1.548514566805852e-14
	7.219919131301795e-07
	6.040872424872913e-05
	6.431326173747505e-06
	2.577577017716116e-01

 52	5.200000000000002e-01
	-3.415322665958102e-15
	-7.685183353686297e-18
	-1.558433712711023e-14
	7.687614564129107e-07
	6.602968269872603e-05
	7.063140422450320e-06
	2.577577748205859e-01

 53	5.300000000000002e-01
	-3.394059383485768e-15
	-7.916767971100724e-18
	-1.568175222088129e-14
	8.180675771708083e-07
	7.209879823340059e-05
	7.753382441369428e-06
	2.577578546261363e-01

 54	5.400000000000003e-01
	-3.373600581186599e-15
	-8.155556555437547e-18
	-1.577739276543136e-14
	8.700136812846046e-07
	7.863985014162458e-05
	8.506652390785504e-06
	2.577579417202962e-01

 55	5.500000000000003e-01
	-3.353933861089750e-15
	-8.401789742069807e-18
	-1.587126200205056e-14
	9.247056306161661e-07
	8.567631401231518e-05
	9.327786807320903e-06
	2.577580366624289e-01

 56	5.600000000000003e-01
	-3.335046559765462e-15
	-8.655717137335898e-18
	-1.596336454462702e-14
	9.822517835812882e-07
	9.323114551799967e-05
	1.022185448908282e-05
	2.577581400387535e-01

 57	5.700000000000003e-01
	-3.316925773879257e-15
	-8.917597694744605e-18
	-1.605370632624600e-14
	1.042763049491732e-06
	1.013265510432934e-04
	1.119415015055911e-05
	2.577582524616021e-01

 58	5.800000000000003e-01
	-3.299558385256006e-15
	-9.187700108554538e-18
	-1.614229454520724e-14
	1.106352959099030e-06
	1.099837475081917e-04
	1.225018572715862e-05
	2.577583745684218e-01

 59	5.900000000000003e-01
	-3.282931085401109e-15
	-9.466303225590952e-18
	-1.622913761064045e-14
	1.173137753948687e-06
	1.192227141694657e-04
	1.339567923499139e-05
	2.577585070204713e-01

 60	6.000000000000003e-01
	-3.267030399431105e-15
	-9.753696476208012e-18
	-1.631424508788943e-14
	1.243236497321978e-06
	1.290619395917823e-04
	1.463654112140637e-05
	2.577586505012500e-01

 61	6.100000000000003e-01
	-3.251842709370448e-15
	-1.005018032535293e-17
	-1.639762764382869e-14
	1.316771209700943e-06
	1.395181673490959e-04
	1.597885807562737e-05
	2.577588057146167e-01

 62	6.200000000000003e-01
	-3.237354276775989e-15
	-1.035606674473732e-17
	-1.647929699226687e-14
	1.393867031837945e-06
	1.506061443318553e-04
	1.742887430608172e-05
	2.577589733826227e-01

 63	6.300000000000003e-01
	-3.223551264655566e-15
	-1.067167970717804e-17
	-1.655926583958219e-14
	1.474652418641928e-06
	1.623383757825254e-04
	1.899297033108916e-05
	2.577591542430582e-01

 64	6.400000000000003e-01
	-3.210419758651095e-15
	-1.099735570422183e-17
	-1.663754783072748e-14
	1.559259367207680e-06
	1.747248913477759e-04
	2.067763937172501e-05
	2.577593490467224e-01

 65	6.500000000000004e-01
	-3.197945787461014e-15
	-1.133344428823191e-17
	-1.671415749573232e-14
	1.647823682410934e-06
	1.877730265090243e-04
	2.248946147902211e-05
	2.577595585544245e-01

 66	6.600000000000004e-01
	-3.186115342481459e-15
	-1.168030864017513e-17
	-1.678911019682077e-14
	1.740485283569986e-06
	2.014872237245875e-04
	2.443507557124405e-05
	2.577597835337646e-01

 67	6.700000000000004e-01
	-3.174914396648764e-15
	-1.203832616441952e-17
	-1.686242207625522e-14
	1.837388555735722e-06
	2.158688574803724e-04
	2.652114959972537e-05
	2.577600247556598e-01

 68	6.800000000000004e-01
	-3.164328922470503e-15
	-1.240788911191257e-17
	-1.693411000500674e-14
	1.938682749215762e-06
	2.309160871984408e-04
	2.875434910258272e-05
	2.577602829907311e-01

 69	6.900000000000004e-01
	-3.154344909235202e-15
	-1.278940523320070e-17
	-1.700419153234465e-14
	2.044522430970736e-06
	2.466237415950340e-04
	3.114130444341071e-05
	2.577605590055084e-01

 70	7.000000000000004e-01
	-3.144948379394605e-15
	-1.318329846281433e-17
	-1.707268483642871e-14
	2.155067991542332e-06
	2.629832376158097e-04
	3.368857706573375e-05
	2.577608535585281e-01

 71	7.100000000000004e-01
	-3.136125404115626e-15
	-1.359000963663638e-17
	-1.713960867597923e-14
	2.270486211191306e-06
	2.799825365149614e-04
	3.640262512252082e-05
	2.577611673963661e-01

 72	7.200000000000004e-01
	-3.127862118001795e-15
	-1.400999724395501e-17
	-1.720498234309248e-14
	2.390950888944564e-06
	2.976061389986904e-04
	3.928976886254414e-05
	2.577615012496405e-01

 73	7.300000000000004e-01
	-3.120144732987048e-15
	-1.444373821599939e-17
	-1.726882561726062e-14
	2.516643538281740e-06
	3.158351206380440e-04
	4.235615617101139e-05
	2.577618558290259e-01

 74	7.400000000000004e-01
	-3.112959551407256e-15
	-1.489172875284825e-17
	-1.733115872064772e-14
	2.647754153241818e-06
	3.346472079901359e-04
	4.560772867010882e-05
	2.577622318213401e-01

 75	7.500000000000004e-01
	-3.106292978257148e-15
	-1.535448519071415e-17
	-1.739200227466652e-14
	2.784482048810103e-06
	3.540168950715196e-04
	4.905018878548807e-05
	2.577626298857421e-01

 76	7.600000000000005e-01
	-3.100131532642530e-15
	-1.583254491170823e-17
	-1.745137725789326e-14
	2.927036779564352e-06
	3.739155990254538e-04
	5.268896817709718e-05
	2.577630506500833e-01

 77	7.700000000000005e-01
	-3.094461858439697e-15
	-1.632646729831182e-17
	-1.750930496535138e-14
	3.075639140728782e-06
	3.943118530395300e-04
	5.652919791717842e-05
	2.577634947074654e-01

 78	7.800000000000005e-01
	-3.089270734175570e-15
	-1.683683473489963e-17
	-1.756580696918860e-14
	3.230522256016443e-06
	4.151715338245386e-04
	6.057568077499596e-05
	2.577639626130378e-01

 79	7.900000000000005e-01
	-3.084545082143846e-15
	-1.736425365878997e-17
	-1.762090508076586e-14
	3.391932756946732e-06
	4.364581202814809e-04
	6.483286593743618e-05
	2.577644548810741e-01

 80	8.000000000000005e-01
	-3.080271976773864e-15
	-1.790935566343164e-17
	-1.767462131417064e-14
	3.560132058716751e-06
	4.581329793810007e-04
	6.930482645775416e-05
	2.577649719823752e-01

 81	8.100000000000005e-01
	-3.076438652269708e-15
	-1.847279865648561e-17
	-1.772697785116296e-14
	3.735397738195224e-06
	4.801556747751580e-04
	7.399523968233274e-05
	2.577655143419975e-01

 82	8.200000000000005e-01
	-3.073032509538899e-15
	-1.905526807570008e-17
	-1.777799700755520e-14
	3.918025020206112e-06
	5.024842932686259e-04
	7.890737085841092e-05
	2.577660823373665e-01

 83	8.300000000000005e-01
	-3.070041122430075e-15
	-1.965747816564972e-17
	-1.782770120102510e-14
	4.108328378988522e-06
	5.250757840046257e-04
	8.404406007552734e-05
	2.577666762967565e-01

 84	8.400000000000005e-01
	-3.067452243300434e-15
	-2.028017331856340e-17
	-1.787611292035420e-14
	4.306643262568677e-06
	5.478863050749872e-04
	8.940771264110183e-05
	2.577672964981922e-01

 85	8.500000000000005e-01
	-3.065253807933958e-15
	-2.092412948265282e-17
	-1.792325469608180e-14
	4.513327948771652e-06
	5.708715722446770e-04
	9.500029293747809e-05
	2.577679431687211e-01

 86	8.600000000000005e-01
	-3.063433939832015e-15
	-2.159015564153031e-17
	-1.796914907256021e-14
	4.728765542742192e-06
	5.939872045849919e-04
	1.008233217550435e-04
	2.577686164841126e-01

 87	8.700000000000006e-01
	-3.061980953898390e-15
	-2.227909536850303e-17
	-1.801381858139314e-14
	4.953366127149020e-06
	6.171890620292754e-04
	1.068778770450097e-04
	2.577693165689416e-01

 88	8.800000000000006e-01
	-3.060883359540571e-15
	-2.299182845973656e-17
	-1.805728571623706e-14
	5.187569077723245e-06
	6.404335701891971e-04
	1.131645979871233e-04
	2.577700434970540e-01

 89	8.900000000000006e-01
	-3.060129863209828e-15
	-2.372927265049090e-17
	-1.809957290894156e-14
	5.431845558440920e-06
	6.636780281845644e-04
	1.196836922229759e-04
	2.577707972924024e-01

 90	9.000000000000006e-01
	-3.059709370402005e-15
	-2.449238541886124e-17
	-1.814070250700263e-14
	5.686701212514272e-06
	6.868808957293010e-04
	1.264349460655378e-04
	2.577715779302278e-01

 91	9.100000000000006e-01
	-3.059610987141257e-15
	-2.528216588169199e-17
	-1.818069675230038e-14
	5.952679067418672e-06
	7.100020562631185e-04
	1.334177374606985e-04
	2.577723853385486e-01

 92	9.200000000000006e-01
	-3.059824020968436e-15
	-2.609965678757993e-17
	-1.821957776109096e-14
	6.230362674465951e-06
	7.330030535041814e-04
	1.406310514474195e-04
	2.577732193999483e-01

 93	9.300000000000006e-01
	-3.060337981455885e-15
	-2.694594661214004e-17
	-1.825736750522012e-14
	6.520379505958335e-06
	7.558472994048317e-04
	1.480734978399389e-04
	2.577740799536256e-01

 94	9.400000000000006e-01
	-3.061142580269643e-15
	-2.782217176098692e-17
	-1.829408779452467e-14
	6.823404635737134e-06
	7.785002521024975e-04
	1.557433308383824e-04
	2.577749667976536e-01

 95	9.500000000000006e-01
	-3.062227730799788e-15
	-2.872951888616295e-17
	-1.832976026038706e-14
	7.140164731998270e-06
	8.009295630551063e-04
	1.636384702630996e-04
	2.577758796914332e-01

 96	9.600000000000006e-01
	-3.063583547379381e-15
	-2.966922732204367e-17
	-1.836440634040632e-14
	7.471442394607279e-06
	8.231051931203042e-04
	1.717565241028592e-04
	2.577768183583060e-01

 97	9.700000000000006e-01
	-3.065200344111391e-15
	-3.064259164706604e-17
	-1.839804726414866e-14
	7.818080872836175e-06
	8.449994978681094e-04
	1.800948120673762e-04
	2.577777824882716e-01

 98	9.800000000000006e-01
	-3.067068633322845e-15
	-3.165096437794562e-17
	-1.843070403993966e-14
	8.180989203492020e-06
	8.665872828971626e-04
	1.886503898400024e-04
	2.577787717407957e-01

 99	9.900000000000007e-01
	-3.069179123664482e-15
	-3.269575880338917e-17
	-1.846239744265973e-14
	8.561147813848218e-06
	8.878458303481456e-04
	1.974200737363416e-04
	2.577797857476606e-01

 100	1.000000000000001e+00
	-3.071522717873635e-15
	-3.377845196466230e-17
	-1.849314800250409e-14
	8.959614638656814e-06
	9.087548981686991e-04
	2.064004654883612e-04
	2.577808241158328e-01

 101	1.010000000000001e+00
	-3.074090510217322e-15
	-3.490058779073629e-17
	-1.852297599466816e-14
