Title: ** sch_path: /home/andylithia/openmpw/project-yatsuhashi-chip1/xschem/gmid_test/nmos_test.sch
Date: Sun Jul 17 22:51:45  2022
Plotname: DC transfer characteristic
Flags: real
No. Variables: 8
No. Points: 181
Variables:
	0	v(v-sweep)	voltage
	1	@m.xm1.msky130_fd_pr__nfet_01v8[cgb]	capacitance
	2	@m.xm1.msky130_fd_pr__nfet_01v8[cgd]	capacitance
	3	@m.xm1.msky130_fd_pr__nfet_01v8[cgs]	capacitance
	4	@m.xm1.msky130_fd_pr__nfet_01v8[gds]	admittance
	5	@m.xm1.msky130_fd_pr__nfet_01v8[gm]	admittance
	6	i(@m.xm1.msky130_fd_pr__nfet_01v8[id])	current
	7	v(@m.xm1.msky130_fd_pr__nfet_01v8[vth])	voltage
Values:
 0	0.000000000000000e+00
	-3.948473510955975e-15
	-7.000061570530903e-19
	-4.489835332017464e-15
	6.872319945385948e-09
	2.831862650175703e-07
	2.719168076811851e-08
	3.147758311190535e-01

 1	1.000000000000000e-02
	-3.903086300437421e-15
	-7.231065740946370e-19
	-4.590940606163462e-15
	7.614325112955995e-09
	3.138054248422500e-07
	3.017405320211201e-08
	3.147758314528700e-01

 2	2.000000000000000e-02
	-3.857925583268454e-15
	-7.469520733016577e-19
	-4.692791653831741e-15
	8.433888325976974e-09
	3.476898359082558e-07
	3.347866881900058e-08
	3.147758318227533e-01

 3	3.000000000000000e-02
	-3.813009277139781e-15
	-7.715656210452899e-19
	-4.795335726308883e-15
	9.338714322923615e-09
	3.851866621278828e-07
	3.713988605854717e-08
	3.147758322325527e-01

 4	4.000000000000000e-02
	-3.768355437517877e-15
	-7.969708639842719e-19
	-4.898518775185575e-15
	1.033721207424111e-08
	4.266809808538954e-07
	4.119572106278705e-08
	3.147758326865210e-01

 5	5.000000000000000e-02
	-3.723982207798221e-15
	-8.231921502120970e-19
	-5.002285558877062e-15
	1.143855020476927e-08
	4.726002527280153e-07
	4.568824870064067e-08
	3.147758331893697e-01

 6	6.000000000000000e-02
	-3.679907769099968e-15
	-8.502545512027789e-19
	-5.106579753790367e-15
	1.265271552350238e-08
	5.234193791074355e-07
	5.066405116453693e-08
	3.147758337463127e-01

 7	7.000000000000001e-02
	-3.636150289913068e-15
	-8.781838845903604e-19
	-5.211344069698776e-15
	1.399057466260205e-08
	5.796664289656246e-07
	5.617472041599028e-08
	3.147758343631233e-01

 8	8.000000000000000e-02
	-3.592727875811785e-15
	-9.070067378191510e-19
	-5.316520368856684e-15
	1.546393880020970e-08
	6.419291274762191e-07
	6.227742162693796e-08
	3.147758350462009e-01

 9	9.000000000000000e-02
	-3.549658519450108e-15
	-9.367504927033095e-19
	-5.422049788362706e-15
	1.708563141087917e-08
	7.108622095500948e-07
	6.903552574044873e-08
	3.147758358026398e-01

 10	9.999999999999999e-02
	-3.506960051054507e-15
	-9.674433509359200e-19
	-5.527872865257134e-15
	1.886955895334718e-08
	7.871957532916211e-07
	7.651932036509502e-08
	3.147758366403091e-01

 11	1.100000000000000e-01
	-3.464650089627950e-15
	-9.991143605895220e-19
	-5.633929663821389e-15
	2.083078436795570e-08
	8.717446204975771e-07
	8.480680942742854e-08
	3.147758375679366e-01

 12	1.200000000000000e-01
	-3.422745995075833e-15
	-1.031793443652019e-18
	-5.740159904532295e-15
	2.298560321544050e-08
	9.654191436947366e-07
	9.398461333998276e-08
	3.147758385952201e-01

 13	1.300000000000000e-01
	-3.381264821459885e-15
	-1.065511424643933e-18
	-5.846503094113501e-15
	2.535162224523686e-08
	1.069237211470203e-06
	1.041489828987491e-07
	3.147758397329358e-01

 14	1.400000000000000e-01
	-3.340223271579680e-15
	-1.100300060364527e-18
	-5.952898656119123e-15
	2.794784013517749e-08
	1.184337915561269e-06
	1.154069417007500e-07
	3.147758409930616e-01

 15	1.500000000000000e-01
	-3.299637653074008e-15
	-1.136192070817077e-18
	-6.059286061481500e-15
	3.079473009587962e-08
	1.311996933799457e-06
	1.278775735612608e-07
	3.147758423889291e-01

 16	1.600000000000000e-01
	-3.259523836224829e-15
	-1.173221171365369e-18
	-6.165604958456894e-15
	3.391432398269060e-08
	1.453643831881241e-06
	1.416934731972893e-07
	3.147758439353796e-01

 17	1.700000000000000e-01
	-3.219897213636614e-15
	-1.211422106175737e-18
	-6.271795301407135e-15
	3.733029750634539e-08
	1.610881473266348e-06
	1.570023803076628e-07
	3.147758456489524e-01

 18	1.800000000000000e-01
	-3.180772661951748e-15
	-1.250830683002086e-18
	-6.377797477865481e-15
	4.106805608115124e-08
	1.785507729344362e-06
	1.739690190905500e-07
	3.147758475480882e-01

 19	1.900000000000000e-01
	-3.142164505750289e-15
	-1.291483809372885e-18
	-6.483552433347295e-15
	4.515482079729259e-08
	1.979539680275663e-06
	1.927771671561232e-07
	3.147758496533599e-01

 20	2.000000000000000e-01
	-3.104086483768547e-15
	-1.333419530242589e-18
	-6.589001793383389e-15
	4.961971395256958e-08
	2.195240489378223e-06
	2.136319796636829e-07
	3.147758519877313e-01

 21	2.100000000000000e-01
	-3.066551717556152e-15
	-1.376677067172391e-18
	-6.694087982274537e-15
	5.449384352946410e-08
	2.435149119239816e-06
	2.367625962741614e-07
	3.147758545768575e-01

 22	2.200000000000001e-01
	-3.029572682676314e-15
	-1.421296859108117e-18
	-6.798754338089518e-15
	5.981038595684572e-08
	2.702113034418334e-06
	2.624250600817723e-07
	3.147758574494018e-01

 23	2.300000000000001e-01
	-2.993161182537766e-15
	-1.467320604826353e-18
	-6.902945223456019e-15
	6.560466645286960e-08
	2.999324002100467e-06
	2.909055789784695e-07
	3.147758606374041e-01

 24	2.400000000000001e-01
	-2.957328324930763e-15
	-1.514791307122836e-18
	-7.006606131723938e-15
	7.191423620783563e-08
	3.330357056839030e-06
	3.225241608025030e-07
	3.147758641766897e-01

 25	2.500000000000001e-01
	-2.922084501322922e-15
	-1.563753318820719e-18
	-7.109683788113053e-15
	7.877894563396497e-08
	3.699212636916287e-06
	3.576386540019349e-07
	3.147758681073202e-01

 26	2.600000000000001e-01
	-2.887439368953830e-15
	-1.614252390679850e-18
	-7.212126245491796e-15
	8.624101288439013e-08
	4.110361826518376e-06
	3.966492252649507e-07
	3.147758724740985e-01

 27	2.700000000000001e-01
	-2.853401835750883e-15
	-1.666335721291749e-18
	-7.313882974470805e-15
	9.434508682723065e-08
	4.568794548475897e-06
	4.400033044767932e-07
	3.147758773271183e-01

 28	2.800000000000001e-01
	-2.819980048072273e-15
	-1.720052009049197e-18
	-7.414904947532682e-15
	1.031383036534523e-07
	5.080070445835658e-06
	4.882010252918189e-07
	3.147758827223707e-01

 29	2.900000000000001e-01
	-2.787181381266836e-15
	-1.775451506282798e-18
	-7.515144716959008e-15
	1.126703363004262e-07
	5.650372066411273e-06
	5.418011863851349e-07
	3.147758887224197e-01

 30	3.000000000000001e-01
	-2.755012433024836e-15
	-1.832586075662350e-18
	-7.614556486356073e-15
	1.229934358876288e-07
	6.286559822690247e-06
	6.014277538943866e-07
	3.147758953971260e-01

 31	3.100000000000001e-01
	-2.723479019478703e-15
	-1.891509248963846e-18
	-7.713096175620764e-15
	1.341624643876660e-07
	6.996228040721233e-06
	6.677769195044380e-07
	3.147759028244391e-01

 32	3.200000000000001e-01
	-2.692586173998273e-15
	-1.952276288309265e-18
	-7.810721479229021e-15
	1.462349177956650e-07
	7.787761237383154e-06
	7.416247209034126e-07
	3.147759110912487e-01

 33	3.300000000000001e-01
	-2.662338148611580e-15
	-2.014944249989870e-18
	-7.907391917769520e-15
	1.592709391137184e-07
	8.670389578240049e-06
	8.238352218041719e-07
	3.147759202942996e-01

 34	3.400000000000001e-01
	-2.632738417969577e-15
	-2.079572050990157e-18
	-8.003068882684562e-15
	1.733333205351803e-07
	9.654242271626117e-06
	9.153692372685174e-07
	3.147759305411743e-01

 35	3.500000000000001e-01
	-2.603789685761415e-15
	-2.146220538334411e-18
	-8.097715674219167e-15
	1.884874942967135e-07
	1.075039745351933e-05
	1.017293576621621e-06
	3.147759419513265e-01

 36	3.600000000000002e-01
	-2.575493893476384e-15
	-2.214952561383885e-18
	-8.191297532616419e-15
	2.048015117643882e-07
	1.197092691827443e-05
	1.130790760785521e-06
	3.147759546571657e-01

 37	3.700000000000002e-01
	-2.547852231399118e-15
	-2.285833047218765e-18
	-8.283781662632787e-15
	2.223460104341435e-07
	1.332893385983822e-05
	1.257169153445196e-06
	3.147759688051987e-01

 38	3.800000000000002e-01
	-2.520865151716193e-15
	-2.358929079245179e-18
	-8.375137251481463e-15
	2.411941686565580e-07
	1.483858161537338e-05
	1.397873426222167e-06
	3.147759845571933e-01

 39	3.900000000000002e-01
	-2.494532383605175e-15
	-2.434309979175096e-18
	-8.465335480343190e-15
	2.614216480409273e-07
	1.651511125811191e-05
	1.554495257193430e-06
	3.147760020913866e-01

 40	4.000000000000002e-01
	-2.468852950171215e-15
	-2.512047392532665e-18
	-8.554349529614103e-15
	2.831065236539446e-07
	1.837484577954590e-05
	1.728784139989418e-06
	3.147760216036882e-01

 41	4.100000000000002e-01
	-2.443825187091302e-15
	-2.592215377849583e-18
	-8.642154578087076e-15
	3.063292023028490e-07
	2.043517854410287e-05
	1.922658157770921e-06
	3.147760433088926e-01

 42	4.200000000000002e-01
	-2.419446762822867e-15
	-2.674890499718796e-18
	-8.728727796288236e-15
	3.311723293812399e-07
	2.271454370386421e-05
	2.138214553181154e-06
	3.147760674418570e-01

 43	4.300000000000002e-01
	-2.395714700230823e-15
	-2.760151925884337e-18
	-8.814048334211896e-15
	3.577206849561532e-07
	2.523236633787167e-05
	2.377739902561944e-06
	3.147760942586478e-01

 44	4.400000000000002e-01
	-2.372625399485785e-15
	-2.848081528554204e-18
	-8.898097303717271e-15
	3.860610699862122e-07
	2.800899024045056e-05
	2.643719681094906e-06
	3.147761240376101e-01

 45	4.500000000000002e-01
	-2.350174662085949e-15
	-2.938763990131858e-18
	-8.980857755866735e-15
	4.162821837802728e-07
	3.106558153434314e-05
	2.938846985950059e-06
	3.147761570803429e-01

 46	4.600000000000002e-01
	-2.328357715855751e-15
	-3.032286913571448e-18
	-9.062314653499598e-15
	4.484744940316051e-07
	3.442400663351574e-05
	3.266030167946176e-06
	3.147761937125538e-01

 47	4.700000000000003e-01
	-2.307169240776247e-15
	-3.128740937572479e-18
	-9.142454839346775e-15
	4.827301009912781e-07
	3.810668353029158e-05
	3.628399109644395e-06
	3.147762342847666e-01

 48	4.800000000000003e-01
	-2.286603395504514e-15
	-3.228219856839459e-18
	-9.221267000000673e-15
	5.191425975723300e-07
	4.213640593106521e-05
	4.029309880215258e-06
	3.147762791728351e-01

 49	4.900000000000003e-01
	-2.266653844442984e-15
	-3.330820747643922e-18
	-9.298741626060514e-15
	5.578069273994204e-07
	4.653614040881721e-05
	4.472347495814390e-06
	3.147763287782613e-01

 50	5.000000000000002e-01
	-2.247313785223500e-15
	-3.436644098938050e-18
	-9.374870968777669e-15
	5.988192430326625e-07
	5.132879746846794e-05
	4.961326519471452e-06
	3.147763835282522e-01

 51	5.100000000000002e-01
	-2.228575976475890e-15
	-3.545793949280057e-18
	-9.449648993526349e-15
	6.422767667936184e-07
	5.653697821689678e-05
	5.500289247399858e-06
	3.147764438755214e-01

 52	5.200000000000002e-01
	-2.210432765756099e-15
	-3.658378029847112e-18
	-9.523071330424902e-15
	6.882776568012688e-07
	6.218269917203764e-05
	6.093501249755340e-06
	3.147765102977917e-01

 53	5.300000000000002e-01
	-2.192876117514703e-15
	-3.774507913822456e-18
	-9.595135222429901e-15
	7.369208809800793e-07
	6.828709860852717e-05
	6.745444063545263e-06
	3.147765832969634e-01

 54	5.400000000000003e-01
	-2.175897640993238e-15
	-3.894299172460388e-18
	-9.665839471220104e-15
	7.883061019253873e-07
	7.487012869023081e-05
	7.460804873672055e-06
	3.147766633979711e-01

 55	5.500000000000003e-01
	-2.159488617941945e-15
	-4.017871538146297e-18
	-9.735184381181922e-15
	8.425335755982932e-07
	8.195023844855252e-05
	8.244463064718883e-06
	3.147767511472699e-01

 56	5.600000000000003e-01
	-2.143640030059826e-15
	-4.145349074786544e-18
	-9.803171701799019e-15
	8.997040668670246e-07
	8.954405339348706e-05
	9.101473580419570e-06
	3.147768471109674e-01

 57	5.700000000000003e-01
	-2.128342586064844e-15
	-4.276860355878743e-18
	-9.869804568739653e-15
	9.599187849108472e-07
	9.766605815541388e-05
	1.003704708881771e-05
	3.147769518726017e-01

 58	5.800000000000003e-01
	-2.113586748309229e-15
	-4.412538650632316e-18
	-9.935087443924997e-15
	1.023279341451947e-06
	1.063282890145333e-04
	1.105652701755943e-05
	3.147770660305726e-01

 59	5.900000000000003e-01
	-2.099362758862363e-15
	-4.552522118528027e-18
	-9.999026054849534e-15
	1.089887734678487e-06
	1.155400434500344e-04
	1.216536359389558e-05
	3.147771901952266e-01

 60	6.000000000000003e-01
	-2.085660664990630e-15
	-4.696954012724831e-18
	-1.006162733341244e-14
	1.159846361567261e-06
	1.253076139064856e-04
	1.336908509581746e-05
	3.147773249856387e-01

 61	6.100000000000003e-01
	-2.072470343971310e-15
	-4.845982892744984e-18
	-1.012289935450529e-14
	1.233258061108393e-06
	1.356340528119386e-04
	1.467326659211954e-05
	3.147774710261061e-01

 62	6.200000000000003e-01
	-2.059781527184179e-15
	-4.999762846890151e-18
	-1.018285127458785e-14
	1.310226190680139e-06
	1.465189754811861e-04
	1.608349651772713e-05
	3.147776289424136e-01

 63	6.300000000000003e-01
	-2.047583823431872e-15
	-5.158453724866616e-18
	-1.024149327046918e-14
	1.390854737524220e-06
	1.579584068991395e-04
	1.760534149396310e-05
	3.147777993578803e-01

 64	6.400000000000003e-01
	-2.035866741446527e-15
	-5.322221381121106e-18
	-1.029883647849700e-14
	1.475248466937787e-06
	1.699446775148468e-04
	1.924430985922329e-05
	3.147779828892864e-01

 65	6.500000000000004e-01
	-2.024619711546862e-15
	-5.491237929418445e-18
	-1.035489293434348e-14
	1.563513108436622e-06
	1.824663721087332e-04
	2.100581442163765e-05
	3.147781801426965e-01

 66	6.600000000000004e-01
	-2.013832106416155e-15
	-5.665682009219089e-18
	-1.040967551356071e-14
	1.655755580764987e-06
	1.955083345568279e-04
	2.289513497982000e-05
	3.147783917092648e-01

 67	6.700000000000004e-01
	-2.003493260977459e-15
	-5.845739064444681e-18
	-1.046319787306475e-14
	1.752084256243271e-06
	2.090517299478881e-04
	2.491738117926189e-05
	3.147786181610768e-01

 68	6.800000000000004e-01
	-1.993592491348155e-15
	-6.031601635253226e-18
	-1.051547439369266e-14
	1.852609264567157e-06
	2.230741640612305e-04
	2.707745627924505e-05
	3.147788600470973e-01

 69	6.900000000000004e-01
	-1.984119112861246e-15
	-6.223469663478945e-18
	-1.056652012396225e-14
	1.957442835814612e-06
	2.375498587384156e-04
	2.938002239780080e-05
	3.147791178892712e-01

 70	7.000000000000004e-01
	-1.975062457145884e-15
	-6.421550812424997e-18
	-1.061635072515118e-14
	2.066699682092117e-06
	2.524498802363340e-04
	3.182946778024421e-05
	3.147793921788740e-01

 71	7.100000000000004e-01
	-1.966411888264228e-15
	-6.626060801740254e-18
	-1.066498241779769e-14
	2.180497416971607e-06
	2.677424162876350e-04
	3.442987660073568e-05
	3.147796833731203e-01

 72	7.200000000000004e-01
	-1.958156817906183e-15
	-6.837223758145156e-18
	-1.071243192971284e-14
	2.298957011644357e-06
	2.833930963678036e-04
	3.718500175725332e-05
	3.147799918921274e-01

 73	7.300000000000004e-01
	-1.950286719647461e-15
	-7.055272582818598e-18
	-1.075871644558129e-14
	2.422203286557580e-06
	2.993653486215279e-04
	4.009824105990693e-05
	3.147803181162498e-01

 74	7.400000000000004e-01
	-1.942791142280179e-15
	-7.280449336299655e-18
	-1.080385355821554e-14
	2.550365437209687e-06
	3.156207860703945e-04
	4.317261714265390e-05
	3.147806623838303e-01

 75	7.500000000000004e-01
	-1.935659722228459e-15
	-7.513005641803554e-18
	-1.084786122151747e-14
	2.683577592765803e-06
	3.321196141355349e-04
	4.641076135150444e-05
	3.147810249894038e-01

 76	7.600000000000005e-01
	-1.928882195064500e-15
	-7.753203107904921e-18
	-1.089075770518967e-14
	2.821979406218661e-06
	3.488210511774226e-04
	4.981490178074144e-05
	3.147814061823488e-01

 77	7.700000000000005e-01
	-1.922448406143389e-15
	-8.001313771587812e-18
	-1.093256155122905e-14
	2.965716674959517e-06
	3.656837536835807e-04
	5.338685554509687e-05
	3.147818061660376e-01

 78	7.800000000000005e-01
	-1.916348320377070e-15
	-8.257620562721355e-18
	-1.097329153222572e-14
	3.114941990838650e-06
	3.826662379157457e-04
	5.712802529284256e-05
	3.147822250974315e-01

 79	7.900000000000005e-01
	-1.910572031170159e-15
	-8.522417791073584e-18
	-1.101296661148056e-14
	3.269815419077313e-06
	3.997272902422250e-04
	6.103939988473406e-05
	3.147826630871734e-01

 80	8.000000000000005e-01
	-1.905109768542002e-15
	-8.796011657040235e-18
	-1.105160590494725e-14
	3.430505205739922e-06
	4.168263590021757e-04
	6.512155908898931e-05
	3.147831202001020e-01

 81	8.100000000000005e-01
	-1.899951906460799e-15
	-9.078720787327110e-18
	-1.108922864499597e-14
	3.597188513874751e-06
	4.339239215417094e-04
	6.937468207478565e-05
	3.147835964562054e-01

 82	8.200000000000005e-01
	-1.895088969417085e-15
	-9.370876796892230e-18
	-1.112585414598942e-14
	3.770052188878633e-06
	4.509818209888097e-04
	7.379855942774938e-05
	3.147840918319706e-01

 83	8.300000000000005e-01
	-1.890511638264580e-15
	-9.672824878525728e-18
	-1.116150177165495e-14
	3.949293554124589e-06
	4.679635683533882e-04
	7.839260836164859e-05
	3.147846062620792e-01

 84	8.400000000000005e-01
	-1.886210755357436e-15
	-9.984924421520450e-18
	-1.119619090423084e-14
	4.135121238403501e-06
	4.848346066088855e-04
	8.315589076173396e-05
	3.147851396414356e-01

 85	8.500000000000005e-01
	-1.882177329013360e-15
	-1.030754966096469e-17
	-1.122994091535907e-14
	4.327756037263651e-06
	5.015625344926129e-04
	8.808713366719796e-05
	3.147856918274525e-01

 86	8.600000000000005e-01
	-1.878402537332424e-15
	-1.064109035927061e-17
	-1.126277113869249e-14
	4.527431810877722e-06
	5.181172888167214e-04
	9.318475178294798e-05
	3.147862626425696e-01

 87	8.700000000000006e-01
	-1.874877731401687e-15
	-1.098595252164231e-17
	-1.129470084417991e-14
	4.734396421620088e-06
	5.344712850782815e-04
	9.844687160389630e-05
	3.147868518769626e-01

 88	8.800000000000006e-01
	-1.871594437915584e-15
	-1.134255914727777e-17
	-1.132574921398871e-14
	4.948912715094615e-06
	5.505995170690013e-04
	1.038713567375549e-04
	3.147874592913691e-01

 89	8.900000000000006e-01
	-1.868544361242015e-15
	-1.171135101819533e-17
	-1.135593532002170e-14
	5.171259548909489e-06
	5.664796169920203e-04
	1.094558340218800e-04
	3.147880846200159e-01

 90	9.000000000000006e-01
	-1.865719384963795e-15
	-1.209278752768162e-17
	-1.138527810298175e-14
	5.401732874052877e-06
	5.820918782811449e-04
	1.151977200539782e-04
	3.147887275735889e-01

 91	9.100000000000006e-01
	-1.863111572924618e-15
	-1.248734755046098e-17
	-1.141379635293593e-14
	5.640646874279765e-06
	5.974192438786077e-04
	1.210942477701801e-04
	3.147893878422074e-01

 92	9.200000000000006e-01
	-1.860713169808189e-15
	-1.289553035680371e-17
	-1.144150869132855e-14
	5.888335169478764e-06
	6.124472631585851e-04
	1.271424927478342e-04
	3.147900650983719e-01

 93	9.300000000000006e-01
	-1.858516601278706e-15
	-1.331785657290927e-17
	-1.146843355439109e-14
	6.145152089551966e-06
	6.271640209879189e-04
	1.333393989326956e-04
	3.147907589998358e-01

 94	9.400000000000006e-01
	-1.856514473709938e-15
	-1.375486919002341e-17
	-1.149458917789630e-14
	6.411474025914367e-06
	6.415600425992816e-04
	1.396818035317147e-04
	3.147914691924047e-01

 95	9.500000000000006e-01
	-1.854699573529584e-15
	-1.420713462488569e-17
	-1.151999358320218e-14
	6.687700868309370e-06
	6.556281780256531e-04
	1.461664608482652e-04
	3.147921953126029e-01

 96	9.600000000000006e-01
	-1.853064866204442e-15
	-1.467524383423792e-17
	-1.154466456453198e-14
	6.974257535247647e-06
	6.693634698205067e-04
	1.527900648742860e-04
	3.147929369901886e-01

 97	9.700000000000006e-01
	-1.851603494891548e-15
	-1.515981348627299e-17
	-1.156861967743534e-14
	7.271595607015288e-06
	6.827630076794654e-04
	1.595492704905505e-04
	3.147936938505478e-01

 98	9.800000000000006e-01
	-1.850308778778879e-15
	-1.566148719205431e-17
	-1.159187622837625e-14
	7.580195070875062e-06
	6.958257734013636e-04
	1.664407131616423e-04
	3.147944655168877e-01

 99	9.900000000000007e-01
	-1.849174211138748e-15
	-1.618093680010050e-17
	-1.161445126539371e-14
	7.900566188801471e-06
	7.085524793935799e-04
	1.734610270454092e-04
	3.147952516122705e-01

 100	1.000000000000001e+00
	-1.848193457115653e-15
	-1.671886375749360e-17
	-1.163636156978138e-14
	8.233251498862101e-06
	7.209454036531224e-04
	1.806068614673922e-04
	3.147960517614526e-01

 101	1.010000000000001e+00
	-1.847360351269637e-15
	-1.727600054104789e-17
	-1.165762364873321e-14
