Title: ** sch_path: /home/andylithia/openmpw/project-yatsuhashi-chip1/xschem/gmid_test/nmos_test.sch
Date: Tue Jul 19 23:15:45  2022
Plotname: DC transfer characteristic
Flags: real
No. Variables: 8
No. Points: 181
Variables:
	0	v(v-sweep)	voltage
	1	@m.xm1.msky130_fd_pr__nfet_01v8[cgb]	capacitance
	2	@m.xm1.msky130_fd_pr__nfet_01v8[cgd]	capacitance
	3	@m.xm1.msky130_fd_pr__nfet_01v8[cgs]	capacitance
	4	@m.xm1.msky130_fd_pr__nfet_01v8[gds]	admittance
	5	@m.xm1.msky130_fd_pr__nfet_01v8[gm]	admittance
	6	i(@m.xm1.msky130_fd_pr__nfet_01v8[id])	current
	7	v(@m.xm1.msky130_fd_pr__nfet_01v8[vth])	voltage
Values:
 0	0.000000000000000e+00
	-3.938253624390721e-15
	-3.236627110747524e-20
	-4.367358315776713e-15
	1.941807900113923e-08
	8.831462085395352e-07
	8.897654106479748e-08
	3.302370291563232e-01

 1	1.000000000000000e-02
	-3.895392063758575e-15
	-3.479231246938374e-20
	-4.461768239554119e-15
	2.141975161033756e-08
	9.736581493439540e-07
	9.825333959074456e-08
	3.302370299097184e-01

 2	2.000000000000000e-02
	-3.852777240872613e-15
	-3.732842971114899e-20
	-4.556850079054938e-15
	2.362154577430606e-08
	1.073255809681497e-06
	1.084799733080061e-07
	3.302370307404069e-01

 3	3.000000000000000e-02
	-3.810424326082127e-15
	-3.997742345691532e-20
	-4.652558972678819e-15
	2.604253379130082e-08
	1.182835249121550e-06
	1.197517093871233e-07
	3.302370316561763e-01

 4	4.000000000000000e-02
	-3.768348608451843e-15
	-4.274208927198693e-20
	-4.748848964953486e-15
	2.870346909603321e-08
	1.303381009751055e-06
	1.321732107403199e-07
	3.302370326655861e-01

 5	5.000000000000000e-02
	-3.726565455834764e-15
	-4.562521527538549e-20
	-4.845673087460101e-15
	3.162691520865133e-08
	1.435975289756895e-06
	1.458594658750964e-07
	3.302370337780505e-01

 6	6.000000000000000e-02
	-3.685090274670759e-15
	-4.862957984398302e-20
	-4.942983443372144e-15
	3.483738195905621e-08
	1.581808180382890e-06
	1.609368156910274e-07
	3.302370350039205e-01

 7	7.000000000000001e-02
	-3.643938469661021e-15
	-5.175794942019043e-20
	-5.040731295312724e-15
	3.836146904545175e-08
	1.742189104393549e-06
	1.775440885297780e-07
	3.302370363545832e-01

 8	8.000000000000000e-02
	-3.603125403470965e-15
	-5.501307643482261e-20
	-5.138867156215157e-15
	4.222801693216095e-08
	1.918559611922959e-06
	1.958338562569797e-07
	3.302370378425697e-01

 9	9.000000000000000e-02
	-3.562666356615819e-15
	-5.839769735647071e-20
	-5.237340882853359e-15
	4.646826503021572e-08
	2.112507709002809e-06
	2.159738258090328e-07
	3.302370394816626e-01

 10	9.999999999999999e-02
	-3.522576487683498e-15
	-6.191453087780635e-20
	-5.336101771691482e-15
	5.111601703468218e-08
	2.325783915106698e-06
	2.381483824945227e-07
	3.302370412870458e-01

 11	1.100000000000000e-01
	-3.482870794049036e-15
	-6.556627624904668e-20
	-5.435098656689065e-15
	5.620781321496469e-08
	2.560319268616746e-06
	2.625603034150780e-07
	3.302370432754315e-01

 12	1.200000000000000e-01
	-3.443564073233287e-15
	-6.935561176778032e-20
	-5.534280008684009e-15
	6.178310936807625e-08
	2.818245523015699e-06
	2.894326616775904e-07
	3.302370454652405e-01

 13	1.300000000000000e-01
	-3.404670885055939e-15
	-7.328519343385334e-20
	-5.633594035967772e-15
	6.788446205023257e-08
	3.101917801552340e-06
	3.190109446219159e-07
	3.302370478767692e-01

 14	1.400000000000000e-01
	-3.366205514729604e-15
	-7.735765377699199e-20
	-5.732988785657801e-15
	7.455771959888918e-08
	3.413940003695348e-06
	3.515654120926518e-07
	3.302370505324103e-01

 15	1.500000000000000e-01
	-3.328181937036837e-15
	-8.157560086427184e-20
	-5.832412245469253e-15
	8.185221834592126e-08
	3.757193282333373e-06
	3.873937238452529e-07
	3.302370534568645e-01

 16	1.600000000000000e-01
	-3.290613781726902e-15
	-8.594161749326545e-20
	-5.931812445483804e-15
	8.982098330304697e-08
	4.134867935658841e-06
	4.268238684914542e-07
	3.302370566774112e-01

 17	1.700000000000000e-01
	-3.253514300262083e-15
	-9.045826057614227e-20
	-6.031137559515557e-15
	9.852093247355262e-08
	4.550499081083565e-06
	4.702174299471531e-07
	3.302370602241839e-01

 18	1.800000000000000e-01
	-3.216896334036771e-15
	-9.512806071876643e-20
	-6.130336005675250e-15
	1.080130838101790e-07
	5.008006499229772e-06
	5.179732311248537e-07
	3.302370641304936e-01

 19	1.900000000000000e-01
	-3.180772284183883e-15
	-9.995352199799664e-20
	-6.229356545740501e-15
	1.183627636986844e-07
	5.511739052661716e-06
	5.705313985799806e-07
	3.302370684331933e-01

 20	2.000000000000000e-01
	-3.145154083074659e-15
	-1.049371219393004e-19
	-6.328148382947794e-15
	1.296398157008781e-07
	6.066524094939333e-06
	6.283778959264050e-07
	3.302370731730762e-01

 21	2.100000000000000e-01
	-3.110053167608341e-15
	-1.100813116958796e-19
	-6.426661257831828e-15
	1.419188081409392e-07
	6.677722288896007e-06
	6.920495780151773e-07
	3.302370783953329e-01

 22	2.200000000000001e-01
	-3.075480454378243e-15
	-1.153885164294484e-19
	-6.524845541751508e-15
	1.552792389659428e-07
	7.351288246603008e-06
	7.621398220355095e-07
	3.302370841500488e-01

 23	2.300000000000001e-01
	-3.041446316790058e-15
	-1.208611358918141e-19
	-6.622652327756320e-15
	1.698057361570294e-07
	8.093837384841218e-06
	8.393047957382247e-07
	3.302370904927818e-01

 24	2.400000000000001e-01
	-3.007960564197433e-15
	-1.265015452055407e-19
	-6.720033518464720e-15
	1.855882518133625e-07
	8.912719356369809e-06
	9.242704267647618e-07
	3.302370974851929e-01

 25	2.500000000000001e-01
	-2.975032423108565e-15
	-1.323120958408812e-19
	-6.816941910645012e-15
	2.027222478785708e-07
	9.816098365934954e-06
	1.017840140425096e-06
	3.302371051957510e-01

 26	2.600000000000001e-01
	-2.942670520506063e-15
	-1.382951167854164e-19
	-6.913331276210329e-15
	2.213088713307883e-07
	1.081304060770393e-05
	1.120903436012423e-06
	3.302371137005273e-01

 27	2.700000000000001e-01
	-2.910882869310883e-15
	-1.444529159019223e-19
	-7.009156439361813e-15
	2.414551165148982e-07
	1.191360896443871e-05
	1.234445373646367e-06
	3.302371230840845e-01

 28	2.800000000000001e-01
	-2.879676856009367e-15
	-1.507877814691266e-19
	-7.104373349638647e-15
	2.632739721613826e-07
	1.312896498500932e-05
	1.359557044441962e-06
	3.302371334404385e-01

 29	2.900000000000001e-01
	-2.849059230451169e-15
	-1.573019838993606e-19
	-7.198939150657566e-15
	2.868845505125940e-07
	1.447147800266653e-05
	1.497447096218706e-06
	3.302371448741694e-01

 30	3.000000000000001e-01
	-2.819036097814282e-15
	-1.639977776264080e-19
	-7.292812244352071e-15
	3.124121958673913e-07
	1.595484106899889e-05
	1.649454384676109e-06
	3.302371575016073e-01

 31	3.100000000000001e-01
	-2.789612912722482e-15
	-1.708774031560857e-19
	-7.385952350546949e-15
	3.399885697608883e-07
	1.759419315521490e-05
	1.817061815618555e-06
	3.302371714521804e-01

 32	3.200000000000001e-01
	-2.760794475489665e-15
	-1.779430892718394e-19
	-7.478320561732120e-15
	3.697517099213766e-07
	1.940624681156288e-05
	2.001911437051313e-06
	3.302371868698679e-01

 33	3.300000000000001e-01
	-2.732584930455379e-15
	-1.851970553867405e-19
	-7.569879392926490e-15
	4.018460600933338e-07
	2.140942017635946e-05
	2.205820830403992e-06
	3.302372039148156e-01

 34	3.400000000000001e-01
	-2.704987766365896e-15
	-1.926415140332562e-19
	-7.660592826550609e-15
	4.364224677878419e-07
	2.362397188849891e-05
	2.430800837387914e-06
	3.302372227650969e-01

 35	3.500000000000001e-01
	-2.678005818746085e-15
	-2.002786734815325e-19
	-7.750426352253950e-15
	4.736381470222294e-07
	2.607213708306738e-05
	2.679074642679759e-06
	3.302372436186358e-01

 36	3.600000000000002e-01
	-2.651641274198586e-15
	-2.081107404769699e-19
	-7.839347001669815e-15
	5.136566031430164e-07
	2.877826224216055e-05
	2.953098212396938e-06
	3.302372666952835e-01

 37	3.700000000000002e-01
	-2.625895676558930e-15
	-2.161399230872754e-19
	-7.927323378096882e-15
	5.566475168933213e-07
	3.176893623754035e-05
	3.255582063879997e-06
	3.302372922390792e-01

 38	3.800000000000002e-01
	-2.600769934827983e-15
	-2.243684336495669e-19
	-8.014325681132124e-15
	6.027865849913651e-07
	3.507311444603472e-05
	3.589514313384220e-06
	3.302373205206688e-01

 39	3.900000000000002e-01
	-2.576264332796533e-15
	-2.327984918075528e-19
	-8.100325726304406e-15
	6.522553146334736e-07
	3.872223235271129e-05
	3.958184914748245e-06
	3.302373518399001e-01

 40	4.000000000000002e-01
	-2.552378540271196e-15
	-2.414323276294257e-19
	-8.185296959781289e-15
	7.052407695265113e-07
	4.275030459374556e-05
	4.365210963917035e-06
	3.302373865285740e-01

 41	4.100000000000002e-01
	-2.529111625805911e-15
	-2.502721847965668e-19
	-8.269214468243510e-15
	7.619352652933931e-07
	4.719400494617821e-05
	4.814562901448918e-06
	3.302374249533724e-01

 42	4.200000000000002e-01
	-2.506462070838934e-15
	-2.593203238538953e-19
	-8.352054984043019e-15
	8.225360123846899e-07
	5.209272236394025e-05
	5.310591398113485e-06
	3.302374675189050e-01

 43	4.300000000000002e-01
	-2.484427785132178e-15
	-2.685790255127502e-19
	-8.433796885778601e-15
	8.872447049701497e-07
	5.748858780960203e-05
	5.858054657850669e-06
	3.302375146708980e-01

 44	4.400000000000002e-01
	-2.463006123406994e-15
	-2.780505939971119e-19
	-8.514420194441520e-15
	9.562670546794790e-07
	6.342646636278880e-05
	6.462145818418916e-06
	3.302375668994889e-01

 45	4.500000000000002e-01
	-2.442193903068754e-15
	-2.877373604250277e-19
	-8.593906565299091e-15
	1.029812268511706e-06
	6.995390892421252e-05
	7.128520073943271e-06
	3.302376247425725e-01

 46	4.600000000000002e-01
	-2.421987422911581e-15
	-2.976416862168323e-19
	-8.672239275698278e-15
	1.108092470737326e-06
	7.712105780508034e-05
	7.863321086480638e-06
	3.302376887892132e-01

 47	4.700000000000003e-01
	-2.402382482694245e-15
	-3.077659665225718e-19
	-8.749403208984107e-15
	1.191322069177011e-06
	8.498050062168124e-05
	8.673206197118656e-06
	3.302377596830158e-01

 48	4.800000000000003e-01
	-2.383374403478640e-15
	-3.181126336613740e-19
	-8.825384834737756e-15
	1.279717066851739e-06
	9.358706722945396e-05
	9.565369892727144e-06
	3.302378381254499e-01

 49	4.900000000000003e-01
	-2.364958048623274e-15
	-3.286841605659750e-19
	-8.900172185548829e-15
	1.373494320659387e-06
	1.029975649527514e-04
	1.054756493426056e-05
	3.302379248790462e-01

 50	5.000000000000002e-01
	-2.347127845325916e-15
	-3.394830642262004e-19
	-8.973754830542583e-15
	1.472870749437060e-06
	1.132704481146817e-04
	1.162812050863797e-05
	3.302380207703963e-01

 51	5.100000000000002e-01
	-2.329877806611684e-15
	-3.505119091257142e-19
	-9.046123845889035e-15
	1.578062494509784e-06
	1.244654188589889e-04
	1.281595673103688e-05
	3.302381266928760e-01

 52	5.200000000000002e-01
	-2.313201553665730e-15
	-3.617733106667967e-19
	-9.117271782523893e-15
	1.689284036597053e-06
	1.366429574887452e-04
	1.412059480036458e-05
	3.302382436090332e-01

 53	5.300000000000002e-01
	-2.297092338412731e-15
	-3.732699385787219e-19
	-9.187192631314238e-15
	1.806747273739147e-06
	1.498637820213801e-04
	1.555216210016698e-05
	3.302383725524971e-01

 54	5.400000000000003e-01
	-2.281543066249197e-15
	-3.850045203054361e-19
	-9.255881785901451e-15
	1.930660565702111e-06
	1.641882383622262e-04
	1.712139154264088e-05
	3.302385146293781e-01

 55	5.500000000000003e-01
	-2.266546318838493e-15
	-3.969798443693218e-19
	-9.323336003454071e-15
	2.061227751112370e-06
	1.796756244038051e-04
	1.883961447692596e-05
	3.302386710190084e-01

 56	5.600000000000003e-01
	-2.252094376882889e-15
	-4.091987637077795e-19
	-9.389553363560161e-15
	2.198647144341682e-06
	1.963834534268991e-04
	2.071874652627611e-05
	3.302388429739559e-01

 57	5.700000000000003e-01
	-2.238179242791398e-15
	-4.216641989804319e-19
	-9.454533225486002e-15
	2.343110519894972e-06
	2.143666643609656e-04
	2.277126578345973e-05
	3.302390318191992e-01

 58	5.800000000000003e-01
	-2.224792663167200e-15
	-4.343791418448014e-19
	-9.518276184022860e-15
	2.494802092730046e-06
	2.336767886919735e-04
	2.501018288062686e-05
	3.302392389503908e-01

 59	5.900000000000003e-01
	-2.211926151043066e-15
	-4.473466581991308e-19
	-9.580784024138329e-15
	2.653897503539377e-06
	2.543610860102934e-04
	2.744900255902236e-05
	3.302394658310940e-01

 60	6.000000000000003e-01
	-2.199571007798612e-15
	-4.605698913912152e-19
	-9.642059674641854e-15
	2.820562818532038e-06
	2.764616622858556e-04
	3.010167649464016e-05
	3.302397139889653e-01

 61	6.100000000000003e-01
	-2.187718344698197e-15
	-4.740520653927409e-19
	-9.702107161066841e-15
	2.994953553650385e-06
	3.000145868521005e-04
	3.298254728666330e-05
	3.302399850107933e-01

 62	6.200000000000003e-01
	-2.176359103993382e-15
	-4.877964879388516e-19
	-9.760931557963901e-15
	3.177213733421953e-06
	3.250490256812106e-04
	3.610628368381843e-05
	3.302402805363845e-01

 63	6.300000000000003e-01
	-2.165484079539192e-15
	-5.018065536331184e-19
	-9.818538940790982e-15
	3.367474994768228e-06
	3.515864097496813e-04
	3.948780730621442e-05
	3.302406022512485e-01

 64	6.400000000000003e-01
	-2.155083936878473e-15
	-5.160857470185142e-19
	-9.874936337576922e-15
	3.565855746052628e-06
	3.796396580406483e-04
	4.314221131251641e-05
	3.302409518781512e-01

 65	6.500000000000004e-01
	-2.145149232753595e-15
	-5.306376456150684e-19
	-9.930131680526065e-15
	3.772460391442036e-06
	4.092124749348109e-04
	4.708467165939198e-05
	3.302413311675186e-01

 66	6.600000000000004e-01
	-2.135670434009803e-15
	-5.454659229254193e-19
	-9.984133757721316e-15
	3.987378630270071e-06
	4.402987413486216e-04
	5.133035179627864e-05
	3.302417418867957e-01

 67	6.700000000000004e-01
	-2.126637935859259e-15
	-5.605743514096287e-19
	-1.003695216507363e-14
	4.210684840524803e-06
	4.728820179516311e-04
	5.589430182750326e-05
	3.302421858088584e-01

 68	6.800000000000004e-01
	-2.118042079479354e-15
	-5.759668054308398e-19
	-1.008859725865582e-14
	4.442437554840392e-06
	5.069351771242764e-04
	6.079135334921310e-05
	3.302426646995907e-01

 69	6.900000000000004e-01
	-2.109873168923523e-15
	-5.916472641737180e-19
	-1.013908010754871e-14
	4.682679036457542e-06
	5.424201780202528e-04
	6.603601132405678e-05
	3.302431803048007e-01

 70	7.000000000000004e-01
	-2.102121487326834e-15
	-6.076198145378658e-19
	-1.018841244731781e-14
	4.931434961543760e-06
	5.792879962204065e-04
	7.164234448604158e-05
	3.302437343366535e-01

 71	7.100000000000004e-01
	-2.094777312392882e-15
	-6.238886540081467e-19
	-1.023660663422907e-14
	5.188714213048223e-06
	6.174787160827152e-04
	7.762387586603603e-05
	3.302443284598244e-01

 72	7.200000000000004e-01
	-2.087830931152123e-15
	-6.404580935052586e-19
	-1.028367560030271e-14
	5.454508789928345e-06
	6.569217901068568e-04
	8.399347509042680e-05
	3.302449642775814e-01

 73	7.300000000000004e-01
	-2.081272653985734e-15
	-6.573325602183828e-19
	-1.032963280929461e-14
	5.728793834150648e-06
	6.975364655662472e-04
	9.076325412803259e-05
	3.302456433180598e-01

 74	7.400000000000004e-01
	-2.075092827912007e-15
	-6.745166004237867e-19
	-1.037449221368628e-14
	6.011527776368231e-06
	7.392323744573833e-04
	9.794446814150840e-05
	3.302463670209133e-01

 75	7.500000000000004e-01
	-2.069281849135999e-15
	-6.920148822920015e-19
	-1.041826821275462e-14
	6.302652599637498e-06
	7.819102786277268e-04
	1.055474230384210e-04
	3.302471367246394e-01

 76	7.600000000000005e-01
	-2.063830174865514e-15
	-7.098321986876728e-19
	-1.046097561178565e-14
	6.602094218995834e-06
	8.254629579260776e-04
	1.135813912150391e-04
	3.302479536547372e-01

 77	7.700000000000005e-01
	-2.058728334399722e-15
	-7.279734699651127e-19
	-1.050262958248654e-14
	6.909762973207164e-06
	8.697762255239857e-04
	1.220545368450063e-04
	3.302488189129587e-01

 78	7.800000000000005e-01
	-2.053966939498821e-15
	-7.464437467641705e-19
	-1.054324562464386e-14
	7.225554223529529e-06
	9.147300513229272e-04
	1.309738518895179e-04
	3.302497334678207e-01

 79	7.900000000000005e-01
	-2.049536694045521e-15
	-7.652482128104190e-19
	-1.058283952906766e-14
	7.549349052997298e-06
	9.601997717090332e-04
	1.403451038005995e-04
	3.302506981465246e-01

 80	8.000000000000005e-01
	-2.045428403011327e-15
	-7.843921877239510e-19
	-1.062142734185385e-14
	7.881015058467017e-06
	1.006057361938911e-03
	1.501727956608944e-04
	3.302517136284543e-01

 81	8.100000000000005e-01
	-2.041632980742135e-15
	-8.038811298418136e-19
	-1.065902532999075e-14
	8.220407226577555e-06
	1.052172746200805e-03
	1.604601392591877e-04
	3.302527804402927e-01

 82	8.200000000000005e-01
	-2.038141458579484e-15
	-8.237206390587370e-19
	-1.069564994832912e-14
	8.567368883838846e-06
	1.098415119925319e-03
	1.712090413482064e-04
	3.302538989528714e-01

 83	8.300000000000005e-01
	-2.034944991835338e-15
	-8.439164596913750e-19
	-1.073131780792821e-14
	8.921732710307761e-06
	1.144654259217000e-03
	1.824201030778283e-04
	3.302550693797384e-01

 84	8.400000000000005e-01
	-2.032034866139149e-15
	-8.644744833714437e-19
	-1.076604564578558e-14
	9.283321805744698e-06
	1.190761793306908e-03
	1.940926323502272e-04
	3.302562917774454e-01

 85	8.500000000000005e-01
	-2.029402503177404e-15
	-8.854007519730214e-19
	-1.079985029595198e-14
	9.651950796774454e-06
	1.236612417622102e-03
	2.062246686106144e-04
	3.302575660474929e-01

 86	8.600000000000005e-01
	-2.027039465846636e-15
	-9.067014605796655e-19
	-1.083274866202776e-14
	1.002742697340222e-05
	1.282085027341360e-03
	2.188130193744096e-04
	3.302588919398784e-01

 87	8.700000000000006e-01
	-2.024937462841440e-15
	-9.283829604970813e-19
	-1.086475769103276e-14
	1.040955144325776e-05
	1.327063754048995e-03
	2.318533076041406e-04
	3.302602690581078e-01

 88	8.800000000000006e-01
	-2.023088352699900e-15
	-9.504517623170852e-19
	-1.089589434863659e-14
	1.079812029214463e-05
	1.371438891188038e-03
	2.453400288910858e-04
	3.302616968655509e-01

 89	8.900000000000006e-01
	-2.021484147329128e-15
	-9.729145390384211e-19
	-1.092617559573259e-14
	1.119292573984949e-05
	1.415107697323378e-03
	2.592666172705670e-04
	3.302631746930003e-01

 90	9.000000000000006e-01
	-2.020117015033770e-15
	-9.957781292505076e-19
	-1.095561836633503e-14
	1.159375728070230e-05
	1.457975069627298e-03
	2.736255184074195e-04
	3.302647017472391e-01

 91	9.100000000000006e-01
	-2.018979283070858e-15
	-1.019049540385775e-18
	-1.098423954677505e-14
	1.200040279904894e-05
	1.499954083372862e-03
	2.884082688296433e-04
	3.302662771204611e-01

 92	9.200000000000006e-01
	-2.018063439754158e-15
	-1.042735952046309e-18
	-1.101205595616880e-14
	1.241264965058942e-05
	1.540966396455867e-03
	3.036055798629339e-04
	3.302678998003706e-01

 93	9.300000000000006e-01
	-2.017362136131146e-15
	-1.066844719410492e-18
	-1.103908432812769e-14
	1.283028570142097e-05
	1.580942520969219e-03
	3.192074249246709e-04
	3.302695686807532e-01

 94	9.400000000000006e-01
	-2.016868187255739e-15
	-1.091383376725297e-18
	-1.106534129367880e-14
	1.325310031758393e-05
	1.619821966548207e-03
	3.352031288703063e-04
	3.302712825723764e-01

 95	9.500000000000006e-01
	-2.016574573079466e-15
	-1.116359640889548e-18
	-1.109084336536132e-14
	1.368088529891799e-05
	1.657553262535234e-03
	3.515814581445867e-04
	3.302730402140239e-01

 96	9.600000000000006e-01
	-2.016474438983653e-15
	-1.141781415134246e-18
	-1.111560692246300e-14
	1.411343575207394e-05
	1.694093867940923e-03
	3.683307105707900e-04
	3.302748402835348e-01

 97	9.700000000000006e-01
	-2.016561095974466e-15
	-1.167656792804276e-18
	-1.113964819735970e-14
	1.455055089857037e-05
	1.729409979687899e-03
	3.854388037090264e-04
	3.302766814086699e-01

 98	9.800000000000006e-01
	-2.016828020562685e-15
	-1.193994061247542e-18
	-1.116298326291930e-14
	1.499203481481486e-05
	1.763476250713308e-03
	4.028933608253991e-04
	3.302785621777358e-01

 99	9.900000000000007e-01
	-2.017268854348905e-15
	-1.220801705816649e-18
	-1.118562802093112e-14
	1.543769710201272e-05
	1.796275430192254e-03
	4.206817936335219e-04
	3.302804811497709e-01

 100	1.000000000000001e+00
	-2.017877403334959e-15
	-1.248088413987675e-18
	-1.120759819152086e-14
	1.588735348483625e-05
	1.827797938452830e-03
	4.387913810942020e-04
	3.302824368642973e-01

 101	1.010000000000001e+00
	-2.018647636981248e-15
	-1.275863079601560e-18
	-1.122890930351100e-14
