Title: ** sch_path: /home/andylithia/openmpw/project-yatsuhashi-chip1/xschem/gmid_test/nmos_test.sch
Date: Tue Jul 19 23:15:45  2022
Plotname: DC transfer characteristic
Flags: real
No. Variables: 8
No. Points: 181
Variables:
	0	v(v-sweep)	voltage
	1	@m.xm1.msky130_fd_pr__nfet_01v8[cgb]	capacitance
	2	@m.xm1.msky130_fd_pr__nfet_01v8[cgd]	capacitance
	3	@m.xm1.msky130_fd_pr__nfet_01v8[cgs]	capacitance
	4	@m.xm1.msky130_fd_pr__nfet_01v8[gds]	admittance
	5	@m.xm1.msky130_fd_pr__nfet_01v8[gm]	admittance
	6	i(@m.xm1.msky130_fd_pr__nfet_01v8[id])	current
	7	v(@m.xm1.msky130_fd_pr__nfet_01v8[vth])	voltage
Values:
 0	0.000000000000000e+00
	-1.690603108165436e-14
	-1.499932384718586e-18
	-3.547194159449303e-14
	4.293387470032013e-08
	1.590688834655201e-06
	2.161152039681268e-07
	1.577653755996291e-01

 1	1.000000000000000e-02
	-1.672854238905447e-14
	-1.533405090591064e-18
	-3.590000016975087e-14
	4.604339092803325e-08
	1.711540078429677e-06
	2.326188677376037e-07
	1.577653768099509e-01

 2	2.000000000000000e-02
	-1.655365239174507e-14
	-1.567569955753895e-18
	-3.632680008981203e-14
	4.936544058283722e-08
	1.841714438339728e-06
	2.503770537474015e-07
	1.577653781136808e-01

 3	3.000000000000000e-02
	-1.638138861320372e-14
	-1.602439776100977e-18
	-3.675221176498474e-14
	5.291333972451253e-08
	1.981968366156137e-06
	2.694867221538414e-07
	1.577653795182327e-01

 4	4.000000000000000e-02
	-1.621177737332887e-14
	-1.638027562614429e-18
	-3.717610701830633e-14
	5.670113154310502e-08
	2.133124892161569e-06
	2.900527254891307e-07
	1.577653810316584e-01

 5	5.000000000000000e-02
	-1.604484374486118e-14
	-1.674346545437902e-18
	-3.759835922052611e-14
	6.074361745775649e-08
	2.296079896902525e-06
	3.121885053300569e-07
	1.577653826627005e-01

 6	6.000000000000000e-02
	-1.588061151275647e-14
	-1.711410178061970e-18
	-3.801884342174799e-14
	6.505638893377859e-08
	2.471808968112811e-06
	3.360168545707118e-07
	1.577653844208518e-01

 7	7.000000000000001e-02
	-1.571910313656491e-14
	-1.749232141625461e-18
	-3.843743647945842e-14
	6.965585999552317e-08
	2.661374889858366e-06
	3.616707513840439e-07
	1.577653863164363e-01

 8	8.000000000000000e-02
	-1.556033971586217e-14
	-1.787826349336097e-18
	-3.885401718267813e-14
	7.455930040987731e-08
	2.865935813252164e-06
	3.892942714391642e-07
	1.577653883606818e-01

 9	9.000000000000000e-02
	-1.540434095876985e-14
	-1.827206951013380e-18
	-3.926846637198873e-14
	7.978486951238933e-08
	3.086754160259818e-06
	4.190435854455977e-07
	1.577653905658092e-01

 10	9.999999999999999e-02
	-1.525112515359271e-14
	-1.867388337758293e-18
	-3.968066705520061e-14
	8.535165064518362e-08
	3.325206314117361e-06
	4.510880496211676e-07
	1.577653929451287e-01

 11	1.100000000000000e-01
	-1.510070914359232e-14
	-1.908385146751980e-18
	-4.009050451844208e-14
	9.127968617283963e-08
	3.582793151654204e-06
	4.856113972243388e-07
	1.577653955131400e-01

 12	1.200000000000000e-01
	-1.495310830490624e-14
	-1.950212266187872e-18
	-4.049786643246701e-14
	9.759001303931956e-08
	3.861151474298379e-06
	5.228130398523476e-07
	1.577653982856582e-01

 13	1.300000000000000e-01
	-1.480833652761439e-14
	-1.992884840341175e-18
	-4.090264295399402e-14
	1.043046988258995e-07
	4.162066395670893e-06
	5.629094877803032e-07
	1.577654012799328e-01

 14	1.400000000000000e-01
	-1.466640619994396e-14
	-2.036418274778435e-18
	-4.130472682190660e-14
	1.114468782666678e-07
	4.487484744372381e-06
	6.061358991990012e-07
	1.577654045147952e-01

 15	1.500000000000000e-01
	-1.452732819559651e-14
	-2.080828241712091e-18
	-4.170401344816202e-14
	1.190407901748104e-07
	4.839529540753099e-06
	6.527477687968768e-07
	1.577654080108029e-01

 16	1.600000000000000e-01
	-1.439111186417138e-14
	-2.126130685503667e-18
	-4.210040100327280e-14
	1.271118147291521e-07
	5.220515606037481e-06
	7.030227667172973e-07
	1.577654117904231e-01

 17	1.700000000000000e-01
	-1.425776502465186e-14
	-2.172341828318884e-18
	-4.249379049624462e-14
	1.356865110667744e-07
	5.632966361061324e-06
	7.572627395015382e-07
	1.577654158782093e-01

 18	1.800000000000000e-01
	-1.412729396191182e-14
	-2.219478175939747e-18
	-4.288408584887082e-14
	1.447926551233958e-07
	6.079631869955421e-06
	8.157958851907800e-07
	1.577654203010097e-01

 19	1.900000000000000e-01
	-1.399970342619302e-14
	-2.267556523737543e-18
	-4.327119396430192e-14
	1.544592776590885e-07
	6.563508181274274e-06
	8.789791153006062e-07
	1.577654250881964e-01

 20	2.000000000000000e-01
	-1.387499663549480e-14
	-2.316593962810308e-18
	-4.365502478982940e-14
	1.647167024023475e-07
	7.087858015194632e-06
	9.472006168875482e-07
	1.577654302719053e-01

 21	2.100000000000000e-01
	-1.375317528081256e-14
	-2.366607886289708e-18
	-4.403549137383572e-14
	1.755965842408567e-07
	7.656232840376746e-06
	1.020882628389127e-06
	1.577654358873132e-01

 22	2.200000000000001e-01
	-1.363423953415201e-14
	-2.417615995822403e-18
	-4.441250991688636e-14
	1.871319473822303e-07
	8.272496377759300e-06
	1.100484443323999e-06
	1.577654419729299e-01

 23	2.300000000000001e-01
	-1.351818805924165e-14
	-2.469636308228695e-18
	-4.478599981695324e-14
	1.993572234026484e-07
	8.940849560812705e-06
	1.186505656273504e-06
	1.577654485709251e-01

 24	2.400000000000001e-01
	-1.340501802485912e-14
	-2.522687162344817e-18
	-4.515588370877735e-14
	2.123082890956560e-07
	9.665856972471588e-06
	1.279489665815717e-06
	1.577654557274892e-01

 25	2.500000000000001e-01
	-1.329472512068097e-14
	-2.576787226052658e-18
	-4.552208749739707e-14
	2.260225040273382e-07
	1.045247476796579e-05
	1.380027449231215e-06
	1.577654634932112e-01

 26	2.600000000000001e-01
	-1.318730357556169e-14
	-2.631955503502388e-18
	-4.588454038588054e-14
	2.405387476976587e-07
	1.130608007993669e-05
	1.488761623828651e-06
	1.577654719235083e-01

 27	2.700000000000001e-01
	-1.308274617814085e-14
	-2.688211342532006e-18
	-4.624317489732249e-14
	2.558974562009527e-07
	1.223250188743391e-05
	1.606390809629286e-06
	1.577654810790884e-01

 28	2.800000000000001e-01
	-1.298104429967559e-14
	-2.745574442289944e-18
	-4.659792689117562e-14
	2.721406582714154e-07
	1.323805331351124e-05
	1.733674307882205e-06
	1.577654910264513e-01

 29	2.900000000000001e-01
	-1.288218791898967e-14
	-2.804064861065740e-18
	-4.694873557400451e-14
	2.893120105917703e-07
	1.432956529706894e-05
	1.871437109434552e-06
	1.577655018384401e-01

 30	3.000000000000001e-01
	-1.278616564942815e-14
	-2.863703024333351e-18
	-4.729554350476396e-14
	3.074568322353485e-07
	1.551442156323158e-05
	2.020575246331965e-06
	1.577655135948297e-01

 31	3.100000000000001e-01
	-1.269296476770465e-14
	-2.924509733013597e-18
	-4.763829659471327e-14
	3.266221381034627e-07
	1.680059479282246e-05
	2.182061499149176e-06
	1.577655263829817e-01

 32	3.200000000000001e-01
	-1.260257124452348e-14
	-2.986506171960784e-18
	-4.797694410209706e-14
	3.468566712111681e-07
	1.819668386535929e-05
	2.356951471426733e-06
	1.577655402985341e-01

 33	3.300000000000001e-01
	-1.251496977686039e-14
	-3.049713918679195e-18
	-4.831143862172675e-14
	3.682109336654867e-07
	1.971195202141725e-05
	2.546390041191137e-06
	1.577655554461685e-01

 34	3.400000000000001e-01
	-1.243014382178132e-14
	-3.114154952276225e-18
	-4.864173606961497e-14
	3.907372161707926e-07
	2.135636575922167e-05
	2.751618197840249e-06
	1.577655719404192e-01

 35	3.500000000000001e-01
	-1.234807563167985e-14
	-3.179851662656749e-18
	-4.896779566281960e-14
	4.144896258864181e-07
	2.314063424698220e-05
	2.973980270656793e-06
	1.577655899065663e-01

 36	3.600000000000002e-01
	-1.226874629081251e-14
	-3.246826859966660e-18
	-4.928957989466648e-14
	4.395241124518997e-07
	2.507624899690131e-05
	3.214931552850825e-06
	1.577656094815738e-01

 37	3.700000000000002e-01
	-1.219213575301155e-14
	-3.315103784290568e-18
	-4.960705450552633e-14
	4.658984919852989e-07
	2.717552350912103e-05
	3.476046322301109e-06
	1.577656308151177e-01

 38	3.800000000000002e-01
	-1.211822288045542e-14
	-3.384706115611119e-18
	-4.992018844932886e-14
	4.936724688503850e-07
	2.945163255437389e-05
	3.759026257050177e-06
	1.577656540706840e-01

 39	3.900000000000002e-01
	-1.204698548337736e-14
	-3.455657984036370e-18
	-5.022895385600434e-14
	5.229076549787692e-07
	3.191865072305886e-05
	4.065709240088373e-06
	1.577656794267338e-01

 40	4.000000000000002e-01
	-1.197840036059490e-14
	-3.527983980302180e-18
	-5.053332599004706e-14
	5.536675865238317e-07
	3.459158982625722e-05
	4.398078544025771e-06
	1.577657070779581e-01

 41	4.100000000000002e-01
	-1.191244334074389e-14
	-3.601709166557452e-18
	-5.083328320540005e-14
	5.860177376144491e-07
	3.748643469129950e-05
	4.758272381888671e-06
	1.577657372366077e-01

 42	4.200000000000002e-01
	-1.184908932410286e-14
	-3.676859087437709e-18
	-5.112880689686478e-14
	6.200255309685687e-07
	4.062017685144105e-05
	5.148593805484568e-06
	1.577657701339112e-01

 43	4.300000000000002e-01
	-1.178831232489615e-14
	-3.753459781437326e-18
	-5.141988144824155e-14
	6.557603451194868e-07
	4.401084558663730e-05
	5.571520927557646e-06
	1.577658060215687e-01

 44	4.400000000000002e-01
	-1.173008551396657e-14
	-3.831537792585919e-18
	-5.170649417740855e-14
	6.932935180018016e-07
	4.767753573106151e-05
	6.029717438314004e-06
	1.577658451733428e-01

 45	4.500000000000002e-01
	-1.167438126171144e-14
	-3.911120182437987e-18
	-5.198863527854911e-14
	7.326983466398217e-07
	5.164043162372033e-05
	6.526043380850801e-06
	1.577658878867185e-01

 46	4.600000000000002e-01
	-1.162117118117865e-14
	-3.992234542384226e-18
	-5.226629776173679e-14
	7.740500826784819e-07
	5.592082654218108e-05
	7.063566143596439e-06
	1.577659344846470e-01

 47	4.700000000000003e-01
	-1.157042617122394e-14
	-4.074909006291713e-18
	-5.253947739008702e-14
	8.174259234968068e-07
	6.054113692707213e-05
	7.645571621100254e-06
	1.577659853173798e-01

 48	4.800000000000003e-01
	-1.152211645963233e-14
	-4.159172263484334e-18
	-5.280817261468479e-14
	8.629049986461154e-07
	6.552491067770923e-05
	8.275575487440753e-06
	1.577660407643491e-01

 49	4.900000000000003e-01
	-1.147621164611257e-14
	-4.245053572069524e-18
	-5.307238450749322e-14
	9.105683513605664e-07
	7.089682877809524e-05
	8.957334519208159e-06
	1.577661012361569e-01

 50	5.000000000000002e-01
	-1.143268074507523e-14
	-4.332582772622820e-18
	-5.333211669244950e-14
	9.604989148966941e-07
	7.668269949887395e-05
	9.694857897533296e-06
	1.577661671765742e-01

 51	5.100000000000002e-01
	-1.139149222811167e-14
	-4.421790302238507e-18
	-5.358737527494690e-14
	1.012781483470981e-06
	8.290944441576413e-05
	1.049241841104903e-05
	1.577662390646373e-01

 52	5.200000000000002e-01
	-1.135261406609226e-14
	-4.512707208957665e-18
	-5.383816876990298e-14
	1.067502677582060e-06
	8.960507548991549e-05
	1.135456347409301e-05
	1.577663174167456e-01

 53	5.300000000000002e-01
	-1.131601377080967e-14
	-4.605365166582472e-18
	-5.408450802860573e-14
	1.124750903525914e-06
	9.679866247165303e-05
	1.228612586697849e-05
	1.577664027888039e-01

 54	5.400000000000003e-01
	-1.128165843609495e-14
	-4.699796489888480e-18
	-5.432640616452803e-14
	1.184616306939921e-06
	1.045202899174861e-04
	1.329223409790554e-05
	1.577664957783669e-01

 55	5.500000000000003e-01
	-1.124951477833961e-14
	-4.796034150244580e-18
	-5.456387847829425e-14
	1.247190720244766e-06
	1.128010031521488e-04
	1.437832227918055e-05
	1.577665970267718e-01

 56	5.600000000000003e-01
	-1.121954917636147e-14
	-4.894111791653689e-18
	-5.479694238197738e-14
	1.312567603892536e-06
	1.216727425638006e-04
	1.555013940399777e-05
	1.577667072212404e-01

 57	5.700000000000003e-01
	-1.119172771055550e-14
	-4.994063747224001e-18
	-5.502561732290064e-14
	1.380841981375284e-06
	1.311682656922438e-04
	1.681375790426622e-05
	1.577668270969300e-01

 58	5.800000000000003e-01
	-1.116601620127635e-14
	-5.095925056084682e-18
	-5.524992470710991e-14
	1.452110368001295e-06
	1.413210566577109e-04
	1.817558136499147e-05
	1.577669574388876e-01

 59	5.900000000000003e-01
	-1.114238024640299e-14
	-5.199731480755994e-18
	-5.546988782267775e-14
	1.526470693506119e-06
	1.521652225818808e-04
	1.964235126670780e-05
	1.577670990839181e-01

 60	6.000000000000003e-01
	-1.112078525803997e-14
	-5.305519524990587e-18
	-5.568553176299388e-14
	1.604022218632869e-06
	1.637353767734236e-04
	2.122115262457204e-05
	1.577672529222852e-01

 61	6.100000000000003e-01
	-1.110119649831480e-14
	-5.413326452095205e-18
	-5.589688335018927e-14
	1.684865445890953e-06
	1.760665085872937e-04
	2.291941839113017e-05
	1.577674198992582e-01

 62	6.200000000000003e-01
	-1.108357911423446e-14
	-5.523190303749731e-18
	-5.610397105883343e-14
	1.769102024784240e-06
	1.891938400196942e-04
	2.474493248962602e-05
	1.577676010164385e-01

 63	6.300000000000003e-01
	-1.106789817156798e-14
	-5.635149919336295e-18
	-5.630682494004071e-14
	1.856834651888750e-06
	2.031526692680340e-04
	2.670583134617651e-05
	1.577677973328432e-01

 64	6.400000000000003e-01
	-1.105411868772712e-14
	-5.749244955793725e-18
	-5.650547654610938e-14
	1.948166966255682e-06
	2.179782016660009e-04
	2.881060379234443e-05
	1.577680099657141e-01

 65	6.500000000000004e-01
	-1.104220566361902e-14
	-5.865515908013319e-18
	-5.669995885581548e-14
	2.043203440717411e-06
	2.337053685960921e-04
	3.106808921471169e-05
	1.577682400909918e-01

 66	6.600000000000004e-01
	-1.103212411445064e-14
	-5.984004129790847e-18
	-5.689030620047123e-14
	2.142049269781328e-06
	2.503686351833350e-04
	3.348747383509974e-05
	1.577684889434458e-01

 67	6.700000000000004e-01
	-1.102383909946670e-14
	-6.104751855351356e-18
	-5.707655419085491e-14
	2.244810254908685e-06
	2.680017977817248e-04
	3.607828501418742e-05
	1.577687578164001e-01

 68	6.800000000000004e-01
	-1.101731575060711e-14
	-6.227802221465404e-18
	-5.725873964510875e-14
	2.351592688090534e-06
	2.866377724757532e-04
	3.885038348246209e-05
	1.577690480610346e-01

 69	6.900000000000004e-01
	-1.101251930007305e-14
	-6.353199290171627e-18
	-5.743690051769669e-14
	2.462503234750999e-06
	3.063083760298840e-04
	4.181395341575611e-05
	1.577693610852278e-01

 70	7.000000000000004e-01
	-1.100941510679388e-14
	-6.480988072125976e-18
	-5.761107582950544e-14
	2.577648817126757e-06
	3.270441009247801e-04
	4.497949028801199e-05
	1.577696983518950e-01

 71	7.100000000000004e-01
	-1.100796868179044e-14
	-6.611214550595958e-18
	-5.778130559916545e-14
	2.697136499389445e-06
	3.488738863163003e-04
	4.835778645133213e-05
	1.577700613768222e-01

 72	7.200000000000004e-01
	-1.100814571243271e-14
	-6.743925706118883e-18
	-5.794763077566356e-14
	2.821073375893669e-06
	3.718248869373351e-04
	5.195991441270125e-05
	1.577704517259544e-01

 73	7.300000000000004e-01
	-1.100991208559300e-14
	-6.879169541843834e-18
	-5.811009317230988e-14
	2.949566464045086e-06
	3.959222421287336e-04
	5.579720779784717e-05
	1.577708710121363e-01

 74	7.400000000000004e-01
	-1.101323390969839e-14
	-7.016995109578966e-18
	-5.826873540211674e-14
	3.082722603388747e-06
	4.211888473293647e-04
	5.988124001534028e-05
	1.577713208912888e-01

 75	7.500000000000004e-01
	-1.101807753568824e-14
	-7.157452536565013e-18
	-5.842360081464156e-14
	3.220648362616502e-06
	4.476451304722887e-04
	6.422380065797549e-05
	1.577718030580360e-01

 76	7.600000000000005e-01
	-1.102440957688542e-14
	-7.300593052996051e-18
	-5.857473343433837e-14
	3.363449956280911e-06
	4.753088358198213e-04
	6.883686970343537e-05
	1.577723192407703e-01

 77	7.700000000000005e-01
	-1.103219692779173e-14
	-7.446469020312003e-18
	-5.872217790045772e-14
	3.511233173080842e-06
	5.041948178211053e-04
	7.373258960186815e-05
	1.577728711961893e-01

 78	7.800000000000005e-01
	-1.104140678182018e-14
	-7.595133960282218e-18
	-5.886597940852960e-14
	3.664103317649202e-06
	5.343148475884840e-04
	7.892323536397906e-05
	1.577734607033230e-01

 79	7.900000000000005e-01
	-1.105200664797909e-14
	-7.746642584909569e-18
	-5.900618365345658e-14
	3.822165167823900e-06
	5.656774345605657e-04
	8.442118278909496e-05
	1.577740895570971e-01

 80	8.000000000000005e-01
	-1.106396436652343e-14
	-7.901050827173702e-18
	-5.914283677424355e-14
	3.985522949419023e-06
	5.982876658488480e-04
	9.023887499805043e-05
	1.577747595614569e-01

 81	8.100000000000005e-01
	-1.107724812359282e-14
	-8.058415872641863e-18
	-5.927598530037934e-14
	4.154280330532693e-06
	6.321470656496948e-04
	9.638878746016324e-05
	1.577754725221331e-01

 82	8.200000000000005e-01
	-1.109182646485412e-14
	-8.218796191972429e-18
	-5.940567609988807e-14
	4.328540437431246e-06
	6.672534769447421e-04
	1.028833917266497e-04
	1.577762302390845e-01

 83	8.300000000000005e-01
	-1.110766830817084e-14
	-8.382251574336511e-18
	-5.953195632905751e-14
	4.508405894035327e-06
	7.036009675108569e-04
	1.097351181040540e-04
	1.577770344987171e-01

 84	8.400000000000005e-01
	-1.112474295532113e-14
	-8.548843161785775e-18
	-5.965487338385097e-14
	4.693978887003589e-06
	7.411797620182309e-04
	1.169563175203093e-04
	1.577778870659395e-01

 85	8.500000000000005e-01
	-1.114302010278711e-14
	-8.718633484594065e-18
	-5.977447485300550e-14
	4.885361258363476e-06
	7.799762017144709e-04
	1.245592228524179e-04
	1.577787896761438e-01

 86	8.600000000000005e-01
	-1.116246985164049e-14
	-8.891686497599965e-18
	-5.989080847281341e-14
	5.082654627578282e-06
	8.199727328782774e-04
	1.325559099981581e-04
	1.577797440271945e-01

 87	8.700000000000006e-01
	-1.118306271654983e-14
	-9.068067617583351e-18
	-6.000392208358206e-14
	5.285960544865911e-06
	8.611479248830325e-04
	1.409582589843137e-04
	1.577807517715460e-01

 88	8.800000000000006e-01
	-1.120476963393421e-14
	-9.247843761700085e-18
	-6.011386358776484e-14
	5.495380677500709e-06
	9.034765183446277e-04
	1.497779154104821e-04
	1.577818145085368e-01

 89	8.900000000000006e-01
	-1.122756196929167e-14
	-9.431083387014451e-18
	-6.022068090974938e-14
	5.711017030737082e-06
	9.469295034453537e-04
	1.590262525302983e-04
	1.577829337770036e-01

 90	9.000000000000006e-01
	-1.125141152372732e-14
	-9.617856531151854e-18
	-6.032442195729242e-14
	5.932972204895396e-06
	9.914742281340327e-04
	1.687143342708260e-04
	1.577841110482618e-01

 91	9.100000000000006e-01
	-1.127629053971085e-14
	-9.808234854113258e-18
	-6.042513458458061e-14
	6.161349690050527e-06
	1.037074535509067e-03
	1.788528794858216e-04
	1.577853477195823e-01

 92	9.200000000000006e-01
	-1.130217170608917e-14
	-1.000229168128303e-17
	-6.052286655690138e-14
	6.396254199665153e-06
	1.083690929303718e-03
	1.894522277296634e-04
	1.577866451082043e-01

 93	9.300000000000006e-01
	-1.132902816238358e-14
	-1.020010204766175e-17
	-6.061766551690083e-14
	6.637792044415583e-06
	1.131280766018730e-03
	2.005223068259307e-04
	1.577880044460159e-01

 94	9.400000000000006e-01
	-1.135683350239819e-14
	-1.040174274336987e-17
	-6.070957895240579e-14
	6.886071547375343e-06
	1.179798471894659e-03
	2.120726024882696e-04
	1.577894268748833e-01

 95	9.500000000000006e-01
	-1.138556177716845e-14
	-1.060729236045242e-17
	-6.079865416578531e-14
	7.141203501649597e-06
	1.229195782590698e-03
	2.241121302313135e-04
	1.577909134427836e-01

 96	9.600000000000006e-01
	-1.141518749727698e-14
	-1.081683134103008e-17
	-6.088493824482394e-14
	7.403301671502533e-06
	1.279422003146130e-03
	2.366494097866080e-04
	1.577924651007040e-01

 97	9.700000000000006e-01
	-1.144568563456426e-14
	-1.103044202683760e-17
	-6.096847803507969e-14
	7.672483337987988e-06
	1.330424285548798e-03
	2.496924422128257e-04
	1.577940827003828e-01

 98	9.800000000000006e-01
	-1.147703162326170e-14
	-1.124820871019001e-17
	-6.104932011369513e-14
	7.948869890090146e-06
	1.382147921027974e-03
	2.632486898617110e-04
	1.577957669928923e-01

 99	9.900000000000007e-01
	-1.150920136057327e-14
	-1.147021768642974e-17
	-6.112751076463379e-14
	8.232587462406759e-06
	1.434536644029299e-03
	2.773250593314429e-04
	1.577975186280804e-01

 100	1.000000000000001e+00
	-1.154217120673254e-14
	-1.169655730789361e-17
	-6.120309595530660e-14
	8.523767620467698e-06
	1.487532944719862e-03
	2.919278875080307e-04
	1.577993381548463e-01

 101	1.010000000000001e+00
	-1.157591798456083e-14
	-1.192731803945632e-17
	-6.127612131455794e-14
