Title: ** sch_path: /home/andylithia/openmpw/project-yatsuhashi-chip1/xschem/gmid_test/nmos_test.sch
Date: Tue Jul 19 23:15:45  2022
Plotname: DC transfer characteristic
Flags: real
No. Variables: 8
No. Points: 181
Variables:
	0	v(v-sweep)	voltage
	1	@m.xm1.msky130_fd_pr__nfet_01v8[cgb]	capacitance
	2	@m.xm1.msky130_fd_pr__nfet_01v8[cgd]	capacitance
	3	@m.xm1.msky130_fd_pr__nfet_01v8[cgs]	capacitance
	4	@m.xm1.msky130_fd_pr__nfet_01v8[gds]	admittance
	5	@m.xm1.msky130_fd_pr__nfet_01v8[gm]	admittance
	6	i(@m.xm1.msky130_fd_pr__nfet_01v8[id])	current
	7	v(@m.xm1.msky130_fd_pr__nfet_01v8[vth])	voltage
Values:
 0	0.000000000000000e+00
	-8.961570937230093e-15
	-5.700983767170309e-19
	-1.595397878185523e-14
	1.907906834381539e-08
	7.762502237671449e-07
	9.439072493319416e-08
	2.101743526429456e-01

 1	1.000000000000000e-02
	-8.861132977909163e-15
	-5.840948242792051e-19
	-1.618939333957371e-14
	2.065314108843154e-08
	8.420004590971072e-07
	1.024775207791328e-07
	2.101743533110246e-01

 2	2.000000000000000e-02
	-8.761879498487114e-15
	-5.984051017837558e-19
	-1.642468920269552e-14
	2.235062296028387e-08
	9.133271301077951e-07
	1.112493121059431e-07
	2.101743540361267e-01

 3	3.000000000000000e-02
	-8.663833983181424e-15
	-6.130352305439872e-19
	-1.665977712831975e-14
	2.418045996207996e-08
	9.907181124244657e-07
	1.207642661954789e-07
	2.101743548231688e-01

 4	4.000000000000000e-02
	-8.567019301943755e-15
	-6.279913261012129e-19
	-1.689456818914230e-14
	2.615216891154979e-08
	1.074707136022027e-06
	1.310856546229505e-07
	2.101743556775046e-01

 5	5.000000000000000e-02
	-8.471457665944137e-15
	-6.432795997766314e-19
	-1.712897389537688e-14
	2.827586616824358e-08
	1.165878484965691e-06
	1.422823349012628e-07
	2.101743566049775e-01

 6	6.000000000000000e-02
	-8.377170584998938e-15
	-6.589063602757557e-19
	-1.736290631539739e-14
	3.056229710226784e-08
	1.264872194462787e-06
	1.544292815705739e-07
	2.101743576119642e-01

 7	7.000000000000001e-02
	-8.284178827043789e-15
	-6.748780153470314e-19
	-1.759627819476893e-14
	3.302286626168254e-08
	1.372389792719777e-06
	1.676081719410202e-07
	2.101743587054273e-01

 8	8.000000000000000e-02
	-8.192502379744852e-15
	-6.912010734966446e-19
	-1.782900307334355e-14
	3.566966818901127e-08
	1.489200638087961e-06
	1.819080321865381e-07
	2.101743598929733e-01

 9	9.000000000000000e-02
	-8.102160414333912e-15
	-7.078821457614152e-19
	-1.806099540010347e-14
	3.851551883081017e-08
	1.616148904850435e-06
	1.974259500069666e-07
	2.101743611829259e-01

 10	9.999999999999999e-02
	-8.013171251744213e-15
	-7.249279475416077e-19
	-1.829217064544655e-14
	4.157398747758041e-08
	1.754161273680050e-06
	2.142678606227576e-07
	2.101743625843868e-01

 11	1.100000000000000e-01
	-7.925552331115855e-15
	-7.423453004956106e-19
	-1.852244541061756e-14
	4.485942916442484e-08
	1.904255385197295e-06
	2.325494134390674e-07
	2.101743641073230e-01

 12	1.200000000000000e-01
	-7.839320180729870e-15
	-7.601411344983060e-19
	-1.875173753400359e-14
	4.838701745583327e-08
	2.067549117083831e-06
	2.523969273108012e-07
	2.101743657626610e-01

 13	1.300000000000000e-01
	-7.754490391421479e-15
	-7.783224896652808e-19
	-1.897996619402455e-14
	5.217277753081493e-08
	2.245270746750967e-06
	2.739484429529079e-07
	2.101743675623728e-01

 14	1.400000000000000e-01
	-7.671077592513437e-15
	-7.968965184445305e-19
	-1.920705200836484e-14
	5.623361947725357e-08
	2.438770062498682e-06
	2.973548816652864e-07
	2.101743695195895e-01

 15	1.500000000000000e-01
	-7.589095430300981e-15
	-8.158704877780100e-19
	-1.943291712930803e-14
	6.058737169692748e-08
	2.649530486295601e-06
	3.227813201727075e-07
	2.101743716487331e-01

 16	1.600000000000000e-01
	-7.508556549110178e-15
	-8.352517813345337e-19
	-1.965748533495466e-14
	6.525281431507848e-08
	2.879182270611103e-06
	3.504083920087365e-07
	2.101743739656375e-01

 17	1.700000000000000e-01
	-7.429472574942401e-15
	-8.550479018164074e-19
	-1.988068211611889e-14
	7.024971248069595e-08
	3.129516829972536e-06
	3.804338264889049e-07
	2.101743764877018e-01

 18	1.800000000000000e-01
	-7.351854101707725e-15
	-8.752664733416537e-19
	-2.010243475871958e-14
	7.559884943591273e-08
	3.402502264928794e-06
	4.130741369112503e-07
	2.101743792340575e-01

 19	1.900000000000000e-01
	-7.275710680040797e-15
	-8.959152439038176e-19
	-2.032267242150100e-14
	8.132205922501281e-08
	3.700300131685554e-06
	4.485664701782683e-07
	2.101743822257380e-01

 20	2.000000000000000e-01
	-7.201050808684015e-15
	-9.170020879114528e-19
	-2.054132620893539e-14
	8.744225890550865e-08
	4.025283504636364e-06
	4.871706305378624e-07
	2.101743854858938e-01

 21	2.100000000000000e-01
	-7.127881928413186e-15
	-9.385350088091665e-19
	-2.075832923918270e-14
	9.398348011570607e-08
	4.380056371145430e-06
	5.291712905754994e-07
	2.101743890400072e-01

 22	2.200000000000001e-01
	-7.056210418472479e-15
	-9.605221417826679e-19
	-2.097361670700112e-14
	1.009708998449439e-07
	4.767474388023350e-06
	5.748804029352034e-07
	2.101743929161219e-01

 23	2.300000000000001e-01
	-6.986041595477523e-15
	-9.829717565494780e-19
	-2.118712594152119e-14
	1.084308702444066e-07
	5.190667016964989e-06
	6.246398264821622e-07
	2.101743971451337e-01

 24	2.400000000000001e-01
	-6.917379714736482e-15
	-1.005892260237665e-18
	-2.139879645882028e-14
	1.163909473081267e-07
	5.653061041582308e-06
	6.788241807215645e-07
	2.101744017610566e-01

 25	2.500000000000001e-01
	-6.850227973932571e-15
	-1.029292200354627e-18
	-2.160857000924912e-14
	1.248799182452820e-07
	6.158405451348872e-06
	7.378439422293686e-07
	2.101744068013699e-01

 26	2.600000000000001e-01
	-6.784588519102798e-15
	-1.053180267848271e-18
	-2.181639061948776e-14
	1.339278273565659e-07
	6.710797657606861e-06
	8.021487966058602e-07
	2.101744123073445e-01

 27	2.700000000000001e-01
	-6.720462452842811e-15
	-1.077565300262284e-18
	-2.202220462932177e-14
	1.435660002188157e-07
	7.314710983584004e-06
	8.722312589997105e-07
	2.101744183244481e-01

 28	2.800000000000001e-01
	-6.657849844659494e-15
	-1.102456284988403e-18
	-2.222596072315427e-14
	1.538270659737999e-07
	7.975023344014272e-06
	9.486305755408966e-07
	2.101744249027504e-01

 29	2.900000000000001e-01
	-6.596749743388959e-15
	-1.127862362617296e-18
	-2.242760995628355e-14
	1.647449775086106e-07
	8.697047000335151e-06
	1.031936917030248e-06
	2.101744320973858e-01

 30	3.000000000000001e-01
	-6.537160191591112e-15
	-1.153792830390647e-18
	-2.262710577599666e-14
	1.763550293069450e-07
	9.486559244517578e-06
	1.122795874930892e-06
	2.101744399690501e-01

 31	3.100000000000001e-01
	-6.479078241828223e-15
	-1.180257145756713e-18
	-2.282440403754509e-14
	1.886938727426306e-07
	1.034983382838024e-05
	1.221913268058370e-06
	2.101744485845384e-01

 32	3.200000000000001e-01
	-6.422499974730066e-15
	-1.207264930031570e-18
	-2.301946301508592e-14
	2.017995285790306e-07
	1.129367291584122e-05
	1.330060266339398e-06
	2.101744580173201e-01

 33	3.300000000000001e-01
	-6.367420518745424e-15
	-1.234825972168699e-18
	-2.321224340768633e-14
	2.157113964308024e-07
	1.232543929314320e-05
	1.448078835572868e-06
	2.101744683481841e-01

 34	3.400000000000001e-01
	-6.313834071476031e-15
	-1.262950232638862e-18
	-2.340270834050554e-14
	2.304702609379092e-07
	1.345308852693858e-05
	1.576887504252966e-06
	2.101744796659104e-01

 35	3.500000000000001e-01
	-6.261733922487099e-15
	-1.291647847423482e-18
	-2.359082336128031e-14
	2.461182943959055e-07
	1.468520071261345e-05
	1.717487450175564e-06
	2.101744920679903e-01

 36	3.600000000000002e-01
	-6.211112477486687e-15
	-1.320929132123270e-18
	-2.377655643225336e-14
	2.626990555815988e-07
	1.603101140588979e-05
	1.870968900726010e-06
	2.101745056614249e-01

 37	3.700000000000002e-01
	-6.161961283764412e-15
	-1.350804586185308e-18
	-2.395987791769665e-14
	2.802574845096023e-07
	1.750044128022577e-05
	2.038517836424156e-06
	2.101745205635436e-01

 38	3.800000000000002e-01
	-6.114271056780065e-15
	-1.381284897250724e-18
	-2.414076056718942e-14
	2.988398928528917e-07
	1.910412400160845e-05
	2.221422982470251e-06
	2.101745369029040e-01

 39	3.900000000000002e-01
	-6.068031707791286e-15
	-1.412380945626206e-18
	-2.431917949482378e-14
	3.184939497600894e-07
	2.085343176197671e-05
	2.421083067697876e-06
	2.101745548202296e-01

 40	4.000000000000002e-01
	-6.023232372410904e-15
	-1.444103808881687e-18
	-2.449511215451557e-14
	3.392686628035946e-07
	2.276049786379513e-05
	2.639014324504278e-06
	2.101745744694141e-01

 41	4.100000000000002e-01
	-5.979861439984204e-15
	-1.476464766577260e-18
	-2.466853831160817e-14
	3.612143537967381e-07
	2.483823570249905e-05
	2.876858197020528e-06
	2.101745960185588e-01

 42	4.200000000000002e-01
	-5.937906583678369e-15
	-1.509475305122153e-18
	-2.483944001096077e-14
	3.843826292246914e-07
	2.710035345202763e-05
	3.136389218036264e-06
	2.101746196510893e-01

 43	4.300000000000002e-01
	-5.897354791177255e-15
	-1.543147122769059e-18
	-2.500780154171972e-14
	4.088263450438811e-07
	2.956136372302060e-05
	3.419523008061381e-06
	2.101746455668926e-01

 44	4.400000000000002e-01
	-5.858192395877246e-15
	-1.577492134746195e-18
	-2.517360939897393e-14
	4.345995656180973e-07
	3.223658743510019e-05
	3.728324342451784e-06
	2.101746739835190e-01

 45	4.500000000000002e-01
	-5.820405108481789e-15
	-1.612522478531327e-18
	-2.533685224249933e-14
	4.617575165770576e-07
	3.514215112577792e-05
	4.065015224836566e-06
	2.101747051374082e-01

 46	4.600000000000002e-01
	-5.783978048895305e-15
	-1.648250519269957e-18
	-2.549752085279842e-14
	4.903565314052244e-07
	3.829497691070000e-05
	4.431982897257787e-06
	2.101747392851484e-01

 47	4.700000000000003e-01
	-5.748895778319948e-15
	-1.684688855341819e-18
	-2.565560808464281e-14
	5.204539915957385e-07
	4.171276431501984e-05
	4.831787709593311e-06
	2.101747767047778e-01

 48	4.800000000000003e-01
	-5.715142331461976e-15
	-1.721850324078844e-18
	-2.581110881832605e-14
	5.521082602366782e-07
	4.541396321547011e-05
	5.267170763116628e-06
	2.101748176970688e-01

 49	4.900000000000003e-01
	-5.682701248758281e-15
	-1.759748007637840e-18
	-2.596401990883327e-14
	5.853786089350279e-07
	4.941773716888148e-05
	5.741061235607488e-06
	2.101748625868365e-01

 50	5.000000000000002e-01
	-5.651555608537107e-15
	-1.798395239032720e-18
	-2.611434013313278e-14
	6.203251380280446e-07
	5.374391645705822e-05
	6.256583288440434e-06
	2.101749117242306e-01

 51	5.100000000000002e-01
	-5.621688059031084e-15
	-1.837805608328329e-18
	-2.626207013579182e-14
	6.570086900824510e-07
	5.841294025138396e-05
	6.817062449728552e-06
	2.101749654859992e-01

 52	5.200000000000002e-01
	-5.593080850164629e-15
	-1.877992969001390e-18
	-2.640721237311607e-14
	6.954907567391876e-07
	6.344578739432814e-05
	7.426031362085559e-06
	2.101750242767086e-01

 53	5.300000000000002e-01
	-5.565715865042424e-15
	-1.918971444472027e-18
	-2.654977105600776e-14
	7.358333790255858e-07
	6.886389540983720e-05
	8.087234779100745e-06
	2.101750885299003e-01

 54	5.400000000000003e-01
	-5.539574651069468e-15
	-1.960755434809729e-18
	-2.668975209173357e-14
	7.780990413274431e-07
	7.468906749058635e-05
	8.804633691404947e-06
	2.101751587091693e-01

 55	5.500000000000003e-01
	-5.514638450637907e-15
	-2.003359623618761e-18
	-2.682716302478775e-14
	8.223505592909245e-07
	8.094336736696007e-05
	9.582408461459132e-06
	2.101752353091320e-01

 56	5.600000000000003e-01
	-5.490888231320332e-15
	-2.046798985106573e-18
	-2.696201297703072e-14
	8.686509620074315e-07
	8.764900213944662e-05
	1.042496084611821e-05
	2.101753188562714e-01

 57	5.700000000000003e-01
	-5.468304715513341e-15
	-2.091088791341394e-18
	-2.709431258727727e-14
	9.170633689236694e-07
	9.482819335132693e-05
	1.133691478780891e-05
	2.101754099096182e-01

 58	5.800000000000003e-01
	-5.446868409480326e-15
	-2.136244619701817e-18
	-2.722407395050128e-14
	9.676508620129722e-07
	1.025030367898096e-04
	1.232311585898119e-05
	2.101755090612706e-01

 59	5.900000000000003e-01
	-5.426559631745779e-15
	-2.182282360525203e-18
	-2.735131055681890e-14
	1.020476353841723e-06
	1.106953517281439e-04
	1.338862925049861e-05
	2.101756169366932e-01

 60	6.000000000000003e-01
	-5.407358540799004e-15
	-2.229218224958401e-18
	-2.747603723040262e-14
	1.075602452265027e-06
	1.194265205549553e-04
	1.453873620293038e-05
	2.101757341947882e-01

 61	6.100000000000003e-01
	-5.389245162068545e-15
	-2.277068753017592e-18
	-2.759827006847338e-14
	1.133091322587557e-06
	1.287173199757421e-04
	1.577892879037524e-05
	2.101758615277260e-01

 62	6.200000000000003e-01
	-5.372199414133123e-15
	-2.325850821861728e-18
	-2.771802638050937e-14
	1.193004548126886e-06
	1.385877452100646e-04
	1.711490297950821e-05
	2.101759996604700e-01

 63	6.300000000000003e-01
	-5.356201134139336e-15
	-2.375581654285342e-18
	-2.783532462780266e-14
	1.255402990215628e-06
	1.490568288408092e-04
	1.855254990195928e-05
	2.101761493500268e-01

 64	6.400000000000003e-01
	-5.341230102399859e-15
	-2.426278827436980e-18
	-2.795018436348697e-14
	1.320346648773942e-06
	1.601424561930699e-04
	2.009794529583587e-05
	2.101763113843531e-01

 65	6.500000000000004e-01
	-5.327266066150058e-15
	-2.477960281769325e-18
	-2.806262617315269e-14
	1.387894524672441e-06
	1.718611793232190e-04
	2.175733709202198e-05
	2.101764865809347e-01

 66	6.600000000000004e-01
	-5.314288762444802e-15
	-2.530644330226739e-18
	-2.817267161615696e-14
	1.458104485186014e-06
	1.842280318772883e-04
	2.353713114262673e-05
	2.101766757850164e-01

 67	6.700000000000004e-01
	-5.302277940180548e-15
	-2.584349667677044e-18
	-2.828034316772849e-14
	1.531033133908362e-06
	1.972563472254648e-04
	2.544387511232851e-05
	2.101768798674699e-01

 68	6.800000000000004e-01
	-5.291213381231470e-15
	-2.639095380594629e-18
	-2.838566416196071e-14
	1.606735686553862e-06
	2.109575823902930e-04
	2.748424057803205e-05
	2.101770997222978e-01

 69	6.900000000000004e-01
	-5.281074920691616e-15
	-2.694900957000707e-18
	-2.848865873577712e-14
	1.685265854114670e-06
	2.253411503545498e-04
	2.966500340782157e-05
	2.101773362637843e-01

 70	7.000000000000004e-01
	-5.271842466218242e-15
	-2.751786296669302e-18
	-2.858935177394715e-14
	1.766675734865875e-06
	2.404142633560506e-04
	3.199302251621641e-05
	2.101775904232858e-01

 71	7.100000000000004e-01
	-5.263496016474460e-15
	-2.809771721605001e-18
	-2.868776885522286e-14
	1.851015716717143e-06
	2.561817897470195e-04
	3.447521711870655e-05
	2.101778631457048e-01

 72	7.200000000000004e-01
	-5.256015678671993e-15
	-2.868877986800542e-18
	-2.878393619965912e-14
	1.938334391395634e-06
	2.726461269126698e-04
	3.711854263396397e-05
	2.101781553856334e-01

 73	7.300000000000004e-01
	-5.249381685217691e-15
	-2.929126291282654e-18
	-2.887788061717455e-14
	2.028678481909631e-06
	2.898070926060287e-04
	3.992996540642667e-05
	2.101784681032187e-01

 74	7.400000000000004e-01
	-5.243574409469800e-15
	-2.990538289453421e-18
	-2.896962945740225e-14
	2.122092784686092e-06
	3.076618368641678e-04
	4.291643644460767e-05
	2.101788022597948e-01

 75	7.500000000000004e-01
	-5.238574380612137e-15
	-3.053136102735549e-18
	-2.905921056087429e-14
	2.218620127697271e-06
	3.262047764267703e-04
	4.608486439094990e-05
	2.101791588132804e-01

 76	7.600000000000005e-01
	-5.234362297656572e-15
	-3.116942331531450e-18
	-2.914665221157709e-14
	2.318301345792545e-06
	3.454275532848430e-04
	4.944208795681778e-05
	2.101795387134357e-01

 77	7.700000000000005e-01
	-5.230919042586541e-15
	-3.181980067502488e-18
	-2.923198309090870e-14
	2.421175274332518e-06
	3.653190186504622e-04
	5.299484807082406e-05
	2.101799428970154e-01

 78	7.800000000000005e-01
	-5.228225692655069e-15
	-3.248272906181076e-18
	-2.931523223306453e-14
	2.527278762085498e-06
	3.858652432643884e-04
	5.674975999975111e-05
	2.101803722828530e-01

 79	7.900000000000005e-01
	-5.226263531853674e-15
	-3.315844959921473e-18
	-2.939642898187122e-14
	2.636646704192407e-06
	4.070495545547964e-04
	6.071328570845415e-05
	2.101808277669642e-01

 80	8.000000000000005e-01
	-5.225014061568910e-15
	-3.384720871202216e-18
	-2.947560294908492e-14
	2.749312095839453e-06
	4.288526007365957e-04
	6.489170672815043e-05
	2.101813102177252e-01

 81	8.100000000000005e-01
	-5.224459010445327e-15
	-3.454925826288414e-18
	-2.955278397416385e-14
	2.865306107100052e-06
	4.512524415062932e-04
	6.929109780118710e-05
	2.101818204711587e-01

 82	8.200000000000005e-01
	-5.224580343474510e-15
	-3.526485569265463e-18
	-2.962800208552169e-14
	2.984658179222455e-06
	4.742246645525899e-04
	7.391730156471405e-05
	2.101823593264406e-01

 83	8.300000000000005e-01
	-5.225360270330808e-15
	-3.599426416454578e-18
	-2.970128746326386e-14
	3.107396142451507e-06
	4.977425266783941e-04
	7.877590452572971e-05
	2.101829275416394e-01

 84	8.400000000000005e-01
	-5.226781252975209e-15
	-3.673775271222173e-18
	-2.977267040340436e-14
	3.233546355285055e-06
	5.217771179259283e-04
	8.387221456584591e-05
	2.101835258297593e-01

 85	8.500000000000005e-01
	-5.228826012549878e-15
	-3.749559639194166e-18
	-2.984218128355776e-14
	3.363133864881767e-06
	5.462975467228741e-04
	8.921124019609236e-05
	2.101841548551506e-01

 86	8.600000000000005e-01
	-5.231477535586244e-15
	-3.826807643887934e-18
	-2.990985053009659e-14
	3.496182588161885e-06
	5.712711437331635e-04
	9.479767176052793e-05
	2.101848152303240e-01

 87	8.700000000000006e-01
	-5.234719079549860e-15
	-3.905548042774422e-18
	-2.997570858676275e-14
	3.632715512979189e-06
	5.966636818087370e-04
	1.006358647627485e-04
	2.101855075132109e-01

 88	8.800000000000006e-01
	-5.238534177745783e-15
	-3.985810243784459e-18
	-3.003978588471660e-14
	3.772754918594340e-06
	6.224396092048338e-04
	1.067298254621017e-04
	2.101862322048788e-01

 89	8.900000000000006e-01
	-5.242906643608760e-15
	-4.067624322270885e-18
	-3.010211281400671e-14
	3.916322614550251e-06
	6.485622930458956e-04
	1.130831988570810e-04
	2.101869897477711e-01

 90	9.000000000000006e-01
	-5.247820574402168e-15
	-4.151021038444046e-18
	-3.016271969643882e-14
	4.063440196942057e-06
	6.749942699152429e-04
	1.196992591426096e-04
	2.101877805244462e-01

 91	9.100000000000006e-01
	-5.253260354350074e-15
	-4.236031855292513e-18
	-3.022163675982203e-14
	4.214129320989595e-06
	7.016975003904210e-04
	1.265809026963295e-04
	2.101886048568513e-01

 92	9.200000000000006e-01
	-5.259210657226455e-15
	-4.322688957006473e-18
	-3.027889411356726e-14
	4.368411988760357e-06
	7.286336243571243e-04
	1.337306436172121e-04
	2.101894630061039e-01

 93	9.300000000000006e-01
	-5.265656448425929e-15
	-4.411025267919092e-18
	-3.033452172561112e-14
	4.526310850857919e-06
	7.557642140058368e-04
	1.411506118084547e-04
	2.101903551727874e-01

 94	9.400000000000006e-01
	-5.272582986539964e-15
	-4.501074471982554e-18
	-3.038854940063701e-14
	4.687849520883584e-06
	7.830510215427328e-04
	1.488425535662343e-04
	2.101912814977561e-01

 95	9.500000000000006e-01
	-5.279975824461973e-15
	-4.592871032796385e-18
	-3.044100675956393e-14
	4.853052901499815e-06
	8.104562188252965e-04
	1.568078346070924e-04
	2.101922420633937e-01

 96	9.600000000000006e-01
	-5.287820810044960e-15
	-4.686450214206534e-18
	-3.049192322027191e-14
	5.021947520969974e-06
	8.379426263567743e-04
	1.650474454399061e-04
	2.101932368953115e-01

 97	9.700000000000006e-01
	-5.296104086334674e-15
	-4.781848101493029e-18
	-3.054132797953176e-14
	5.194561879120351e-06
	8.654739293350774e-04
	1.735620089640314e-04
	2.101942659644615e-01

 98	9.800000000000006e-01
	-5.304812091401039e-15
	-4.879101623166080e-18
	-3.058924999610641e-14
	5.370926801766383e-06
	8.930148787433862e-04
	1.823517901536321e-04
	2.101953291896045e-01

 99	9.900000000000007e-01
	-5.313931557789761e-15
	-4.978248573391414e-18
	-3.063571797498969e-14
	5.551075802762174e-06
	9.205314757830323e-04
	1.914167076696399e-04
	2.101964264400927e-01

 100	1.000000000000001e+00
	-5.323449511616088e-15
	-5.079327635064761e-18
	-3.068076035274867e-14
	5.735045452970147e-06
	9.479911382763499e-04
	2.007563472254586e-04
	2.101975575389303e-01

 101	1.010000000000001e+00
	-5.333353271322016e-15
	-5.182378403557641e-18
	-3.072440528393372e-14
