Title: ** sch_path: /home/andylithia/openmpw/project-yatsuhashi-chip1/xschem/gmid_test/nmos_test.sch
Date: Sun Jul 17 22:51:45  2022
Plotname: DC transfer characteristic
Flags: real
No. Variables: 8
No. Points: 181
Variables:
	0	v(v-sweep)	voltage
	1	@m.xm1.msky130_fd_pr__nfet_01v8[cgb]	capacitance
	2	@m.xm1.msky130_fd_pr__nfet_01v8[cgd]	capacitance
	3	@m.xm1.msky130_fd_pr__nfet_01v8[cgs]	capacitance
	4	@m.xm1.msky130_fd_pr__nfet_01v8[gds]	admittance
	5	@m.xm1.msky130_fd_pr__nfet_01v8[gm]	admittance
	6	i(@m.xm1.msky130_fd_pr__nfet_01v8[id])	current
	7	v(@m.xm1.msky130_fd_pr__nfet_01v8[vth])	voltage
Values:
 0	0.000000000000000e+00
	-5.909594590876600e-15
	-1.820704205431056e-18
	-9.086519420388234e-15
	2.288633892568321e-08
	8.060499191314126e-07
	9.172960563344076e-08
	2.529001473717545e-01

 1	1.000000000000000e-02
	-5.843087008271869e-15
	-1.873511047944209e-18
	-9.239192902466014e-15
	2.492456503393891e-08
	8.792560785159878e-07
	1.001508391998671e-07
	2.529001483405188e-01

 2	2.000000000000000e-02
	-5.777233906864773e-15
	-1.927849051524785e-18
	-9.392127954150619e-15
	2.713665120423997e-08
	9.591053037254292e-07
	1.093368579497365e-07
	2.529001493972629e-01

 3	3.000000000000000e-02
	-5.712053988898062e-15
	-1.983762755150310e-18
	-9.545260255075169e-15
	2.953647745867845e-08
	1.046215770656011e-06
	1.193571347016192e-07
	2.529001505499844e-01

 4	4.000000000000000e-02
	-5.647565676089146e-15
	-2.041298041735078e-18
	-9.698525233968293e-15
	3.213892010760179e-08
	1.141267120484839e-06
	1.302876260476566e-07
	2.529001518074205e-01

 5	5.000000000000000e-02
	-5.583787069301263e-15
	-2.100502182735982e-18
	-9.851858168752182e-15
	3.495991095626806e-08
	1.245007174188275e-06
	1.422114199597508e-07
	2.529001531791288e-01

 6	6.000000000000000e-02
	-5.520735909296421e-15
	-2.161423884438647e-18
	-1.000519428700124e-14
	3.801649878348077e-08
	1.358259426311724e-06
	1.552194543678222e-07
	2.529001546755736e-01

 7	7.000000000000001e-02
	-5.458429538685248e-15
	-2.224113335994376e-18
	-1.015846886644824e-14
	4.132691306300758e-08
	1.481931403892263e-06
	1.694113149261047e-07
	2.529001563082118e-01

 8	8.000000000000000e-02
	-5.396884865184339e-15
	-2.288622259281118e-18
	-1.031161733522379e-14
	4.491062988680969e-08
	1.617023983592848e-06
	1.848961210780842e-07
	2.529001580895991e-01

 9	9.000000000000000e-02
	-5.336118326286436e-15
	-2.355003960665619e-18
	-1.046457537151693e-14
	4.878844003695866e-08
	1.764641767317673e-06
	2.017935104973585e-07
	2.529001600335015e-01

 10	9.999999999999999e-02
	-5.276145855443047e-15
	-2.423313384746886e-18
	-1.061727900234670e-14
	5.298251914063546e-08
	1.926004623709323e-06
	2.202347330200776e-07
	2.529001621550169e-01

 11	1.100000000000000e-01
	-5.216982849852907e-15
	-2.493607170165117e-18
	-1.076966470113881e-14
	5.751649982994597e-08
	2.102460509818892e-06
	2.403638662933051e-07
	2.529001644707287e-01

 12	1.200000000000000e-01
	-5.158644139942695e-15
	-2.565943707564355e-18
	-1.092166948380885e-14
	6.241554581554590e-08
	2.295499693697058e-06
	2.623391665393123e-07
	2.529001669988400e-01

 13	1.300000000000000e-01
	-5.101143960619556e-15
	-2.640383199800149e-18
	-1.107323100305812e-14
	6.770642777030551e-08
	2.506770504443756e-06
	2.863345690726117e-07
	2.529001697593689e-01

 14	1.400000000000000e-01
	-5.044495924366858e-15
	-2.716987724489020e-18
	-1.122428764060076e-14
	7.341760090673602e-08
	2.738096741115439e-06
	3.125413544973103e-07
	2.529001727743249e-01

 15	1.500000000000000e-01
	-4.988712996247159e-15
	-2.795821299000706e-18
	-1.137477859704805e-14
	7.957928411955585e-08
	2.991496875504675e-06
	3.411699978452084e-07
	2.529001760679226e-01

 16	1.600000000000000e-01
	-4.933807470867837e-15
	-2.876949947997076e-18
	-1.152464397918913e-14
	8.622354055293514e-08
	3.269205185833826e-06
	3.724522192768170e-07
	2.529001796668308e-01

 17	1.700000000000000e-01
	-4.879790951356323e-15
	-2.960441773630235e-18
	-1.167382488442062e-14
	9.338435944064365e-08
	3.573694958444710e-06
	4.066432563398156e-07
	2.529001836004196e-01

 18	1.800000000000000e-01
	-4.826674330383405e-15
	-3.046367028513152e-18
	-1.182226348209055e-14
	1.010977390566546e-07
	3.907703892179847e-06
	4.440243791401407e-07
	2.529001879010557e-01

 19	1.900000000000000e-01
	-4.774467773264142e-15
	-3.134798191584802e-18
	-1.196990309153859e-14
	1.094017706039591e-07
	4.274261834863178e-06
	4.849056711040053e-07
	2.529001926044203e-01

 20	2.000000000000000e-01
	-4.723180703157292e-15
	-3.225810046995884e-18
	-1.211668825662966e-14
	1.183367228604347e-07
	4.676720972572425e-06
	5.296290992622281e-07
	2.529001977498694e-01

 21	2.100000000000000e-01
	-4.672821788374980e-15
	-3.319479766147986e-18
	-1.226256481659632e-14
	1.279451273928408e-07
	5.118788579701535e-06
	5.785718991351023e-07
	2.529002033808147e-01

 22	2.200000000000001e-01
	-4.623398931806140e-15
	-3.415886993024459e-18
	-1.240747997302165e-14
	1.382718641433574e-07
	5.604562420547919e-06
	6.321503002930328e-07
	2.529002095451578e-01

 23	2.300000000000001e-01
	-4.574919262448013e-15
	-3.515113932957953e-18
	-1.255138235281407e-14
	1.493642471878414e-07
	6.138568870726895e-06
	6.908236194676310e-07
	2.529002162957604e-01

 24	2.400000000000001e-01
	-4.527389129032002e-15
	-3.617245444988140e-18
	-1.269422206704340e-14
	1.612721104611453e-07
	6.725803798492514e-06
	7.550987486341641e-07
	2.529002236909580e-01

 25	2.500000000000001e-01
	-4.480814095721725e-15
	-3.722369137967588e-18
	-1.283595076552700e-14
	1.740478932425733e-07
	7.371776211422794e-06
	8.255350657187044e-07
	2.529002317951363e-01

 26	2.600000000000001e-01
	-4.435198939853020e-15
	-3.830575470583695e-18
	-1.297652168707483e-14
	1.877467251941168e-07
	8.082554632322809e-06
	9.027497954353830e-07
	2.529002406793278e-01

 27	2.700000000000001e-01
	-4.390547651678524e-15
	-3.941957855471259e-18
	-1.311588970531969e-14
	2.024265107453242e-07
	8.864816119055596e-06
	9.874238471567046e-07
	2.529002504219085e-01

 28	2.800000000000001e-01
	-4.346863436071373e-15
	-4.056612767599878e-18
	-1.325401137008147e-14
	2.181480126221665e-07
	9.725897785872465e-06
	1.080308155587772e-06
	2.529002611093104e-01

 29	2.900000000000001e-01
	-4.304148716136496e-15
	-4.174639857127849e-18
	-1.339084494423011e-14
	2.349749343226774e-07
	1.067385061827739e-05
	1.182230548268139e-06
	2.529002728368205e-01

 30	3.000000000000001e-01
	-4.262405138671022e-15
	-4.296142066924543e-18
	-1.352635043603328e-14
	2.529740013501175e-07
	1.171749529929784e-05
	1.294103161480653e-06
	2.529002857094305e-01

 31	3.100000000000001e-01
	-4.221633581409481e-15
	-4.421225754972808e-18
	-1.366048962699224e-14
	2.722150410248574e-07
	1.286647968214575e-05
	1.416930422915906e-06
	2.529002998427626e-01

 32	3.200000000000001e-01
	-4.181834161984074e-15
	-4.550000821873331e-18
	-1.379322609518743e-14
	2.927710607094794e-07
	1.413133745276646e-05
	1.551817615338362e-06
	2.529003153640483e-01

 33	3.300000000000001e-01
	-4.143006248525214e-15
	-4.682580843682631e-18
	-1.392452523417291e-14
	3.147183242979360e-07
	1.552354742604594e-05
	1.699980030440325e-06
	2.529003324131906e-01

 34	3.400000000000001e-01
	-4.105148471823113e-15
	-4.819083210330928e-18
	-1.405435426747553e-14
	3.381364268393780e-07
	1.705559281213944e-05
	1.862752715974598e-06
	2.529003511438753e-01

 35	3.500000000000001e-01
	-4.068258738967349e-15
	-4.959629269872714e-18
	-1.418268225876997e-14
	3.631083671906758e-07
	1.874101967546166e-05
	2.041600812052646e-06
	2.529003717247783e-01

 36	3.600000000000002e-01
	-4.032334248377935e-15
	-5.104344478842089e-18
	-1.430948011781667e-14
	3.897206186193129e-07
	2.059449368971770e-05
	2.238130464125756e-06
	2.529003943408104e-01

 37	3.700000000000002e-01
	-3.997371506138435e-15
	-5.253358558992746e-18
	-1.443472060226340e-14
	4.180631973104005e-07
	2.263185416968593e-05
	2.454100290584311e-06
	2.529004191944403e-01

 38	3.800000000000002e-01
	-3.963366343539858e-15
	-5.406805660718477e-18
	-1.455837831542381e-14
	4.482297287686714e-07
	2.487016423651453e-05
	2.691433372093514e-06
	2.529004465070762e-01

 39	3.900000000000002e-01
	-3.930313935741800e-15
	-5.564824533466589e-18
	-1.468042970015919e-14
	4.803175121490289e-07
	2.732775585071907e-05
	2.952229717731632e-06
	2.529004765205095e-01

 40	4.000000000000002e-01
	-3.898208821456444e-15
	-5.727558703468320e-18
	-1.480085302900050e-14
	5.144275825979798e-07
	3.002426832901486e-05
	3.238779149738429e-06
	2.529005094983887e-01

 41	4.100000000000002e-01
	-3.867044923560172e-15
	-5.895156659130481e-18
	-1.491962839065721e-14
	5.506647717436774e-07
	3.298067885119210e-05
	3.553574534278812e-06
	2.529005457277461e-01

 42	4.200000000000002e-01
	-3.836815570537640e-15
	-6.067772044446137e-18
	-1.503673767306856e-14
	5.891377665349915e-07
	3.621932336553305e-05
	3.899325270183315e-06
	2.529005855205603e-01

 43	4.300000000000002e-01
	-3.807513518662898e-15
	-6.245563860803557e-18
	-1.515216454316101e-14
	6.299591667007753e-07
	3.976390622024910e-05
	4.278970931285998e-06
	2.529006292153178e-01

 44	4.400000000000002e-01
	-3.779130974823671e-15
	-6.428696677589153e-18
	-1.526589442348132e-14
	6.732455411795054e-07
	4.363949678891412e-05
	4.695694940931705e-06
	2.529006771785948e-01

 45	4.500000000000002e-01
	-3.751659619895278e-15
	-6.617340852000763e-18
	-1.537791446588114e-14
	7.191174839578352e-07
	4.787251132498454e-05
	5.152938139711640e-06
	2.529007298066116e-01

 46	4.600000000000002e-01
	-3.725090632572998e-15
	-6.811672758508599e-18
	-1.548821352243238e-14
	7.676996698544247e-07
	5.249067827943629e-05
	5.654412089797948e-06
	2.529007875267804e-01

 47	4.700000000000003e-01
	-3.699414713573006e-15
	-7.011875028424994e-18
	-1.559678211375711e-14
	8.191209108935698e-07
	5.752298535155337e-05
	6.204111941734176e-06
	2.529008507991719e-01

 48	4.800000000000003e-01
	-3.674622110114891e-15
	-7.218136800063372e-18
	-1.570361239495684e-14
	8.735142140314185e-07
	6.299960662093717e-05
	6.806328672588000e-06
	2.529009201179317e-01

 49	4.900000000000003e-01
	-3.650702640600934e-15
	-7.430653979995089e-18
	-1.580869811932809e-14
	9.310168411267700e-07
	6.895180823354953e-05
	7.465660488437776e-06
	2.529009960125944e-01

 50	5.000000000000002e-01
	-3.627645719410463e-15
	-7.649629515937098e-18
	-1.591203460005136e-14
	9.917703721881648e-07
	7.541183129000917e-05
	8.187023169728393e-06
	2.529010790492680e-01

 51	5.100000000000002e-01
	-3.605440381730802e-15
	-7.875273681829032e-18
	-1.601361867003956e-14
	1.055920773078987e-06
	8.241275081353946e-05
	8.975659125617404e-06
	2.529011698316869e-01

 52	5.200000000000002e-01
	-3.584075308349472e-15
	-8.107804375690426e-18
	-1.611344864013121e-14
	1.123618469022503e-06
	8.998830995994347e-05
	9.837144913595091e-06
	2.529012690020589e-01

 53	5.300000000000002e-01
	-3.563538850336166e-15
	-8.347447430873385e-18
	-1.621152425581082e-14
	1.195018425417628e-06
	9.817272897326402e-05
	1.077739697395307e-05
	2.529013772417391e-01

 54	5.400000000000003e-01
	-3.543819053546582e-15
	-8.594436941363373e-18
	-1.630784665263616e-14
	1.270280237653610e-06
	1.070004887874249e-04
	1.180267532567038e-05
	2.529014952716473e-01

 55	5.500000000000003e-01
	-3.524903682883900e-15
	-8.849015601808665e-18
	-1.640241831054849e-14
	1.349568231795123e-06
	1.165060896231025e-04
	1.291958497150799e-05
	2.529016238524279e-01

 56	5.600000000000003e-01
	-3.506780246258025e-15
	-9.111435062999585e-18
	-1.649524300723721e-14
	1.433051578197636e-06
	1.267237854254912e-04
	1.413507476606759e-05
	2.529017637843086e-01

 57	5.700000000000003e-01
	-3.489436018186336e-15
	-9.381956303547398e-18
	-1.658632577072558e-14
	1.520904420303148e-06
	1.376872955252319e-04
	1.545643351170483e-05
	2.529019159066603e-01

 58	5.800000000000003e-01
	-3.472858062983970e-15
	-9.660850018563196e-18
	-1.667567283133902e-14
	1.613306021057015e-06
	1.494294954723343e-04
	1.689128306386609e-05
	2.529020810971875e-01

 59	5.900000000000003e-01
	-3.457033257495596e-15
	-9.948397026163746e-18
	-1.676329157321108e-14
	1.710440929573283e-06
	1.619820895796628e-04
	1.844756824987025e-05
	2.529022602707696e-01

 60	6.000000000000003e-01
	-3.441948313324781e-15
	-1.024488869268884e-17
	-1.684919048547659e-14
	1.812499170856942e-06
	1.753752683049865e-04
	2.013354343353371e-05
	2.529024543779051e-01

 61	6.100000000000003e-01
	-3.427589798521024e-15
	-1.055062737754848e-17
	-1.693337911329427e-14
	1.919676461562325e-06
	1.896373541830166e-04
	2.195775559229425e-05
	2.529026644027560e-01

 62	6.200000000000003e-01
	-3.413944158688561e-15
	-1.086592689867352e-17
	-1.701586800883463e-14
	2.032174454924853e-06
	2.047944405743736e-04
	2.392902381346086e-05
	2.529028913607948e-01

 63	6.300000000000003e-01
	-3.400997737484651e-15
	-1.119111301959114e-17
	-1.709666868236229e-14
	2.150201018144768e-06
	2.208700280088653e-04
	2.605641516153226e-05
	2.529031362960049e-01

 64	6.400000000000003e-01
	-3.388736796479429e-15
	-1.152652395920085e-17
	-1.717579355353353e-14
	2.273970545623006e-06
	2.378846633472410e-04
	2.834921691863784e-05
	2.529034002776882e-01

 65	6.500000000000004e-01
	-3.377147534352450e-15
	-1.187251092538232e-17
	-1.725325590302397e-14
	2.403704311549004e-06
	2.558555873503770e-04
	3.081690525434711e-05
	2.529036843968570e-01

 66	6.600000000000004e-01
	-3.366216105405050e-15
	-1.222943867362819e-17
	-1.732906982459299e-14
	2.539630865414663e-06
	2.747963965099858e-04
	3.346911043843465e-05
	2.529039897622235e-01

 67	6.700000000000004e-01
	-3.355928637370975e-15
	-1.259768609195633e-17
	-1.740325017768442e-14
	2.681986474077790e-06
	2.947167251446359e-04
	3.631557876961936e-05
	2.529043174958127e-01

 68	6.800000000000004e-01
	-3.346271248510909e-15
	-1.297764681342426e-17
	-1.747581254065607e-14
	2.831015614019944e-06
	3.156219537855242e-04
	3.936613145357000e-05
	2.529046687282296e-01

 69	6.900000000000004e-01
	-3.337230063979982e-15
	-1.336972985763585e-17
	-1.754677316472254e-14
	2.986971517440197e-06
	3.375129497578431e-04
	4.263062072326433e-05
	2.529050445936084e-01

 70	7.000000000000004e-01
	-3.328791231459823e-15
	-1.377436030271264e-17
	-1.761614892868994e-14
	3.150116775797743e-06
	3.603858455990825e-04
	4.611888355264506e-05
	2.529054462242836e-01

 71	7.100000000000004e-01
	-3.320940936050208e-15
	-1.419197998926926e-17
	-1.768395729455281e-14
	3.320724004367278e-06
	3.842318605431980e-04
	4.984069336898789e-05
	2.529058747452366e-01

 72	7.200000000000004e-01
	-3.313665414417351e-15
	-1.462304825803117e-17
	-1.775021626401769e-14
	3.499076571305011e-06
	4.090371697418208e-04
	5.380571021898995e-05
	2.529063312683532e-01

 73	7.300000000000004e-01
	-3.306950968198938e-15
	-1.506804272280382e-17
	-1.781494433601073e-14
	3.685469394646444e-06
	4.347828251982894e-04
	5.802342988689120e-05
	2.529068168865837e-01

 74	7.400000000000004e-01
	-3.300783976667959e-15
	-1.552746008061153e-17
	-1.787816046522023e-14
	3.880209810577212e-06
	4.614447315700082e-04
	6.250313249864835e-05
	2.529073326680228e-01

 75	7.500000000000004e-01
	-3.295150908659621e-15
	-1.600181696091326e-17
	-1.793988402171941e-14
	4.083618516243062e-06
	4.889936790668767e-04
	6.725383117310424e-05
	2.529078796500018e-01

 76	7.600000000000005e-01
	-3.290038333767942e-15
	-1.649165081590797e-17
	-1.800013475170769e-14
	4.296030590304598e-06
	5.173954346602866e-04
	7.228422129828379e-05
	2.529084588332632e-01

 77	7.700000000000005e-01
	-3.285432932819857e-15
	-1.699752085405605e-17
	-1.805893273940428e-14
	4.517796594407784e-06
	5.466108917440952e-04
	7.760263101768187e-05
	2.529090711762622e-01

 78	7.800000000000005e-01
	-3.281321507636860e-15
	-1.752000901905431e-17
	-1.811629837012151e-14
	4.749283758741749e-06
	5.765962772843469e-04
	8.321697350719699e-05
	2.529097175896786e-01

 79	7.900000000000005e-01
	-3.277690990095497e-15
	-1.805972101662885e-17
	-1.817225229454047e-14
	4.990877254904894e-06
	6.073034143889044e-04
	8.913470160809328e-05
	2.529103989311973e-01

 80	8.000000000000005e-01
	-3.274528450499363e-15
	-1.861728739163069e-17
	-1.822681539420683e-14
	5.242981559407685e-06
	6.386800371522914e-04
	9.536276535513909e-05
	2.529111160006328e-01

 81	8.100000000000005e-01
	-3.271821105276446e-15
	-1.919336465807145e-17
	-1.828000874825947e-14
	5.506021911320016e-06
	6.706701536158905e-04
	1.019075729023964e-04
	2.529118695354191e-01

 82	8.200000000000005e-01
	-3.269556324016870e-15
	-1.978863648485794e-17
	-1.833185360140082e-14
	5.780445867828810e-06
	7.032144517574394e-04
	1.087749553026784e-04
	2.529126602065701e-01

 83	8.300000000000005e-01
	-3.267721635866910e-15
	-2.040381494014992e-17
	-1.838237133311297e-14
	6.066724961822172e-06
	7.362507426132680e-04
	1.159701355415955e-04
	2.529134886151203e-01

 84	8.400000000000005e-01
	-3.266304735295730e-15
	-2.103964179742470e-17
	-1.843158342812042e-14
	6.365356466064703e-06
	7.697144339636341e-04
	1.234977021645605e-04
	2.529143552890767e-01

 85	8.500000000000005e-01
	-3.265293487252431e-15
	-2.169688990648663e-17
	-1.847951144809612e-14
	6.676865269082524e-06
	8.035390274935628e-04
	1.313615877666126e-04
	2.529152606809478e-01

 86	8.600000000000005e-01
	-3.264675931731195e-15
	-2.237636463284503e-17
	-1.852617700460410e-14
	7.001805868543271e-06
	8.376566319911937e-04
	1.395650525420985e-04
	2.529162051658518e-01

 87	8.700000000000006e-01
	-3.264440287762630e-15
	-2.307890536906733e-17
	-1.857160173326936e-14
	7.340764488698789e-06
	8.719984849693105e-04
	1.481106730158021e-04
	2.529171890402138e-01

 88	8.800000000000006e-01
	-3.264574956850224e-15
	-2.380538712190316e-17
	-1.861580726916203e-14
	7.694361329358882e-06
	9.064954750941694e-04
	1.570003360007838e-04
	2.529182125210723e-01

 89	8.900000000000006e-01
	-3.265068525870362e-15
	-2.455672217918137e-17
	-1.865881522338065e-14
	8.063252954887070e-06
	9.410786579744592e-04
	1.662352377527510e-04
	2.529192757459685e-01

 90	9.000000000000006e-01
	-3.265909769455214e-15
	-2.533386186069365e-17
	-1.870064716081638e-14
	8.448134832851093e-06
	9.756797581916585e-04
	1.758158882178198e-04
	2.529203787734441e-01

 91	9.100000000000006e-01
	-3.267087651877076e-15
	-2.613779835750220e-17
	-1.874132457907864e-14
	8.849744033225675e-06
	1.010231650926921e-03
	1.857421202016658e-04
	2.529215215840875e-01

 92	9.200000000000006e-01
	-3.268591328453319e-15
	-2.696956666434271e-17
	-1.878086888855906e-14
	9.268862100427121e-06
	1.044668817139572e-03
	1.960131032245366e-04
	2.529227040821289e-01

 93	9.300000000000006e-01
	-3.270410146490495e-15
	-2.783024661004021e-17
	-1.881930139361063e-14
	9.706318111962453e-06
	1.078927766957152e-03
	2.066273617697000e-04
	2.529239260975278e-01

 94	9.400000000000006e-01
	-3.272533645786317e-15
	-2.872096499110572e-17
	-1.885664327481537e-14
	1.016299193909388e-05
	1.112947426722191e-03
	2.175827975834212e-04
	2.529251873885569e-01

 95	9.500000000000006e-01
	-3.274951558707429e-15
	-2.964289781396265e-17
	-1.889291557231424e-14
	1.063981772665721e-05
	1.146669485982369e-03
	2.288767156433151e-04
	2.529264876447651e-01

 96	9.600000000000006e-01
	-3.277653809861303e-15
	-3.059727265151225e-17
	-1.892813917016973e-14
	1.113778761102388e-05
	1.180038701582360e-03
	2.405058533791841e-04
	2.529278264903668e-01

 97	9.700000000000006e-01
	-3.280630515379222e-15
	-3.158537112006795e-17
	-1.896233478173237e-14
	1.165795569716960e-05
	1.213003156894410e-03
	2.524664127066020e-04
	2.529292034879057e-01

 98	9.800000000000006e-01
	-3.283871981827734e-15
	-3.260853148295941e-17
	-1.899552293597977e-14
	1.220144231789908e-05
	1.245514475086543e-03
	2.647540944182257e-04
	2.529306181422230e-01

 99	9.900000000000007e-01
	-3.287368704764977e-15
	-3.366815138745639e-17
	-1.902772396479739e-14
	1.276943860049188e-05
	1.277527986153058e-03
	2.773641344711478e-04
	2.529320699046429e-01

 100	1.000000000000001e+00
	-3.291111366957630e-15
	-3.476569074197526e-17
	-1.905895799116838e-14
	1.336321136837304e-05
	1.309002848203264e-03
	2.902913417098334e-04
	2.529335581772966e-01

 101	1.010000000000001e+00
	-3.295090836274143e-15
	-3.590267474087964e-17
	-1.908924491824025e-14
