Title: ** sch_path: /home/andylithia/openmpw/project-yatsuhashi-chip1/xschem/gmid_test/nmos_test.sch
Date: Tue Jul 19 23:15:45  2022
Plotname: DC transfer characteristic
Flags: real
No. Variables: 8
No. Points: 181
Variables:
	0	v(v-sweep)	voltage
	1	@m.xm1.msky130_fd_pr__nfet_01v8[cgb]	capacitance
	2	@m.xm1.msky130_fd_pr__nfet_01v8[cgd]	capacitance
	3	@m.xm1.msky130_fd_pr__nfet_01v8[cgs]	capacitance
	4	@m.xm1.msky130_fd_pr__nfet_01v8[gds]	admittance
	5	@m.xm1.msky130_fd_pr__nfet_01v8[gm]	admittance
	6	i(@m.xm1.msky130_fd_pr__nfet_01v8[id])	current
	7	v(@m.xm1.msky130_fd_pr__nfet_01v8[vth])	voltage
Values:
 0	0.000000000000000e+00
	-7.456281726550519e-15
	-3.969325138096593e-19
	-1.206840717474748e-14
	1.244703966485046e-08
	5.352136802108279e-07
	6.117851241443511e-08
	2.350661117492627e-01

 1	1.000000000000000e-02
	-7.370658506947407e-15
	-4.072317315826549e-19
	-1.226671919719844e-14
	1.354954495554288e-08
	5.834526082122326e-07
	6.676839288033075e-08
	2.350661122330420e-01

 2	2.000000000000000e-02
	-7.285911307909870e-15
	-4.177737306514071e-19
	-1.246523483956113e-14
	1.474520968086646e-08
	6.360178463115494e-07
	7.286197906327856e-08
	2.350661127606482e-01

 3	3.000000000000000e-02
	-7.202064056761019e-15
	-4.285633074311854e-19
	-1.266387011569468e-14
	1.604135017403140e-08
	6.933053248708215e-07
	7.950448315238313e-08
	2.350661133360520e-01

 4	4.000000000000000e-02
	-7.119140236205277e-15
	-4.396053303155472e-19
	-1.286254093420037e-14
	1.744579217108851e-08
	7.557495189303601e-07
	8.674526611166946e-08
	2.350661139636046e-01

 5	5.000000000000000e-02
	-7.037162833956941e-15
	-4.509047407052335e-19
	-1.306116322946620e-14
	1.896689908544516e-08
	8.238275582638152e-07
	9.463824330911788e-08
	2.350661146480597e-01

 6	6.000000000000000e-02
	-6.956154294016702e-15
	-4.624665540789275e-19
	-1.325965309247731e-14
	2.061360110737223e-08
	8.980638004856916e-07
	1.032423335221689e-07
	2.350661153946278e-01

 7	7.000000000000001e-02
	-6.876136469737254e-15
	-4.742958611081447e-19
	-1.345792690098412e-14
	2.239542507630017e-08
	9.790349158475460e-07
	1.126219561903983e-07
	2.350661162090110e-01

 8	8.000000000000000e-02
	-6.797130578811841e-15
	-4.863978288176508e-19
	-1.365590144861997e-14
	2.432252506460392e-08
	1.067375535933709e-06
	1.228475822902432e-07
	2.350661170974580e-01

 9	9.000000000000000e-02
	-6.719157160311509e-15
	-4.987777017933026e-19
	-1.385349407256740e-14
	2.640571360210896e-08
	1.163784521955196e-06
	1.339963447463460e-07
	2.350661180668317e-01

 10	9.999999999999999e-02
	-6.642236033888067e-15
	-5.114408034391653e-19
	-1.405062277937924e-14
	2.865649346071023e-08
	1.269031911650345e-06
	1.461527148678047e-07
	2.350661191246608e-01

 11	1.100000000000000e-01
	-6.566386261250803e-15
	-5.243925372856660e-19
	-1.424720636856856e-14
	3.108708990832099e-08
	1.383966606826060e-06
	1.594092519030489e-07
	2.350661202792099e-01

 12	1.200000000000000e-01
	-6.491626110014921e-15
	-5.376383883504790e-19
	-1.444316455359390e-14
	3.371048333091769e-08
	1.509524866190475e-06
	1.738674334408706e-07
	2.350661215395692e-01

 13	1.300000000000000e-01
	-6.417973020009411e-15
	-5.511839245539943e-19
	-1.463841807987981e-14
	3.654044211076610e-08
	1.646739670192722e-06
	1.896385750425144e-07
	2.350661229157343e-01

 14	1.400000000000000e-01
	-6.345443572121494e-15
	-5.650347981911946e-19
	-1.483288883952627e-14
	3.959155563800898e-08
	1.796751025933476e-06
	2.068448481641872e-07
	2.350661244187061e-01

 15	1.500000000000000e-01
	-6.274053459743652e-15
	-5.791967474616350e-19
	-1.502649998237847e-14
	4.287926732177258e-08
	1.960817280658984e-06
	2.256204061130720e-07
	2.350661260605955e-01

 16	1.600000000000000e-01
	-6.203817462878044e-15
	-5.936755980592719e-19
	-1.521917602314582e-14
	4.641990745580699e-08
	2.140327511695279e-06
	2.461126284626880e-07
	2.350661278547562e-01

 17	1.700000000000000e-01
	-6.134749424941521e-15
	-6.084772648240581e-19
	-1.541084294427969e-14
	5.023072578250093e-08
	2.336815058695732e-06
	2.684834950233049e-07
	2.350661298159071e-01

 18	1.800000000000000e-01
	-6.066862232303109e-15
	-6.236077534567566e-19
	-1.560142829433930e-14
	5.432992358791172e-08
	2.551972260518697e-06
	2.929111011053158e-07
	2.350661319602828e-01

 19	1.900000000000000e-01
	-6.000167796574066e-15
	-6.390731622991283e-19
	-1.579086128159767e-14
	5.873668514932229e-08
	2.787666453665304e-06
	3.195913264112826e-07
	2.350661343058056e-01

 20	2.000000000000000e-01
	-5.934677039659301e-15
	-6.548796841807777e-19
	-1.597907286266313e-14
	6.347120834581346e-08
	3.045957281716305e-06
	3.487396704260424e-07
	2.350661368722613e-01

 21	2.100000000000000e-01
	-5.870399881567232e-15
	-6.710336083347521e-19
	-1.616599582591509e-14
	6.855473423143886e-08
	3.329115355325892e-06
	3.805932676210898e-07
	2.350661396815097e-01

 22	2.200000000000001e-01
	-5.807345230964391e-15
	-6.875413223834394e-19
	-1.635156486957768e-14
	7.400957535993977e-08
	3.639642289775453e-06
	4.154130961245912e-07
	2.350661427576994e-01

 23	2.300000000000001e-01
	-5.745520978449818e-15
	-7.044093143965082e-19
	-1.653571667427970e-14
	7.985914263951420e-08
	3.980292131570603e-06
	4.534863937030809e-07
	2.350661461275203e-01

 24	2.400000000000001e-01
	-5.684933992513946e-15
	-7.216441750225609e-19
	-1.671838996997500e-14
	8.612797048609977e-08
	4.354094166808632e-06
	4.951292949246476e-07
	2.350661498204751e-01

 25	2.500000000000001e-01
	-5.625590118136426e-15
	-7.392525996963208e-19
	-1.689952559712227e-14
	9.284174003391885e-08
	4.764377081789902e-06
	5.406897031920546e-07
	2.350661538691784e-01

 26	2.600000000000001e-01
	-5.567494177967498e-15
	-7.572413909229085e-19
	-1.707906656204950e-14
	1.000273001528828e-07
	5.214794420373732e-06
	5.905504109121550e-07
	2.350661583096788e-01

 27	2.700000000000001e-01
	-5.510649976028763e-15
	-7.756174606410172e-19
	-1.725695808645244e-14
	1.077126860137273e-07
	5.709351252698294e-06
	6.451324803662280e-07
	2.350661631818310e-01

 28	2.800000000000001e-01
	-5.455060303859908e-15
	-7.943878326667304e-19
	-1.743314765100266e-14
	1.159271349338550e-07
	6.252431935979209e-06
	7.048988968259172e-07
	2.350661685296741e-01

 29	2.900000000000001e-01
	-5.400726949030497e-15
	-8.135596452194811e-19
	-1.760758503306385e-14
	1.247010992295626e-07
	6.848828810110007e-06
	7.703585040791089e-07
	2.350661744018691e-01

 30	3.000000000000001e-01
	-5.347650705928221e-15
	-8.331401535320113e-19
	-1.778022233853958e-14
	1.340662557940632e-07
	7.503771628761727e-06
	8.420702307502594e-07
	2.350661808521642e-01

 31	3.100000000000001e-01
	-5.295831388728310e-15
	-8.531367325462419e-19
	-1.795101402789845e-14
	1.440555121154441e-07
	8.222957480760502e-06
	9.206476135795308e-07
	2.350661879398934e-01

 32	3.200000000000001e-01
	-5.245267846442794e-15
	-8.735568796963572e-19
	-1.811991693644449e-14
	1.547030084446431e-07
	9.012580906988287e-06
	1.006763621127082e-06
	2.350661957305295e-01

 33	3.300000000000001e-01
	-5.195957979943001e-15
	-8.944082177811005e-19
	-1.828689028892149e-14
	1.660441158209525e-07
	9.879363865336766e-06
	1.101155778159727e-06
	2.350662042962717e-01

 34	3.400000000000001e-01
	-5.147898760843824e-15
	-9.156984979272349e-19
	-1.845189570856093e-14
	1.781154296615806e-07
	1.083058514092556e-05
	1.204631587226531e-06
	2.350662137166815e-01

 35	3.500000000000001e-01
	-5.101086252134598e-15
	-9.374356026454571e-19
	-1.861489722070025e-14
	1.909547586227543e-07
	1.187410874165481e-05
	1.318074239616564e-06
	2.350662240793563e-01

 36	3.600000000000002e-01
	-5.055515630438317e-15
	-9.596275489811329e-19
	-1.877586125111668e-14
	2.046011084430016e-07
	1.301841076116168e-05
	1.442448603001755e-06
	2.350662354806629e-01

 37	3.700000000000002e-01
	-5.011181209777793e-15
	-9.822824917611708e-19
	-1.893475661923848e-14
	2.190946604849245e-07
	1.427260413356806e-05
	1.578807467598230e-06
	2.350662480265004e-01

 38	3.800000000000002e-01
	-4.968076466726657e-15
	-1.005408726939455e-18
	-1.909155452640825e-14
	2.344767447002436e-07
	1.564646064842066e-05
	1.728298026639708e-06
	2.350662618331278e-01

 39	3.900000000000002e-01
	-4.926194066820751e-15
	-1.029014695042115e-18
	-1.924622853938861e-14
	2.507898067547126e-07
	1.715042954154365e-05
	1.892168560372737e-06
	2.350662770280160e-01

 40	4.000000000000002e-01
	-4.885525892106092e-15
	-1.053108984715181e-18
	-1.939875456931049e-14
	2.680773690648021e-07
	1.879565192992898e-05
	2.071775285695724e-06
	2.350662937507601e-01

 41	4.100000000000002e-01
	-4.846063069699050e-15
	-1.077700336376197e-18
	-1.954911084627582e-14
	2.863839855175763e-07
	2.059397031828014e-05
	2.268589326034678e-06
	2.350663121540135e-01

 42	4.200000000000002e-01
	-4.807796001235545e-15
	-1.102797645972124e-18
	-1.969727788983461e-14
	3.057551896689711e-07
	2.255793237352219e-05
	2.484203748157466e-06
	2.350663324044818e-01

 43	4.300000000000002e-01
	-4.770714393087236e-15
	-1.128409968845229e-18
	-1.984323847556486e-14
	3.262374362446745e-07
	2.470078814376911e-05
	2.720340604481399e-06
	2.350663546839133e-01

 44	4.400000000000002e-01
	-4.734807287224891e-15
	-1.154546523709595e-18
	-1.998697759798807e-14
	3.478780358017578e-07
	2.703647989219061e-05
	2.978857911148370e-06
	2.350663791901533e-01

 45	4.500000000000002e-01
	-4.700063092610973e-15
	-1.181216696740116e-18
	-2.012848243006016e-14
	3.707250824493349e-07
	2.957962372630423e-05
	3.261756483882709e-06
	2.350664061381825e-01

 46	4.600000000000002e-01
	-4.666469617007114e-15
	-1.208430045776435e-18
	-2.026774227947855e-14
	3.948273745723584e-07
	3.234548223164196e-05
	3.571186545576206e-06
	2.350664357611621e-01

 47	4.700000000000003e-01
	-4.634014099084778e-15
	-1.236196304643928e-18
	-2.040474854204943e-14
	4.202343285550821e-07
	3.534992736760161e-05
	3.909454011859419e-06
	2.350664683115113e-01

 48	4.800000000000003e-01
	-4.602683240731505e-15
	-1.264525387594404e-18
	-2.053949465235987e-14
	4.469958855598799e-07
	3.860939295444186e-05
	4.279026353835352e-06
	2.350665040619233e-01

 49	4.900000000000003e-01
	-4.572463239448928e-15
	-1.293427393869058e-18
	-2.067197603199878e-14
	4.751624114826726e-07
	4.214081617520345e-05
	4.682537930892783e-06
	2.350665433063656e-01

 50	5.000000000000002e-01
	-4.543339820743426e-15
	-1.322912612385687e-18
	-2.080219003556811e-14
	5.047845902787884e-07
	4.596156763588476e-05
	5.122794681333432e-06
	2.350665863610582e-01

 51	5.100000000000002e-01
	-4.515298270414163e-15
	-1.352991526553913e-18
	-2.093013589472550e-14
	5.359133109321640e-07
	5.008936967182957e-05
	5.602778054686042e-06
	2.350666335653379e-01

 52	5.200000000000002e-01
	-4.488323466649101e-15
	-1.383674819219809e-18
	-2.105581466049256e-14
	5.685995484258243e-07
	5.454220275766408e-05
	6.125648067286241e-06
	2.350666852824839e-01

 53	5.300000000000002e-01
	-4.462399911843558e-15
	-1.414973377744139e-18
	-2.117922914406103e-14
	6.028942391626186e-07
	5.933820007123109e-05
	6.694745362227738e-06
	2.350667419004259e-01

 54	5.400000000000003e-01
	-4.437511764061515e-15
	-1.446898299215854e-18
	-2.130038385632275e-14
	6.388481513807994e-07
	6.449553047678083e-05
	7.313592156355797e-06
	2.350668038323104e-01

 55	5.500000000000003e-01
	-4.413642868065144e-15
	-1.479460895805274e-18
	-2.141928494634202e-14
	6.765117512085405e-07
	7.003227042633415e-05
	7.985891960785372e-06
	2.350668715169470e-01

 56	5.600000000000003e-01
	-4.390776785842922e-15
	-1.512672700258848e-18
	-2.153594013898423e-14
	7.159350651036463e-07
	7.596626552682009e-05
	8.715527967657568e-06
	2.350669454190631e-01

 57	5.700000000000003e-01
	-4.368896826572541e-15
	-1.546545471539688e-18
	-2.165035867190490e-14
	7.571675395277393e-07
	8.231498277947553e-05
	9.506560004618539e-06
	2.350670260293901e-01

 58	5.800000000000003e-01
	-4.347986075959554e-15
	-1.581091200616741e-18
	-2.176255123209693e-14
	8.002578988066549e-07
	8.909535476145888e-05
	1.036321996989738e-05
	2.350671138645150e-01

 59	5.900000000000003e-01
	-4.328027424898423e-15
	-1.616322116406527e-18
	-2.187252989218440e-14
	8.452540022283092e-07
	9.632361728113425e-05
	1.128990567487956e-05
	2.350672094665137e-01

 60	6.000000000000003e-01
	-4.309003597407663e-15
	-1.652250691870658e-18
	-2.198030804664276e-14
	8.922027015240165e-07
	1.040151422909298e-04
	1.229117303767268e-05
	2.350673134023244e-01

 61	6.100000000000003e-01
	-4.290897177795912e-15
	-1.688889650273651e-18
	-2.208590034811641e-14
	9.411496999665696e-07
	1.121842680773912e-04
	1.337172659020702e-05
	2.350674262628527e-01

 62	6.200000000000003e-01
	-4.273690637020881e-15
	-1.726251971603903e-18
	-2.218932264399429e-14
	9.921394143960015e-07
	1.208441289591771e-04
	1.453640828270112e-05
	2.350675486617988e-01

 63	6.300000000000003e-01
	-4.257366358207762e-15
	-1.764350899162956e-18
	-2.229059191339636e-14
	1.045214841549272e-06
	1.300064869023729e-04
	1.579018459256568e-05
	2.350676812341901e-01

 64	6.400000000000003e-01
	-4.241906661298885e-15
	-1.803199946326763e-18
	-2.238972620471216e-14
	1.100417430120830e-06
	1.396815676010771e-04
	1.713813196965418e-05
	2.350678246346063e-01

 65	6.500000000000004e-01
	-4.227293826810545e-15
	-1.842812903483172e-18
	-2.248674457382471e-14
	1.157786960014413e-06
	1.498779036627202e-04
	1.858542067575564e-05
	2.350679795351188e-01

 66	6.600000000000004e-01
	-4.213510118677684e-15
	-1.883203845150674e-18
	-2.258166702314238e-14
	1.217361430261093e-06
	1.606021875760359e-04
	2.013729710287021e-05
	2.350681466229328e-01

 67	6.700000000000004e-01
	-4.200537806170913e-15
	-1.924387137282671e-18
	-2.267451444155265e-14
	1.279176957071945e-06
	1.718591371201449e-04
	2.179906468154726e-05
	2.350683265977206e-01

 68	6.800000000000004e-01
	-4.188359184875016e-15
	-1.966377444762458e-18
	-2.276530854540104e-14
	1.343267683464604e-06
	1.836513757925282e-04
	2.357606351679853e-05
	2.350685201687232e-01

 69	6.900000000000004e-01
	-4.176956596721289e-15
	-2.009189739093480e-18
	-2.285407182059074e-14
	1.409665701851058e-06
	1.959793306903202e-04
	2.547364891422375e-05
	2.350687280515625e-01

 70	7.000000000000004e-01
	-4.166312449070021e-15
	-2.052839306290800e-18
	-2.294082746588818e-14
	1.478400990897576e-06
	2.088411500735262e-04
	2.749716898234200e-05
	2.350689509648623e-01

 71	7.100000000000004e-01
	-4.156409232842656e-15
	-2.097341754978666e-18
	-2.302559933751185e-14
	1.549501367868376e-06
	2.222326425730968e-04
	2.965194151813170e-05
	2.350691896266565e-01

 72	7.200000000000004e-01
	-4.147229539706629e-15
	-2.142713024699845e-18
	-2.310841189507235e-14
	1.622992457542105e-06
	2.361472396855672e-04
	3.194323040083630e-05
	2.350694447506655e-01

 73	7.300000000000004e-01
	-4.138756078318501e-15
	-2.188969394442583e-18
	-2.318929014892395e-14
	1.698897678646775e-06
	2.505759828257895e-04
	3.437622173368855e-05
	2.350697170424519e-01

 74	7.400000000000004e-01
	-4.130971689633704e-15
	-2.236127491391577e-18
	-2.326825960898022e-14
	1.777238248596107e-06
	2.655075357984219e-04
	3.695599998388385e-05
	2.350700071955042e-01

 75	7.500000000000004e-01
	-4.123859361294510e-15
	-2.284204299908724e-18
	-2.334534623503739e-14
	1.858033207131041e-06
	2.809282231071507e-04
	3.968752437752688e-05
	2.350703158873368e-01

 76	7.600000000000005e-01
	-4.117402241108977e-15
	-2.333217170750358e-18
	-2.342057638864345e-14
	1.941299459278267e-06
	2.968220940595084e-04
	4.257560580816421e-05
	2.350706437755966e-01

 77	7.700000000000005e-01
	-4.111583649636709e-15
	-2.383183830527152e-18
	-2.349397678654297e-14
	2.027051837835939e-06
	3.131710121564170e-04
	4.562488451471514e-05
	2.350709914942850e-01

 78	7.800000000000005e-01
	-4.106387091898728e-15
	-2.434122391415793e-18
	-2.356557445572121e-14
	2.115303185390196e-06
	3.299547687921030e-04
	4.883980877716421e-05
	2.350713596501015e-01

 79	7.900000000000005e-01
	-4.101796268230430e-15
	-2.486051361126026e-18
	-2.363539669006534e-14
	2.206064455658210e-06
	3.471512198440657e-04
	5.222461486635001e-05
	2.350717488190005e-01

 80	8.000000000000005e-01
	-4.097795084298360e-15
	-2.538989653134525e-18
	-2.370347100865395e-14
	2.299344833749831e-06
	3.647364433166751e-04
	5.578330846785712e-05
	2.350721595429648e-01

 81	8.100000000000005e-01
	-4.094367660302807e-15
	-2.592956597190509e-18
	-2.376982511568097e-14
	2.395151874743316e-06
	3.826849158265965e-04
	5.951964777969862e-05
	2.350725923271019e-01

 82	8.200000000000005e-01
	-4.091498339388838e-15
	-2.647971950103277e-18
	-2.383448686201535e-14
	2.493491659787250e-06
	4.009697053937283e-04
	6.343712845968557e-05
	2.350730476370140e-01

 83	8.300000000000005e-01
	-4.089171695290572e-15
	-2.704055906818498e-18
	-2.389748420839162e-14
	2.594368968772547e-06
	4.195626777353915e-04
	6.753897057158865e-05
	2.350735258965771e-01

 84	8.400000000000005e-01
	-4.087372539232780e-15
	-2.761229111793491e-18
	-2.395884519022394e-14
	2.697787468470954e-06
	4.384347130607770e-04
	7.182810765012192e-05
	2.350740274860707e-01

 85	8.500000000000005e-01
	-4.086085926115924e-15
	-2.819512670679967e-18
	-2.401859788403008e-14
	2.803749914910546e-06
	4.575559302305710e-04
	7.630717797398723e-05
	2.350745527407300e-01

 86	8.600000000000005e-01
	-4.085297160010295e-15
	-2.878928162323701e-18
	-2.407677037544984e-14
	2.912258368659180e-06
	4.768959150855348e-04
	8.097851810451641e-05
	2.350751019497070e-01

 87	8.700000000000006e-01
	-4.084991798985989e-15
	-2.939497651091510e-18
	-2.413339072883717e-14
	3.023314421612616e-06
	4.964239497565788e-04
	8.584415871543370e-05
	2.350756753554748e-01

 88	8.800000000000006e-01
	-4.085155659305139e-15
	-3.001243699535610e-18
	-2.418848695840336e-14
	3.136919433839345e-06
	5.161092398454503e-04
	9.090582270774040e-05
	2.350762731536369e-01

 89	8.900000000000006e-01
	-4.085774819003364e-15
	-3.064189381405761e-18
	-2.424208700088533e-14
	3.253074779016290e-06
	5.359211365044324e-04
	9.616492557323967e-05
	2.350768954931642e-01

 90	9.000000000000006e-01
	-4.086835620887248e-15
	-3.128358295021114e-18
	-2.429421868971005e-14
	3.371782097000307e-06
	5.558293506395522e-04
	1.016225779414511e-04
	2.350775424770288e-01

 91	9.100000000000006e-01
	-4.088324674974656e-15
	-3.193774577012588e-18
	-2.434490973062446e-14
	3.493043552117996e-06
	5.758041567068049e-04
	1.072795902181051e-04
	2.350782141632186e-01

 92	9.200000000000006e-01
	-4.090228860404415e-15
	-3.260462916448036e-18
	-2.439418767875777e-14
	3.616862095819314e-06
	5.958165838562160e-04
	1.131364791995095e-04
	2.350789105661166e-01

 93	9.300000000000006e-01
	-4.092535326841803e-15
	-3.328448569352438e-18
	-2.444207991708117e-14
	3.743241732426957e-06
	6.158385924947996e-04
	1.191934765262078e-04
	2.350796316581826e-01

 94	9.400000000000006e-01
	-4.095231495405813e-15
	-3.397757373636730e-18
	-2.448861363622887e-14
	3.872187786820663e-06
	6.358432346768328e-04
	1.254505388217340e-04
	2.350803773719461e-01

 95	9.500000000000006e-01
	-4.098305059143867e-15
	-3.468415764447380e-18
	-2.453381581564256e-14
	4.003707173021864e-06
	6.558047970790244e-04
	1.319073593481367e-04
	2.350811476022364e-01

 96	9.600000000000006e-01
	-4.101743983079279e-15
	-3.540450789951683e-18
	-2.457771320600020e-14
	4.137808662784868e-06
	6.756989256694610e-04
	1.385633809992702e-04
	2.350819422086359e-01

 97	9.700000000000006e-01
	-4.105536503855895e-15
	-3.613890127572263e-18
	-2.462033231289000e-14
	4.274503153455103e-06
	6.955027315245319e-04
	1.454178104457239e-04
	2.350827610181037e-01

 98	9.800000000000006e-01
	-4.109671129004314e-15
	-3.688762100685921e-18
	-2.466169938168861e-14
	4.413803934518002e-06
	7.151948775792583e-04
	1.524696332414772e-04
	2.350836038277259e-01

 99	9.900000000000007e-01
	-4.114136635853189e-15
	-3.765095695802444e-18
	-2.470184038360263e-14
	4.555726952432074e-06
	7.347556464071699e-04
	1.597176297018108e-04
	2.350844704075815e-01

 100	1.000000000000001e+00
	-4.118922070108269e-15
	-3.842920580238459e-18
	-2.474078100283259e-14
	4.700291073514531e-06
	7.541669894107034e-04
	1.671603913644659e-04
	2.350853605036368e-01

 101	1.010000000000001e+00
	-4.124016744121866e-15
	-3.922267120303262e-18
	-2.477854662481702e-14
