Title: ** sch_path: /home/andylithia/openmpw/project-yatsuhashi-chip1/xschem/gmid_test/nmos_test.sch
Date: Tue Jul 19 23:15:45  2022
Plotname: DC transfer characteristic
Flags: real
No. Variables: 8
No. Points: 181
Variables:
	0	v(v-sweep)	voltage
	1	@m.xm1.msky130_fd_pr__nfet_01v8[cgb]	capacitance
	2	@m.xm1.msky130_fd_pr__nfet_01v8[cgd]	capacitance
	3	@m.xm1.msky130_fd_pr__nfet_01v8[cgs]	capacitance
	4	@m.xm1.msky130_fd_pr__nfet_01v8[gds]	admittance
	5	@m.xm1.msky130_fd_pr__nfet_01v8[gm]	admittance
	6	i(@m.xm1.msky130_fd_pr__nfet_01v8[id])	current
	7	v(@m.xm1.msky130_fd_pr__nfet_01v8[vth])	voltage
Values:
 0	0.000000000000000e+00
	-1.359647610133870e-14
	-1.102066076743534e-18
	-2.735784867015763e-14
	3.949407047473580e-08
	1.491123394734888e-06
	1.974598318453477e-07
	1.730418792598121e-01

 1	1.000000000000000e-02
	-1.345124203906615e-14
	-1.127187992843653e-18
	-2.770509296183714e-14
	4.244555462808194e-08
	1.607206740355182e-06
	2.129441563255997e-07
	1.730418804229391e-01

 2	2.000000000000000e-02
	-1.330802897997884e-14
	-1.152838174866299e-18
	-2.805152443407991e-14
	4.560560001586609e-08
	1.732426913850132e-06
	2.296343963341275e-07
	1.730418816778284e-01

 3	3.000000000000000e-02
	-1.316686215231767e-14
	-1.179026433322507e-18
	-2.839703185393235e-14
	4.898774852429135e-08
	1.867536305290806e-06
	2.476256284749445e-07
	1.730418830318900e-01

 4	4.000000000000000e-02
	-1.302776581872257e-14
	-1.205762740101229e-18
	-2.874150499519213e-14
	5.260631042130156e-08
	2.013354416323536e-06
	2.670207836436940e-07
	1.730418844931673e-01

 5	5.000000000000000e-02
	-1.289076323447141e-14
	-1.233057231429756e-18
	-2.908483476259331e-14
	5.647639855881206e-08
	2.170774309952265e-06
	2.879313498893397e-07
	1.730418860704027e-01

 6	6.000000000000000e-02
	-1.275587660823593e-14
	-1.260920210919294e-18
	-2.942691331339203e-14
	6.061396338334109e-08
	2.340769681519831e-06
	3.104781428362514e-07
	1.730418877730991e-01

 7	7.000000000000001e-02
	-1.262312706541756e-14
	-1.289362152697711e-18
	-2.976763417608028e-14
	6.503582872419627e-08
	2.524402603083011e-06
	3.347921501371398e-07
	1.730418896115977e-01

 8	8.000000000000000e-02
	-1.249253461411962e-14
	-1.318393704632333e-18
	-3.010689236596512e-14
	6.975972832446292e-08
	2.722831996102991e-06
	3.610154569628983e-07
	1.730418915971596e-01

 9	9.000000000000000e-02
	-1.236411811380253e-14
	-1.348025691645185e-18
	-3.044458449736343e-14
	7.480434307611124e-08
	2.937322889963336e-06
	3.893022600978074e-07
	1.730418937420413e-01

 10	9.999999999999999e-02
	-1.223789524666184e-14
	-1.378269119123812e-18
	-3.078060889217215e-14
	8.018933891635539e-08
	3.169256526219179e-06
	4.198199787954890e-07
	1.730418960596095e-01

 11	1.100000000000000e-01
	-1.211388249175929e-14
	-1.409135176429701e-18
	-3.111486568459077e-14
	8.593540533829331e-08
	3.420141370614512e-06
	4.527504711612789e-07
	1.730418985644424e-01

 12	1.200000000000000e-01
	-1.199209510192953e-14
	-1.440635240507989e-18
	-3.144725692178386e-14
	9.206429446443492e-08
	3.691625096695020e-06
	4.882913654559195e-07
	1.730419012724485e-01

 13	1.300000000000000e-01
	-1.187254708347582e-14
	-1.472780879600452e-18
	-3.177768666028797e-14
	9.859886062730574e-08
	3.985507606215802e-06
	5.266575163610986e-07
	1.730419042009966e-01

 14	1.400000000000000e-01
	-1.175525117866000e-14
	-1.505583857065109e-18
	-3.210606105798145e-14
	1.055631003966747e-07
	4.303755152397680e-06
	5.680825969039055e-07
	1.730419073690662e-01

 15	1.500000000000000e-01
	-1.164021885098385e-14
	-1.539056135305373e-18
	-3.243228846145299e-14
	1.129821929881934e-07
	4.648515632322795e-06
	6.128208373995485e-07
	1.730419107973965e-01

 16	1.600000000000000e-01
	-1.152746027324963e-14
	-1.573209879811296e-18
	-3.275627948861897e-14
	1.208825409832656e-07
	5.022135114263840e-06
	6.611489234324345e-07
	1.730419145086798e-01

 17	1.700000000000000e-01
	-1.141698431838041e-14
	-1.608057463316839e-18
	-3.307794710645988e-14
	1.292918112848215e-07
	5.427175664393821e-06
	7.133680655478226e-07
	1.730419185277376e-01

 18	1.800000000000000e-01
	-1.130879855297249e-14
	-1.643611470074819e-18
	-3.339720670375865e-14
	1.382389762283065e-07
	5.866434534985387e-06
	7.698062539594063e-07
	1.730419228817401e-01

 19	1.900000000000000e-01
	-1.120290923354406e-14
	-1.679884700254460e-18
	-3.371397615874481e-14
	1.477543547615367e-07
	6.342964772746696e-06
	8.308207121829198e-07
	1.730419276004420e-01

 20	2.000000000000000e-01
	-1.109932130543746e-14
	-1.716890174462984e-18
	-3.402817590156318e-14
	1.578696536012881e-07
	6.860097301199434e-06
	8.968005640695289e-07
	1.730419327164386e-01

 21	2.100000000000000e-01
	-1.099803840432416e-14
	-1.754641138395865e-18
	-3.433972897150525e-14
	1.686180082682116e-07
	7.421464524828015e-06
	9.681697292217580e-07
	1.730419382654458e-01

 22	2.200000000000001e-01
	-1.089906286025597e-14
	-1.793151067618413e-18
	-3.464856106895613e-14
	1.800340238953093e-07
	8.031025494953984e-06
	1.045390062214305e-06
	1.730419442866084e-01

 23	2.300000000000001e-01
	-1.080239570419820e-14
	-1.832433672481919e-18
	-3.495460060202922e-14
	1.921538156982899e-07
	8.693092667746879e-06
	1.128964751394873e-06
	1.730419508228441e-01

 24	2.400000000000001e-01
	-1.070803667697518e-14
	-1.872502903178304e-18
	-3.525777872787657e-14
	2.050150489890776e-07
	9.412360273303780e-06
	1.219441993288319e-06
	1.730419579212136e-01

 25	2.500000000000001e-01
	-1.061598424055215e-14
	-1.913372954936798e-18
	-3.555802938868007e-14
	2.186569786061511e-07
	1.019393430114134e-05
	1.317418958749906e-06
	1.730419656333163e-01

 26	2.600000000000001e-01
	-1.052623559157304e-14
	-1.955058273365474e-18
	-3.585528934234300e-14
	2.331204876274796e-07
	1.104336409158016e-05
	1.423546066988671e-06
	1.730419740157502e-01

 27	2.700000000000001e-01
	-1.043878667706743e-14
	-1.997573559942333e-18
	-3.614949818792061e-14
	2.484481252236113e-07
	1.196667550420977e-05
	1.538531583387255e-06
	1.730419831305808e-01

 28	2.800000000000001e-01
	-1.035363221223702e-14
	-2.040933777659106e-18
	-3.644059838583923e-14
	2.646841434996302e-07
	1.297040561373925e-05
	1.663146556652403e-06
	1.730419930458842e-01

 29	2.900000000000001e-01
	-1.027076570022640e-14
	-2.085154156821772e-18
	-3.672853527297272e-14
	2.818745331658055e-07
	1.406163885995884e-05
	1.798230110217948e-06
	1.730420038363004e-01

 30	3.000000000000001e-01
	-1.019017945378104e-14
	-2.130250201011520e-18
	-3.701325707265397e-14
	3.000670578670521e-07
	1.524804455212266e-05
	1.944695101957214e-06
	1.730420155836742e-01

 31	3.100000000000001e-01
	-1.011186461869054e-14
	-2.176237693210556e-18
	-3.729471489971708e-14
	3.193112869917762e-07
	1.653791559876896e-05
	2.103534165120818e-06
	1.730420283777281e-01

 32	3.200000000000001e-01
	-1.003581119891396e-14
	-2.223132702096821e-18
	-3.757286276067595e-14
	3.396586267703264e-07
	1.794020830174942e-05
	2.275826141964981e-06
	1.730420423167890e-01

 33	3.300000000000001e-01
	-9.962008083281612e-15
	-2.270951588511241e-18
	-3.784765754915609e-14
	3.611623494630119e-07
	1.946458301806446e-05
	2.462742919748211e-06
	1.730420575085919e-01

 34	3.400000000000001e-01
	-9.890443073665269e-15
	-2.319711012102808e-18
	-3.811905903671026e-14
	3.838776204269498e-07
	2.112144545504851e-05
	2.665556676620606e-06
	1.730420740711335e-01

 35	3.500000000000001e-01
	-9.821102914508524e-15
	-2.369427938155101e-18
	-3.838702985915603e-14
	4.078615228404274e-07
	2.292198832363067e-05
	2.885647542381504e-06
	1.730420921335987e-01

 36	3.600000000000002e-01
	-9.753973323607764e-15
	-2.420119644599334e-18
	-3.865153549858427e-14
	4.331730798525938e-07
	2.487823303100009e-05
	3.124511676111036e-06
	1.730421118373444e-01

 37	3.700000000000002e-01
	-9.689039024034140e-15
	-2.471803729217942e-18
	-3.891254426119444e-14
	4.598732739158137e-07
	2.700307104829888e-05
	3.383769759264993e-06
	1.730421333369863e-01

 38	3.800000000000002e-01
	-9.626283777086367e-15
	-2.524498117044815e-18
	-3.917002725112292e-14
	4.880250630476042e-07
	2.931030454130458e-05
	3.665175898939578e-06
	1.730421568015261e-01

 39	3.900000000000002e-01
	-9.565690416165978e-15
	-2.578221067965346e-18
	-3.942395834043383e-14
	5.176933937593040e-07
	3.181468580288914e-05
	3.970626931643495e-06
	1.730421824155816e-01

 40	4.000000000000002e-01
	-9.507240881466202e-15
	-2.632991184522695e-18
	-3.967431413545042e-14
	5.489452103793090e-07
	3.453195497591936e-05
	4.302172113049662e-06
	1.730422103806931e-01

 41	4.100000000000002e-01
	-9.450916255367489e-15
	-2.688827419934820e-18
	-3.992107393960933e-14
	5.818494604905253e-07
	3.747887550485641e-05
	4.662023173830133e-06
	1.730422409166942e-01

 42	4.200000000000002e-01
	-9.396696798434967e-15
	-2.745749086328269e-18
	-4.016421971302230e-14
	6.164770961944521e-07
	4.067326670438425e-05
	5.052564715804531e-06
	1.730422742632024e-01

 43	4.300000000000002e-01
	-9.344561985913513e-15
	-2.803775863193147e-18
	-4.040373602893695e-14
	6.529010709088693e-07
	4.413403278489276e-05
	5.476364916270070e-06
	1.730423106811483e-01

 44	4.400000000000002e-01
	-9.294490544620055e-15
	-2.862927806065916e-18
	-4.063961002728697e-14
	6.911963314021046e-07
	4.788118762851602e-05
	5.936186501539032e-06
	1.730423504544137e-01

 45	4.500000000000002e-01
	-9.246460490134393e-15
	-2.923225355445629e-18
	-4.087183136552531e-14
	7.314398047654947e-07
	5.193587456688325e-05
	6.434997943428043e-06
	1.730423938915523e-01

 46	4.600000000000002e-01
	-9.200449164192331e-15
	-2.984689345948718e-18
	-4.110039216693584e-14
	7.737103800265945e-07
	5.632038037398802e-05
	6.975984824756865e-06
	1.730424413275696e-01

 47	4.700000000000003e-01
	-9.156433272188908e-15
	-3.047341015710371e-18
	-4.132528696661690e-14
	8.180888841098796e-07
	6.105814265597275e-05
	7.562561311879245e-06
	1.730424931257815e-01

 48	4.800000000000003e-01
	-9.114388920702109e-15
	-3.111202016036699e-18
	-4.154651265533127e-14
	8.646580518593786e-07
	6.617374979562571e-05
	8.198381663956109e-06
	1.730425496797465e-01

 49	4.900000000000003e-01
	-9.074291654950924e-15
	-3.176294421315669e-18
	-4.176406842141486e-14
	9.135024898493298e-07
	7.169293259446407e-05
	8.887351700171585e-06
	1.730426114152441e-01

 50	5.000000000000002e-01
	-9.036116496105344e-15
	-3.242640739193487e-18
	-4.197795569093560e-14
	9.647086337253511e-07
	7.764254675101328e-05
	9.633640137487089e-06
	1.730426787922952e-01

 51	5.100000000000002e-01
	-8.999837978369968e-15
	-3.310263921021969e-18
	-4.218817806628931e-14
	1.018364698839740e-06
	8.405054532181690e-05
	1.044168970293875e-05
	1.730427523072399e-01

 52	5.200000000000002e-01
	-8.965430185765770e-15
	-3.379187372586618e-18
	-4.239474126341985e-14
	1.074560623971673e-06
	9.094594033340654e-05
	1.131622791604540e-05
	1.730428324948069e-01

 53	5.300000000000002e-01
	-8.932866788539783e-15
	-3.449434965120186e-18
	-4.259765304784262e-14
	1.133388007955855e-06
	9.835875275033987e-05
	1.226227742874280e-05
	1.730429199302031e-01

 54	5.400000000000003e-01
	-8.902121079135581e-15
	-3.521031046611152e-18
	-4.279692316965080e-14
	1.194940039082772e-06
	1.063199500579153e-04
	1.328516580256557e-05
	1.730430152311834e-01

 55	5.500000000000003e-01
	-8.873166007661785e-15
	-3.594000453414342e-18
	-4.299256329767620e-14
	1.259311417180288e-06
	1.148613707894444e-04
	1.439053459572652e-05
	1.730431190600778e-01

 56	5.600000000000003e-01
	-8.845974216800049e-15
	-3.668368522171587e-18
	-4.318458695297249e-14
	1.326598268339995e-06
	1.240156354180066e-04
	1.558434762647618e-05
	1.730432321257578e-01

 57	5.700000000000003e-01
	-8.820518076097532e-15
	-3.744161102052065e-18
	-4.337300944178465e-14
	1.396898052313383e-06
	1.338160431421865e-04
	1.687289827386394e-05
	1.730433551854994e-01

 58	5.800000000000003e-01
	-8.796769715594533e-15
	-3.821404567318540e-18
	-4.355784778815913e-14
	1.470309462671940e-06
	1.442964542247085e-04
	1.826281567294922e-05
	1.730434890467620e-01

 59	5.900000000000003e-01
	-8.774701058739071e-15
	-3.900125830232550e-18
	-4.373912066634886e-14
	1.546932319902633e-06
	1.554911576922372e-04
	1.976106965884482e-05
	1.730436345687650e-01

 60	6.000000000000003e-01
	-8.754283854547850e-15
	-3.980352354303152e-18
	-4.391684833315528e-14
	1.626867457695024e-06
	1.674347243733767e-04
	2.137497431289235e-05
	1.730437926639133e-01

 61	6.100000000000003e-01
	-8.735489708973940e-15
	-4.062112167892614e-18
	-4.409105256034760e-14
	1.710216602768576e-06
	1.801618454391810e-04
	2.311218996497597e-05
	1.730439642989918e-01

 62	6.200000000000003e-01
	-8.718290115447331e-15
	-4.145433878187041e-18
	-4.426175656729025e-14
	1.797082248688606e-06
	1.937071568148544e-04
	2.498072350865171e-05
	1.730441504960905e-01

 63	6.300000000000003e-01
	-8.702656484557046e-15
	-4.230346685543537e-18
	-4.442898495390488e-14
	1.887567524225011e-06
	2.081050500506641e-04
	2.698892689055844e-05
	1.730443523332408e-01

 64	6.400000000000003e-01
	-8.688560172848890e-15
	-4.316880398222312e-18
	-4.459276363408418e-14
	1.981776056919900e-06
	2.233894704718471e-04
	2.914549364262829e-05
	1.730445709447312e-01

 65	6.500000000000004e-01
	-8.675972510713687e-15
	-4.405065447518609e-18
	-4.475311976967119e-14
	2.079811832646650e-06
	2.395937036683191e-04
	3.145945333504378e-05
	1.730448075210056e-01

 66	6.600000000000004e-01
	-8.664864829348074e-15
	-4.494932903301180e-18
	-4.491008170510715e-14
	2.181779052062484e-06
	2.567501516313390e-04
	3.394016383974161e-05
	1.730450633082077e-01

 67	6.700000000000004e-01
	-8.655208486769729e-15
	-4.586514489973857e-18
	-4.506367890284806e-14
	2.287781984978736e-06
	2.748901000918970e-04
	3.659730130861751e-05
	1.730453396072367e-01

 68	6.800000000000004e-01
	-8.646974892874944e-15
	-4.679842602868036e-18
	-4.521394187963952e-14
	2.397924823794721e-06
	2.940434788594221e-04
	3.944084778737953e-05
	1.730456377723580e-01

 69	6.900000000000004e-01
	-8.640135533527282e-15
	-4.774950325081926e-18
	-4.536090214373694e-14
	2.512311537261881e-06
	3.142386171944899e-04
	4.248107640521357e-05
	1.730459592092869e-01

 70	7.000000000000004e-01
	-8.634661993671231e-15
	-4.871871444778021e-18
	-4.550459213314707e-14
	2.631045725961571e-06
	3.355019964698124e-04
	4.572853410190125e-05
	1.730463053727582e-01

 71	7.100000000000004e-01
	-8.630525979465885e-15
	-4.970640472952915e-18
	-4.564504515496429e-14
	2.754230480991308e-06
	3.578580025744955e-04
	4.919402187764212e-05
	1.730466777635556e-01

 72	7.200000000000004e-01
	-8.627699339437326e-15
	-5.071292661691429e-18
	-4.578229532586597e-14
	2.881968247457692e-06
	3.813286806913777e-04
	5.288857257630825e-05
	1.730470779249821e-01

 73	7.300000000000004e-01
	-8.626154084650425e-15
	-5.173864022922634e-18
	-4.591637751382738e-14
	3.014360694467695e-06
	4.059334952207896e-04
	5.682342623993967e-05
	1.730475074387677e-01

 74	7.400000000000004e-01
	-8.625862407904011e-15
	-5.278391347689185e-18
	-4.604732728110764e-14
	3.151508593390833e-06
	4.316890977308622e-04
	6.101000310061819e-05
	1.730479679204242e-01

 75	7.500000000000004e-01
	-8.626796701954623e-15
	-5.384912225946566e-18
	-4.617518082855597e-14
	3.293511706231789e-06
	4.586091058797247e-04
	6.545987430504585e-05
	1.730484610140809e-01

 76	7.600000000000005e-01
	-8.628929576777040e-15
	-5.493465066908476e-18
	-4.629997494127853e-14
	3.440468686003422e-06
	4.867038962744440e-04
	7.018473049678163e-05
	1.730489883867638e-01

 77	7.700000000000005e-01
	-8.632233875871669e-15
	-5.604089119950825e-18
	-4.642174693570279e-14
	3.592476991021944e-06
	5.159804142015951e-04
	7.519634841062089e-05
	1.730495517222418e-01

 78	7.800000000000005e-01
	-8.636682691629841e-15
	-5.716824496096839e-18
	-4.654053460807096e-14
	3.749632815059877e-06
	5.464420030831084e-04
	8.050655566264210e-05
	1.730501527143690e-01

 79	7.900000000000005e-01
	-8.642249379771941e-15
	-5.831712190092729e-18
	-4.665637618438766e-14
	3.912031035283230e-06
	5.780882563762645e-04
	8.612719394731025e-05
	1.730507930600939e-01

 80	8.000000000000005e-01
	-8.648907572872242e-15
	-5.948794103097604e-18
	-4.676931027184396e-14
	4.079765179871203e-06
	6.109148944492203e-04
	9.207008087935752e-05
	1.730514744521019e-01

 81	8.100000000000005e-01
	-8.656631192987795e-15
	-6.068113066000865e-18
	-4.687937581173478e-14
	4.252927417165303e-06
	6.449136687236982e-04
	9.834697074228983e-05
	1.730521985711921e-01

 82	8.200000000000005e-01
	-8.665394463409705e-15
	-6.189712863387827e-18
	-4.698661203388125e-14
	4.431608568122339e-06
	6.800722950872910e-04
	1.049695144268572e-04
	1.730529670784901e-01

 83	8.300000000000005e-01
	-8.675171919555214e-15
	-6.313638258171750e-18
	-4.709105841256791e-14
	4.615898143753155e-06
	7.163744182431476e-04
	1.119492188611999e-04
	1.730537816075378e-01

 84	8.400000000000005e-01
	-8.685938419021978e-15
	-6.439935016910507e-18
	-4.719275462399823e-14
	4.805884409115779e-06
	7.537996082894516e-04
	1.192974062491577e-04
	1.730546437563660e-01

 85	8.500000000000005e-01
	-8.697669150825112e-15
	-6.568649935828685e-18
	-4.729174050527045e-14
	5.001654475301927e-06
	7.923233904118692e-04
	1.270251734441091e-04
	1.730555550796418e-01

 86	8.600000000000005e-01
	-8.710339643839957e-15
	-6.699830867566308e-18
	-4.738805601487042e-14
	5.203294420709571e-06
	8.319173081359949e-04
	1.351433517923053e-04
	1.730565170809900e-01

 87	8.700000000000006e-01
	-8.723925774472732e-15
	-6.833526748673242e-18
	-4.748174119467751e-14
	5.410889442735975e-06
	8.725490201325061e-04
	1.436624677818289e-04
	1.730575312055567e-01

 88	8.800000000000006e-01
	-8.738403773583503e-15
	-6.969787627873008e-18
	-4.757283613347328e-14
	5.624524040857423e-06
	9.141824301039182e-04
	1.525927048308490e-04
	1.730585988329301e-01

 89	8.900000000000006e-01
	-8.753750232684988e-15
	-7.108664695117604e-18
	-4.766138093194333e-14
	5.844282231887373e-06
	9.567778488180842e-04
	1.619438665417329e-04
	1.730597212705040e-01

 90	9.000000000000006e-01
	-8.769942109442063e-15
	-7.250210311456137e-18
	-4.774741566915738e-14
	6.070247798028364e-06
	1.000292186899536e-03
	1.717253417358792e-04
	1.730608997473565e-01

 91	9.100000000000006e-01
	-8.786956732496161e-15
	-7.394478039744977e-18
	-4.783098037051277e-14
	6.302504568158099e-06
	1.044679176554825e-03
	1.819460715679799e-04
	1.730621354087029e-01

 92	9.200000000000006e-01
	-8.804771805640510e-15
	-7.541522676219086e-18
	-4.791211497712152e-14
	6.541136732620453e-06
	1.089889620001211e-03
	1.926145189980211e-04
	1.730634293110466e-01

 93	9.300000000000006e-01
	-8.823365411370282e-15
	-7.691400282955018e-18
	-4.799085931662210e-14
	6.786229191633238e-06
	1.135871661998161e-03
	2.037386408750950e-04
	1.730647824180232e-01

 94	9.400000000000006e-01
	-8.842716013833257e-15
	-7.844168221253510e-18
	-4.806725307539282e-14
	7.037867937279058e-06
	1.182571083555334e-03
	2.153258628593336e-04
	1.730661955970023e-01

 95	9.500000000000006e-01
	-8.862802461205831e-15
	-7.999885185965150e-18
	-4.814133577214348e-14
	7.296140468917303e-06
	1.229931613615659e-03
	2.273830573775123e-04
	1.730676696165095e-01

 96	9.600000000000006e-01
	-8.883603987518937e-15
	-8.158611240795009e-18
	-4.821314673286017e-14
	7.561136241749964e-06
	1.277895255293191e-03
	2.399165247746850e-04
	1.730692051444421e-01

 97	9.700000000000006e-01
	-8.905100213958832e-15
	-8.320407854612830e-18
	-4.828272506707564e-14
	7.832947148191564e-06
	1.326402623085871e-03
	2.529319777890659e-04
	1.730708027471221e-01

 98	9.800000000000006e-01
	-8.927271149666602e-15
	-8.485337938804019e-18
	-4.835010964543842e-14
	8.111668031639830e-06
	1.375393287385900e-03
	2.664345294410064e-04
	1.730724628891748e-01

 99	9.900000000000007e-01
	-8.950097192060466e-15
	-8.653465885693120e-18
	-4.841533907855087e-14
	8.397397232220798e-06
	1.424806122575844e-03
	2.804286843899043e-04
	1.730741859341994e-01

 100	1.000000000000001e+00
	-8.973559126704038e-15
	-8.824857608076603e-18
	-4.847845169704685e-14
	8.690237164089282e-06
	1.474579655025366e-03
	2.949183337757604e-04
	1.730759721462283e-01

 101	1.010000000000001e+00
	-8.997638126744005e-15
	-8.999580579900996e-18
	-4.853948553287741e-14
