Title: ** sch_path: /home/andylithia/openmpw/project-yatsuhashi-chip1/xschem/gmid_test/nmos_test.sch
Date: Sun Jul 17 22:51:45  2022
Plotname: DC transfer characteristic
Flags: real
No. Variables: 8
No. Points: 181
Variables:
	0	v(v-sweep)	voltage
	1	@m.xm1.msky130_fd_pr__nfet_01v8[cgb]	capacitance
	2	@m.xm1.msky130_fd_pr__nfet_01v8[cgd]	capacitance
	3	@m.xm1.msky130_fd_pr__nfet_01v8[cgs]	capacitance
	4	@m.xm1.msky130_fd_pr__nfet_01v8[gds]	admittance
	5	@m.xm1.msky130_fd_pr__nfet_01v8[gm]	admittance
	6	i(@m.xm1.msky130_fd_pr__nfet_01v8[id])	current
	7	v(@m.xm1.msky130_fd_pr__nfet_01v8[vth])	voltage
Values:
 0	0.000000000000000e+00
	-2.010796962678571e-15
	-3.521391766278979e-25
	-2.829660083803209e-18
	1.438160700592059e-25
	5.007847905610581e-23
	5.651879166068404e-25
	6.354692791805902e-01

 1	1.000000000000000e-02
	-2.002219659814198e-15
	-4.569547540341844e-25
	-2.822998909828709e-18
	3.488077453203631e-25
	1.214638985981933e-22
	1.370795038371616e-24
	6.354692791805902e-01

 2	2.000000000000000e-02
	-1.993749755940294e-15
	-5.929668016165356e-25
	-2.818348830383364e-18
	8.460834220206657e-25
	2.946230495626583e-22
	3.325068109582488e-24
	6.354692791805902e-01

 3	3.000000000000000e-02
	-1.985384947832929e-15
	-7.694583423209934e-25
	-2.816267050247320e-18
	2.052243420686948e-24
	7.146269426267790e-22
	8.065237996035355e-24
	6.354692791805902e-01

 4	4.000000000000000e-02
	-1.977122957964309e-15
	-9.984731872820575e-25
	-2.817479841481926e-18
	4.977744692125942e-24
	1.733342295711300e-21
	1.956238888528341e-23
	6.354692791805902e-01

 5	5.000000000000000e-02
	-1.968961521848028e-15
	-1.295635920425612e-24
	-2.822933246484657e-18
	1.207364309203236e-23
	4.204240888312903e-21
	4.744916332043654e-23
	6.354692791805902e-01

 6	6.000000000000000e-02
	-1.960898372208457e-15
	-1.681214682722289e-24
	-2.833858839923422e-18
	2.928479944706304e-23
	1.019731478355936e-20
	1.150888988375537e-22
	6.354692791805902e-01

 7	7.000000000000001e-02
	-1.952931218998939e-15
	-2.181498140429338e-24
	-2.851858918431957e-18
	7.103003911572599e-23
	2.473293281803757e-20
	2.791477875098229e-22
	6.354692791805902e-01

 8	8.000000000000000e-02
	-1.945057724017826e-15
	-2.830578664085828e-24
	-2.879016685125952e-18
	1.722761330052826e-22
	5.998561905580076e-20
	6.770460462710655e-22
	6.354692791805902e-01

 9	9.000000000000000e-02
	-1.937275468527375e-15
	-3.672660123528858e-24
	-2.918038475783878e-18
	4.178274751149313e-22
	1.454781320796613e-19
	1.642067636800430e-21
	6.354692791805902e-01

 10	9.999999999999999e-02
	-1.929581911858529e-15
	-4.765042257480238e-24
	-2.972436868113029e-18
	1.013313678343418e-21
	3.527864698446967e-19
	3.982345247361278e-21
	6.354692791805902e-01

 11	1.100000000000000e-01
	-1.921974338478484e-15
	-6.181975998323996e-24
	-3.046765636698029e-18
	2.457264592483183e-21
	8.554005839056080e-19
	9.657125653148714e-21
	6.354692791805902e-01

 12	1.200000000000000e-01
	-1.914449790411035e-15
	-8.019637346966845e-24
	-3.146919930423873e-18
	5.958046601142312e-21
	2.073678301367733e-18
	2.341535853513705e-20
	6.354692791805902e-01

 13	1.300000000000000e-01
	-1.907004981252866e-15
	-1.040253346007871e-23
	-3.280517638565224e-18
	1.444325895172024e-20
	5.025485974751588e-18
	5.676270346679947e-20
	6.354692791805902e-01

 14	1.400000000000000e-01
	-1.899636187373793e-15
	-1.349173553933520e-23
	-3.457380417975524e-18
	3.500150301583282e-20
	1.217321257320778e-17
	1.375578966250610e-19
	6.354692791805902e-01

 15	1.500000000000000e-01
	-1.892339111326102e-15
	-1.749543050938457e-23
	-3.690134799086438e-18
	8.477952424246817e-20
	2.946502530075772e-17
	3.331890862483771e-19
	6.354692791805902e-01

 16	1.600000000000000e-01
	-1.885108712188806e-15
	-2.268239801988279e-23
	-3.994954388221198e-18
	2.051908404915293e-19
	7.123660807585239e-17
	8.064152355543846e-19
	6.354692791805902e-01

 17	1.700000000000000e-01
	-1.877938997797570e-15
	-2.939915004840813e-23
	-4.392462280971989e-18
	4.960232368084809e-19
	1.719162953678985e-16
	1.949412467720334e-18
	6.354692791805902e-01

 18	1.800000000000000e-01
	-1.870822774905155e-15
	-3.809161399481604e-23
	-4.908806918723634e-18
	1.196844254492332e-18
	4.137349700100631e-16
	4.703707660294468e-18
	6.354692791805902e-01

 19	1.900000000000000e-01
	-1.863751355643032e-15
	-4.933239070206173e-23
	-5.576913307775174e-18
	2.879571440760304e-18
	9.914460399561710e-16
	1.131700499952925e-17
	6.354692791805902e-01

 20	2.000000000000000e-01
	-1.856714222386110e-15
	-6.385476911243044e-23
	-6.437894326107039e-18
	6.897810508252286e-18
	2.360362603643593e-15
	2.710914855566719e-17
	6.354692791805902e-01

 21	2.100000000000000e-01
	-1.849698657802474e-15
	-8.259482584476378e-23
	-7.542586329914615e-18
	1.641351821170607e-17
	5.564201897774339e-15
	6.450706233723489e-17
	6.354692791805902e-01

 22	2.200000000000001e-01
	-1.842689350638380e-15
	-1.067430930660241e-22
	-8.953158408206982e-18
	3.866901470349440e-17
	1.292583110592334e-14
	1.519741230012792e-16
	6.354692791805902e-01

 23	2.300000000000001e-01
	-1.835667986352475e-15
	-1.378074913400046e-22
	-1.074475511522791e-17
	8.977984662506530e-17
	2.939529119755242e-14
	3.528469237595619e-16
	6.354692791805902e-01

 24	2.400000000000001e-01
	-1.828612817548590e-15
	-1.776896146783737e-22
	-1.300720166478671e-17
	2.041585648662448e-16
	6.488911112854013e-14
	8.023723977807747e-16
	6.354692791805902e-01

 25	2.500000000000001e-01
	-1.821498172149579e-15
	-2.287772429122916e-22
	-1.584697140919056e-17
	4.512803707285325e-16
	1.376817604666052e-13
	1.773599913286034e-15
	6.354692791805902e-01

 26	2.600000000000001e-01
	-1.814293788540930e-15
	-2.940574672689210e-22
	-1.938992238425766e-17
	9.617642217803105e-16
	2.781392769067765e-13
	3.779884989763920e-15
	6.354692791805902e-01

 27	2.700000000000001e-01
	-1.806963766817069e-15
	-3.772574124974549e-22
	-2.378574315517493e-17
	1.961981550788672e-15
	5.315087650301283e-13
	7.710908262097487e-15
	6.354692791805902e-01

 28	2.800000000000001e-01
	-1.799464812605783e-15
	-4.830234523980314e-22
	-2.921551557795039e-17
	3.814525160979478e-15
	9.601078890877124e-13
	1.499172618446491e-14
	6.354692791805913e-01

 29	2.900000000000001e-01
	-1.791743364667053e-15
	-6.171548918922234e-22
	-3.590412204297945e-17
	7.067932299956270e-15
	1.649529205431557e-12
	2.777819292872384e-14
	6.354692791805924e-01

 30	3.000000000000001e-01
	-1.783731187942882e-15
	-7.869136021474895e-22
	-4.413919012365011e-17
	1.253470548114677e-14
	2.725667678004586e-12
	4.926359931596437e-14
	6.354692791805947e-01

 31	3.100000000000001e-01
	-1.775339111597475e-15
	-1.001435788853724e-21
	-5.429775904794086e-17
	2.143058934559710e-14
	4.386016200708477e-12
	8.422606250064435e-14
	6.354692791805971e-01

 32	3.200000000000001e-01
	-1.766448794478782e-15
	-1.272274456325502e-21
	-6.688090835479809e-17
	3.561219670117122e-14
	6.945932377295206e-12
	1.399624514136931e-13
	6.354692791806029e-01

 33	3.300000000000001e-01
	-1.756902684288872e-15
	-1.614099779936946e-21
	-8.255534010768124e-17
	5.795584942623391e-14
	1.090487517140652e-11
	2.277773225101381e-13
	6.354692791806112e-01

 34	3.400000000000001e-01
	-1.746492690757377e-15
	-2.045578134979251e-21
	-1.021994154273992e-16
	9.294363440083004e-14
	1.704599180391019e-11
	3.652862688624855e-13
	6.354692791806240e-01

 35	3.500000000000001e-01
	-1.734948541669121e-15
	-2.590437209316396e-21
	-1.269493185661666e-16
	1.475675319630668e-13
	2.659095057125422e-11
	5.799693951569258e-13
	6.354692791806450e-01

 36	3.600000000000002e-01
	-1.721927378663746e-15
	-3.278701964483749e-21
	-1.582386767789524e-16
	2.327305656062478e-13
	4.144230871609721e-11
	9.146782681439259e-13
	6.354692791806767e-01

 37	3.700000000000002e-01
	-1.707006910763131e-15
	-4.148051069514130e-21
	-1.978219785291601e-16
	3.654252977280883e-13
	6.456218108520227e-11
	1.436198178099158e-12
	6.354692791807273e-01

 38	3.800000000000002e-01
	-1.689685381653054e-15
	-5.245192762830374e-21
	-2.477685107696827e-16
	5.721253805225201e-13
	1.005626856229058e-10
	2.248578373695961e-12
	6.354692791808045e-01

 39	3.900000000000002e-01
	-1.669392672165340e-15
	-6.627091396386219e-21
	-3.104095039284081e-16
	8.940674594899610e-13
	1.566257863370442e-10
	3.513892744511482e-12
	6.354692791809252e-01

 40	4.000000000000002e-01
	-1.645517831974218e-15
	-8.361794044571850e-21
	-3.882176571154242e-16
	1.395477276987028e-12
	2.439358817574014e-10
	5.484574107860224e-12
	6.354692791811138e-01

 41	4.100000000000002e-01
	-1.617458563827293e-15
	-1.052852299730834e-20
	-4.835978967695349e-16
	2.176380431734165e-12
	3.799107673689920e-10
	8.553772581048086e-12
	6.354692791814078e-01

 42	4.200000000000002e-01
	-1.584696349066508e-15
	-1.321664410611873e-20
	-5.985764479865459e-16
	3.392551482079646e-12
	5.916757553381549e-10
	1.333378211976169e-11
	6.354692791818648e-01

 43	4.300000000000002e-01
	-1.546895255647966e-15
	-1.652314342243305e-20
	-7.343989528148376e-16
	5.286576002553198e-12
	9.214733858000370e-10
	2.077817445806893e-11
	6.354692791825763e-01

 44	4.400000000000002e-01
	-1.504012084206868e-15
	-2.054840738805773e-20
	-8.910906462917946e-16
	8.236209635947857e-12
	1.435086405672022e-09
	3.237198891755096e-11
	6.354692791836849e-01

 45	4.500000000000002e-01
	-1.456392454178397e-15
	-2.539044368687644e-20
	-1.067083307086140e-15
	1.282965053943212e-11
	2.234950611827349e-09
	5.042787858611777e-11
	6.354692791854112e-01

 46	4.600000000000002e-01
	-1.404818282032384e-15
	-3.113816142597433e-20
	-1.259047748803557e-15
	1.998266625527352e-11
	3.480564369920405e-09
	7.854719067137980e-11
	6.354692791881006e-01

 47	4.700000000000003e-01
	-1.350475895449505e-15
	-3.786479580051616e-20
	-1.462051136687830e-15
	3.112075792975803e-11
	5.420244164149455e-09
	1.223377150636668e-10
	6.354692791922878e-01

 48	4.800000000000003e-01
	-1.294835461722331e-15
	-4.562278061889501e-20
	-1.670068558841281e-15
	4.846225803595628e-11
	8.440507176101459e-09
	1.905306808090731e-10
	6.354692791988084e-01

 49	4.900000000000003e-01
	-1.239464752589290e-15
	-5.444116151033714e-20
	-1.876747756024530e-15
	7.545776079908880e-11
	1.314280112495396e-08
	2.967183573978114e-10
	6.354692792089626e-01

 50	5.000000000000002e-01
	-1.185826488240772e-15
	-6.432602311745521e-20
	-2.076224225468002e-15
	1.174709433420259e-10
	2.046256977044818e-08
	4.620553111543665e-10
	6.354692792247723e-01

 51	5.100000000000002e-01
	-1.135113072839632e-15
	-7.526362327683901e-20
	-2.263771620083415e-15
	1.828303068701420e-10
	3.185363357284394e-08
	7.194534811400003e-10
	6.354692792493849e-01

 52	5.200000000000002e-01
	-1.088153821624807e-15
	-8.722531844592990e-20
	-2.436152529664447e-15
	2.844465146439552e-10
	4.957279294820742e-08
	1.120086805605488e-09
	6.354692792876936e-01

 53	5.300000000000002e-01
	-1.045400523816543e-15
	-1.001731391641010e-19
	-2.591653753658527e-15
	4.422817070498244e-10
	7.711688598400869e-08
	1.743451712104700e-09
	6.354692793473011e-01

 54	5.400000000000003e-01
	-1.006973377286311e-15
	-1.140650254400146e-19
	-2.729883955695036e-15
	6.870771311396401e-10
	1.198884894229603e-07
	2.712866112631488e-09
	6.354692794399982e-01

 55	5.500000000000003e-01
	-9.727393372940653e-16
	-1.288590955941996e-19
	-2.851448425246132e-15
	1.065879730401321e-09
	1.861964897387938e-07
	4.219197862213817e-09
	6.354692795840349e-01

 56	5.600000000000003e-01
	-9.423974004748163e-16
	-1.445167090722978e-19
	-2.957602865732957e-15
	1.650000694258441e-09
	2.887271995666032e-07
	6.556829593435128e-09
	6.354692798075627e-01

 57	5.700000000000003e-01
	-9.155540646938081e-16
	-1.610043734390133e-19
	-3.049951590531674e-15
	2.545936259469516e-09
	4.466270301604669e-07
	1.017728821318675e-08
	6.354692801537567e-01

 58	5.800000000000003e-01
	-8.917813870704118e-16
	-1.782947040055759e-19
	-3.130218347301362e-15
	3.909145828472851e-09
	6.882550612675543e-07
	1.576708173877928e-08
	6.354692806882603e-01

 59	5.900000000000003e-01
	-8.706567083658427e-16
	-1.963666937852003e-19
	-3.200091724557431e-15
	5.958821360849094e-09
	1.054348059871444e-06
	2.435557545937235e-08
	6.354692815095054e-01

 60	6.000000000000003e-01
	-8.517866938520624e-16
	-2.152055334192727e-19
	-3.261133350827227e-15
	8.988221070309801e-09
	1.600535062255468e-06
	3.745267294611777e-08
	6.354692827618699e-01

 61	6.100000000000003e-01
	-8.348195791024227e-16
	-2.348021726085007e-19
	-3.314732693828671e-15
	1.336000350055394e-08
	2.396616737104474e-06
	5.719841871916992e-08
	6.354692846499894e-01

 62	6.200000000000003e-01
	-8.194493858987662e-16
	-2.551527608225461e-19
	-3.362093158152978e-15
	1.947263037614523e-08
	3.518303232996907e-06
	8.647167934948519e-08
	6.354692874491463e-01

 63	6.300000000000003e-01
	-8.054151625867357e-16
	-2.762580579901157e-19
	-3.404237261495173e-15
	2.769025858383734e-08
	5.027794336409543e-06
	1.288616574143909e-07
	6.354692915025500e-01

 64	6.400000000000003e-01
	-7.924974707434673e-16
	-2.981228696810678e-19
	-3.442022115310333e-15
	3.825102999724469e-08
	6.946772915340821e-06
	1.883993302396021e-07
	6.354692971956510e-01

 65	6.500000000000004e-01
	-7.805136068342100e-16
	-3.207555358105710e-19
	-3.476159406955683e-15
	5.119594288171552e-08
	9.237216387240801e-06
	2.690412858189307e-07
	6.354693049067924e-01

 66	6.600000000000004e-01
	-7.693124846631554e-16
	-3.441674852033703e-19
	-3.507236328316094e-15
	6.636122918049989e-08
	1.180744005845922e-05
	3.740781773264909e-07
	6.354693149506367e-01

 67	6.700000000000004e-01
	-7.587697084462788e-16
	-3.683728582058853e-19
	-3.535735457679896e-15
	8.343846582658699e-08
	1.454282398651166e-05
	5.057379668894826e-07
	6.354693275402339e-01

 68	6.800000000000004e-01
	-7.487831056274155e-16
	-3.933881939086393e-19
	-3.562052617117108e-15
	1.020640659720631e-07
	1.734060699399939e-05
	6.651372524962488e-07
	6.354693427823580e-01

 69	6.900000000000004e-01
	-7.392688268481205e-16
	-4.192321758070003e-19
	-3.586512348640234e-15
	1.218938479641693e-07
	2.012948281919242e-05
	8.525142988294786e-07
	6.354693606997996e-01

 70	7.000000000000004e-01
	-7.301580264516062e-16
	-4.459254287062294e-19
	-3.609381007014161e-15
	1.426430612579901e-07
	2.287112252859713e-05
	1.067563592548076e-06
	6.354693812633458e-01

 71	7.100000000000004e-01
	-7.213940867177562e-16
	-4.734903596267061e-19
	-3.630877651124330e-15
	1.640963222672451e-07
	2.555176021151867e-05
	1.309727818299170e-06
	6.354694044197053e-01

 72	7.200000000000004e-01
	-7.129303258940479e-16
	-5.019510359510473e-19
	-3.651182996018598e-15
	1.861005659927603e-07
	2.817210601147474e-05
	1.578392110601822e-06
	6.354694301100845e-01

 73	7.300000000000004e-01
	-7.047281228165816e-16
	-5.313330948019454e-19
	-3.670446708048167e-15
	2.085519570524008e-07
	3.073959201429837e-05
	1.872987470909467e-06
	6.354694582800745e-01

 74	7.400000000000004e-01
	-6.967553923708646e-16
	-5.616636784736433e-19
	-3.688793313664400e-15
	2.313828087509749e-07
	3.326363117947649e-05
	2.193031967898928e-06
	6.354694888835888e-01

 75	7.500000000000004e-01
	-6.889853518404656e-16
	-5.929713915557407e-19
	-3.706326965203121e-15
	2.545508533404488e-07
	3.575319866110581e-05
	2.538136904833046e-06
	6.354695218834601e-01

 76	7.600000000000005e-01
	-6.813955257435696e-16
	-6.252862761331306e-19
	-3.723135274194482e-15
	2.780312524436334e-07
	3.821584917714058e-05
	2.907996653178506e-06
	6.354695572504603e-01

 77	7.700000000000005e-01
	-6.739669446069642e-16
	-6.586398020990812e-19
	-3.739292389761814e-15
	3.018109634361599e-07
	4.065749904137401e-05
	3.302372928787070e-06
	6.354695949618021e-01

 78	7.800000000000005e-01
	-6.666835005140527e-16
	-6.930648701767556e-19
	-3.754861469233729e-15
	3.258848954580918e-07
	4.308255839572189e-05
	3.721078893817935e-06
	6.354696349996175e-01

 79	7.900000000000005e-01
	-6.595314288419479e-16
	-7.285958257139234e-19
	-3.769896661342649e-15
	3.502533405330231e-07
	4.549418820435350e-05
	4.163965334759961e-06
	6.354696773496368e-01

 80	8.000000000000005e-01
	-6.524988912627672e-16
	-7.652684817058503e-19
	-3.784444699595878e-15
	3.749202806953710e-07
	4.789457230167877e-05
	4.630909544414026e-06
	6.354697220001259e-01

 81	8.100000000000005e-01
	-6.455756398428681e-16
	-8.031201498233843e-19
	-3.798546184401640e-15
	3.998922840637274e-07
	5.028515840903095e-05
	5.121806790713857e-06
	6.354697689410650e-01

 82	8.200000000000005e-01
	-6.387527460109235e-16
	-8.421896784872114e-19
	-3.812236616917462e-15
	4.251777917567636e-07
	5.266685411460366e-05
	5.636563974219704e-06
	6.354698181635514e-01

 83	8.300000000000005e-01
	-6.320223813852302e-16
	-8.825174972456023e-19
	-3.825547234895499e-15
	4.507866622193149e-07
	5.504017846510123e-05
	6.175095019630526e-06
	6.354698696593529e-01

 84	8.400000000000005e-01
	-6.253776400612357e-16
	-9.241456668894749e-19
	-3.838505690563150e-15
	4.767298844062841e-07
	5.740537548533737e-05
	6.737317586589481e-06
	6.354699234205935e-01

 85	8.500000000000005e-01
	-6.188123940635904e-16
	-9.671179348827668e-19
	-3.851136602370136e-15
	5.030194016002570e-07
	5.976249729363884e-05
	7.323150757311706e-06
	6.354699794395341e-01

 86	8.600000000000005e-01
	-6.123211753535306e-16
	-1.011479795804470e-18
	-3.863462005882579e-15
	5.296680078103684e-07
	6.211146396082718e-05
	7.932513433563109e-06
	6.354700377084183e-01

 87	8.700000000000006e-01
	-6.058990791300600e-16
	-1.057278556595047e-18
	-3.875501723891917e-15
	5.566892919871993e-07
	6.445210608221648e-05
	8.565323241349733e-06
	6.354700982193673e-01

 88	8.800000000000006e-01
	-5.995416842372551e-16
	-1.104563406480488e-18
	-3.887273671669356e-15
	5.840976139895494e-07
	6.678419475798837e-05
	9.221495794952218e-06
	6.354701609643110e-01

 89	8.900000000000006e-01
	-5.932449873442690e-16
	-1.153385491513294e-18
	-3.898794110017512e-15
	6.119081019165860e-07
	6.910746253927289e-05
	9.900944213041509e-06
	6.354702259349400e-01

 90	9.000000000000006e-01
	-5.870053482430231e-16
	-1.203797993725219e-18
	-3.910077856175700e-15
	6.401366641169937e-07
	7.142161796709845e-05
	1.060357881035655e-05
	6.354702931226759e-01

 91	9.100000000000006e-01
	-5.808194441471443e-16
	-1.255856214933957e-18
	-3.921138460581786e-15
	6.688000115934918e-07
	7.372635560885307e-05
	1.132930691091827e-05
	6.354703625186577e-01

 92	9.200000000000006e-01
	-5.746842313028528e-16
	-1.309617665286160e-18
	-3.931988355869604e-15
	6.979156880882626e-07
	7.602136295387669e-05
	1.207803274495188e-05
	6.354704341137247e-01

 93	9.300000000000006e-01
	-5.685969125613836e-16
	-1.365142156654160e-18
	-3.942638983196015e-15
	7.275021061566349e-07
	7.830632513093549e-05
	1.284965740320350e-05
	6.354705078984184e-01

 94	9.400000000000006e-01
	-5.625549098313797e-16
	-1.422491901035211e-18
	-3.953100899974994e-15
	7.575785882048765e-07
	8.058092812228408e-05
	1.364407883044692e-05
	6.354705838629782e-01

 95	9.500000000000006e-01
	-5.565558405431557e-16
	-1.481731614130028e-18
	-3.963383872290399e-15
	7.881654119074698e-07
	8.284486094368198e-05
	1.446119184563571e-05
	6.354706619973447e-01

 96	9.600000000000006e-01
	-5.505974974262896e-16
	-1.542928624302976e-18
	-3.973496954620598e-15
	8.192838597109956e-07
	8.509781711486170e-05
	1.530088818008337e-05
	6.354707422911640e-01

 97	9.700000000000006e-01
	-5.446778310368666e-16
	-1.606152987150861e-18
	-3.983448559000802e-15
	8.509562723281128e-07
	8.733949564359606e-05
	1.616305652776264e-05
	6.354708247337927e-01

 98	9.800000000000006e-01
	-5.387949345781378e-16
	-1.671477605929912e-18
	-3.993246515345567e-15
	8.832061062602843e-07
	8.956960167609099e-05
	1.704758260367155e-05
	6.354709093142996e-01

 99	9.900000000000007e-01
	-5.329470306440346e-16
	-1.738978358113398e-18
	-4.002898124332404e-15
	9.160579954840685e-07
	9.178784691780080e-05
	1.795434920748318e-05
	6.354709960214779e-01

 100	1.000000000000001e+00
	-5.271324595834474e-16
	-1.808734228374048e-18
	-4.012410203990699e-15
	9.495378175075413e-07
	9.399394989534126e-05
	1.888323629056055e-05
	6.354710848438461e-01

 101	1.010000000000001e+00
	-5.213496692380477e-16
	-1.880827448307791e-18
	-4.021789130934439e-15
