Title: ** sch_path: /home/andylithia/openmpw/project-yatsuhashi-chip1/xschem/gmid_test/nmos_test.sch
Date: Sun Jul 17 22:51:45  2022
Plotname: DC transfer characteristic
Flags: real
No. Variables: 8
No. Points: 181
Variables:
	0	v(v-sweep)	voltage
	1	@m.xm1.msky130_fd_pr__nfet_01v8[cgb]	capacitance
	2	@m.xm1.msky130_fd_pr__nfet_01v8[cgd]	capacitance
	3	@m.xm1.msky130_fd_pr__nfet_01v8[cgs]	capacitance
	4	@m.xm1.msky130_fd_pr__nfet_01v8[gds]	admittance
	5	@m.xm1.msky130_fd_pr__nfet_01v8[gm]	admittance
	6	i(@m.xm1.msky130_fd_pr__nfet_01v8[id])	current
	7	v(@m.xm1.msky130_fd_pr__nfet_01v8[vth])	voltage
Values:
 0	0.000000000000000e+00
	-2.996830957342108e-15
	3.167850301411767e-19
	-1.901998310519462e-15
	1.086760550969305e-08
	3.651815644786863e-07
	3.040810025360626e-08
	4.296762914590330e-01

 1	1.000000000000000e-02
	-2.967939573948815e-15
	3.185973071948011e-19
	-1.960539203156781e-15
	1.224657356141390e-08
	4.112236327699995e-07
	3.428563792859911e-08
	4.296762918387776e-01

 2	2.000000000000000e-02
	-2.939021069681199e-15
	3.200208091216578e-19
	-2.020145032313511e-15
	1.379784800809396e-08
	4.629726695380095e-07
	3.865158655716031e-08
	4.296762922663521e-01

 3	3.000000000000000e-02
	-2.910084621537905e-15
	3.210310627563435e-19
	-2.080795288972409e-15
	1.554244657907268e-08
	5.211199010294046e-07
	4.356640773587070e-08
	4.296762927476824e-01

 4	4.000000000000000e-02
	-2.881140037913150e-15
	3.216031724378695e-19
	-2.142467272573346e-15
	1.750385359888881e-08
	5.864379089599151e-07
	4.909787474016784e-08
	4.296762932894023e-01

 5	5.000000000000000e-02
	-2.852197735165677e-15
	3.217118584485227e-19
	-2.205136096681713e-15
	1.970829134178532e-08
	6.597899431856183e-07
	5.532193180417547e-08
	4.296762938989508e-01

 6	6.000000000000000e-02
	-2.823268711311169e-15
	3.213314970244331e-19
	-2.268774703659965e-15
	2.218501791153381e-08
	7.421402963707543e-07
	6.232365173513251e-08
	4.296762945846602e-01

 7	7.000000000000001e-02
	-2.794364516892578e-15
	3.204361616914766e-19
	-2.333353888531709e-15
	2.496665363458920e-08
	8.345658709505184e-07
	7.019830311890903e-08
	4.296762953558589e-01

 8	8.000000000000000e-02
	-2.765497223105709e-15
	3.189996656599079e-19
	-2.398842332168966e-15
	2.808953799132100e-08
	9.382690879501818e-07
	7.905253976973655e-08
	4.296762962229939e-01

 9	9.000000000000000e-02
	-2.736679387280306e-15
	3.169956049925435e-19
	-2.465206643871379e-15
	3.159411912310437e-08
	1.054592309901674e-06
	8.900572668317922e-08
	4.296762971977542e-01

 10	9.999999999999999e-02
	-2.707924015839538e-15
	3.143974022452322e-19
	-2.532411413340906e-15
	3.552537793683483e-08
	1.185033976790042e-06
	1.001914186035160e-07
	4.296762982932192e-01

 11	1.100000000000000e-01
	-2.679244524883029e-15
	3.111783502640724e-19
	-2.600419271988928e-15
	3.993328877685244e-08
	1.331266685330027e-06
	1.127590094586203e-07
	4.296762995240213e-01

 12	1.200000000000000e-01
	-2.650654698559957e-15
	3.073116558120723e-19
	-2.669190963444348e-15
	4.487331854053663e-08
	1.495157478640555e-06
	1.268755733973436e-07
	4.296763009065208e-01

 13	1.300000000000000e-01
	-2.622168645419377e-15
	3.027704826894439e-19
	-2.738685423061691e-15
	5.040696597061557e-08
	1.678790656321464e-06
	1.427279210441114e-07
	4.296763024590170e-01

 14	1.400000000000000e-01
	-2.593800752944067e-15
	2.975279940049233e-19
	-2.808859866159718e-15
	5.660234265677113e-08
	1.884493464834854e-06
	1.605248979287787e-07
	4.296763042019586e-01

 15	1.500000000000000e-01
	-2.565565640492062e-15
	2.915573932534303e-19
	-2.879669884651586e-15
	6.353479701304949e-08
	2.114865085721870e-06
	1.804999559298212e-07
	4.296763061582128e-01

 16	1.600000000000000e-01
	-2.537478110886067e-15
	2.848319638542364e-19
	-2.951069551661589e-15
	7.128758215767532e-08
	2.372809405253441e-06
	2.029140330672437e-07
	4.296763083533353e-01

 17	1.700000000000000e-01
	-2.509553100905119e-15
	2.773251068080745e-19
	-3.023011533657829e-15
	7.995256819935054e-08
	2.661572124169738e-06
	2.280587821846457e-07
	4.296763108158875e-01

 18	1.800000000000000e-01
	-2.481805630944876e-15
	2.690103761374080e-19
	-3.095447209568747e-15
	8.963099892096313e-08
	2.984782850530710e-06
	2.562601950601445e-07
	4.296763135777971e-01

 19	1.900000000000000e-01
	-2.454250754122661e-15
	2.598615117836973e-19
	-3.168326796293431e-15
	1.004342922399686e-07
	3.346502912324150e-06
	2.878826753760964e-07
	4.296763166747525e-01

 20	2.000000000000000e-01
	-2.426903505110584e-15
	2.498524696485106e-19
	-3.241599479961860e-15
	1.124848831077298e-07
	3.751279728786924e-06
	3.233336218480177e-07
	4.296763201466562e-01

 21	2.100000000000000e-01
	-2.399778848984842e-15
	2.389574484804123e-19
	-3.315213552253067e-15
	1.259171066824067e-07
	4.204208689110619e-06
	3.630685917450550e-07
	4.296763240381239e-01

 22	2.200000000000001e-01
	-2.372891630381374e-15
	2.271509133286762e-19
	-3.389116551036207e-15
	1.408781186678914e-07
	4.711003602112725e-06
	4.075971250913080e-07
	4.296763283990587e-01

 23	2.300000000000001e-01
	-2.346256523247256e-15
	2.144076153055853e-19
	-3.463255404563641e-15
	1.575288486537928e-07
	5.278076897172889e-06
	4.574893210557460e-07
	4.296763332852972e-01

 24	2.400000000000001e-01
	-2.319887981474015e-15
	2.007026074225694e-19
	-3.537576578415408e-15
	1.760449811203745e-07
	5.912630870408199e-06
	5.133832704130379e-07
	4.296763387593369e-01

 25	2.500000000000001e-01
	-2.293800190692805e-15
	1.860112562913322e-19
	-3.612026224372411e-15
	1.966179574934562e-07
	6.622761374094182e-06
	5.759934614267433e-07
	4.296763448911511e-01

 26	2.600000000000001e-01
	-2.268007021502856e-15
	1.703092495085674e-19
	-3.686550330380393e-15
	2.194559912575275e-07
	7.417575433074420e-06
	6.461202909314951e-07
	4.296763517591380e-01

 27	2.700000000000001e-01
	-2.242521984393119e-15
	1.535725985711803e-19
	-3.761094870760684e-15
	2.447850866763155e-07
	8.307324328380894e-06
	7.246608275373479e-07
	4.296763594511548e-01

 28	2.800000000000001e-01
	-2.217358186603617e-15
	1.357776372000542e-19
	-3.835605955823270e-15
	2.728500501491137e-07
	9.303553701967781e-06
	8.126209893869429e-07
	4.296763680657292e-01

 29	2.900000000000001e-01
	-2.192528291156777e-15
	1.169010149799201e-19
	-3.910029980047515e-15
	3.039154816766172e-07
	1.041927219117055e-05
	9.111293142607340e-07
	4.296763777133936e-01

 30	3.000000000000001e-01
	-2.168044478271381e-15
	9.691968625513032e-20
	-3.984313768011032e-15
	3.382667323549509e-07
	1.166913997831910e-05
	1.021452514361489e-06
	4.296763885182191e-01

 31	3.100000000000001e-01
	-2.143918409351625e-15
	7.581089425141979e-20
	-4.058404717271695e-15
	3.762108123032477e-07
	1.306967841850663e-05
	1.145013020935677e-06
	4.296764006195274e-01

 32	3.200000000000001e-01
	-2.120161193722620e-15
	5.355215042476017e-20
	-4.132250937438066e-15
	4.180772320062168e-07
	1.463950156337821e-05
	1.283408733895005e-06
	4.296764141738305e-01

 33	3.300000000000001e-01
	-2.096783358260717e-15
	3.012120906829151e-20
	-4.205801384701441e-15
	4.642187587744024e-07
	1.639956990621912e-05
	1.438435197437384e-06
	4.296764293570008e-01

 34	3.400000000000001e-01
	-2.073794820043510e-15
	5.496037236709660e-21
	-4.279005991145951e-15
	5.150120689525985e-07
	1.837346600864602e-05
	1.612110422731824e-06
	4.296764463667032e-01

 35	3.500000000000001e-01
	-2.051204862119554e-15
	-2.034521992503819e-20
	-4.351815788202976e-15
	5.708582757079934e-07
	2.058769080826294e-05
	1.806702571182567e-06
	4.296764654251103e-01

 36	3.600000000000002e-01
	-2.029022112473106e-15
	-4.742427833691952e-20
	-4.424183023669993e-15
	6.321833117743262e-07
	2.307197832953252e-05
	2.024760694558571e-06
	4.296764867819091e-01

 37	3.700000000000002e-01
	-2.007254526233840e-15
	-7.576275848749131e-20
	-4.496061271772704e-15
	6.994381464884706e-07
	2.585962521248271e-05
	2.269148699125571e-06
	4.296765107176296e-01

 38	3.800000000000002e-01
	-1.985909371156659e-15
	-1.053822331299193e-19
	-4.567405535810980e-15
	7.730988169014640e-07
	2.898782993013290e-05
	2.543082657506050e-06
	4.296765375473086e-01

 39	3.900000000000002e-01
	-1.964993216371872e-15
	-1.363042789966379e-19
	-4.638172342994449e-15
	8.536662537434636e-07
	3.249803479217280e-05
	2.850171531979593e-06
	4.296765676244683e-01

 40	4.000000000000002e-01
	-1.944511924382403e-15
	-1.685505323422245e-19
	-4.708319831139122e-15
	9.416658846264572e-07
	3.643626185140226e-05
	3.194461294115209e-06
	4.296766013454465e-01

 41	4.100000000000002e-01
	-1.924470646261368e-15
	-2.021427481125516e-19
	-4.777807826965086e-15
	1.037646999125521e-06
	4.085343168183416e-05
	3.580482326118010e-06
	4.296766391540420e-01

 42	4.200000000000002e-01
	-1.904873819981802e-15
	-2.371028625283237e-19
	-4.846597915802589e-15
	1.142181863311701e-06
	4.580565174628786e-05
	4.013299867697430e-06
	4.296766815464534e-01

 43	4.300000000000002e-01
	-1.885725171789712e-15
	-2.734530588638409e-19
	-4.914653502581391e-15
	1.255864574920185e-06
	5.135445880469093e-05
	4.498567128012271e-06
	4.296767290764889e-01

 44	4.400000000000002e-01
	-1.867027720512787e-15
	-3.112158361994808e-19
	-4.981939864044648e-15
	1.379309654599155e-06
	5.756699764611566e-05
	5.042580515713402e-06
	4.296767823609703e-01

 45	4.500000000000002e-01
	-1.848783784679938e-15
	-3.504140809238466e-19
	-5.048424192192478e-15
	1.513150373536877e-06
	6.451611649759089e-05
	5.652336252949149e-06
	4.296768420852961e-01

 46	4.600000000000002e-01
	-1.830994992311393e-15
	-3.910711407657246e-19
	-5.114075629022457e-15
	1.658036823112441e-06
	7.228035793441093e-05
	6.335587434614725e-06
	4.296769090090185e-01

 47	4.700000000000003e-01
	-1.813662293225729e-15
	-4.332109011387195e-19
	-5.178865292692350e-15
	1.814633737921333e-06
	8.094382317201749e-05
	7.100900377023767e-06
	4.296769839713716e-01

 48	4.800000000000003e-01
	-1.796785973698739e-15
	-4.768578635901028e-19
	-5.242766295285466e-15
	1.983618089419807e-06
	9.059588745180734e-05
	7.957708877375406e-06
	4.296770678965913e-01

 49	4.900000000000003e-01
	-1.780365673299592e-15
	-5.220372261545692e-19
	-5.305753752409549e-15
	2.165676473299615e-06
	1.013307450356798e-04
	8.916364785625008e-06
	4.296771617988689e-01

 50	5.000000000000002e-01
	-1.764400403722361e-15
	-5.687749654251362e-19
	-5.367804784906374e-15
	2.361502319307462e-06
	1.132467642766788e-04
	9.988183084275306e-06
	4.296772667867734e-01

 51	5.100000000000002e-01
	-1.748888569425590e-15
	-6.170979201676437e-19
	-5.428898512990490e-15
	2.571792957299362e-06
	1.264456364857332e-04
	1.118547949148266e-05
	4.296773840669286e-01

 52	5.200000000000002e-01
	-1.733827989889142e-15
	-6.670338763191041e-19
	-5.489016043171891e-15
	2.797246577597096e-06
	1.410313069693904e-04
	1.252159846228998e-05
	4.296775149467664e-01

 53	5.300000000000002e-01
	-1.719215923295944e-15
	-7.186116532285506e-19
	-5.548140448348823e-15
	3.038559126928876e-06
	1.571086827063170e-04
	1.401092937603866e-05
	4.296776608361131e-01

 54	5.400000000000003e-01
	-1.705049091446545e-15
	-7.718611910151394e-19
	-5.606256741482837e-15
	3.296421183148051e-06
	1.747821186126253e-04
	1.566890867929105e-05
	4.296778232473895e-01

 55	5.500000000000003e-01
	-1.691323705716229e-15
	-8.268136389369707e-19
	-5.663351843289166e-15
	3.571514852338317e-06
	1.941536930706159e-04
	1.751200581616912e-05
	4.296780037942431e-01

 56	5.600000000000003e-01
	-1.678035493867839e-15
	-8.835014446839289e-19
	-5.719414544391569e-15
	3.864510730704975e-06
	2.153212931067112e-04
	1.955769093313532e-05
	4.296782041883746e-01

 57	5.700000000000003e-01
	-1.665179727538405e-15
	-9.419584445261399e-19
	-5.774435462401663e-15
	4.176064970770907e-06
	2.383765399353209e-04
	2.182438260099978e-05
	4.296784262344162e-01

 58	5.800000000000003e-01
	-1.652751250223575e-15
	-1.002219954270525e-18
	-5.828406994389296e-15
	4.506816486903411e-06
	2.634025960651174e-04
	2.433137415727533e-05
	4.296786718227069e-01

 59	5.900000000000003e-01
	-1.640744505591205e-15
	-1.064322860996404e-18
	-5.881323265212616e-15
	4.857384329254990e-06
	2.904719052330033e-04
	2.709873773561582e-05
	4.296789429198919e-01

 60	6.000000000000003e-01
	-1.629153565963399e-15
	-1.128305715562389e-18
	-5.933180072174523e-15
	5.228365248086666e-06
	3.196439254687494e-04
	3.014720560878205e-05
	4.296792415572873e-01

 61	6.100000000000003e-01
	-1.617972160815222e-15
	-1.194208825895560e-18
	-5.983974826466736e-15
	5.620331462533571e-06
	3.509629229551917e-04
	3.349802911377747e-05
	4.296795698170460e-01

 62	6.200000000000003e-01
	-1.607193705147837e-15
	-1.262074351093344e-18
	-6.033706491853594e-15
	6.033828639636227e-06
	3.844558994119188e-04
	3.717281613252772e-05
	4.296799298162359e-01

 63	6.300000000000003e-01
	-1.596811327603667e-15
	-1.331946396389309e-18
	-6.082375521036249e-15
	6.469374081422192e-06
	4.201307279428254e-04
	4.119334884286395e-05
	4.296803236889719e-01

 64	6.400000000000003e-01
	-1.586817898201473e-15
	-1.403871109051687e-18
	-6.129983790123545e-15
	6.927455110525347e-06
	4.579745712202263e-04
	4.558138420174595e-05
	4.296807535668610e-01

 65	6.500000000000004e-01
	-1.577206055579656e-15
	-1.477896775304802e-18
	-6.176534531619598e-15
	7.408527638800924e-06
	4.979526512708490e-04
	5.035844034133171e-05
	4.296812215580690e-01

 66	6.600000000000004e-01
	-1.567968233646700e-15
	-1.554073918380772e-18
	-6.222032266319739e-15
	7.913014899092240e-06
	5.400074319294884e-04
	5.554557271277020e-05
	4.296817297253833e-01

 67	6.700000000000004e-01
	-1.559096687547888e-15
	-1.632455397830375e-18
	-6.266482734487615e-15
	8.441306318080048e-06
	5.840582634133098e-04
	6.116314436721772e-05
	4.296822800636919e-01

 68	6.800000000000004e-01
	-1.550583518868098e-15
	-1.713096510238408e-18
	-6.309892826664761e-15
	8.993756508194518e-06
	6.300015238591930e-04
	6.723059518626891e-05
	4.296828744773879e-01

 69	6.900000000000004e-01
	-1.542420700000155e-15
	-1.796055091512201e-18
	-6.352270514443588e-15
	9.570684358928024e-06
	6.777112756972395e-04
	7.376621513789973e-05
	4.296835147581340e-01

 70	7.000000000000004e-01
	-1.534600097618476e-15
	-1.881391620926598e-18
	-6.393624781511792e-15
	1.017237221238132e-05
	7.270404362309839e-04
	8.078692671946790e-05
	4.296842025635578e-01

 71	7.100000000000004e-01
	-1.527113495206838e-15
	-1.969169327131735e-18
	-6.433965555254651e-15
	1.079906511417743e-05
	7.778224427211945e-04
	8.830808164593120e-05
	4.296849393973363e-01

 72	7.200000000000004e-01
	-1.519952614598412e-15
	-2.059454296347713e-18
	-6.473303639178769e-15
	1.145097013847203e-05
	8.298733736530036e-04
	9.634327654859962e-05
	4.296857265911342e-01

 73	7.300000000000004e-01
	-1.513109136494771e-15
	-2.152315582988137e-18
	-6.511650646398364e-15
	1.212825579405870e-05
	8.829944707265396e-04
	1.049041919773228e-04
	4.296865652888444e-01

 74	7.400000000000004e-01
	-1.506574719938809e-15
	-2.247825322975792e-18
	-6.549018934403063e-15
	1.283105152681788e-05
	9.369749913855003e-04
	1.140004583667262e-04
	4.296874564334566e-01

 75	7.500000000000004e-01
	-1.500341020724241e-15
	-2.346058850028950e-18
	-6.585421541303631e-15
	1.355944734128001e-05
	9.915953101675948e-04
	1.236395518631827e-04
	4.296884007568630e-01

 76	7.600000000000005e-01
	-1.494399708731611e-15
	-2.447094815217587e-18
	-6.620872123730591e-15
	1.431349357022044e-05
	1.046630179397414e-03
	1.338267220488661e-04
	4.296893987727821e-01

 77	7.700000000000005e-01
	-1.488742484187470e-15
	-2.551015310103309e-18
	-6.655384896539111e-15
	1.509320082541896e-05
	1.101852056067639e-03
	1.445649526819120e-04
	4.296904507729262e-01

 78	7.800000000000005e-01
	-1.483361092849622e-15
	-2.657905993795863e-18
	-6.688974574452785e-15
	1.589854016461818e-05
	1.157034402227305e-03
	1.558549556390077e-04
	4.296915568264107e-01

 79	7.900000000000005e-01
	-1.478247340127121e-15
	-2.767856224273067e-18
	-6.721656315758726e-15
	1.672944350908113e-05
	1.211954870615285e-03
	1.676951973391666e-04
	4.296927167823551e-01

 80	8.000000000000005e-01
	-1.473393104148849e-15
	-2.880959194327577e-18
	-6.753445668146818e-15
	1.758580434297834e-05
	1.266398295213977e-03
	1.800819560826387e-04
	4.296939302755098e-01

 81	8.100000000000005e-01
	-1.468790347799257e-15
	-2.997312072518502e-18
	-6.784358516767421e-15
	1.846747872030345e-05
	1.320159417236420e-03
	1.930094079889270e-04
	4.296951967346773e-01

 82	8.200000000000005e-01
	-1.464431129744070e-15
	-3.117016149519268e-18
	-6.814411034563942e-15
	1.937428659747400e-05
	1.373045290056080e-03
	2.064697385880300e-04
	4.296965153936573e-01

 83	8.300000000000005e-01
	-1.460307614472388e-15
	-3.240176990267994e-18
	-6.843619634919851e-15
	2.030601350071255e-05
	1.424877320931844e-03
	2.204532766268413e-04
	4.296978853043613e-01

 84	8.400000000000005e-01
	-1.456412081384886e-15
	-3.366904592340345e-18
	-6.872000926644124e-15
	2.126241252728698e-05
	1.475492922255701e-03
	2.349486463072613e-04
	4.296993053517280e-01

 85	8.500000000000005e-01
	-1.452736932960547e-15
	-3.497313550976636e-18
	-6.899571671304290e-15
	2.224320666933575e-05
	1.524746759692108e-03
	2.499429339754064e-04
	4.297007742700591e-01

 86	8.600000000000005e-01
	-1.449274702036608e-15
	-3.631523231210939e-18
	-6.926348742902700e-15
	2.324809143891351e-05
	1.572511598316735e-03
	2.654218652264503e-04
	4.297022906603788e-01

 87	8.700000000000006e-01
	-1.446018058238189e-15
	-3.769657947562415e-18
	-6.952349089879685e-15
	2.427673776361433e-05
	1.618678760156503e-03
	2.813699884651728e-04
	4.297038530084117e-01

 88	8.800000000000006e-01
	-1.442959813595634e-15
	-3.911847151764192e-18
	-6.977589699415699e-15
	2.532879511411781e-05
	1.663158216986629e-03
	2.977708611515329e-04
	4.297054597028328e-01

 89	8.900000000000006e-01
	-1.440092927388456e-15
	-4.058225629019919e-18
	-7.002087563995042e-15
	2.640389481861338e-05
	1.705878350610001e-03
	3.146072352438652e-04
	4.297071090534393e-01

 90	9.000000000000006e-01
	-1.437410510255517e-15
	-4.208933703295218e-18
	-7.025859650184876e-15
	2.750165351450705e-05
	1.746785419029056e-03
	3.318612387080534e-04
	4.297087993089306e-01

 91	9.100000000000006e-01
	-1.434905827611413e-15
	-4.364117452167205e-18
	-7.048922869575751e-15
	2.862167668520109e-05
	1.785842770948751e-03
	3.495145503674603e-04
	4.297105286740343e-01

 92	9.200000000000006e-01
	-1.432572302409021e-15
	-4.523928931775128e-18
	-7.071294051823448e-15
	2.976356222904132e-05
	1.823029853055510e-03
	3.675485658045451e-04
	4.297122953257679e-01

 93	9.300000000000006e-01
	-1.430403517287930e-15
	-4.688526412434409e-18
	-7.092989919726617e-15
	3.092690400863529e-05
	1.858341054716198e-03
	3.859445524719280e-04
	4.297140974286249e-01

 94	9.400000000000006e-01
	-1.428393216148020e-15
	-4.858074625498407e-18
	-7.114027066270250e-15
	3.211129533143962e-05
	1.891784433400830e-03
	4.046837926111299e-04
	4.297159331485780e-01

 95	9.500000000000006e-01
	-1.426535305186693e-15
	-5.032745022074271e-18
	-7.134421933561711e-15
	3.331633231655918e-05
	1.923380361551626e-03
	4.237477129978598e-04
	4.297178006657922e-01

 96	9.600000000000006e-01
	-1.424823853437453e-15
	-5.212716044226040e-18
	-7.154190793583351e-15
	3.454161710778641e-05
	1.953160132102586e-03
	4.431180009223777e-04
	4.297196981859822e-01

 97	9.700000000000006e-01
	-1.423253092846434e-15
	-5.398173409324287e-18
	-7.173349730684039e-15
	3.578676089873773e-05
	1.981164555691711e-03
	4.627767061644199e-04
	4.297216239503975e-01

 98	9.800000000000006e-01
	-1.421817417922397e-15
	-5.589310408228753e-18
	-7.191914625730664e-15
	3.705138674221544e-05
	2.007442578070974e-03
	4.827063290293868e-04
	4.297235762444550e-01

 99	9.900000000000007e-01
	-1.420511384994338e-15
	-5.786328218024685e-18
	-7.209901141840452e-15
	3.833513212236849e-05
	2.032049941542179e-03
	5.028898947735319e-04
	4.297255534050168e-01

 100	1.000000000000001e+00
	-1.419329711109666e-15
	-5.989436230062858e-18
	-7.227324711614598e-15
	3.963765127458411e-05
	2.055047909624930e-03
	5.233110149601639e-04
	4.297275538264090e-01

 101	1.010000000000001e+00
	-1.418267272604347e-15
	-6.198852394090884e-18
	-7.244200525794659e-15
	4.095861724412841e-05
