Title: ** sch_path: /home/andylithia/openmpw/project-yatsuhashi-chip1/xschem/gmid_test/nmos_test.sch
Date: Sun Jul 17 22:51:45  2022
Plotname: DC transfer characteristic
Flags: real
No. Variables: 8
No. Points: 181
Variables:
	0	v(v-sweep)	voltage
	1	@m.xm1.msky130_fd_pr__nfet_01v8[cgb]	capacitance
	2	@m.xm1.msky130_fd_pr__nfet_01v8[cgd]	capacitance
	3	@m.xm1.msky130_fd_pr__nfet_01v8[cgs]	capacitance
	4	@m.xm1.msky130_fd_pr__nfet_01v8[gds]	admittance
	5	@m.xm1.msky130_fd_pr__nfet_01v8[gm]	admittance
	6	i(@m.xm1.msky130_fd_pr__nfet_01v8[id])	current
	7	v(@m.xm1.msky130_fd_pr__nfet_01v8[vth])	voltage
Values:
 0	0.000000000000000e+00
	-6.918602460980386e-15
	-2.438052687176751e-18
	-1.139322780376904e-14
	2.190018310207534e-08
	7.595496426179927e-07
	8.883984029863373e-08
	2.338453083157620e-01

 1	1.000000000000000e-02
	-6.840689168428292e-15
	-2.507574590568283e-18
	-1.157374077161586e-14
	2.378484195012988e-08
	8.267380992014707e-07
	9.676651639836567e-08
	2.338453092411322e-01

 2	2.000000000000000e-02
	-6.763611493915296e-15
	-2.579091497410217e-18
	-1.175437481202484e-14
	2.582434401048158e-08
	8.998969082481202e-07
	1.053944921458423e-07
	2.338453102483770e-01

 3	3.000000000000000e-02
	-6.687389697499626e-15
	-2.652661508652309e-18
	-1.193505722000556e-14
	2.803054001872282e-08
	9.795749370476955e-07
	1.147861723363659e-07
	2.338453113447816e-01

 4	4.000000000000000e-02
	-6.612043634514212e-15
	-2.728344503901423e-18
	-1.211571526404212e-14
	3.041609011576726e-08
	1.066375369556223e-06
	1.250097173661554e-07
	2.338453125383032e-01

 5	5.000000000000000e-02
	-6.537592714249487e-15
	-2.806202201557029e-18
	-1.229627629314341e-14
	3.299450897668953e-08
	1.160961583559102e-06
	1.361396152577171e-07
	2.338453138376414e-01

 6	6.000000000000000e-02
	-6.464055860049834e-15
	-2.886298221238048e-18
	-1.247666784356590e-14
	3.578021249239297e-08
	1.264063689391896e-06
	1.482573157090423e-07
	2.338453152523041e-01

 7	7.000000000000001e-02
	-6.391451470931131e-15
	-2.968698148597442e-18
	-1.265681774489263e-14
	3.878856597427906e-08
	1.376485798761890e-06
	1.614519331205729e-07
	2.338453167926983e-01

 8	8.000000000000000e-02
	-6.319797384820704e-15
	-3.053469602626471e-18
	-1.283665422515609e-14
	4.203593384447425e-08
	1.499114097248495e-06
	1.758210262645459e-07
	2.338453184702128e-01

 9	9.000000000000000e-02
	-6.249110843515236e-15
	-3.140682305553846e-18
	-1.301610601469555e-14
	4.553973076639334e-08
	1.632925799023099e-06
	1.914714630219146e-07
	2.338453202973294e-01

 10	9.999999999999999e-02
	-6.179408459444690e-15
	-3.230408155451516e-18
	-1.319510244844706e-14
	4.931847416261944e-08
	1.778999067114303e-06
	2.085203794216411e-07
	2.338453222877226e-01

 11	1.100000000000000e-01
	-6.110706184323760e-15
	-3.322721301662050e-18
	-1.337357356636951e-14
	5.339183805923420e-08
	1.938523987021833e-06
	2.270962430729377e-07
	2.338453244563950e-01

 12	1.200000000000000e-01
	-6.043019279764212e-15
	-3.417698223169742e-18
	-1.355145021172112e-14
	5.778070818801278e-08
	2.112814685506583e-06
	2.473400319797296e-07
	2.338453268198085e-01

 13	1.300000000000000e-01
	-5.976362289913756e-15
	-3.515417810042700e-18
	-1.372866412690943e-14
	6.250723827027616e-08
	2.303322689777966e-06
	2.694065406622893e-07
	2.338453293960374e-01

 14	1.400000000000000e-01
	-5.910749016178937e-15
	-3.615961448077565e-18
	-1.390514804664958e-14
	6.759490739879657e-08
	2.511651624867962e-06
	2.934658264767642e-07
	2.338453322049395e-01

 15	1.500000000000000e-01
	-5.846192494080676e-15
	-3.719413106788061e-18
	-1.408083578817919e-14
	7.306857842706407e-08
	2.739573348499488e-06
	3.197048100097410e-07
	2.338453352683465e-01

 16	1.600000000000000e-01
	-5.782704972282906e-15
	-3.825859430881614e-18
	-1.425566233829090e-14
	7.895455726845869e-08
	2.989045622973563e-06
	3.483290444202035e-07
	2.338453386102603e-01

 17	1.700000000000000e-01
	-5.720297893825614e-15
	-3.935389835377356e-18
	-1.442956393695906e-14
	8.528065300153822e-08
	3.262231422238283e-06
	3.795646695909153e-07
	2.338453422570922e-01

 18	1.800000000000000e-01
	-5.658981879584751e-15
	-4.048096604525335e-18
	-1.460247815735344e-14
	9.207623867186643e-08
	3.561519969061680e-06
	4.136605679183905e-07
	2.338453462379030e-01

 19	1.900000000000000e-01
	-5.598766713973119e-15
	-4.164074994694290e-18
	-1.477434398204763e-14
	9.937231267549269e-08
	3.889549591776977e-06
	4.508907394941201e-07
	2.338453505846954e-01

 20	2.000000000000000e-01
	-5.539661332886606e-15
	-4.283423341403861e-18
	-1.494510187525025e-14
	1.072015606046513e-07
	4.249232482059178e-06
	4.915569152867220e-07
	2.338453553327069e-01

 21	2.100000000000000e-01
	-5.481673813892409e-15
	-4.406243170683946e-18
	-1.511469385090161e-14
	1.155984174322611e-07
	4.643781424247412e-06
	5.359914276965482e-07
	2.338453605207543e-01

 22	2.200000000000001e-01
	-5.424811368646618e-15
	-4.532639314955623e-18
	-1.528306353650003e-14
	1.245991299087466e-07
	5.076738552473453e-06
	5.845603584910545e-07
	2.338453661915895e-01

 23	2.300000000000001e-01
	-5.369080337520710e-15
	-4.662720033633194e-18
	-1.545015623253811e-14
	1.342418190423513e-07
	5.552006173891488e-06
	6.376669846045768e-07
	2.338453723923185e-01

 24	2.400000000000001e-01
	-5.314486186407799e-15
	-4.796597138661300e-18
	-1.561591896745113e-14
	1.445665425328428e-07
	6.073879674244234e-06
	6.957555425622900e-07
	2.338453791748275e-01

 25	2.500000000000001e-01
	-5.261033505672425e-15
	-4.934386125207024e-18
	-1.578030054799619e-14
	1.556153570281016e-07
	6.647082495452047e-06
	7.593153323207238e-07
	2.338453865962679e-01

 26	2.600000000000001e-01
	-5.208726011199534e-15
	-5.076206307740224e-18
	-1.594325160500195e-14
	1.674323800739041e-07
	7.276803143522044e-06
	8.288851810609215e-07
	2.338453947195767e-01

 27	2.700000000000001e-01
	-5.157566547491638e-15
	-5.222180961746316e-18
	-1.610472463444673e-14
	1.800638516291580e-07
	7.968734148508105e-06
	9.050582868739985e-07
	2.338454036140487e-01

 28	2.800000000000001e-01
	-5.107557092756314e-15
	-5.372437471326395e-18
	-1.626467403384233e-14
	1.935581950222157e-07
	8.729112856238429e-06
	9.884874612900947e-07
	2.338454133559382e-01

 29	2.900000000000001e-01
	-5.058698765920117e-15
	-5.527107482953297e-18
	-1.642305613391830e-14
	2.079660772285882e-07
	9.564763883848788e-06
	1.079890788163839e-06
	2.338454240291327e-01

 30	3.000000000000001e-01
	-5.010991835498826e-15
	-5.686327065665702e-18
	-1.657982922562105e-14
	2.233404683568995e-07
	1.048314301770985e-05
	1.180057714486822e-06
	2.338454357258535e-01

 31	3.100000000000001e-01
	-4.964435730249425e-15
	-5.850236877993694e-18
	-1.673495358245786e-14
	2.397367002380580e-07
	1.149238227308929e-05
	1.289855586190053e-06
	2.338454485474292e-01

 32	3.200000000000001e-01
	-4.919029051523580e-15
	-6.018982341927436e-18
	-1.688839147823431e-14
	2.572125240229509e-07
	1.260133576998951e-05
	1.410236638871878e-06
	2.338454626051046e-01

 33	3.300000000000001e-01
	-4.874769587238962e-15
	-6.192713824253146e-18
	-1.704010720024840e-14
	2.758281667065017e-07
	1.381962600931813e-05
	1.542245449582084e-06
	2.338454780209193e-01

 34	3.400000000000001e-01
	-4.831654327380313e-15
	-6.371586825597549e-18
	-1.719006705802146e-14
	2.956463865110207e-07
	1.515769005836351e-05
	1.687026851260515e-06
	2.338454949286306e-01

 35	3.500000000000001e-01
	-4.789679480939788e-15
	-6.555762177539811e-18
	-1.733823938765879e-14
	3.167325270799067e-07
	1.662682507513866e-05
	1.845834306122342e-06
	2.338455134746855e-01

 36	3.600000000000002e-01
	-4.748840494202749e-15
	-6.745406248165865e-18
	-1.748459455194784e-14
	3.391545704539205e-07
	1.823923251843646e-05
	2.020038728163412e-06
	2.338455338192713e-01

 37	3.700000000000002e-01
	-4.709132070283485e-15
	-6.940691156462102e-18
	-1.762910493631419e-14
	3.629831888274896e-07
	2.000806030559861e-05
	2.211137738003054e-06
	2.338455561373730e-01

 38	3.800000000000002e-01
	-4.670548189813868e-15
	-7.141794995961110e-18
	-1.777174494076592e-14
	3.882917951114700e-07
	2.194744209445633e-05
	2.420765325469258e-06
	2.338455806199192e-01

 39	3.900000000000002e-01
	-4.633082132686501e-15
	-7.348902068076422e-18
	-1.791249096796959e-14
	4.151565923629067e-07
	2.407253278143789e-05
	2.650701886670169e-06
	2.338456074749553e-01

 40	4.000000000000002e-01
	-4.596726500753772e-15
	-7.562203125584564e-18
	-1.805132140760906e-14
	4.436566221814379e-07
	2.639953922644746e-05
	2.902884592801138e-06
	2.338456369288482e-01

 41	4.100000000000002e-01
	-4.561473241383998e-15
	-7.781895626733335e-18
	-1.818821661718695e-14
	4.738738122170772e-07
	2.894574513915710e-05
	3.179418037653657e-06
	2.338456692275376e-01

 42	4.200000000000002e-01
	-4.527313671776092e-15
	-8.008184000484208e-18
	-1.832315889943690e-14
	5.058930229858073e-07
	3.172952899342461e-05
	3.482585099788222e-06
	2.338457046378056e-01

 43	4.300000000000002e-01
	-4.494238503935541e-15
	-8.241279923417899e-18
	-1.845613247651997e-14
	5.398020942483838e-07
	3.477037377951802e-05
	3.814857943701055e-06
	2.338457434485583e-01

 44	4.400000000000002e-01
	-4.462237870215050e-15
	-8.481402608861564e-18
	-1.858712346118421e-14
	5.756918912745798e-07
	3.808886736077804e-05
	4.178909072179135e-06
	2.338457859721266e-01

 45	4.500000000000002e-01
	-4.431301349325452e-15
	-8.728779108825746e-18
	-1.871611982507106e-14
	6.136563513909571e-07
	4.170669217555308e-05
	4.577622329557480e-06
	2.338458325455402e-01

 46	4.600000000000002e-01
	-4.401417992724300e-15
	-8.983644629365122e-18
	-1.884311136435424e-14
	6.537925312952329e-07
	4.564660302000631e-05
	5.014103742951403e-06
	2.338458835318072e-01

 47	4.700000000000003e-01
	-4.372576351291797e-15
	-9.246242860013583e-18
	-1.896808966290045e-14
	6.962006557158996e-07
	4.993239166612794e-05
	5.491692075964386e-06
	2.338459393211463e-01

 48	4.800000000000003e-01
	-4.344764502206618e-15
	-9.516826317974073e-18
	-1.909104805314112e-14
	7.409841681020351e-07
	5.458883711519761e-05
	6.013968957118662e-06
	2.338460003321584e-01

 49	4.900000000000003e-01
	-4.317970075937001e-15
	-9.795656707779513e-18
	-1.921198157484539e-14
	7.882497841459913e-07
	5.964164036308602e-05
	6.584768433610576e-06
	2.338460670129556e-01

 50	5.000000000000002e-01
	-4.292180283265652e-15
	-1.008300529717982e-17
	-1.933088693198395e-14
	8.381075490719165e-07
	6.511734266288795e-05
	7.208185790277075e-06
	2.338461398421826e-01

 51	5.100000000000002e-01
	-4.267381942270611e-15
	-1.037915331004510e-17
	-1.944776244787106e-14
	8.906708997653047e-07
	7.104322641455115e-05
	7.888585464204519e-06
	2.338462193299511e-01

 52	5.200000000000002e-01
	-4.243561505187394e-15
	-1.068439233712141e-17
	-1.956260801877185e-14
	9.460567329743887e-07
	7.744719799204068e-05
	8.630607877588183e-06
	2.338463060186229e-01

 53	5.300000000000002e-01
	-4.220705085082131e-15
	-1.099902476551302e-17
	-1.967542506615618e-14
	1.004385480982178e-06
	8.435765203678000e-05
	9.439175005618201e-06
	2.338464004834716e-01

 54	5.400000000000003e-01
	-4.198798482268507e-15
	-1.132336422781581e-17
	-1.978621648777979e-14
	1.065781196329445e-06
	9.180331700152643e-05
	1.031949449271457e-05
	2.338465033331531e-01

 55	5.500000000000003e-01
	-4.177827210406133e-15
	-1.165773607186948e-17
	-1.989498660776648e-14
	1.130371647362275e-06
	9.981308201999385e-05
	1.127706212970835e-05
	2.338466152099951e-01

 56	5.600000000000003e-01
	-4.157776522221137e-15
	-1.200247785215267e-17
	-2.000174112586273e-14
	1.198288426583802e-06
	1.084158055020143e-04
	1.231766250693326e-05
	2.338467367900678e-01

 57	5.700000000000003e-01
	-4.138631434794662e-15
	-1.235793984389008e-17
	-2.010648706602872e-14
	1.269667074006404e-06
	1.176401062078288e-04
	1.344736766394950e-05
	2.338468687830262e-01

 58	5.800000000000003e-01
	-4.120376754368421e-15
	-1.272448558100928e-17
	-2.020923272452566e-14
	1.344647217927816e-06
	1.275141379330558e-04
	1.467253356605148e-05
	2.338470119316949e-01

 59	5.900000000000003e-01
	-4.102997100620912e-15
	-1.310249241912772e-17
	-2.030998761765241e-14
	1.423372735790479e-06
	1.380653493313064e-04
	1.599979425101422e-05
	2.338471670113739e-01

 60	6.000000000000003e-01
	-4.086476930371910e-15
	-1.349235212483166e-17
	-2.040876242927771e-14
	1.505991938026641e-06
	1.493202308063279e-04
	1.743605350684616e-05
	2.338473348288685e-01

 61	6.100000000000003e-01
	-4.070800560676707e-15
	-1.389447149255695e-17
	-2.050556895830862e-14
	1.592657778040825e-06
	1.613040508107604e-04
	1.898847396269549e-05
	2.338475162212063e-01

 62	6.200000000000003e-01
	-4.055952191275682e-15
	-1.430927299046593e-17
	-2.060042006622767e-14
	1.683528091734035e-06
	1.740405842837236e-04
	2.066446350044232e-05
	2.338477120540455e-01

 63	6.300000000000003e-01
	-4.041915926368701e-15
	-1.473719543677729e-17
	-2.069332962482490e-14
	1.778765870229226e-06
	1.875518363334219e-04
	2.247165892375743e-05
	2.338479232197667e-01

 64	6.400000000000003e-01
	-4.028675795687210e-15
	-1.517869470809217e-17
	-2.078431246424379e-14
	1.878539569712805e-06
	2.018577646119810e-04
	2.441790685423521e-05
	2.338481506352260e-01

 65	6.500000000000004e-01
	-4.016215774841403e-15
	-1.563424448133224e-17
	-2.087338432145162e-14
	1.983023462561250e-06
	2.169760041259826e-04
	2.651124186023664e-05
	2.338483952392194e-01

 66	6.600000000000004e-01
	-4.004519804921892e-15
	-1.610433701100630e-17
	-2.096056178923997e-14
	2.092398034173890e-06
	2.329215984658834e-04
	2.875986186279513e-05
	2.338486579895752e-01

 67	6.700000000000004e-01
	-3.993571811340691e-15
	-1.658948394359304e-17
	-2.104586226585027e-14
	2.206850430181077e-06
	2.497067416095886e-04
	3.117210090370907e-05
	2.338489398599961e-01

 68	6.800000000000004e-01
	-3.983355721897584e-15
	-1.709021717094659e-17
	-2.112930390531568e-14
	2.326574958942931e-06
	2.673405345500903e-04
	3.375639940307456e-05
	2.338492418365750e-01

 69	6.900000000000004e-01
	-3.973855484062360e-15
	-1.760708972471753e-17
	-2.121090556860069e-14
	2.451773654495618e-06
	2.858287610056317e-04
	3.652127207613461e-05
	2.338495649140470e-01

 70	7.000000000000004e-01
	-3.965055081465882e-15
	-1.814067671389485e-17
	-2.129068677561424e-14
	2.582656905343946e-06
	3.051736863871771e-04
	3.947527372158737e-05
	2.338499100917942e-01

 71	7.100000000000004e-01
	-3.956938549595529e-15
	-1.869157630769470e-17
	-2.136866765816485e-14
	2.719444154741249e-06
	3.253738840178349e-04
	4.262696313442511e-05
	2.338502783696240e-01

 72	7.200000000000004e-01
	-3.949489990693728e-15
	-1.926041076612521e-17
	-2.144486891391920e-14
	2.862364678345027e-06
	3.464240923211240e-04
	4.598486543500791e-05
	2.338506707433909e-01

 73	7.300000000000004e-01
	-3.942693587859990e-15
	-1.984782752071042e-17
	-2.151931176141983e-14
	3.011658445395108e-06
	3.683151063213432e-04
	4.955743314145641e-05
	2.338510882004311e-01

 74	7.400000000000004e-01
	-3.936533618359711e-15
	-2.045450030796015e-17
	-2.159201789621066e-14
	3.167577069834596e-06
	3.910337063343210e-04
	5.335300634358979e-05
	2.338515317149305e-01

 75	7.500000000000004e-01
	-3.930994466144955e-15
	-2.108113035833998e-17
	-2.166300944811296e-14
	3.330384858093566e-06
	4.145626261787411e-04
	5.737977236273047e-05
	2.338520022432090e-01

 76	7.600000000000005e-01
	-3.926060633594126e-15
	-2.172844764363147e-17
	-2.173230893968896e-14
	3.500359960587613e-06
	4.388805626175430e-04
	6.164572530189589e-05
	2.338525007190010e-01

 77	7.700000000000005e-01
	-3.921716752479607e-15
	-2.239721218573362e-17
	-2.179993924592438e-14
	3.677795634361733e-06
	4.639622270595425e-04
	6.615862590460495e-05
	2.338530280487690e-01

 78	7.800000000000005e-01
	-3.917947594173692e-15
	-2.308821543012311e-17
	-2.186592355515576e-14
	3.863001624744192e-06
	4.897784398289776e-04
	7.092596214717244e-05
	2.338535851071179e-01

 79	7.900000000000005e-01
	-3.914738079104824e-15
	-2.380228168737294e-17
	-2.193028533126338e-14
	4.056305674382089e-06
	5.162962665634000e-04
	7.595491098867898e-05
	2.338541727323115e-01

 80	8.000000000000005e-01
	-3.912073285477369e-15
	-2.454026964630017e-17
	-2.199304827714600e-14
	4.258055168621017e-06
	5.434791955466817e-04
	8.125230169453917e-05
	2.338547917220117e-01

 81	8.100000000000005e-01
	-3.909938457269248e-15
	-2.530307396252686e-17
	-2.205423629948864e-14
	4.468618926887359e-06
	5.712873540442352e-04
	8.682458113390625e-05
	2.338554428292109e-01

 82	8.200000000000005e-01
	-3.908319011522991e-15
	-2.609162692642601e-17
	-2.211387347483058e-14
	4.688389150544770e-06
	5.996777610006488e-04
	9.267778142814855e-05
	2.338561267584660e-01

 83	8.300000000000005e-01
	-3.907200544946245e-15
	-2.690690021465546e-17
	-2.217198401693647e-14
	4.917783538650183e-06
	6.286046128051149e-04
	9.881749029785826e-05
	2.338568441624325e-01

 84	8.400000000000005e-01
	-3.906568839838919e-15
	-2.774990672970108e-17
	-2.222859224547004e-14
	5.157247584145383e-06
	6.580195982441931e-04
	1.052488244198461e-04
	2.338575956387451e-01

 85	8.500000000000005e-01
	-3.906409869364671e-15
	-2.862170253209381e-17
	-2.228372255596554e-14
	5.407257064309123e-06
	6.878722382596149e-04
	1.119764060641141e-04
	2.338583817272979e-01

 86	8.600000000000005e-01
	-3.906709802184462e-15
	-2.952338887021495e-17
	-2.233739939108979e-14
	5.668320740783986e-06
	7.181102457235909e-04
	1.190043432348149e-04
	2.338592029079233e-01

 87	8.700000000000006e-01
	-3.907455006471114e-15
	-3.045611431287597e-17
	-2.238964721318350e-14
	5.940983286203800e-06
	7.486799001446374e-04
	1.263362134897087e-04
	2.338600595984815e-01

 88	8.800000000000006e-01
	-3.908632053323418e-15
	-3.142107699011679e-17
	-2.244049047806839e-14
	6.225828456402838e-06
	7.795264320289446e-04
	1.339750515606567e-04
	2.338609521534331e-01

 89	8.900000000000006e-01
	-3.910227719598614e-15
	-3.241952694798527e-17
	-2.248995361010402e-14
	6.523482529416485e-06
	8.105944115487765e-04
	1.419233408444893e-04
	2.338618808628307e-01

 90	9.000000000000006e-01
	-3.912228990182407e-15
	-3.345276862334357e-17
	-2.253806097847504e-14
	6.834618035005241e-06
	8.418281362084911e-04
	1.501830087801730e-04
	2.338628459517731e-01

 91	9.100000000000006e-01
	-3.914623059715325e-15
	-3.452216344507511e-17
	-2.258483687468856e-14
	7.159957801281315e-06
	8.731720123464437e-04
	1.587554260757509e-04
	2.338638475803138e-01

 92	9.200000000000006e-01
	-3.917397333794431e-15
	-3.562913256839741e-17
	-2.263030549125780e-14
	7.500279348218211e-06
	9.045709255596518e-04
	1.676414096980993e-04
	2.338648858438108e-01

 93	9.300000000000006e-01
	-3.920539429668782e-15
	-3.677515974934633e-17
	-2.267449090154802e-14
	7.856419661411296e-06
	9.359705954773384e-04
	1.768412294910638e-04
	2.338659607736916e-01

 94	9.400000000000006e-01
	-3.924037176447121e-15
	-3.796179436684301e-17
	-2.271741704075801e-14
	8.229280383464681e-06
	9.673179107267280e-04
	1.863546182438464e-04
	2.338670723386213e-01

 95	9.500000000000006e-01
	-3.927878614836011e-15
	-3.919065460015276e-17
	-2.275910768800863e-14
	8.619833464846625e-06
	9.985612404158502e-04
	1.961807849923461e-04
	2.338682204460672e-01

 96	9.600000000000006e-01
	-3.932051996425645e-15
	-4.046343076993835e-17
	-2.279958644951020e-14
	9.029127321024771e-06
	1.029650718988379e-03
	2.063184313021053e-04
	2.338694049441912e-01

 97	9.700000000000006e-01
	-3.936545782540852e-15
	-4.178188885152060e-17
	-2.283887674277762e-14
	9.458293548203603e-06
	1.060538501868541e-03
	2.167657702528687e-04
	2.338706256240638e-01

 98	9.800000000000006e-01
	-3.941348642673715e-15
	-4.314787416938862e-17
	-2.287700178186236e-14
	9.908554256096184e-06
	1.091178989894799e-03
	2.275205478219214e-04
	2.338718822221725e-01

 99	9.900000000000007e-01
	-3.946449452513890e-15
	-4.456331528246182e-17
	-2.291398456356897e-14
	1.038123008291915e-05
	1.121529021123883e-03
	2.385800663463543e-04
	2.338731744231483e-01

 100	1.000000000000001e+00
	-3.951837291592313e-15
	-4.603022807004370e-17
	-2.294984785462341e-14
	1.087774896525987e-05
	1.151548029157583e-03
	2.499412097331081e-04
	2.338745018627294e-01

 101	1.010000000000001e+00
	-3.957501440552570e-15
	-4.755072002891968e-17
	-2.298461417976020e-14
