Title: ** sch_path: /home/andylithia/openmpw/project-yatsuhashi-chip1/xschem/gmid_test/nmos_test.sch
Date: Tue Jul 19 23:15:45  2022
Plotname: DC transfer characteristic
Flags: real
No. Variables: 8
No. Points: 181
Variables:
	0	v(v-sweep)	voltage
	1	@m.xm1.msky130_fd_pr__nfet_01v8[cgb]	capacitance
	2	@m.xm1.msky130_fd_pr__nfet_01v8[cgd]	capacitance
	3	@m.xm1.msky130_fd_pr__nfet_01v8[cgs]	capacitance
	4	@m.xm1.msky130_fd_pr__nfet_01v8[gds]	admittance
	5	@m.xm1.msky130_fd_pr__nfet_01v8[gm]	admittance
	6	i(@m.xm1.msky130_fd_pr__nfet_01v8[id])	current
	7	v(@m.xm1.msky130_fd_pr__nfet_01v8[vth])	voltage
Values:
 0	0.000000000000000e+00
	-4.616976764363087e-15
	8.584559401164434e-19
	-3.472816864180588e-15
	2.711495353665033e-08
	1.095150642598875e-06
	9.810841390541547e-08
	4.064504896455584e-01

 1	1.000000000000000e-02
	-4.571322689421035e-15
	8.707116363526479e-19
	-3.567829272802601e-15
	3.029513895752470e-08
	1.222574127831784e-06
	1.096855622749574e-07
	4.064504905331872e-01

 2	2.000000000000000e-02
	-4.525738504767048e-15
	8.826830237298279e-19
	-3.664189717760495e-15
	3.384127385639162e-08
	1.364514665404281e-06
	1.226082572488148e-07
	4.064504915240502e-01

 3	3.000000000000000e-02
	-4.480239895762529e-15
	8.943486455030144e-19
	-3.761858587579364e-15
	3.779422728427532e-08
	1.522579524594418e-06
	1.370295692086342e-07
	4.064504926299084e-01

 4	4.000000000000000e-02
	-4.434843209070549e-15
	9.056870800846633e-19
	-3.860793681239259e-15
	4.219921711513149e-08
	1.698547711357631e-06
	1.531194857735668e-07
	4.064504938638245e-01

 5	5.000000000000000e-02
	-4.389565409057659e-15
	9.166769994981304e-19
	-3.960950259260586e-15
	4.710623609149745e-08
	1.894387697901769e-06
	1.710667163562941e-07
	4.064504952403110e-01

 6	6.000000000000000e-02
	-4.344424031479755e-15
	9.272972286359020e-19
	-4.062281104811365e-15
	5.257051345994307e-08
	2.112276976605590e-06
	1.910806829717558e-07
	4.064504967754746e-01

 7	7.000000000000001e-02
	-4.299437134607303e-15
	9.375268050248210e-19
	-4.164736594771079e-15
	5.865301414419261e-08
	2.354623644289499e-06
	2.133937165489606e-07
	4.064504984871922e-01

 8	8.000000000000000e-02
	-4.254623247965456e-15
	9.473450387893505e-19
	-4.268264780623682e-15
	6.542097733065774e-08
	2.624090251550912e-06
	2.382634801961368e-07
	4.064505003953009e-01

 9	9.000000000000000e-02
	-4.210001318884679e-15
	9.567315724957584e-19
	-4.372811478988206e-15
	7.294849622706138e-08
	2.923620185220886e-06
	2.659756433789392e-07
	4.064505025218077e-01

 10	9.999999999999999e-02
	-4.165590657075813e-15
	9.656664405540179e-19
	-4.478320371531415e-15
	8.131714059335361e-08
	3.256466890638390e-06
	2.968468338401902e-07
	4.064505048911138e-01

 11	1.100000000000000e-01
	-4.121410877461024e-15
	9.741301278510945e-19
	-4.584733113943285e-15
	9.061662342828439e-08
	3.626226285057427e-06
	3.312278973740161e-07
	4.064505075302792e-01

 12	1.200000000000000e-01
	-4.077481841507786e-15
	9.821036272879209e-19
	-4.691989453593818e-15
	1.009455129175117e-07
	4.036872764790766e-06
	3.695074993306419e-07
	4.064505104693015e-01

 13	1.300000000000000e-01
	-4.033823597327273e-15
	9.895684958948766e-19
	-4.800027355428245e-15
	1.124119904023197e-07
	4.492799267312767e-06
	4.121161060402474e-07
	4.064505137414330e-01

 14	1.400000000000000e-01
	-3.990456318810662e-15
	9.965069092047195e-19
	-4.908783135599356e-15
	1.251346547041961e-07
	4.998861916085430e-06
	4.595303892817891e-07
	4.064505173835238e-01

 15	1.500000000000000e-01
	-3.947400244087300e-15
	1.002901713569993e-18
	-5.018191602279212e-15
	1.392433726318354e-07
	5.560429850792478e-06
	5.122781025668842e-07
	4.064505214364185e-01

 16	1.600000000000000e-01
	-3.904675613596617e-15
	1.008736476121205e-18
	-5.128186203040845e-15
	1.548801748961574e-07
	6.183440929220736e-06
	5.709434844454727e-07
	4.064505259453757e-01

 17	1.700000000000000e-01
	-3.862302608071600e-15
	1.013995532075948e-18
	-5.238699178151187e-15
	1.722001959582578e-07
	6.874464079154016e-06
	6.361732513544118e-07
	4.064505309605564e-01

 18	1.800000000000000e-01
	-3.820301286735084e-15
	1.018664029123756e-18
	-5.349661719073368e-15
	1.913726555287374e-07
	7.640769178878991e-06
	7.086832508073344e-07
	4.064505365375563e-01

 19	1.900000000000000e-01
	-3.778691526011251e-15
	1.022727968629629e-18
	-5.461004131437456e-15
	2.125818785189054e-07
	8.490405452202992e-06
	7.892658550393276e-07
	4.064505427379945e-01

 20	2.000000000000000e-01
	-3.737492959053163e-15
	1.026174243419969e-18
	-5.572656001705050e-15
	2.360283492109951e-07
	9.432289476500200e-06
	8.787981856360818e-07
	4.064505496301924e-01

 21	2.100000000000000e-01
	-3.696724916383501e-15
	1.028990671935755e-18
	-5.684546366726724e-15
	2.619297942638205e-07
	1.047630401758932e-05
	9.782512712355427e-07
	4.064505572899059e-01

 22	2.200000000000001e-01
	-3.656406367939190e-15
	1.031166028563592e-18
	-5.796603885369051e-15
	2.905222879018237e-07
	1.163340901942933e-05
	1.088700253097689e-06
	4.064505658011694e-01

 23	2.300000000000001e-01
	-3.616555866801921e-15
	1.032690069979773e-18
	-5.908757011374343e-15
	3.220613712527321e-07
	1.291576618465082e-05
	1.211335767161952e-06
	4.064505752572251e-01

 24	2.400000000000001e-01
	-3.577191494885618e-15
	1.033553557370887e-18
	-6.020934166607657e-15
	3.568231763076126e-07
	1.433687867719478e-05
	1.347476646056309e-06
	4.064505857615701e-01

 25	2.500000000000001e-01
	-3.538330810838565e-15
	1.033748274422539e-18
	-6.133063913844599e-15
	3.951055433873647e-07
	1.591174755247032e-05
	1.498584100220483e-06
	4.064505974291369e-01

 26	2.600000000000001e-01
	-3.499990800402571e-15
	1.033267040997037e-18
	-6.245075128259360e-15
	4.372291193258769e-07
	1.765704656318413e-05
	1.666277553596361e-06
	4.064506103876170e-01

 27	2.700000000000001e-01
	-3.462187829454391e-15
	1.032103722450779e-18
	-6.356897166784669e-15
	4.835384218415864e-07
	1.959131698797589e-05
	1.852352325847504e-06
	4.064506247789371e-01

 28	2.800000000000001e-01
	-3.424937599935543e-15
	1.030253234572485e-18
	-6.468460034534149e-15
	5.344028537904354e-07
	2.173518407068898e-05
	2.058799369286405e-06
	4.064506407609328e-01

 29	2.900000000000001e-01
	-3.388255108856188e-15
	1.027711544152825e-18
	-6.579694547503389e-15
	5.902176492056451e-07
	2.411159652388592e-05
	2.287827283951050e-06
	4.064506585092160e-01

 30	3.000000000000001e-01
	-3.352154610536899e-15
	1.024475665226016e-18
	-6.690532490797243e-15
	6.514047312693514e-07
	2.674609032241124e-05
	2.541886847736180e-06
	4.064506782192732e-01

 31	3.100000000000001e-01
	-3.316649582229177e-15
	1.020543651052738e-18
	-6.800906771668207e-15
	7.184134606721430e-07
	2.966707767112473e-05
	2.823698309115365e-06
	4.064507001088203e-01

 32	3.200000000000001e-01
	-3.281752693231893e-15
	1.015914581941075e-18
	-6.910751566693412e-15
	7.917212512489667e-07
	3.290616155392614e-05
	3.136281696541170e-06
	4.064507244204213e-01

 33	3.300000000000001e-01
	-3.247475777596414e-15
	1.010588549030125e-18
	-7.020002462464517e-15
	8.718340283895973e-07
	3.649847563700947e-05
	3.482990399615717e-06
	4.064507514244394e-01

 34	3.400000000000001e-01
	-3.213829810488513e-15
	1.004566634183825e-18
	-7.128596589217457e-15
	9.592865045733958e-07
	4.048304848684441e-05
	3.867548270910435e-06
	4.064507814222908e-01

 35	3.500000000000001e-01
	-3.180824888250412e-15
	9.978508861683691e-19
	-7.236472746883020e-15
	1.054642245537357e-06
	4.490319005347365e-05
	4.294090481989723e-06
	4.064508147500938e-01

 36	3.600000000000002e-01
	-3.148470212181733e-15
	9.904442933055314e-19
	-7.343571523098653e-15
	1.158493500128873e-06
	4.980689714704892e-05
	4.767208340714035e-06
	4.064508517826791e-01

 37	3.700000000000002e-01
	-3.116774076033797e-15
	9.823507528150852e-19
	-7.449835402782060e-15
	1.271460766893385e-06
	5.524727319031006e-05
	5.291998237068858e-06
	4.064508929380304e-01

 38	3.800000000000002e-01
	-3.085743857188538e-15
	9.735750370755838e-19
	-7.555208868929651e-15
	1.394192070981048e-06
	6.128295586033256e-05
	5.874114829353912e-06
	4.064509386821591e-01

 39	3.900000000000002e-01
	-3.055386011470124e-15
	9.641227570473318e-19
	-7.659638494366961e-15
	1.527361926099904e-06
	6.797854434811104e-05
	6.519828509358041e-06
	4.064509895344360e-01

 40	4.000000000000002e-01
	-3.025706071516166e-15
	9.540003231131186e-19
	-7.763073024241975e-15
	1.671669958067687e-06
	7.540501588643607e-05
	7.236087092086380e-06
	4.064510460733773e-01

 41	4.100000000000002e-01
	-2.996708648614876e-15
	9.432149036023773e-19
	-7.865463449115823e-15
	1.827839169082612e-06
	8.364011896283441e-05
	8.030581560933734e-06
	4.064511089429162e-01

 42	4.200000000000002e-01
	-2.968397437895512e-15
	9.317743812700330e-19
	-7.966763068569149e-15
	1.996613825198949e-06
	9.276872830127052e-05
	8.911815561631444e-06
	4.064511788591208e-01

 43	4.300000000000002e-01
	-2.940775226742103e-15
	9.196873080068632e-19
	-8.066927545303248e-15
	2.178756953688847e-06
	1.028831443401358e-04
	9.889178177193660e-06
	4.064512566173610e-01

 44	4.400000000000002e-01
	-2.913843906284712e-15
	9.069628580584017e-19
	-8.165914949775285e-15
	2.375047442015005e-06
	1.140833176529217e-04
	1.097301933170936e-05
	4.064513430998659e-01

 45	4.500000000000002e-01
	-2.887604485808421e-15
	8.936107800306448e-19
	-8.263685795463553e-15
	2.586276736016455e-06
	1.264769766717512e-04
	1.217472696449498e-05
	4.064514392836552e-01

 46	4.600000000000002e-01
	-2.862057109908003e-15
	8.796413479550226e-19
	-8.360203064913644e-15
	2.813245141584909e-06
	1.401796353236129e-04
	1.350680489050017e-05
	4.064515462487135e-01

 47	4.700000000000003e-01
	-2.837201078206120e-15
	8.650653116827233e-19
	-8.455432226766189e-15
	3.056757741502119e-06
	1.553144559334800e-04
	1.498295002207090e-05
	4.064516651863593e-01

 48	4.800000000000003e-01
	-2.813034867444180e-15
	8.498938468687418e-19
	-8.549341244014730e-15
	3.317619947113802e-06
	1.720119421601880e-04
	1.661812737706386e-05
	4.064517974076535e-01

 49	4.900000000000003e-01
	-2.789556155748684e-15
	8.341385047981406e-19
	-8.641900573784818e-15
	3.596632712976656e-06
	1.904094369887652e-04
	1.842864104643025e-05
	4.064519443517103e-01

 50	5.000000000000002e-01
	-2.766761848871040e-15
	8.178111622953827e-19
	-8.733083158964206e-15
	3.894587451345251e-06
	2.106504020833485e-04
	2.043219905013400e-05
	4.064521075937161e-01

 51	5.100000000000002e-01
	-2.744648108195929e-15
	8.009239719457260e-19
	-8.822864412048370e-15
	4.212260692134125e-06
	2.328834572701075e-04
	2.264796978470085e-05
	4.064522888524634e-01

 52	5.200000000000002e-01
	-2.723210380312352e-15
	7.834893128429536e-19
	-8.911222191594988e-15
	4.550408542537974e-06
	2.572611627048240e-04
	2.509662757140592e-05
	4.064524899971211e-01

 53	5.300000000000002e-01
	-2.702443427941787e-15
	7.655197420654677e-19
	-8.998136771705901e-15
	4.909761008525830e-06
	2.839385314775661e-04
	2.780038466479070e-05
	4.064527130530529e-01

 54	5.400000000000003e-01
	-2.682341362020027e-15
	7.470279470637547e-19
	-9.083590804976085e-15
	5.291016247646451e-06
	3.130712670532907e-04
	3.078300699130513e-05
	4.064529602062980e-01

 55	5.500000000000003e-01
	-2.662897674732951e-15
	7.280266991299963e-19
	-9.167569279363676e-15
	5.694834828667637e-06
	3.448137280047248e-04
	3.406981087168694e-05
	4.064532338064917e-01

 56	5.600000000000003e-01
	-2.644105273311150e-15
	7.085288081019699e-19
	-9.250059469447575e-15
	6.121834078233031e-06
	3.793166318414482e-04
	3.768763805190835e-05
	4.064535363678638e-01

 57	5.700000000000003e-01
	-2.625956514394483e-15
	6.885470784386730e-19
	-9.331050882545282e-15
	6.572582597670564e-06
	4.167245201593159e-04
	4.166480653796422e-05
	4.064538705680346e-01

 58	5.800000000000003e-01
	-2.608443238784784e-15
	6.680942667877242e-19
	-9.410535200166941e-15
	7.047595034099902e-06
	4.571730185112344e-04
	4.603103500871832e-05
	4.064542392442623e-01

 59	5.900000000000003e-01
	-2.591556806412895e-15
	6.471830411510876e-19
	-9.488506215280422e-15
	7.547327188882065e-06
	5.007859359187225e-04
	5.081733897394359e-05
	4.064546453869207e-01

 60	6.000000000000003e-01
	-2.575288131355051e-15
	6.258259417383688e-19
	-9.564959765858027e-15
	8.072171543145696e-06
	5.476722603009917e-04
	5.605589735261303e-05
	4.064550921299120e-01

 61	6.100000000000003e-01
	-2.559627716743099e-15
	6.040353435845112e-19
	-9.639893665167690e-15
	8.622453274587403e-06
	5.979231167184441e-04
	6.177988876478401e-05
	4.064555827378566e-01

 62	6.200000000000003e-01
	-2.544565689422831e-15
	5.818234209941730e-19
	-9.713307629261310e-15
	9.198426832077919e-06
	6.516087645912713e-04
	6.802329754865724e-05
	4.064561205899249e-01

 63	6.300000000000003e-01
	-2.530091834225146e-15
	5.592021138637321e-19
	-9.785203202099764e-15
	9.800273124988894e-06
	7.087757173290056e-04
	7.482069031566519e-05
	4.064567091602850e-01

 64	6.400000000000003e-01
	-2.516195627725104e-15
	5.361830959184491e-19
	-9.855583678739560e-15
	1.042809737287539e-05
	7.694440724913655e-04
	8.220696471775711e-05
	4.064573519951901e-01

 65	6.500000000000004e-01
	-2.502866271374523e-15
	5.127777448935409e-19
	-9.924454026989470e-15
	1.108192764857005e-05
	8.336051421650340e-04
	9.021707299358555e-05
	4.064580526868682e-01

 66	6.600000000000004e-01
	-2.490092723904519e-15
	4.889971146773989e-19
	-9.991820807927131e-15
	1.176171413430831e-05
	9.012194712746242e-04
	9.888572375060982e-05
	4.064588148444969e-01

 67	6.700000000000004e-01
	-2.477863732904634e-15
	4.648519094252789e-19
	-1.005769209564746e-14
	1.246732909669469e-05
	9.722153257986973e-04
	1.082470662914195e-04
	4.064596420625841e-01

 68	6.800000000000004e-01
	-2.466167865495776e-15
	4.403524596449746e-19
	-1.012207739659416e-14
	1.319856757263889e-05
	1.046487723277275e-03
	1.183343625664384e-04
	4.064605378872609e-01

 69	6.900000000000004e-01
	-2.454993538023929e-15
	4.155087002471042e-19
	-1.018498756880637e-14
	1.395514874533506e-05
	1.123898064738967e-03
	1.291796524938765e-04
	4.064615057810524e-01

 70	7.000000000000004e-01
	-2.444329044711675e-15
	3.903301505452324e-19
	-1.024643474139157e-14
	1.473671797738157e-05
	1.204274410633274e-03
	1.408134188963780e-04
	4.064625490867555e-01

 71	7.100000000000004e-01
	-2.434162585213675e-15
	3.648258961846735e-19
	-1.030643223451556e-14
	1.554284945762527e-05
	1.287412424134929e-03
	1.532642586322687e-04
	4.064636709911761e-01

 72	7.200000000000004e-01
	-2.424482291031410e-15
	3.390045729704578e-19
	-1.036499448018048e-14
	1.637304940956808e-05
	1.373076984094673e-03
	1.665585666250189e-04
	4.064648744894409e-01

 73	7.300000000000004e-01
	-2.415276250751052e-15
	3.128743525600431e-19
	-1.042213694404099e-14
	1.722675980237211e-05
	1.461004447895017e-03
	1.807202394033544e-04
	4.064661623507063e-01

 74	7.400000000000004e-01
	-2.406532534076373e-15
	2.864429299768404e-19
	-1.047787604848937e-14
	1.810336250073736e-05
	1.550905522576483e-03
	1.957704044527767e-04
	4.064675370859821e-01

 75	7.500000000000004e-01
	-2.398239214636492e-15
	2.597175128965788e-19
	-1.053222909722050e-14
	1.900218378715225e-05
	1.642468681898993e-03
	2.117271811536794e-04
	4.064690009188315e-01

 76	7.600000000000005e-01
	-2.390384391555351e-15
	2.327048126493425e-19
	-1.058521420146831e-14
	1.992249918911101e-05
	1.735364048521268e-03
	2.286054783593201e-04
	4.064705557595831e-01

 77	7.700000000000005e-01
	-2.382956209776760e-15
	2.054110368746976e-19
	-1.063685020808626e-14
	2.086353854462802e-05
	1.829247645128123e-03
	2.464168327756222e-04
	4.064722031836309e-01

 78	7.800000000000005e-01
	-2.375942879145145e-15
	1.778418837609976e-19
	-1.068715662962569e-14
	2.182449124148420e-05
	1.923765906845858e-03
	2.651692912795075e-04
	4.064739444142901e-01

 79	7.900000000000005e-01
	-2.369332692248145e-15
	1.500025377928499e-19
	-1.073615357654746e-14
	2.280451156880716e-05
	2.018560340168815e-03
	2.848673391948009e-04
	4.064757803105381e-01

 80	8.000000000000005e-01
	-2.363114041032560e-15
	1.218976669258548e-19
	-1.078386169168424e-14
	2.380272412349860e-05
	2.113272211129365e-03
	3.055118753799644e-04
	4.064777113598317e-01

 81	8.100000000000005e-01
	-2.357275432210398e-15
	9.353142110286967e-20
	-1.083030208705284e-14
	2.481822921838349e-05
	2.207547147567190e-03
	3.271002338164722e-04
	4.064797376760874e-01

 82	8.200000000000005e-01
	-2.351805501476177e-15
	6.490743202044000e-20
	-1.087549628309908e-14
	2.585010824351356e-05
	2.301039546824642e-03
	3.496262502656309e-04
	4.064818590027137e-01

 83	8.300000000000005e-01
	-2.346693026561028e-15
	3.602881405376703e-20
	-1.091946615044032e-14
	2.689742893660099e-05
	2.393416690517587e-03
	3.730803715259335e-04
	4.064840747205559e-01

 84	8.400000000000005e-01
	-2.341926939152635e-15
	6.898166241159987e-21
	-1.096223385415501e-14
	2.795925052295419e-05
	2.484362481529533e-03
	3.974498039080774e-04
	4.064863838603503e-01

 85	8.500000000000005e-01
	-2.337496335713658e-15
	-2.248242476647996e-20
	-1.100382180065255e-14
	2.903462868943403e-05
	2.573580734242882e-03
	4.227186967776827e-04
	4.064887851193571e-01

 86	8.600000000000005e-01
	-2.333390487233889e-15
	-5.211138089107585e-20
	-1.104425258714209e-14
	3.012262036083665e-05
	2.660797966383985e-03
	4.488683564162261e-04
	4.064912768816196e-01

 87	8.700000000000006e-01
	-2.329598847954035e-15
	-8.198762804358089e-20
	-1.108354895370467e-14
	3.122228825073236e-05
	2.745765658833687e-03
	4.758774850285174e-04
	4.064938572413310e-01

 88	8.800000000000006e-01
	-2.326111063101051e-15
	-1.121105908669470e-19
	-1.112173373795995e-14
	3.233270516221026e-05
	2.828261967508892e-03
	5.037224394822982e-04
	4.064965240286890e-01

 89	8.900000000000006e-01
	-2.322916975676408e-15
	-1.424801868987259e-19
	-1.115882983230685e-14
	3.345295801724329e-05
	2.908092888209172e-03
	5.323775042956154e-04
	4.064992748376439e-01

 90	9.000000000000006e-01
	-2.320006632340312e-15
	-1.730968202422310e-19
	-1.119486014370566e-14
	3.458215159657887e-05
	2.985092890530558e-03
	5.618151734778299e-04
	4.065021070549499e-01

 91	9.100000000000006e-01
	-2.317370288435345e-15
	-2.039613748323702e-19
	-1.122984755595985e-14
	3.571941197522604e-05
	3.059125050108031e-03
	5.920064360618609e-04
	4.065050178899098e-01

 92	9.200000000000006e-01
	-2.314998412193883e-15
	-2.350752073768031e-19
	-1.126381489444638e-14
	3.686388964180205e-05
	3.130080719247879e-03
	6.229210605163544e-04
	4.065080044042747e-01

 93	9.300000000000006e-01
	-2.312881688173764e-15
	-2.664401400480944e-19
	-1.129678489323556e-14
	3.801476229323609e-05
	3.197878784293186e-03
	6.545278736722501e-04
	4.065110635418135e-01

 94	9.400000000000006e-01
	-2.311011019966426e-15
	-2.980584529982007e-19
	-1.132878016453533e-14
	3.917123729961826e-05
	3.262464563814655e-03
	6.867950303136206e-04
	4.065141921570692e-01

 95	9.500000000000006e-01
	-2.309377532221770e-15
	-3.299328767598982e-19
	-1.135982317038811e-14
	4.033255383729098e-05
	3.323808405037995e-03
	7.196902701423220e-04
	4.065173870429612e-01

 96	9.600000000000006e-01
	-2.307972572033001e-15
	-3.620665845954408e-19
	-1.138993619654511e-14
	4.149798469158615e-05
	3.381904037011134e-03
	7.531811594072094e-04
	4.065206449568826e-01

 97	9.700000000000006e-01
	-2.306787709724201e-15
	-3.944631848475500e-19
	-1.141914132843839e-14
	4.266683773384794e-05
	3.436766738150646e-03
	7.872353150701032e-04
	4.065239626450446e-01

 98	9.800000000000006e-01
	-2.305814739082248e-15
	-4.271267133411084e-19
	-1.144746042916862e-14
	4.383845708049162e-05
	3.488431373303664e-03
	8.218206099445725e-04
	4.065273368648864e-01

 99	9.900000000000007e-01
	-2.305045677073656e-15
	-4.600616258809057e-19
	-1.147491511942472e-14
	4.501222394477456e-05
	3.536950351657251e-03
	8.569053577755432e-04
	4.065307644054152e-01

 100	1.000000000000001e+00
	-2.304472763085484e-15
	-4.932727908852849e-19
	-1.150152675925029e-14
	4.618755719462903e-05
	3.582391552057786e-03
	8.924584777161945e-04
	4.065342421053821e-01

 101	1.010000000000001e+00
	-2.304088457728356e-15
	-5.267654821902805e-19
	-1.152731643157130e-14
	4.736391363227110e-05
	3.624836256888879e-03
	9.284496380956840e-04
