Title: ** sch_path: /home/andylithia/openmpw/project-yatsuhashi-chip1/xschem/gmid_test/nmos_test.sch
Date: Sun Jul 17 22:51:45  2022
Plotname: DC transfer characteristic
Flags: real
No. Variables: 8
No. Points: 181
Variables:
	0	v(v-sweep)	voltage
	1	@m.xm1.msky130_fd_pr__nfet_01v8[cgb]	capacitance
	2	@m.xm1.msky130_fd_pr__nfet_01v8[cgd]	capacitance
	3	@m.xm1.msky130_fd_pr__nfet_01v8[cgs]	capacitance
	4	@m.xm1.msky130_fd_pr__nfet_01v8[gds]	admittance
	5	@m.xm1.msky130_fd_pr__nfet_01v8[gm]	admittance
	6	i(@m.xm1.msky130_fd_pr__nfet_01v8[id])	current
	7	v(@m.xm1.msky130_fd_pr__nfet_01v8[vth])	voltage
Values:
 0	0.000000000000000e+00
	-7.454873440757610e-15
	-2.545660914281750e-18
	-1.206997620620045e-14
	1.251804303402008e-08
	4.503637653394879e-07
	5.120024823064388e-08
	2.350661125117815e-01

 1	1.000000000000000e-02
	-7.369219400145248e-15
	-2.620019077612915e-18
	-1.226831700977442e-14
	1.362738077557602e-08
	4.914105145466071e-07
	5.590612597934090e-08
	2.350661130651665e-01

 2	2.000000000000000e-02
	-7.284440705203046e-15
	-2.696557997427980e-18
	-1.246686176229340e-14
	1.483055541710950e-08
	5.362158771794254e-07
	6.104098153719227e-08
	2.350661136690006e-01

 3	3.000000000000000e-02
	-7.200561265616843e-15
	-2.775342336725289e-18
	-1.266552647586810e-14
	1.613495466733435e-08
	5.851359026923861e-07
	6.664415258187894e-08
	2.350661143279076e-01

 4	4.000000000000000e-02
	-7.117604545817975e-15
	-2.856438765866816e-18
	-1.286422705720362e-14
	1.754848385981672e-08
	6.385629273115904e-07
	7.275871553005498e-08
	2.350661150469536e-01

 5	5.000000000000000e-02
	-7.035593514586021e-15
	-2.939916031344320e-18
	-1.306287943864224e-14
	1.907959526371999e-08
	6.969296122097727e-07
	7.943186822567969e-08
	2.350661158316911e-01

 6	6.000000000000000e-02
	-6.954550596298695e-15
	-3.025845027206029e-18
	-1.326139970897292e-14
	2.073731835690206e-08
	7.607134480312625e-07
	8.671535530205045e-08
	2.350661166882029e-01

 7	7.000000000000001e-02
	-6.874497623969903e-15
	-3.114298869258801e-18
	-1.345970424359696e-14
	2.253129102712186e-08
	8.304417750489888e-07
	9.466594112436248e-08
	2.350661176231701e-01

 8	8.000000000000000e-02
	-6.795455794209475e-15
	-3.205352972165401e-18
	-1.365770983364475e-14
	2.447179166020168e-08
	9.066973718381612e-07
	1.033459357305363e-07
	2.350661186439171e-01

 9	9.000000000000000e-02
	-6.717445624230741e-15
	-3.299085129561543e-18
	-1.385533381363996e-14
	2.656977206687684e-08
	9.901246688619373e-07
	1.128237797344714e-07
	2.350661197584944e-01

 10	9.999999999999999e-02
	-6.640486911022666e-15
	-3.395575597324098e-18
	-1.405249418731867e-14
	2.883689119285710e-08
	1.081436646695372e-06
	1.231746947367530e-07
	2.350661209757490e-01

 11	1.100000000000000e-01
	-6.564598692794539e-15
	-3.494907180127804e-18
	-1.424910975121719e-14
	3.128554954930380e-08
	1.181422481656045e-06
	1.344814064005150e-07
	2.350661223054140e-01

 12	1.200000000000000e-01
	-6.489799212791182e-15
	-3.597165321433658e-18
	-1.444510021565555e-14
	3.392892429362432e-08
	1.290956004240317e-06
	1.468349479914435e-07
	2.350661237581921e-01

 13	1.300000000000000e-01
	-6.416105885566382e-15
	-3.702438197059853e-18
	-1.464038632275530e-14
	3.678100488317552e-08
	1.411005037837090e-06
	1.603355528456536e-07
	2.350661253458752e-01

 14	1.400000000000000e-01
	-6.343535265791592e-15
	-3.810816812492883e-18
	-1.483488996114662e-14
	3.985662921733665e-08
	1.542641686545700e-06
	1.750936449114490e-07
	2.350661270814524e-01

 15	1.500000000000000e-01
	-6.272103019665811e-15
	-3.922395104103533e-18
	-1.502853427703537e-14
	4.317152017636109e-08
	1.687053641373291e-06
	1.912309372021479e-07
	2.350661289792390e-01

 16	1.600000000000000e-01
	-6.201823898981437e-15
	-4.037270044441136e-18
	-1.522124378131937e-14
	4.674232245866114e-08
	1.845556573428617e-06
	2.088816486876420e-07
	2.350661310550237e-01

 17	1.700000000000000e-01
	-6.132711717889317e-15
	-4.155541751787258e-18
	-1.541294445246286e-14
	5.058663961170931e-08
	2.019607680737828e-06
	2.281938508297296e-07
	2.350661333262248e-01

 18	1.800000000000000e-01
	-6.064779332394613e-15
	-4.277313604158178e-18
	-1.560356383485912e-14
	5.472307114559977e-08
	2.210820451740343e-06
	2.493309556159948e-07
	2.350661358120624e-01

 19	1.900000000000000e-01
	-5.998038622603761e-15
	-4.402692357956125e-18
	-1.579303113243278e-14
	5.917124961264343e-08
	2.420980703120150e-06
	2.724733575521194e-07
	2.350661385337579e-01

 20	2.000000000000000e-01
	-5.932500477730934e-15
	-4.531788271477201e-18
	-1.598127729725754e-14
	6.395187753117871e-08
	2.652063942116607e-06
	2.978202426133274e-07
	2.350661415147444e-01

 21	2.100000000000000e-01
	-5.868174783861346e-15
	-4.664715233494926e-18
	-1.616823511298772e-14
	6.908676402714626e-08
	2.906254093554352e-06
	3.255915776095295e-07
	2.350661447808989e-01

 22	2.200000000000001e-01
	-5.805070414457375e-15
	-4.801590897148500e-18
	-1.635383927292740e-14
	7.459886106298273e-08
	3.185963619247032e-06
	3.560302937603974e-07
	2.350661483607988e-01

 23	2.300000000000001e-01
	-5.743195223582528e-15
	-4.942536819377049e-18
	-1.653802645258570e-14
	8.051229912010939e-08
	3.493855041877960e-06
	3.894046784778334e-07
	2.350661522860059e-01

 24	2.400000000000001e-01
	-5.682556041808020e-15
	-5.087678606150305e-18
	-1.672073537659164e-14
	8.685242219877450e-08
	3.832863866664950e-06
	4.260109893829016e-07
	2.350661565913775e-01

 25	2.500000000000001e-01
	-5.623158674755948e-15
	-5.237146063762560e-18
	-1.690190687986893e-14
	9.364582199740801e-08
	4.206222871820937e-06
	4.661763044087599e-07
	2.350661613153892e-01

 26	2.600000000000001e-01
	-5.565007904224115e-15
	-5.391073356464843e-18
	-1.708148396299384e-14
	1.009203711329186e-07
	4.617487712795768e-06
	5.102616214237595e-07
	2.350661665005198e-01

 27	2.700000000000001e-01
	-5.508107491827543e-15
	-5.549599170729449e-18
	-1.725941184168803e-14
	1.087052552638430e-07
	5.070563755352147e-06
	5.586652201124582e-07
	2.350661721936224e-01

 28	2.800000000000001e-01
	-5.452460185083925e-15
	-5.712866886448240e-18
	-1.743563799041914e-14
	1.170310039797248e-07
	5.569734018551307e-06
	6.118262978353535e-07
	2.350661784463773e-01

 29	2.900000000000001e-01
	-5.398067725861254e-15
	-5.881024755389929e-18
	-1.761011218011038e-14
	1.259295203231217e-07
	6.119688070666927e-06
	6.702288898122090e-07
	2.350661853157345e-01

 30	3.000000000000001e-01
	-5.344930861099453e-15
	-6.054226087249202e-18
	-1.778278650998027e-14
	1.354341088148947e-07
	6.725551678928074e-06
	7.344060821956039e-07
	2.350661928644197e-01

 31	3.100000000000001e-01
	-5.293049355710252e-15
	-6.232629443643230e-18
	-1.795361543355966e-14
	1.455795018595275e-07
	7.392916967979607e-06
	8.049445243832600e-07
	2.350662011614636e-01

 32	3.200000000000001e-01
	-5.242422007554038e-15
	-6.416398840424976e-18
	-1.812255577895330e-14
	1.564018844150558e-07
	8.127872792304475e-06
	8.824892442202949e-07
	2.350662102827679e-01

 33	3.300000000000001e-01
	-5.193046664386718e-15
	-6.605703958704521e-18
	-1.828956676343515e-14
	1.679389168221773e-07
	8.937034975006285e-06
	9.677487665324980e-07
	2.350662203117059e-01

 34	3.400000000000001e-01
	-5.144920242665313e-15
	-6.800720364985869e-18
	-1.845461000248598e-14
	1.802297556993882e-07
	9.827576009886838e-06
	1.061500531679243e-06
	2.350662313397654e-01

 35	3.500000000000001e-01
	-5.098038748096548e-15
	-7.001629740850759e-18
	-1.861764951340136e-14
	1.933150728260316e-07
	1.080725376644598e-05
	1.164596606497895e-06
	2.350662434672155e-01

 36	3.600000000000002e-01
	-5.052397297810241e-15
	-7.208620122638402e-18
	-1.877865171361432e-14
	2.072370719530258e-07
	1.188443867923632e-05
	1.277969675115575e-06
	2.350662568038241e-01

 37	3.700000000000002e-01
	-5.007990144035952e-15
	-7.421886151599948e-18
	-1.893758541389468e-14
	2.220395035025344e-07
	1.306813884510980e-05
	1.402639291627701e-06
	2.350662714695739e-01

 38	3.800000000000002e-01
	-4.964810699160330e-15
	-7.641629335021055e-18
	-1.909442180659979e-14
	2.377676771428290e-07
	1.436802239565638e-05
	1.539718370592594e-06
	2.350662875954452e-01

 39	3.900000000000002e-01
	-4.922851562040862e-15
	-7.868058318840880e-18
	-1.924913444916674e-14
	2.544684722541726e-07
	1.579443645918196e-05
	1.690419884695920e-06
	2.350663053241978e-01

 40	4.000000000000002e-01
	-4.882104545451603e-15
	-8.101389172316354e-18
	-1.940169924304661e-14
	2.721903463356526e-07
	1.735842197866533e-05
	1.856063731835416e-06
	2.350663248111738e-01

 41	4.100000000000002e-01
	-4.842560704536680e-15
	-8.341845685310955e-18
	-1.955209440829174e-14
	2.909833414423898e-07
	1.907172361127975e-05
	2.038083726328558e-06
	2.350663462251337e-01

 42	4.200000000000002e-01
	-4.804210366147822e-15
	-8.589659678817685e-18
	-1.970030045401709e-14
	3.108990887879179e-07
	2.094679390338686e-05
	2.238034661033374e-06
	2.350663697490782e-01

 43	4.300000000000002e-01
	-4.767043158943832e-15
	-8.845071329356721e-18
	-1.984630014496270e-14
	3.319908116983256e-07
	2.299679091466563e-05
	2.457599378998289e-06
	2.350663955810837e-01

 44	4.400000000000002e-01
	-4.731048044131753e-15
	-9.108329507919744e-18
	-1.999007846439136e-14
	3.543133271635967e-07
	2.523556845855193e-05
	2.698595784947515e-06
	2.350664239351269e-01

 45	4.500000000000002e-01
	-4.696213346731828e-15
	-9.379692134171640e-18
	-2.013162257355980e-14
	3.779230462980995e-07
	2.767765813575229e-05
	2.962983718612483e-06
	2.350664550418954e-01

 46	4.600000000000002e-01
	-4.662526787251167e-15
	-9.659426546653303e-18
	-2.027092176800509e-14
	4.028779740970192e-07
	3.033824236551559e-05
	3.252871603810396e-06
	2.350664891495721e-01

 47	4.700000000000003e-01
	-4.629975513654425e-15
	-9.947809889770229e-18
	-2.040796743089004e-14
	4.292377089590562e-07
	3.323311766767520e-05
	3.570522779440628e-06
	2.350665265245741e-01

 48	4.800000000000003e-01
	-4.598546133523563e-15
	-1.024512951839219e-17
	-2.054275298365158e-14
	4.570634425387333e-07
	3.637864751905051e-05
	3.918361411433622e-06
	2.350665674522559e-01

 49	4.900000000000003e-01
	-4.568224746302513e-15
	-1.055168342093188e-17
	-2.067527383419626e-14
	4.864179605944761e-07
	3.979170420207833e-05
	4.298977878374483e-06
	2.350666122375367e-01

 50	5.000000000000002e-01
	-4.538996975527029e-15
	-1.086778066181693e-17
	-2.080552732288503e-14
	5.173656456116136e-07
	4.348959918251916e-05
	4.715133518277210e-06
	2.350666612054598e-01

 51	5.100000000000002e-01
	-4.510848000944711e-15
	-1.119374184431689e-17
	-2.093351266654638e-14
	5.499724821029788e-07
	4.749000169715298e-05
	5.169764620055014e-06
	2.350667147016682e-01

 52	5.200000000000002e-01
	-4.483762590434728e-15
	-1.152989959473776e-17
	-2.105923090075420e-14
	5.843060656240617e-07
	5.181084540126658e-05
	5.665985540868986e-06
	2.350667730927581e-01

 53	5.300000000000002e-01
	-4.457725131641921e-15
	-1.187659906905162e-17
	-2.118268482060078e-14
	6.204356166845093e-07
	5.647022311833689e-05
	6.207090829981643e-06
	2.350668367665393e-01

 54	5.400000000000003e-01
	-4.432719663244874e-15
	-1.223419848308226e-17
	-2.130387892019134e-14
	6.584320008934471e-07
	6.148626994872962e-05
	6.796556241227259e-06
	2.350669061321427e-01

 55	5.500000000000003e-01
	-4.408729905783116e-15
	-1.260306966742943e-17
	-2.142281933107867e-14
	6.983677568419414e-07
	6.687703522754766e-05
	7.438038519935459e-06
	2.350669816200004e-01

 56	5.600000000000003e-01
	-4.385739291973300e-15
	-1.298359864837931e-17
	-2.153951375985125e-14
	7.403171334020740e-07
	7.266034407021153e-05
	8.135373856286414e-06
	2.350670636816575e-01

 57	5.700000000000003e-01
	-4.363730996450218e-15
	-1.337618625610953e-17
	-2.165397142507902e-14
	7.843561383073465e-07
	7.885364950311148e-05
	8.892574905754840e-06
	2.350671527894234e-01

 58	5.800000000000003e-01
	-4.342687964873001e-15
	-1.378124876157258e-17
	-2.176620299381456e-14
	8.305626000737815e-07
	8.547387644015084e-05
	9.713826288601423e-06
	2.350672494358373e-01

 59	5.900000000000003e-01
	-4.322592942342807e-15
	-1.419921854351525e-17
	-2.187622051783761e-14
	8.790162455234574e-07
	9.253725902765528e-05
	1.060347849429875e-05
	2.350673541329435e-01

 60	6.000000000000003e-01
	-4.303428501083184e-15
	-1.463054478716369e-17
	-2.198403736982274e-14
	9.297987953824691e-07
	1.000591731328847e-04
	1.156604013329023e-05
	2.350674674113848e-01

 61	6.100000000000003e-01
	-4.285177067339294e-15
	-1.507569421619521e-17
	-2.208966817960084e-14
	9.829940806423054e-07
	1.080539659875838e-04
	1.260616849744167e-05
	2.350675898192887e-01

 62	6.200000000000003e-01
	-4.267820947457334e-15
	-1.553515185970062e-17
	-2.219312877067566e-14
	1.038688182597109e-06
	1.165347852097861e-04
	1.372865841175533e-05
	2.350677219209436e-01

 63	6.300000000000003e-01
	-4.251342353110520e-15
	-1.600942185593201e-17
	-2.229443609714671e-14
	1.096969599698683e-06
	1.255134096065104e-04
	1.493842938308323e-05
	2.350678642952991e-01

 64	6.400000000000003e-01
	-4.235723425642270e-15
	-1.649902829473131e-17
	-2.239360818118090e-14
	1.157929444607159e-06
	1.350000842995617e-04
	1.624051107635480e-05
	2.350680175342413e-01

 65	6.500000000000004e-01
	-4.220946259502188e-15
	-1.700451610063669e-17
	-2.249066405116544e-14
	1.221661675057413e-06
	1.450033628092276e-04
	1.764002717476280e-05
	2.350681822407093e-01

 66	6.600000000000004e-01
	-4.206992924754535e-15
	-1.752645195877495e-17
	-2.258562368066463e-14
	1.288263362412128e-06
	1.555299587703712e-04
	1.914217770696204e-05
	2.350683590265960e-01

 67	6.700000000000004e-01
	-4.193845488643313e-15
	-1.806542528575763e-17
	-2.267850792829381e-14
	1.357835002032231e-06
	1.665846099372029e-04
	2.075221995103770e-05
	2.350685485105136e-01

 68	6.800000000000004e-01
	-4.181486036201816e-15
	-1.862204924792677e-17
	-2.276933847861444e-14
	1.430480869868482e-06
	1.781699570537227e-04
	2.247544805122892e-05
	2.350687513153939e-01

 69	6.900000000000004e-01
	-4.169896689898269e-15
	-1.919696182942257e-17
	-2.285813778414522e-14
	1.506309429967163e-06
	1.902864400247532e-04
	2.431717150850784e-05
	2.350689680659535e-01

 70	7.000000000000004e-01
	-4.159059628313149e-15
	-1.979082695267810e-17
	-2.294492900857381e-14
	1.585433797893131e-06
	2.029322136179240e-04
	2.628269272948412e-05
	2.350691993860662e-01

 71	7.100000000000004e-01
	-4.148957103846292e-15
	-2.040433565409720e-17
	-2.302973597124742e-14
	1.667972265412290e-06
	2.161030846624822e-04
	2.837728383914356e-05
	2.350694458960193e-01

 72	7.200000000000004e-01
	-4.139571459455888e-15
	-2.103820731781223e-17
	-2.311258309300901e-14
	1.754048892148875e-06
	2.297924723904728e-04
	3.060616298100815e-05
	2.350697082097413e-01

 73	7.300000000000004e-01
	-4.130885144433915e-15
	-2.169319097059142e-17
	-2.319349534343950e-14
	1.843794170352248e-06
	2.439913931964589e-04
	3.297447034295371e-05
	2.350699869319827e-01

 74	7.400000000000004e-01
	-4.122880729224865e-15
	-2.237006664112616e-17
	-2.327249818955833e-14
	1.937345769382649e-06
	2.586884706814554e-04
	3.548724415763944e-05
	2.350702826554876e-01

 75	7.500000000000004e-01
	-4.115540919298025e-15
	-2.306964678710907e-17
	-2.334961754602583e-14
	2.034849367069440e-06
	2.738699714052162e-04
	3.814939693295884e-05
	2.350705959582102e-01

 76	7.600000000000005e-01
	-4.108848568084833e-15
	-2.379277779370656e-17
	-2.342487972688471e-14
	2.136459575723760e-06
	2.895198663094915e-04
	4.096569216984720e-05
	2.350709274005703e-01

 77	7.700000000000005e-01
	-4.102786688995396e-15
	-2.454034154722110e-17
	-2.349831139887068e-14
	2.242340971316972e-06
	3.056199173054685e-04
	4.394072182204152e-05
	2.350712775228072e-01

 78	7.800000000000005e-01
	-4.097338466529963e-15
	-2.531325708795657e-17
	-2.356993953631518e-14
	2.352669235186508e-06
	3.221497880537561e-04
	4.707888474495792e-05
	2.350716468424492e-01

 79	7.900000000000005e-01
	-4.092487266502636e-15
	-2.611248234651701e-17
	-2.363979137765750e-14
	2.467632418623819e-06
	3.390871775176472e-04
	5.038436636886154e-05
	2.350720358519175e-01

 80	8.000000000000005e-01
	-4.088216645396166e-15
	-2.693901596800344e-17
	-2.370789438357728e-14
	2.587432341859047e-06
	3.564079744518260e-04
	5.386111981515443e-05
	2.350724450163116e-01

 81	8.100000000000005e-01
	-4.084510358867886e-15
	-2.779389922881938e-17
	-2.377427619675272e-14
	2.712286140312408e-06
	3.740864306105576e-04
	5.751284865428414e-05
	2.350728747713789e-01

 82	8.200000000000005e-01
	-4.081352369427711e-15
	-2.867821805105788e-17
	-2.383896460324537e-14
	2.842427972563103e-06
	3.920953501312834e-04
	6.134299147990135e-05
	2.350733255216959e-01

 83	8.300000000000005e-01
	-4.078726853310376e-15
	-2.959310511970910e-17
	-2.390198749550605e-14
	2.978110906328212e-06
	4.104062922796869e-04
	6.535470844703300e-05
	2.350737976390896e-01

 84	8.400000000000005e-01
	-4.076618206564307e-15
	-3.053974210822434e-17
	-2.396337283699370e-14
	3.119609000885720e-06
	4.289897845368111e-04
	6.955086989279909e-05
	2.350742914612925e-01

 85	8.500000000000005e-01
	-4.075011050380708e-15
	-3.151936201826419e-17
	-2.402314862839311e-14
	3.267219606861069e-06
	4.478155428716107e-04
	7.393404712724170e-05
	2.350748072908642e-01

 86	8.600000000000005e-01
	-4.073890235685936e-15
	-3.253325163978723e-17
	-2.408134287541508e-14
	3.421265907176702e-06
	4.668526959752915e-04
	7.850650544987469e-05
	2.350753453943520e-01

 87	8.700000000000006e-01
	-4.073240847021833e-15
	-3.358275413795473e-17
	-2.413798355815742e-14
	3.582099726294016e-06
	4.860700102361697e-04
	8.327019941524959e-05
	2.350759060017523e-01

 88	8.800000000000006e-01
	-4.073048205737271e-15
	-3.466927177369677e-17
	-2.419309860200379e-14
	3.750104638725065e-06
	5.054361123033359e-04
	8.822677033894655e-05
	2.350764893061986e-01

 89	8.900000000000006e-01
	-4.073297872515560e-15
	-3.579426876513191e-17
	-2.424671585003256e-14
	3.925699412227368e-06
	5.249197062188968e-04
	9.337754600445088e-05
	2.350770954639306e-01

 90	9.000000000000006e-01
	-4.073975649261330e-15
	-3.695927429743429e-17
	-2.429886303690690e-14
	4.109341826209695e-06
	5.444897822863289e-04
	9.872354250210369e-05
	2.350777245945070e-01

 91	9.100000000000006e-01
	-4.075067580370864e-15
	-3.816588568913518e-17
	-2.434956776421331e-14
	4.301532911763889e-06
	5.641158150781925e-04
	1.042654681041228e-04
	2.350783767812648e-01

 92	9.200000000000006e-01
	-4.076559953409036e-15
	-3.941577172328006e-17
	-2.439885747721541e-14
	4.502821666514677e-06
	5.837679482617442e-04
	1.100037290550970e-04
	2.350790520719833e-01

 93	9.300000000000006e-01
	-4.078439299216314e-15
	-4.071067615228361e-17
	-2.444675944298616e-14
	4.713810305273527e-06
	6.034171642259440e-04
	1.159384371356372e-04
	2.350797504797923e-01

 94	9.400000000000006e-01
	-4.080692391468051e-15
	-4.205242138581531e-17
	-2.449330072988140e-14
	4.935160116449509e-06
	6.230354368186912e-04
	1.220694188383674e-04
	2.350804719842406e-01

 95	9.500000000000006e-01
	-4.083306245708060e-15
	-4.344291237150503e-17
	-2.453850818831586e-14
	5.167598004478539e-06
	6.425958658384142e-04
	1.283962259801907e-04
	2.350812165325393e-01

 96	9.600000000000006e-01
	-4.086268117878221e-15
	-4.488414067876712e-17
	-2.458240843280075e-14
	5.411923810386727e-06
	6.620727922603978e-04
	1.349181475629186e-04
	2.350819840409701e-01

 97	9.700000000000006e-01
	-4.089565502364283e-15
	-4.637818879657646e-17
	-2.462502782520259e-14
	5.669018516231621e-06
	6.814418935065020e-04
	1.416342226858433e-04
	2.350827743963954e-01

 98	9.800000000000006e-01
	-4.093186129578193e-15
	-4.792723465654922e-17
	-2.466639245918075e-14
	5.939853454826864e-06
	7.006802583789842e-04
	1.485432543084990e-04
	2.350835874578759e-01

 99	9.900000000000007e-01
	-4.097117963095911e-15
	-4.953355639325945e-17
	-2.470652814576136e-14
	6.225500664150353e-06
	7.197664415682785e-04
	1.556438236595540e-04
	2.350844230583812e-01

 100	1.000000000000001e+00
	-4.101349196368914e-15
	-5.119953735430619e-17
	-2.474546040000459e-14
	6.527144546497000e-06
	7.386804979049716e-04
	1.629343050882548e-04
	2.350852810065226e-01

 101	1.010000000000001e+00
	-4.105868249026954e-15
	-5.292767137323076e-17
	-2.478321442872191e-14
