Title: ** sch_path: /home/andylithia/openmpw/project-yatsuhashi-chip1/xschem/gmid_test/nmos_test.sch
Date: Tue Jul 19 23:15:45  2022
Plotname: DC transfer characteristic
Flags: real
No. Variables: 8
No. Points: 181
Variables:
	0	v(v-sweep)	voltage
	1	@m.xm1.msky130_fd_pr__nfet_01v8[cgb]	capacitance
	2	@m.xm1.msky130_fd_pr__nfet_01v8[cgd]	capacitance
	3	@m.xm1.msky130_fd_pr__nfet_01v8[cgs]	capacitance
	4	@m.xm1.msky130_fd_pr__nfet_01v8[gds]	admittance
	5	@m.xm1.msky130_fd_pr__nfet_01v8[gm]	admittance
	6	i(@m.xm1.msky130_fd_pr__nfet_01v8[id])	current
	7	v(@m.xm1.msky130_fd_pr__nfet_01v8[vth])	voltage
Values:
 0	0.000000000000000e+00
	-3.763919611997333e-15
	3.539240253512902e-19
	-2.542577743724027e-17
	8.449554747450812e-14
	2.493664310996359e-12
	7.752336773319552e-14
	7.484602162487367e-01

 1	1.000000000000000e-02
	-3.746002688765170e-15
	3.785068055657962e-19
	-2.712531361023235e-17
	1.154795151179566e-13
	3.439794018238339e-12
	1.069374946637468e-13
	7.484602162487382e-01

 2	2.000000000000000e-02
	-3.728311274765737e-15
	4.045951814375406e-19
	-2.896475790214858e-17
	1.578110012660922e-13
	4.744881676779857e-12
	1.475116642378756e-13
	7.484602162487403e-01

 3	3.000000000000000e-02
	-3.710838305558759e-15
	4.322939392525854e-19
	-3.095662431297456e-17
	2.156402854845284e-13
	6.545104549096977e-12
	2.034799095674348e-13
	7.484602162487435e-01

 4	4.000000000000000e-02
	-3.693576664934833e-15
	4.617202238279366e-19
	-3.311493429303800e-17
	2.946333278613495e-13
	9.028295089934695e-12
	2.806824946615765e-13
	7.484602162487478e-01

 5	5.000000000000000e-02
	-3.676519149390893e-15
	4.930048920002708e-19
	-3.545541519651001e-17
	4.025243777868279e-13
	1.245353117137880e-11
	3.871751784205286e-13
	7.484602162487533e-01

 6	6.000000000000000e-02
	-3.659658430143876e-15
	5.262938583306839e-19
	-3.799571663880983e-17
	5.498696821035086e-13
	1.717815355836877e-11
	5.340695316342392e-13
	7.484602162487608e-01

 7	7.000000000000001e-02
	-3.642987012631494e-15
	5.617494084165980e-19
	-4.075564513329096e-17
	7.510753148093619e-13
	2.369502508466446e-11
	7.366918998940050e-13
	7.484602162487712e-01

 8	8.000000000000000e-02
	-3.626497193451493e-15
	5.995514544758029e-19
	-4.375741736978334e-17
	1.025798596641319e-12
	3.268391157695438e-11
	1.016181793357427e-12
	7.484602162487864e-01

 9	9.000000000000000e-02
	-3.610181014690911e-15
	6.398987074534400e-19
	-4.702593249925121e-17
	1.400858566099834e-12
	4.508233307536747e-11
	1.401696235715666e-12
	7.484602162488065e-01

 10	9.999999999999999e-02
	-3.594030215594440e-15
	6.830097397209125e-19
	-5.058906380161149e-17
	1.912839935489498e-12
	6.218325728657203e-11
	1.933449667656235e-12
	7.484602162488353e-01

 11	1.100000000000000e-01
	-3.578036181517506e-15
	7.291239124170261e-19
	-5.447797013379753e-17
	2.611641575293466e-12
	8.576979460147028e-11
	2.666905913889539e-12
	7.484602162488735e-01

 12	1.200000000000000e-01
	-3.562189890104492e-15
	7.785021415703637e-19
	-5.872742757872372e-17
	3.565311138129327e-12
	1.183008929901971e-10
	3.678558489105081e-12
	7.484602162489274e-01

 13	1.300000000000000e-01
	-3.546481854627603e-15
	8.314274772922189e-19
	-6.337618173939743e-17
	4.866630529552695e-12
	1.631673169247178e-10
	5.073900524997165e-12
	7.484602162490006e-01

 14	1.400000000000000e-01
	-3.530902064416233e-15
	8.882054704944471e-19
	-6.846732114066624e-17
	6.642084167819451e-12
	2.250444700991253e-10
	6.998412887026645e-12
	7.484602162491030e-01

 15	1.500000000000000e-01
	-3.515439922303244e-15
	9.491643017015592e-19
	-7.404867220727535e-17
	9.064069068616495e-12
	3.103786323468144e-10
	9.652712044525068e-12
	7.484602162492433e-01

 16	1.600000000000000e-01
	-3.500084179013293e-15
	1.014654646491178e-18
	-8.017321626878070e-17
	1.236751400665111e-11
	4.280569487385255e-10
	1.331343015280930e-11
	7.484602162494367e-01

 17	1.700000000000000e-01
	-3.484822864423665e-15
	1.085049251758081e-18
	-8.689952898152691e-17
	1.687249307479023e-11
	5.903304333452342e-10
	1.836199280356518e-11
	7.484602162497040e-01

 18	1.800000000000000e-01
	-3.469643215643286e-15
	1.160742196138190e-18
	-9.429224242764823e-17
	2.301498566267017e-11
	8.140852470572764e-10
	2.532427564932553e-11
	7.484602162500716e-01

 19	1.900000000000000e-01
	-3.454531601887221e-15
	1.242147806270008e-18
	-1.024225299125419e-16
	3.138870247888769e-11
	1.122593195087437e-09
	3.492524273905078e-11
	7.484602162505797e-01

 20	2.000000000000000e-01
	-3.439473446180556e-15
	1.329699197781938e-18
	-1.113686130842761e-16
	4.280193609125443e-11
	1.547921334484370e-09
	4.816421073666467e-11
	7.484602162512799e-01

 21	2.100000000000000e-01
	-3.424453144016730e-15
	1.423846405624209e-18
	-1.212162903763465e-16
	5.835479906451394e-11
	2.134247642779211e-09
	6.641849986176692e-11
	7.484602162522453e-01

 22	2.200000000000001e-01
	-3.409453979234421e-15
	1.525054062285992e-18
	-1.320594848519447e-16
	7.954410984732011e-11
	2.942421471106054e-09
	9.158613686114685e-11
	7.484602162535766e-01

 23	2.300000000000001e-01
	-3.394458037577756e-15
	1.633798574306848e-18
	-1.440008082150825e-16
	1.084057455863338e-10
	4.056232916989765e-09
	1.262822571053081e-10
	7.484602162554114e-01

 24	2.400000000000001e-01
	-3.379446118682192e-15
	1.750564737211480e-18
	-1.571521359563544e-16
	1.477077281139414e-10
	5.591026347827627e-09
	1.741093056476576e-10
	7.484602162579411e-01

 25	2.500000000000001e-01
	-3.364397647599247e-15
	1.875841716693411e-18
	-1.716351862208804e-16
	2.012119450828345e-10
	7.705526265347891e-09
	2.400285945689932e-10
	7.484602162614273e-01

 26	2.600000000000001e-01
	-3.349290587451507e-15
	2.010118309966215e-18
	-1.875820919296964e-16
	2.740286308519682e-10
	1.061806014909328e-08
	3.308709577603058e-10
	7.484602162662320e-01

 27	2.700000000000001e-01
	-3.334101355408870e-15
	2.153877386463298e-18
	-2.051359518728181e-16
	3.730960664871668e-10
	1.462879157835084e-08
	4.560381262580592e-10
	7.484602162728516e-01

 28	2.800000000000001e-01
	-3.318804744906214e-15
	2.307589392681952e-18
	-2.244513418641526e-16
	5.078290942703452e-10
	2.015015567874188e-08
	6.284653302656728e-10
	7.484602162819710e-01

 29	2.900000000000001e-01
	-3.303373857886029e-15
	2.471704793560303e-18
	-2.456947615823838e-16
	6.909948780194543e-10
	2.774846724091383e-08
	8.659412554652835e-10
	7.484602162945309e-01

 30	3.000000000000001e-01
	-3.287780051841849e-15
	2.646645314437847e-18
	-2.690449864440182e-16
	9.398940394677285e-10
	3.820071359080646e-08
	1.192916142843308e-09
	7.484602163118236e-01

 31	3.100000000000001e-01
	-3.271992907545073e-15
	2.832793845929806e-18
	-2.946932868589746e-16
	1.277951355120677e-09
	5.257193073348757e-08
	1.642975547938842e-09
	7.484602163356262e-01

 32	3.200000000000001e-01
	-3.255980224529143e-15
	3.030482881920252e-18
	-3.228434696867119e-16
	1.736854501156607e-09
	7.232039393698153e-08
	2.262220003935964e-09
	7.484602163683770e-01

 33	3.300000000000001e-01
	-3.239708052633889e-15
	3.239981381674356e-18
	-3.537116889355147e-16
	2.359424257381199e-09
	9.944025635366484e-08
	3.113874624445803e-09
	7.484602164134191e-01

 34	3.400000000000001e-01
	-3.223140769110107e-15
	3.461479984333137e-18
	-3.875259651586002e-16
	3.203458045201953e-09
	1.366543868664271e-07
	4.284563943834956e-09
	7.484602164753348e-01

 35	3.500000000000001e-01
	-3.206241211855297e-15
	3.695074561330116e-18
	-4.245253461880686e-16
	4.346864198582984e-09
	1.876741536412996e-07
	5.892833978973834e-09
	7.484602165603931e-01

 36	3.600000000000002e-01
	-3.188970880172532e-15
	3.940748172787067e-18
	-4.649586365786213e-16
	5.894501074387711e-09
	2.575479404299656e-07
	8.100695224746889e-09
	7.484602166771624e-01

 37	3.700000000000002e-01
	-3.171290214863633e-15
	4.198351600159524e-18
	-5.090826203583680e-16
	7.987257644593988e-09
	3.531264165419338e-07
	1.112920829007355e-08
	7.484602168373352e-01

 38	3.800000000000002e-01
	-3.153158969305726e-15
	4.467582760405979e-18
	-5.571597025227924e-16
	1.081406551659753e-08
	4.836800935840579e-07
	1.527945057627891e-08
	7.484602170568339e-01

 39	3.900000000000002e-01
	-3.134536682218425e-15
	4.747965465761389e-18
	-6.094549004032120e-16
	1.462772117417895e-08
	6.617134434055422e-07
	2.096060048214451e-08
	7.484602173572994e-01

 40	4.000000000000002e-01
	-3.115383260903163e-15
	5.038828173937162e-18
	-6.662321278771100e-16
	1.976562543186769e-08
	9.040295307646125e-07
	2.872736618114321e-08
	7.484602177680696e-01

 41	4.100000000000002e-01
	-3.095659680636681e-15
	5.339283568711917e-18
	-7.277497345606752e-16
	2.667681621539806e-08
	1.233109043688059e-06
	3.932957540046447e-08
	7.484602183288033e-01

 42	4.200000000000002e-01
	-3.075328801481887e-15
	5.648210008566925e-18
	-7.942552895684663e-16
	3.595697822146154e-08
	1.678876499610109e-06
	5.377742750639709e-08
	7.484602190929271e-01

 43	4.300000000000002e-01
	-3.054356297972624e-15
	5.964236064794924e-18
	-8.659796355951174e-16
	4.839344929589141e-08
	2.280932147503678e-06
	7.342666941753199e-08
	7.484602201321479e-01

 44	4.400000000000002e-01
	-3.032711689984036e-15
	6.285729519526802e-18
	-9.431302837065710e-16
	6.502258855456617e-08
	3.091327492579816e-06
	1.000887459348783e-07
	7.484602215422728e-01

 45	4.500000000000002e-01
	-3.010369454819037e-15
	6.610792284179496e-18
	-1.025884271105055e-15
	8.720219050332691e-08
	4.177951058867872e-06
	1.361717087102187e-07
	7.484602234506672e-01

 46	4.600000000000002e-01
	-2.987310191510713e-15
	6.937262704274776e-18
	-1.114380660899533e-15
	1.167018679784772e-07
	5.628563510665639e-06
	1.848582124803326e-07
	7.484602260256695e-01

 47	4.700000000000003e-01
	-2.963521799141854e-15
	7.262726613187748e-18
	-1.208712920992033e-15
	1.558144053480636e-07
	7.555471622070777e-06
	2.503270907005791e-07
	7.484602294883157e-01

 48	4.800000000000003e-01
	-2.939000622382407e-15
	7.584538266012143e-18
	-1.308921473845421e-15
	2.074908952372912e-07
	1.010075372018933e-05
	3.380245368678315e-07
	7.484602341266896e-01

 49	4.900000000000003e-01
	-2.913752510350215e-15
	7.899851915417034e-18
	-1.414986754497233e-15
	2.755018837039781e-07
	1.344184322734486e-05
	4.549895367866886e-07
	7.484602403131488e-01

 50	5.000000000000002e-01
	-2.887793730279505e-15
	8.205664287268324e-18
	-1.526823144673840e-15
	3.646256088926361e-07
	1.779714636626488e-05
	6.102356252446956e-07
	7.484602485245412e-01

 51	5.100000000000002e-01
	-2.861151676258365e-15
	8.498867594149327e-18
	-1.644274160434653e-15
	4.808625774062276e-07
	2.343122971487511e-05
	8.151870961232214e-07
	7.484602593653159e-01

 52	5.200000000000002e-01
	-2.833865316217502e-15
	8.776312026340852e-18
	-1.767109254688498e-15
	6.316730694753713e-07
	3.065899068936124e-05
	1.084162506422175e-06
	7.484602735931595e-01

 53	5.300000000000002e-01
	-2.805985327853558e-15
	9.034875935065639e-18
	-1.895022551315595e-15
	8.262306781028550e-07
	3.984815892232779e-05
	1.434892049936047e-06
	7.484602921464675e-01

 54	5.400000000000003e-01
	-2.777573886261052e-15
	9.271541236770762e-18
	-2.027633754257952e-15
	1.075680805775214e-06
	5.141951392728160e-05
	1.889048936142806e-06
	7.484603161726125e-01

 55	5.500000000000003e-01
	-2.748704082238093e-15
	9.483470990307433e-18
	-2.164491375651627e-15
	1.393388523369818e-06
	6.584438010224413e-05
	2.472769514303771e-06
	7.484603470557035e-01

 56	5.600000000000003e-01
	-2.719458969525749e-15
	9.668085698286551e-18
	-2.305078307873435e-15
	1.795155949904207e-06
	8.363927955440892e-05
	3.217133976743280e-06
	7.484603864423777e-01

 57	5.700000000000003e-01
	-2.689930260199143e-15
	9.823134714301064e-18
	-2.448819634055014e-15
	2.299386156731929e-06
	1.053580417297432e-04
	4.158580321484731e-06
	7.484604362642323e-01

 58	5.800000000000003e-01
	-2.660216708306741e-15
	9.946759232638819e-18
	-2.595092440916131e-15
	2.927169404130508e-06
	1.315820840367866e-04
	5.339229377639790e-06
	7.484604987557609e-01

 59	5.900000000000003e-01
	-2.630422240802323e-15
	1.003754370282783e-17
	-2.743237278166651e-15
	3.702268930300861e-06
	1.629098466328912e-04
	6.807107368720046e-06
	7.484605764671429e-01

 60	6.000000000000003e-01
	-2.600653910100932e-15
	1.009455312442365e-17
	-2.892570811050251e-15
	4.650987646410799e-06
	1.999463491210117e-04
	8.616262527423947e-06
	7.484606722717669e-01

 61	6.100000000000003e-01
	-2.571019752824688e-15
	1.011735448667179e-17
	-3.042399145655819e-15
	5.801903313882659e-06
	2.432934651181202e-04
	1.082678039614023e-05
	7.484607893687755e-01

 62	6.200000000000003e-01
	-2.541626643612261e-15
	1.010602155026176e-17
	-3.192031276068602e-15
	7.185466774970238e-06
	2.935408273527776e-04
	1.350470520155782e-05
	7.484609312810903e-01

 63	6.300000000000003e-01
	-2.512578230993817e-15
	1.006112313924734e-17
	-3.340792110130168e-15
	8.833464000042617e-06
	3.512564533039581e-04
	1.672186972997588e-05
	7.484611018490656e-01

 64	6.400000000000003e-01
	-2.483973034663212e-15
	9.983696034007358e-18
	-3.488034574445265e-15
	1.077834696543888e-05
	4.169754763016270e-04
	2.055562330522368e-05
	7.484613052192299e-01

 65	6.500000000000004e-01
	-2.455902770953882e-15
	9.875204353920865e-18
	-3.633150373739164e-15
	1.305244064794117e-05
	4.911850398233548e-04
	2.508842929920195e-05
	7.484615458265649e-01

 66	6.600000000000004e-01
	-2.428450957298564e-15
	9.737487932438316e-18
	-3.775579076542443e-15
	1.568703506016734e-05
	5.743036424826421e-04
	3.040728486047550e-05
	7.484618283677169e-01

 67	6.700000000000004e-01
	-2.401691828502099e-15
	9.572702582186673e-18
	-3.914815308830556e-15
	1.871137463451228e-05
	6.666540519877905e-04
	3.660290214370208e-05
	7.484621577617449e-01

 68	6.800000000000004e-01
	-2.375689579374780e-15
	9.383255313607700e-18
	-4.050413949842158e-15
	2.215156488063786e-05
	7.684302387201638e-04
	4.376858788588784e-05
	7.484625390947858e-01

 69	6.900000000000004e-01
	-2.350497931096044e-15
	9.171737520564289e-18
	-4.181993330925414e-15
	2.602942950647899e-05
	8.796603968596111e-04
	5.199877071196535e-05
	7.484629775455580e-01

 70	7.000000000000004e-01
	-2.326160003744264e-15
	8.940858912078090e-18
	-4.309236531752060e-15
	3.036136944548444e-05
	1.000169729295300e-03
	6.138715447612381e-05
	7.484634782900839e-01

 71	7.100000000000004e-01
	-2.302708465509141e-15
	8.693384594717707e-18
	-4.431890943671524e-15
	3.515729533142312e-05
	1.129547941274796e-03
	7.202451950954030e-05
	7.484640463862345e-01

 72	7.200000000000004e-01
	-2.280165920582224e-15
	8.432077244437433e-18
	-4.549766324796983e-15
	4.041972169381125e-05
	1.267126992907532e-03
	8.399624678677846e-05
	7.484646866415472e-01

 73	7.300000000000004e-01
	-2.258545492628061e-15
	8.159645798391721e-18
	-4.662731605256436e-15
	4.614311846188664e-05
	1.411974342615931e-03
	9.737969470832623e-05
	7.484654034707466e-01

 74	7.400000000000004e-01
	-2.237851558815489e-15
	7.878701589512561e-18
	-4.770710715327993e-15
	5.231360817946951e-05
	1.562905552265459e-03
	1.122416044359133e-04
	7.484662007520970e-01

 75	7.500000000000004e-01
	-2.218080590175390e-15
	7.591722373901911e-18
	-4.873677706612795e-15
	5.890907340207830e-05
	1.718517814075577e-03
	1.286357373544823e-04
	7.484670816934398e-01

 76	7.600000000000005e-01
	-2.199222056973810e-15
	7.301024287958214e-18
	-4.971651420418566e-15
	6.589969994381087e-05
	1.877243044349630e-03
	1.466009493245958e-04
	7.484680487192202e-01

 77	7.700000000000005e-01
	-2.181259362237450e-15
	7.008741433282272e-18
	-5.064689931828830e-15
	7.324893404062120e-05
	2.037416224985026e-03
	1.661598775754036e-04
	7.484691033885986e-01

 78	7.800000000000005e-01
	-2.164170771958707e-15
	6.716812528687601e-18
	-5.152884966082405e-15
	8.091478403337600e-05
	2.197352298065121e-03
	1.873183601223375e-04
	7.484702463520139e-01

 79	7.900000000000005e-01
	-2.147930316324237e-15
	6.426973888848332e-18
	-5.236356449056465e-15
	8.885135920807602e-05
	2.355423667168581e-03
	2.100656332409771e-04
	7.484714773497309e-01

 80	8.000000000000005e-01
	-2.132508642131874e-15
	6.140757881759273e-18
	-5.315247318458262e-15
	9.701051707823320e-05
	2.510130495872359e-03
	2.343752726453737e-04
	7.484727952515742e-01

 81	8.100000000000005e-01
	-2.117873802063413e-15
	5.859495972383293e-18
	-5.389718688804312e-15
	1.053434886303468e-04
	2.660157431022889e-03
	2.602067723313785e-04
	7.484741981330122e-01

 82	8.200000000000005e-01
	-2.103991971442078e-15
	5.584325465921869e-18
	-5.459945432823548e-15
	1.138023672509050e-04
	2.804412716096511e-03
	2.875076027298809e-04
	7.484756833796476e-01

 83	8.300000000000005e-01
	-2.090828087387845e-15
	5.316199108885982e-18
	-5.526112215444305e-15
	1.223413759895288e-04
	2.942048330400278e-03
	3.162155630512594e-04
	7.484772478103723e-01

 84	8.400000000000005e-01
	-2.078346408832062e-15
	5.055896777933872e-18
	-5.588409994432550e-15
	1.309178625754525e-04
	3.072462236448604e-03
	3.462612419055386e-04
	7.484788878090738e-01

 85	8.500000000000005e-01
	-2.066510998663733e-15
	4.804038574877896e-18
	-5.647032984090001e-15
	1.394930055886091e-04
	3.195285640524315e-03
	3.775704210081601e-04
	7.484805994556445e-01

 86	8.600000000000005e-01
	-2.055286131397355e-15
	4.561098742625763e-18
	-5.702176064969076e-15
	1.480322435213126e-04
	3.310359193106676e-03
	4.100662917002285e-04
	7.484823786487512e-01

 87	8.700000000000006e-01
	-2.044636631248361e-15
	4.327419914254391e-18
	-5.754032612904668e-15
	1.565054585933990e-04
	3.417702307717543e-03
	4.436713951254080e-04
	7.484842212150004e-01

 88	8.800000000000006e-01
	-2.034528146465426e-15
	4.103227300849537e-18
	-5.802792714282335e-15
	1.648869586829674e-04
	3.517479430587124e-03
	4.783092373106498e-04
	7.484861230012939e-01

 89	8.900000000000006e-01
	-2.024927366293162e-15
	3.888642509830496e-18
	-5.848641730798889e-15
	1.731553047059786e-04
	3.609966378974286e-03
	5.139055652696630e-04
	7.484880799491721e-01

 90	9.000000000000006e-01
	-2.015802187115392e-15
	3.683696762163712e-18
	-5.891759175473896e-15
	1.812930291037866e-04
	3.695519002070523e-03
	5.503893170503326e-04
	7.484900881514461e-01

 91	9.100000000000006e-01
	-2.007121834242502e-15
	3.488343343292713e-18
	-5.932317861829858e-15
	1.892862858226208e-04
	3.774545573337671e-03
	5.876932767958101e-04
	7.484921438925434e-01

 92	9.200000000000006e-01
	-1.998856945529424e-15
	3.302469178643308e-18
	-5.970483289527630e-15
	1.971244650931769e-04
	3.847483601134100e-03
	6.257544761566975e-04
	7.484942436746210e-01

 93	9.300000000000006e-01
	-1.990979622605251e-15
	3.125905470693538e-18
	-6.006413231943717e-15
	2.047997988063364e-04
	3.914781192025544e-03
	6.645143872885561e-04
	7.484963842318201e-01

 94	9.400000000000006e-01
	-1.983463455011317e-15
	2.958437371613205e-18
	-6.040257493900510e-15
	2.123069752311881e-04
	3.976882722280752e-03
	7.039189519387396e-04
	7.484985625350349e-01

 95	9.500000000000006e-01
	-1.976283522020468e-15
	2.799812694411066e-18
	-6.072157810767324e-15
	2.196427757297405e-04
	4.034218346282322e-03
	7.439184874096971e-04
	7.485007757894339e-01

 96	9.600000000000006e-01
	-1.969416376375763e-15
	2.649749687434101e-18
	-6.102247863255400e-15
	2.268057411832335e-04
	4.087196763186316e-03
	7.844675048409792e-04
	7.485030214266921e-01

 97	9.700000000000006e-01
	-1.962840013663380e-15
	2.507943913030695e-18
	-6.130653385299519e-15
	2.337958720530895e-04
	4.136200640820727e-03
	8.255244692957663e-04
	7.485052970935998e-01

 98	9.800000000000006e-01
	-1.956533830536499e-15
	2.374074282221802e-18
	-6.157492345358883e-15
	2.406143632371144e-04
	4.181584128185201e-03
	8.670515252604477e-04
	7.485076006383947e-01

 99	9.900000000000007e-01
	-1.950478574544107e-15
	2.247808304243931e-18
	-6.182875184217811e-15
	2.472633729795201e-04
	4.223671950999481e-03
	9.090142057865619e-04
	7.485099300958699e-01

 100	1.000000000000001e+00
	-1.944656287896370e-15
	2.128806613658232e-18
	-6.206905094887582e-15
	2.537458238721453e-04
	4.262759661172187e-03
	9.513811388358912e-04
	7.485122836720555e-01

 101	1.010000000000001e+00
	-1.939050247118545e-15
	2.016726839059353e-18
	-6.229678332485272e-15
	2.600652332775376e-04
	4.299114689281833e-03
	9.941237605019212e-04
	7.485146597290577e-01

