Title: ** sch_path: /home/andylithia/openmpw/project-yatsuhashi-chip1/xschem/gmid_test/nmos_test.sch
Date: Tue Jul 19 23:15:45  2022
Plotname: DC transfer characteristic
Flags: real
No. Variables: 8
No. Points: 181
Variables:
	0	v(v-sweep)	voltage
	1	@m.xm1.msky130_fd_pr__nfet_01v8[cgb]	capacitance
	2	@m.xm1.msky130_fd_pr__nfet_01v8[cgd]	capacitance
	3	@m.xm1.msky130_fd_pr__nfet_01v8[cgs]	capacitance
	4	@m.xm1.msky130_fd_pr__nfet_01v8[gds]	admittance
	5	@m.xm1.msky130_fd_pr__nfet_01v8[gm]	admittance
	6	i(@m.xm1.msky130_fd_pr__nfet_01v8[id])	current
	7	v(@m.xm1.msky130_fd_pr__nfet_01v8[vth])	voltage
Values:
 0	0.000000000000000e+00
	-1.204062797488435e-14
	-9.235632810349552e-19
	-2.357912617512193e-14
	3.265216404768993e-08
	1.253914116342995e-06
	1.628328517312059e-07
	1.818607184487177e-01

 1	1.000000000000000e-02
	-1.191037450859830e-14
	-9.449726031833603e-19
	-2.388900073204666e-14
	3.514854355323000e-08
	1.353424541066668e-06
	1.758631625317358e-07
	1.818607194532767e-01

 2	2.000000000000000e-02
	-1.178186993553221e-14
	-9.668385711680975e-19
	-2.419827273374111e-14
	3.782558751492783e-08
	1.460900941310942e-06
	1.899278757366494e-07
	1.818607205384961e-01

 3	3.000000000000000e-02
	-1.165513863032876e-14
	-9.891697229873463e-19
	-2.450683885936138e-14
	4.069532572549583e-08
	1.577008420701655e-06
	2.051099286893308e-07
	1.818607217109830e-01

 4	4.000000000000000e-02
	-1.153020410978142e-14
	-1.011974735612536e-18
	-2.481459660207927e-14
	4.377048891311159e-08
	1.702472153062274e-06
	2.214992054331135e-07
	1.818607229779208e-01

 5	5.000000000000000e-02
	-1.140708899128747e-14
	-1.035262427490452e-18
	-2.512144439012522e-14
	4.706454078582575e-08
	1.838083246601379e-06
	2.391931662682796e-07
	1.818607243471110e-01

 6	6.000000000000000e-02
	-1.128581495363549e-14
	-1.059041761118849e-18
	-2.542728170557328e-14
	5.059171084226772e-08
	1.984705185514954e-06
	2.582975387966442e-07
	1.818607258270543e-01

 7	7.000000000000001e-02
	-1.116640270019775e-14
	-1.083321845698755e-18
	-2.573200920059038e-14
	5.436702791513730e-08
	2.143280898933176e-06
	2.789270764752062e-07
	1.818607274269973e-01

 8	8.000000000000000e-02
	-1.104887192459015e-14
	-1.108111939864730e-18
	-2.603552881087730e-14
	5.840635440960648e-08
	2.314840509851511e-06
	3.012063912129645e-07
	1.818607291570198e-01

 9	9.000000000000000e-02
	-1.093324127885449e-14
	-1.133421454496156e-18
	-2.633774386604356e-14
	6.272642119440757e-08
	2.500509819265822e-06
	3.252708670846739e-07
	1.818607310281075e-01

 10	9.999999999999999e-02
	-1.081952834420995e-14
	-1.159259955612069e-18
	-2.663855919666694e-14
	6.734486309880273e-08
	2.701519583113760e-06
	3.512676627993375e-07
	1.818607330522487e-01

 11	1.100000000000000e-01
	-1.070774960441115e-14
	-1.185637167351211e-18
	-2.693788123780415e-14
	7.228025496401639e-08
	2.919215641747082e-06
	3.793568111482867e-07
	1.818607352425246e-01

 12	1.200000000000000e-01
	-1.059792042174367e-14
	-1.212562975040527e-18
	-2.723561812872896e-14
	7.755214819289635e-08
	3.155069963437768e-06
	4.097124242638716e-07
	1.818607376132256e-01

 13	1.300000000000000e-01
	-1.049005501567727e-14
	-1.240047428354160e-18
	-2.753167980869235e-14
	8.318110773669701e-08
	3.410692664773443e-06
	4.425240141421292e-07
	1.818607401799705e-01

 14	1.400000000000000e-01
	-1.038416644419035e-14
	-1.268100744565785e-18
	-2.782597810851137e-14
	8.918874945280009e-08
	3.687845071621447e-06
	4.779979385157083e-07
	1.818607429598360e-01

 15	1.500000000000000e-01
	-1.028026658776909e-14
	-1.296733311896480e-18
	-2.811842683781062e-14
	9.559777776200127e-08
	3.988453884532802e-06
	5.163589828016351e-07
	1.818607459715069e-01

 16	1.600000000000000e-01
	-1.017836613607796e-14
	-1.325955692961252e-18
	-2.840894186775552e-14
	1.024320235286181e-07
	4.314626511896915e-06
	5.578520894849636e-07
	1.818607492354356e-01

 17	1.700000000000000e-01
	-1.007847457728839e-14
	-1.355778628316526e-18
	-2.869744120913394e-14
	1.097164820811493e-07
	4.668667632718451e-06
	6.027442469259520e-07
	1.818607527740205e-01

 18	1.800000000000000e-01
	-9.980600190045337e-15
	-1.386213040111213e-18
	-2.898384508565953e-14
	1.174773512854436e-07
	5.053097048429786e-06
	6.513265501854989e-07
	1.818607566118045e-01

 19	1.900000000000000e-01
	-9.884750038043001e-15
	-1.417270035844619e-18
	-2.926807600238708e-14
	1.257420695764267e-07
	5.470668879531179e-06
	7.039164470405996e-07
	1.818607607756844e-01

 20	2.000000000000000e-01
	-9.790929967173679e-15
	-1.448960912233310e-18
	-2.955005880914748e-14
	1.345393538482121e-07
	5.924392157905282e-06
	7.608601828955054e-07
	1.818607652951611e-01

 21	2.100000000000000e-01
	-9.699144605205619e-15
	-1.481297159190559e-18
	-2.982972075892886e-14
	1.438992370960266e-07
	6.417552859226527e-06
	8.225354587720036e-07
	1.818607702025791e-01

 22	2.200000000000001e-01
	-9.609397363939519e-15
	-1.514290463920100e-18
	-3.010699156114528e-14
	1.538531056966145e-07
	6.953737411798988e-06
	8.893543169666310e-07
	1.818607755334329e-01

 23	2.300000000000001e-01
	-9.521690443785647e-15
	-1.547952715128724e-18
	-3.038180342975445e-14
	1.644337362069088e-07
	7.536857708249372e-06
	9.617662692783575e-07
	1.818607813266709e-01

 24	2.400000000000001e-01
	-9.436024840697799e-15
	-1.582296007359309e-18
	-3.065409112620159e-14
	1.756753315533273e-07
	8.171177634583648e-06
	1.040261682915674e-06
	1.818607876250375e-01

 25	2.500000000000001e-01
	-9.352400355393888e-15
	-1.617332645447906e-18
	-3.092379199718358e-14
	1.876135564765653e-07
	8.861341117027500e-06
	1.125375439268438e-06
	1.818607944754538e-01

 26	2.600000000000001e-01
	-9.270815604787678e-15
	-1.653075149108080e-18
	-3.119084600724467e-14
	2.002855720887529e-07
	9.612401670635924e-06
	1.217690880653214e-06
	1.818608019294239e-01

 27	2.700000000000001e-01
	-9.191268035550511e-15
	-1.689536257645521e-18
	-3.145519576623073e-14
	2.137300693916682e-07
	1.042985341472116e-05
	1.317844059887566e-06
	1.818608100434888e-01

 28	2.800000000000001e-01
	-9.113753939717721e-15
	-1.726728934806339e-18
	-3.171678655164470e-14
	2.279873015960489e-07
	1.131966349856730e-05
	1.426528307092849e-06
	1.818608188797077e-01

 29	2.900000000000001e-01
	-9.038268472249783e-15
	-1.764666373761818e-18
	-3.197556632596092e-14
	2.430991150732458e-07
	1.228830585655229e-05
	1.544499127439495e-06
	1.818608285061984e-01

 30	3.000000000000001e-01
	-8.964805670454373e-15
	-1.803362002233782e-18
	-3.223148574897122e-14
	2.591089787612563e-07
	1.334279618458867e-05
	1.672579442605527e-06
	1.818608389977059e-01

 31	3.100000000000001e-01
	-8.893358475172760e-15
	-1.842829487763577e-18
	-3.248449818524739e-14
	2.760620118377978e-07
	1.449072799966106e-05
	1.811665187488575e-06
	1.818608504362417e-01

 32	3.200000000000001e-01
	-8.823918753630196e-15
	-1.883082743128084e-18
	-3.273455970682076e-14
	2.940050094634539e-07
	1.574030961116828e-05
	1.962731272165696e-06
	1.818608629117511e-01

 33	3.300000000000001e-01
	-8.756477323848488e-15
	-1.924135931906806e-18
	-3.298162909118884e-14
	3.129864663881973e-07
	1.710040179679524e-05
	2.126837917203010e-06
	1.818608765228603e-01

 34	3.400000000000001e-01
	-8.691023980516503e-15
	-1.966003474203141e-18
	-3.322566781477242e-14
	3.330565982047784e-07
	1.858055593684799e-05
	2.305137368151577e-06
	1.818608913776626e-01

 35	3.500000000000001e-01
	-8.627547522213175e-15
	-2.008700052524437e-18
	-3.346664004195624e-14
	3.542673600227248e-07
	2.019105231953640e-05
	2.498880992398067e-06
	1.818609075945757e-01

 36	3.600000000000002e-01
	-8.566035779876375e-15
	-2.052240617823937e-18
	-3.370451260985662e-14
	3.766724623270819e-07
	2.194293828583307e-05
	2.709426758444439e-06
	1.818609253032647e-01

 37	3.700000000000002e-01
	-8.506475646410786e-15
	-2.096640395708896e-18
	-3.393925500896811e-14
	4.003273837767956e-07
	2.384806583659787e-05
	2.938247094146901e-06
	1.818609446456231e-01

 38	3.800000000000002e-01
	-8.448853107327766e-15
	-2.141914892819119e-18
	-3.417083935984862e-14
	4.252893806887693e-07
	2.591912827706239e-05
	3.186937116431739e-06
	1.818609657768264e-01

 39	3.900000000000002e-01
	-8.393153272310439e-15
	-2.188079903380036e-18
	-3.439924038601061e-14
	4.516174929455904e-07
	2.816969542505615e-05
	3.457223220511420e-06
	1.818609888664705e-01

 40	4.000000000000002e-01
	-8.339360407597735e-15
	-2.235151515934358e-18
	-3.462443538319221e-14
	4.793725460577798e-07
	3.061424686016933e-05
	3.750972011639879e-06
	1.818610140997489e-01

 41	4.100000000000002e-01
	-8.287457969083145e-15
	-2.283146120257131e-18
	-3.484640418518533e-14
	5.086171491052431e-07
	3.326820264213604e-05
	4.070199556968134e-06
	1.818610416787450e-01

 42	4.200000000000002e-01
	-8.237428636024331e-15
	-2.332080414458306e-18
	-3.506512912640536e-14
	5.394156882783143e-07
	3.614795087901542e-05
	4.417080929103265e-06
	1.818610718237667e-01

 43	4.300000000000002e-01
	-8.189254345262118e-15
	-2.381971412278221e-18
	-3.528059500138852e-14
	5.718343157359766e-07
	3.927087148020248e-05
	4.793960006544736e-06
	1.818611047747508e-01

 44	4.400000000000002e-01
	-8.142916325850138e-15
	-2.432836450579937e-18
	-3.549278902140514e-14
	6.059409334981744e-07
	4.265535538708619e-05
	5.203359489303866e-06
	1.818611407927763e-01

 45	4.500000000000002e-01
	-8.098395133996964e-15
	-2.484693197043816e-18
	-3.570170076838222e-14
	6.418051720915286e-07
	4.632081853654388e-05
	5.647991080747039e-06
	1.818611801615921e-01

 46	4.600000000000002e-01
	-8.055670688228207e-15
	-2.537559658069620e-18
	-3.590732214632475e-14
	6.794983636723286e-07
	5.028770978072383e-05
	6.130765779083611e-06
	1.818612231892582e-01

 47	4.700000000000003e-01
	-8.014722304675686e-15
	-2.591454186891182e-18
	-3.610964733043093e-14
	7.190935093596376e-07
	5.457751196224034e-05
	6.654804214025787e-06
	1.818612702098020e-01

 48	4.800000000000003e-01
	-7.975528732407001e-15
	-2.646395491908819e-18
	-3.630867271409098e-14
	7.606652405232622e-07
	5.921273532842708e-05
	7.223446956046727e-06
	1.818613215849587e-01

 49	4.900000000000003e-01
	-7.938068188709945e-15
	-2.702402645245382e-18
	-3.650439685396233e-14
	8.042897737885076e-07
	6.421690246330288e-05
	7.840264717464991e-06
	1.818613777059346e-01

 50	5.000000000000002e-01
	-7.902318394251295e-15
	-2.759495091531935e-18
	-3.669682041330867e-14
	8.500448595410758e-07
	6.961452392290943e-05
	8.509068356389957e-06
	1.818614389952066e-01

 51	5.100000000000002e-01
	-7.868256608031961e-15
	-2.817692656928075e-18
	-3.688594610379088e-14
	8.980097237425373e-07
	7.543106378028316e-05
	9.233918586508712e-06
	1.818615059083387e-01

 52	5.200000000000002e-01
	-7.835859662065710e-15
	-2.877015558384031e-18
	-3.707177862589181e-14
	9.482650028997444e-07
	8.169289432198729e-05
	1.001913528792129e-05
	1.818615789358147e-01

 53	5.300000000000002e-01
	-7.805103995710816e-15
	-2.937484413150386e-18
	-3.725432460815669e-14
	1.000892672070768e-06
	8.842723919024695e-05
	1.086930630689809e-05
	1.818616586048204e-01

 54	5.400000000000003e-01
	-7.775965689589961e-15
	-2.999120248541926e-18
	-3.743359254542313e-14
	1.055975965835423e-06
	9.566210433444686e-05
	1.178929562570288e-05
	1.818617454810378e-01

 55	5.500000000000003e-01
	-7.748420499036027e-15
	-3.061944511962151e-18
	-3.760959273621343e-14
	1.113599292211750e-06
	1.034261962241614e-04
	1.278425077769690e-05
	1.818618401703555e-01

 56	5.600000000000003e-01
	-7.722443887006435e-15
	-3.125979081196086e-18
	-3.778233721945496e-14
	1.173848139559406e-06
	1.117488268835358e-04
	1.385960937798164e-05
	1.818619433205004e-01

 57	5.700000000000003e-01
	-7.698011056412787e-15
	-3.191246274977525e-18
	-3.795183971068944e-14
	1.236808976578609e-06
	1.206598054342018e-04
	1.502110463606430e-05
	1.818620556225743e-01

 58	5.800000000000003e-01
	-7.675096981815769e-15
	-3.257768863839806e-18
	-3.811811553792726e-14
	1.302569145587863e-06
	1.301893159808501e-04
	1.627476971462623e-05
	1.818621778124395e-01

 59	5.900000000000003e-01
	-7.653676440440896e-15
	-3.325570081255455e-18
	-3.828118157729454e-14
	1.371216749345736e-06
	1.403677818396132e-04
	1.762694079763894e-05
	1.818623106719624e-01

 60	6.000000000000003e-01
	-7.633724042472523e-15
	-3.394673635074554e-18
	-3.844105618861874e-14
	1.442840531771113e-06
	1.512257162935227e-04
	1.908425873199460e-05
	1.818624550300291e-01

 61	6.100000000000003e-01
	-7.615214260589939e-15
	-3.465103719269614e-18
	-3.859775915108636e-14
	1.517529753011403e-06
	1.627935602598371e-04
	2.065366910965886e-05
	1.818626117633598e-01

 62	6.200000000000003e-01
	-7.598121458710870e-15
	-3.536885025994698e-18
	-3.875131159910627e-14
	1.595374059409779e-06
	1.751015074689328e-04
	2.234242066228609e-05
	1.818627817970413e-01

 63	6.300000000000003e-01
	-7.582419919913406e-15
	-3.610042757968670e-18
	-3.890173595849945e-14
	1.676463349028402e-06
	1.881793179808572e-04
	2.415806184737351e-05
	1.818629661047656e-01

 64	6.400000000000003e-01
	-7.568083873510001e-15
	-3.684602641190272e-18
	-3.904905588313342e-14
	1.760887633494768e-06
	2.020561211002481e-04
	2.610843551448147e-05
	1.818631657087456e-01

 65	6.500000000000004e-01
	-7.555087521250561e-15
	-3.760590937996292e-18
	-3.919329619211156e-14
	1.848736897050742e-06
	2.167602089891796e-04
	2.820167155186973e-05
	1.818633816792455e-01

 66	6.600000000000004e-01
	-7.543405062636608e-15
	-3.838034460470320e-18
	-3.933448280761881e-14
	1.940100953797312e-06
	2.323188225161072e-04
	3.044617742811217e-05
	1.818636151337422e-01

 67	6.700000000000004e-01
	-7.533010719329886e-15
	-3.916960584213992e-18
	-3.947264269352200e-14
	2.035069304241327e-06
	2.487579311126074e-04
	3.285062655984114e-05
	1.818638672356475e-01

 68	6.800000000000004e-01
	-7.523878758643334e-15
	-3.997397262490054e-18
	-3.960780379481299e-14
	2.133730992360417e-06
	2.661020086325498e-04
	3.542394445563365e-05
	1.818641391925991e-01

 69	6.900000000000004e-01
	-7.515983516104996e-15
	-4.079373040748313e-18
	-3.973999497797809e-14
	2.236174464508655e-06
	2.843738074153576e-04
	3.817529260708790e-05
	1.818644322542549e-01

 70	7.000000000000004e-01
	-7.509299417088662e-15
	-4.162917071544428e-18
	-3.986924597236985e-14
	2.342487431584166e-06
	3.035941329401107e-04
	4.111405012111566e-05
	1.818647477096555e-01

 71	7.100000000000004e-01
	-7.503800997507001e-15
	-4.248059129865694e-18
	-3.999558731265068e-14
	2.452756735970991e-06
	3.237816216150274e-04
	4.424979311220102e-05
	1.818650868840414e-01

 72	7.200000000000004e-01
	-7.499462923567085e-15
	-4.334829628871523e-18
	-4.011905028237239e-14
	2.567068224846359e-06
	3.449525243715040e-04
	4.759227189948424e-05
	1.818654511352293e-01

 73	7.300000000000004e-01
	-7.496260010589149e-15
	-4.423259636064327e-18
	-4.023966685874817e-14
	2.685506631511336e-06
	3.671204988185283e-04
	5.115138608072530e-05
	1.818658418494663e-01

 74	7.400000000000004e-01
	-7.494167240893012e-15
	-4.513380889901057e-18
	-4.035746965866857e-14
	2.808155466453939e-06
	3.902964127571006e-04
	5.493715758302790e-05
	1.818662604368304e-01

 75	7.500000000000004e-01
	-7.493159780758269e-15
	-4.605225816858379e-18
	-4.047249188600708e-14
	2.935096919888264e-06
	4.144881618515685e-04
	5.895970181824878e-05
	1.818667083261724e-01

 76	7.600000000000005e-01
	-7.493212996466475e-15
	-4.698827548966416e-18
	-4.058476728025466e-14
	3.066411777529048e-06
	4.397005042024602e-04
	6.322919709877834e-05
	1.818671869596444e-01

 77	7.700000000000005e-01
	-7.494302469435824e-15
	-4.794219941821465e-18
	-4.069433006651819e-14
	3.202179351357343e-06
	4.659349144616184e-04
	6.775585249635407e-05
	1.818676977868407e-01

 78	7.800000000000005e-01
	-7.496404010460110e-15
	-4.891437593094935e-18
	-4.080121490691199e-14
	3.342477427108615e-06
	4.931894599744947e-04
	7.254987435224649e-05
	1.818682422586046e-01

 79	7.900000000000005e-01
	-7.499493673066237e-15
	-4.990515861549896e-18
	-4.090545685336622e-14
	3.487382230168633e-06
	5.214587012268028e-04
	7.762143167099275e-05
	1.818688218205586e-01

 80	8.000000000000005e-01
	-7.503547766005136e-15
	-5.091490886582512e-18
	-4.100709130187274e-14
	3.636968411496353e-06
	5.507336186155415e-04
	8.298062065138382e-05
	1.818694379064148e-01

 81	8.100000000000005e-01
	-7.508542864893113e-15
	-5.194399608301196e-18
	-4.110615394818274e-14
	3.791309055105026e-06
	5.810015672605758e-04
	8.863742862709001e-05
	1.818700919311421e-01

 82	8.200000000000005e-01
	-7.514455823021716e-15
	-5.299279788160939e-18
	-4.120268074496764e-14
	3.950475708526312e-06
	6.122462612275973e-04
	9.460169770477175e-05
	1.818707852840544e-01

 83	8.300000000000005e-01
	-7.521263781354921e-15
	-5.406170030167661e-18
	-4.129670786045008e-14
	4.114538437556319e-06
	6.444477881517623e-04
	1.008830883992965e-04
	1.818715193219014e-01

 84	8.400000000000005e-01
	-7.528944177734497e-15
	-5.515109802670048e-18
	-4.138827163850749e-14
	4.283565906441561e-06
	6.775826548411221e-04
	1.074910435735190e-04
	1.818722953620495e-01

 85	8.500000000000005e-01
	-7.537474755313818e-15
	-5.626139460755013e-18
	-4.147740856024938e-14
	4.457625484507423e-06
	7.116238640077788e-04
	1.144347529936834e-04
	1.818731146758305e-01

 86	8.600000000000005e-01
	-7.546833570242645e-15
	-5.739300269265741e-18
	-4.156415520706309e-14
	4.636783380065784e-06
	7.465410218313839e-04
	1.217231188107177e-04
	1.818739784821315e-01

 87	8.700000000000006e-01
	-7.556998998625185e-15
	-5.854634426459423e-18
	-4.164854822512170e-14
	4.821104802264959e-06
	7.823004756134767e-04
	1.293647222724543e-04
	1.818748879413261e-01

 88	8.800000000000006e-01
	-7.567949742774348e-15
	-5.972185088324060e-18
	-4.173062429134507e-14
	5.010654151367529e-06
	8.188654803416669e-04
	1.373677919621320e-04
	1.818758441495992e-01

 89	8.900000000000006e-01
	-7.579664836785753e-15
	-6.091996393574556e-18
	-4.181042008080066e-14
	5.205495237763823e-06
	8.561963925593023e-04
	1.457401738445225e-04
	1.818768481337585e-01

 90	9.000000000000006e-01
	-7.592123651455395e-15
	-6.214113489348024e-18
	-4.188797223552994e-14
	5.405691529854858e-06
	8.942508895383072e-04
	1.544893033829170e-04
	1.818779008465683e-01

 91	9.100000000000006e-01
	-7.605305898564905e-15
	-6.338582557618862e-18
	-4.196331733478268e-14
	5.611306430771433e-06
	9.329842113886730e-04
	1.636221799682553e-04
	1.818790031627071e-01

 92	9.200000000000006e-01
	-7.619191634558548e-15
	-6.465450842357342e-18
	-4.203649186664038e-14
	5.822403583741811e-06
	9.723494234157911e-04
	1.731453438763286e-04
	1.818801558753416e-01

 93	9.300000000000006e-01
	-7.633761263636033e-15
	-6.594766677453194e-18
	-4.210753220100753e-14
	6.039047205779538e-06
	1.012297695762517e-03
	1.830648559406115e-04
	1.818813596933935e-01

 94	9.400000000000006e-01
	-7.648995540285503e-15
	-6.726579515428850e-18
	-4.217647456394721e-14
	6.261302449242237e-06
	1.052778597152557e-03
	1.933862800974606e-04
	1.818826152395080e-01

 95	9.500000000000006e-01
	-7.664875571280473e-15
	-6.860939956966984e-18
	-4.224335501333727e-14
	6.489235790712094e-06
	1.093740399388922e-03
	2.041146689276655e-04
	1.818839230487448e-01

 96	9.600000000000006e-01
	-7.681382817164751e-15
	-6.997899781278830e-18
	-4.230820941582030e-14
	6.722915446574186e-06
	1.135130389158722e-03
	2.152545522842880e-04
	1.818852835679929e-01

 97	9.700000000000006e-01
	-7.698499093248452e-15
	-7.137511977339716e-18
	-4.237107342502098e-14
	6.962411814620316e-06
	1.176895183654039e-03
	2.268099290619422e-04
	1.818866971560916e-01

 98	9.800000000000006e-01
	-7.716206570139014e-15
	-7.279830776020738e-18
	-4.243198246100131e-14
	7.207797940986534e-06
	1.218981046537604e-03
	2.387842621277795e-04
	1.818881640846627e-01

 99	9.900000000000007e-01
	-7.734487773829226e-15
	-7.424911683145757e-18
	-4.249097169092530e-14
	7.459150011743723e-06
	1.261334200859541e-03
	2.511804764000822e-04
	1.818896845396038e-01

 100	1.000000000000001e+00
	-7.753325585365601e-15
	-7.572811513503451e-18
	-4.254807601090202e-14
	7.716547868502117e-06
	1.303901135663741e-03
	2.640009600270201e-04
	1.818912586232107e-01

 101	1.010000000000001e+00
	-7.772703240118134e-15
	-7.723588425848999e-18
	-4.260333002897644e-14
