Title: ** sch_path: /home/andylithia/openmpw/project-yatsuhashi-chip1/xschem/gmid_test/nmos_test.sch
Date: Sun Jul 17 22:51:45  2022
Plotname: DC transfer characteristic
Flags: real
No. Variables: 8
No. Points: 181
Variables:
	0	v(v-sweep)	voltage
	1	@m.xm1.msky130_fd_pr__nfet_01v8[cgb]	capacitance
	2	@m.xm1.msky130_fd_pr__nfet_01v8[cgd]	capacitance
	3	@m.xm1.msky130_fd_pr__nfet_01v8[cgs]	capacitance
	4	@m.xm1.msky130_fd_pr__nfet_01v8[gds]	admittance
	5	@m.xm1.msky130_fd_pr__nfet_01v8[gm]	admittance
	6	i(@m.xm1.msky130_fd_pr__nfet_01v8[id])	current
	7	v(@m.xm1.msky130_fd_pr__nfet_01v8[vth])	voltage
Values:
 0	0.000000000000000e+00
	-6.683114610331781e-15
	-1.438096750427884e-18
	-8.830545421325928e-15
	5.391422674853797e-08
	1.829097529404341e-06
	2.021323621190205e-07
	2.951574274119951e-01

 1	1.000000000000000e-02
	-6.610855907894049e-15
	-1.483570636488318e-18
	-8.992838092850031e-15
	5.891815083970669e-08
	1.999752662042254e-06
	2.212640493415227e-07
	2.951574295101027e-01

 2	2.000000000000000e-02
	-6.539209926678009e-15
	-1.530446939381732e-18
	-9.155747441627845e-15
	6.437007697288468e-08
	2.186153814397155e-06
	2.421798532410985e-07
	2.951574318038743e-01

 3	3.000000000000000e-02
	-6.468198375126114e-15
	-1.578765811891806e-18
	-9.319203368486401e-15
	7.030795756313319e-08
	2.389761287149199e-06
	2.650444230608893e-07
	2.951574343113652e-01

 4	4.000000000000000e-02
	-6.397842846192580e-15
	-1.628568491098936e-18
	-9.483134956601425e-15
	7.677268908400607e-08
	2.612176603745733e-06
	2.900377052731617e-07
	2.951574370523140e-01

 5	5.000000000000000e-02
	-6.328164766829682e-15
	-1.679897331922220e-18
	-9.647470584271536e-15
	8.380830825031847e-08
	2.855157464256698e-06
	3.173564291752438e-07
	2.951574400482939e-01

 6	6.000000000000000e-02
	-6.259185348107409e-15
	-1.732795842095255e-18
	-9.812138039827664e-15
	9.146219770942079e-08
	3.120634454769770e-06
	3.472157506295948e-07
	2.951574433229068e-01

 7	7.000000000000001e-02
	-6.190925536123431e-15
	-1.787308718637268e-18
	-9.977064638313331e-15
	9.978530133586132e-08
	3.410729724653773e-06
	3.798510725463072e-07
	2.951574469019669e-01

 8	8.000000000000000e-02
	-6.123405963858551e-15
	-1.843481885881852e-18
	-1.014217733955840e-14
	1.088323491869907e-07
	3.727777866428591e-06
	4.155200629399800e-07
	2.951574508137370e-01

 9	9.000000000000000e-02
	-6.056646904129418e-15
	-1.901362535128700e-18
	-1.030740286726450e-14
	1.186620921370624e-07
	4.074349256684887e-06
	4.545048938580077e-07
	2.951574550891667e-01

 10	9.999999999999999e-02
	-5.990668223786627e-15
	-1.960999165984303e-18
	-1.047266782871188e-14
	1.293375461645112e-07
	4.453276141295489e-06
	4.971147271843482e-07
	2.951574597621651e-01

 11	1.100000000000000e-01
	-5.925489339301323e-15
	-2.022441629460225e-18
	-1.063789883469557e-14
	1.409262462219907e-07
	4.867681773798034e-06
	5.436884762827600e-07
	2.951574648699049e-01

 12	1.200000000000000e-01
	-5.861129173877917e-15
	-2.085741172899643e-18
	-1.080302261929630e-14
	1.535005095714947e-07
	5.321012941943594e-06
	5.945978756622123e-07
	2.951574704531587e-01

 13	1.300000000000000e-01
	-5.797606116224215e-15
	-2.150950486804727e-18
	-1.096796615909264e-14
	1.671377084180032e-07
	5.817076243543550e-06
	6.502508943275433e-07
	2.951574765566766e-01

 14	1.400000000000000e-01
	-5.734937981102921e-15
	-2.218123753639537e-18
	-1.113265679142362e-14
	1.819205516249413e-07
	6.360078498330806e-06
	7.110955322179029e-07
	2.951574832296006e-01

 15	1.500000000000000e-01
	-5.673141971780715e-15
	-2.287316698686321e-18
	-1.129702233131611e-14
	1.979373752438798e-07
	6.954671706874594e-06
	7.776240431250562e-07
	2.951574905259200e-01

 16	1.600000000000000e-01
	-5.612234644482906e-15
	-2.358586643034004e-18
	-1.146099118669729e-14
	2.152824415396730e-07
	7.606002989793151e-06
	8.503776317060432e-07
	2.951574985050059e-01

 17	1.700000000000000e-01
	-5.552231874951986e-15
	-2.431992558783083e-18
	-1.162449247152388e-14
	2.340562461416249e-07
	8.319769959593202e-06
	9.299516766353304e-07
	2.951575072321662e-01

 18	1.800000000000000e-01
	-5.493148827199560e-15
	-2.507595126550620e-18
	-1.178745611646806e-14
	2.543658329011841e-07
	9.102281992223753e-06
	1.017001536540802e-06
	2.951575167792867e-01

 19	1.900000000000000e-01
	-5.434999924530521e-15
	-2.585456795364756e-18
	-1.194981297681514e-14
	2.763251159884529e-07
	9.960527874516283e-06
	1.112249000088564e-06
	2.951575272255499e-01

 20	2.000000000000000e-01
	-5.377798822908283e-15
	-2.665641845040794e-18
	-1.211149493724236e-14
	3.000552087136470e-07
	1.090225030552304e-05
	1.216489446357653e-06
	2.951575386582037e-01

 21	2.100000000000000e-01
	-5.321558386719116e-15
	-2.748216451132796e-18
	-1.227243501316338e-14
	3.256847585160159e-07
	1.193602772259818e-05
	1.330599786395230e-06
	2.951575511734529e-01

 22	2.200000000000001e-01
	-5.266290666982540e-15
	-2.833248752561739e-18
	-1.243256744834373e-14
	3.533502875230492e-07
	1.307136390497346e-05
	1.455547261469633e-06
	2.951575648774007e-01

 23	2.300000000000001e-01
	-5.212006882044053e-15
	-2.920808922020662e-18
	-1.259182780850867e-14
	3.831965380463484e-07
	1.431878577638314e-05
	1.592399177917102e-06
	2.951575798871388e-01

 24	2.400000000000001e-01
	-5.158717400774855e-15
	-3.010969239266427e-18
	-1.275015307068892e-14
	4.153768223494779e-07
	1.568994978174203e-05
	1.742333662472601e-06
	2.951575963319180e-01

 25	2.500000000000001e-01
	-5.106431728292549e-15
	-3.103804167408537e-18
	-1.290748170806924e-14
	4.500533759964428e-07
	1.719775714847279e-05
	1.906651525413242e-06
	2.951576143544523e-01

 26	2.600000000000001e-01
	-5.055158494205487e-15
	-3.199390432311837e-18
	-1.306375377012900e-14
	4.873977140688210e-07
	1.885647825829358e-05
	2.086789321538146e-06
	2.951576341123475e-01

 27	2.700000000000001e-01
	-5.004905443372716e-15
	-3.297807105235116e-18
	-1.321891095788674e-14
	5.275909895247409e-07
	2.068188624746492e-05
	2.284333700740966e-06
	2.951576557796852e-01

 28	2.800000000000001e-01
	-4.955679429160758e-15
	-3.399135688832921e-18
	-1.337289669408597e-14
	5.708243529647279e-07
	2.269139982004991e-05
	2.501037140459360e-06
	2.951576795487458e-01

 29	2.900000000000001e-01
	-4.907486409168275e-15
	-3.503460206654466e-18
	-1.352565618818276e-14
	6.172993130677429e-07
	2.490423509709787e-05
	2.738835151337734e-06
	2.951577056318967e-01

 30	3.000000000000001e-01
	-4.860331443379376e-15
	-3.610867296277798e-18
	-1.367713649602229e-14
	6.672280969663948e-07
	2.734156613246552e-05
	2.999865044723798e-06
	2.951577342636498e-01

 31	3.100000000000001e-01
	-4.814218694697384e-15
	-3.721446306227003e-18
	-1.382728657411464e-14
	7.208340098428518e-07
	3.002669350113400e-05
	3.286486345816903e-06
	2.951577657029108e-01

 32	3.200000000000001e-01
	-4.769151431801087e-15
	-3.835289396824919e-18
	-1.397605732844724e-14
	7.783517930472459e-07
	3.298522010672332e-05
	3.601302929064184e-06
	2.951578002354040e-01

 33	3.300000000000001e-01
	-4.725132034257612e-15
	-3.952491645142841e-18
	-1.412340165779427e-14
	8.400279800677186e-07
	3.624523306032486e-05
	3.947186942406382e-06
	2.951578381762970e-01

 34	3.400000000000001e-01
	-4.682161999817815e-15
	-4.073151154215884e-18
	-1.426927449150836e-14
	9.061212497159824e-07
	3.983749015243278e-05
	4.327304573854259e-06
	2.951578798730354e-01

 35	3.500000000000001e-01
	-4.640241953812787e-15
	-4.197369166701064e-18
	-1.441363282180390e-14
	9.769027759345519e-07
	4.379560907424067e-05
	4.745143697273745e-06
	2.951579257083777e-01

 36	3.600000000000002e-01
	-4.599371660563360e-15
	-4.325250183166118e-18
	-1.455643573056410e-14
	1.052656573680551e-06
	4.815625714555117e-05
	5.204543413825249e-06
	2.951579761036342e-01

 37	3.700000000000002e-01
	-4.559550036708728e-15
	-4.456902085203068e-18
	-1.469764441072553e-14
	1.133679840396589e-06
	5.295933887708907e-05
	5.709725480921905e-06
	2.951580315221261e-01

 38	3.800000000000002e-01
	-4.520775166354472e-15
	-4.592436263573745e-18
	-1.483722218231652e-14
	1.220283292641130e-06
	5.824817823969723e-05
	6.265327591560754e-06
	2.951580924728348e-01

 39	3.900000000000002e-01
	-4.483044317936366e-15
	-4.731967751604345e-18
	-1.497513450324426e-14
	1.312791497517371e-06
	6.406969203800477e-05
	6.876438433205305e-06
	2.951581595142500e-01

 40	4.000000000000002e-01
	-4.446353962691700e-15
	-4.875615364054305e-18
	-1.511134897494576e-14
	1.411543198611693e-06
	7.047455030001549e-05
	7.548634416910791e-06
	2.951582332584202e-01

 41	4.100000000000002e-01
	-4.410699794627066e-15
	-5.023501841703735e-18
	-1.524583534303545e-14
	1.516891636227837e-06
	7.751731910696181e-05
	8.288017924016293e-06
	2.951583143751251e-01

 42	4.200000000000002e-01
	-4.376076751869247e-15
	-5.175754001905047e-18
	-1.537856549309712e-14
	1.629204861779502e-06
	8.525658081219639e-05
	9.101256869527368e-06
	2.951584035962495e-01

 43	4.300000000000002e-01
	-4.342479039283319e-15
	-5.332502895369940e-18
	-1.550951344178556e-14
	1.748866046283057e-06
	9.375502614879110e-05
	9.995625328487940e-06
	2.951585017202265e-01

 44	4.400000000000002e-01
	-4.309900152241842e-15
	-5.493883969464988e-18
	-1.563865532341422e-14
	1.876273782966991e-06
	1.030795123196123e-04
	1.097904491450683e-05
	2.951586096165925e-01

 45	4.500000000000002e-01
	-4.278332901427834e-15
	-5.660037238311753e-18
	-1.576596937221927e-14
	2.011842384088395e-06
	1.133010808203154e-04
	1.206012653872553e-05
	2.951587282305702e-01

 46	4.600000000000002e-01
	-4.247769438554850e-15
	-5.831107459997192e-18
	-1.589143590049995e-14
	2.156002172112211e-06
	1.244949284856491e-04
	1.324821211359162e-05
	2.951588585876468e-01

 47	4.700000000000003e-01
	-4.218201282887993e-15
	-6.007244321218074e-18
	-1.601503727284480e-14
	2.309199765465558e-06
	1.367403250952625e-04
	1.455341569979997e-05
	2.951590017981012e-01

 48	4.800000000000003e-01
	-4.189619348451150e-15
	-6.188602629698207e-18
	-1.613675787666098e-14
	2.471898359123063e-06
	1.501204708502260e-04
	1.598666352785666e-05
	2.951591590613876e-01

 49	4.900000000000003e-01
	-4.162013971807684e-15
	-6.375342514734564e-18
	-1.625658408922977e-14
	2.644578000304324e-06
	1.647222871593564e-04
	1.755973225931195e-05
	2.951593316703476e-01

 50	5.000000000000002e-01
	-4.135374940303981e-15
	-6.567629636246230e-18
	-1.637450424151647e-14
	2.827735859569577e-06
	1.806361344785132e-04
	1.928528478846776e-05
	2.951595210151378e-01

 51	5.100000000000002e-01
	-4.109691520668414e-15
	-6.765635402718293e-18
	-1.649050857896600e-14
	3.021886497576656e-06
	1.979554514478765e-04
	2.117690282514880e-05
	2.951597285868034e-01

 52	5.200000000000002e-01
	-4.084952487861186e-15
	-6.969537198450786e-18
	-1.660458921951773e-14
	3.227562127708039e-06
	2.167763102910015e-04
	2.324911544502765e-05
	2.951599559804103e-01

 53	5.300000000000002e-01
	-4.061146154074622e-15
	-7.179518620544795e-18
	-1.671674010907290e-14
	3.445312874684856e-06
	2.371968843903830e-04
	2.551742274826037e-05
	2.951602048976495e-01

 54	5.400000000000003e-01
	-4.038260397786900e-15
	-7.395769726077285e-18
	-1.682695697464903e-14
	3.675707029150959e-06
	2.593168251475553e-04
	2.799831373221590e-05
	2.951604771487829e-01

 55	5.500000000000003e-01
	-4.016282692776996e-15
	-7.618487289936588e-18
	-1.693523727545183e-14
	3.919331298026269e-06
	2.832365466747394e-04
	3.070927746229015e-05
	2.951607746538724e-01

 56	5.600000000000003e-01
	-3.995200137012790e-15
	-7.847875073816355e-18
	-1.704158015209398e-14
	4.176791050194271e-06
	3.090564185458850e-04
	3.366880661867817e-05
	2.951610994431563e-01

 57	5.700000000000003e-01
	-3.974999481329269e-15
	-8.084144106884665e-18
	-1.714598637418520e-14
	4.448710556794937e-06
	3.368758687440363e-04
	3.689639250885041e-05
	2.951614536565047e-01

 58	5.800000000000003e-01
	-3.955667157818257e-15
	-8.327512978674974e-18
	-1.724845828651372e-14
	4.735733225041951e-06
	3.667924010562401e-04
	4.041251066755478e-05
	2.951618395418145e-01

 59	5.900000000000003e-01
	-3.937189307856639e-15
	-8.578208144764793e-18
	-1.734899975403300e-14
	5.038521824068326e-06
	3.989005334525584e-04
	4.423859622031077e-05
	2.951622594523022e-01

 60	6.000000000000003e-01
	-3.919551809704632e-15
	-8.836464245841364e-18
	-1.744761610586172e-14
	5.357758700829444e-06
	4.332906663970157e-04
	4.839700826408719e-05
	2.951627158425781e-01

 61	6.100000000000003e-01
	-3.902740305611180e-15
	-9.102524440777362e-18
	-1.754431407849709e-14
	5.694145983558577e-06
	4.700478925191794e-04
	5.291098262111999e-05
	2.951632112634480e-01

 62	6.200000000000003e-01
	-3.886740228368265e-15
	-9.376640754370793e-18
	-1.763910175843494e-14
	6.048405769685354e-06
	5.092507615590803e-04
	5.780457244902048e-05
	2.951637483553821e-01

 63	6.300000000000003e-01
	-3.871536827261507e-15
	-9.659074440435885e-18
	-1.773198852438055e-14
	6.421280294500008e-06
	5.509700169093934e-04
	6.310257634207666e-05
	2.951643298405981e-01

 64	6.400000000000003e-01
	-3.857115193369186e-15
	-9.950096360962839e-18
	-1.782298498922653e-14
	6.813532076188739e-06
	5.952673223340514e-04
	6.883045373379442e-05
	2.951649585137712e-01

 65	6.500000000000004e-01
	-3.843460284166717e-15
	-1.024998738210060e-17
	-1.791210294196490e-14
	7.225944032199331e-06
	6.421939994542560e-04
	7.501422760730755e-05
	2.951656372313289e-01

 66	6.600000000000004e-01
	-3.830556947398867e-15
	-1.055903878775565e-17
	-1.799935528969129e-14
	7.659319561236646e-06
	6.917897982710219e-04
	8.168037473530986e-05
	2.951663688994043e-01

 67	6.700000000000004e-01
	-3.818389944186077e-15
	-1.087755271163599e-17
	-1.808475599985009e-14
	8.114482584567802e-06
	7.440817242508916e-04
	8.885570390093036e-05
	2.951671564604373e-01

 68	6.800000000000004e-01
	-3.806943971336729e-15
	-1.120584258861501e-17
	-1.816832004286005e-14
	8.592277539759216e-06
	7.990829462559577e-04
	9.656722279073069e-05
	2.951680028785764e-01

 69	6.900000000000004e-01
	-3.796203682840460e-15
	-1.154423362633495e-17
	-1.825006333525074e-14
	9.093569319513446e-06
	8.567918097799684e-04
	1.048419944954616e-04
	2.951689111238969e-01

 70	7.000000000000004e-01
	-3.786153710523083e-15
	-1.189306329801396e-17
	-1.833000268343072e-14
	9.619243147948169e-06
	9.171909795008900e-04
	1.137069847971419e-04
	2.951698841556532e-01

 71	7.100000000000004e-01
	-3.776778683846502e-15
	-1.225268185747793e-17
	-1.840815572819980e-14
	1.017020438651066e-05
	9.802467340390751e-04
	1.231889016560650e-04
	2.951709249046466e-01

 72	7.200000000000004e-01
	-3.768063248841901e-15
	-1.262345287749016e-17
	-1.848454089010817e-14
	1.074737826177393e-05
	1.045908434001062e-03
	1.333140285314854e-04
	2.951720362549340e-01

 73	7.300000000000004e-01
	-3.759992086167216e-15
	-1.300575381250541e-17
	-1.855917731575757e-14
	1.135170950765700e-05
	1.114108181900115e-03
	1.441080533682553e-04
	2.951732210250645e-01

 74	7.400000000000004e-01
	-3.752549928283943e-15
	-1.339997658705067e-17
	-1.863208482513005e-14
	1.198416191517850e-05
	1.184760689409621e-03
	1.555958952518504e-04
	2.951744819490531e-01

 75	7.500000000000004e-01
	-3.745721575751135e-15
	-1.380652821098367e-17
	-1.870328386002304e-14
	1.264571778371240e-05
	1.257763363684718e-03
	1.678015308698700e-04
	2.951758216573495e-01

 76	7.600000000000005e-01
	-3.739491912637635e-15
	-1.422583142296572e-17
	-1.877279543366061e-14
	1.333737726888616e-05
	1.332996620268207e-03
	1.807478230138164e-04
	2.951772426580267e-01

 77	7.700000000000005e-01
	-3.733845921056148e-15
	-1.465832536355216e-17
	-1.884064108154425e-14
	1.406015762374775e-05
	1.410324425489238e-03
	1.944563534062979e-04
	2.951787473184393e-01

 78	7.800000000000005e-01
	-3.728768694825686e-15
	-1.510446627938298e-17
	-1.890684281359838e-14
	1.481509233162200e-05
	1.489595066398498e-03
	2.089472621425347e-04
	2.951803378476253e-01

 79	7.900000000000005e-01
	-3.724245452270821e-15
	-1.556472826004461e-17
	-1.897142306765972e-14
	1.560323013116294e-05
	1.570642141308318e-03
	2.242390959894083e-04
	2.951820162796599e-01

 80	8.000000000000005e-01
	-3.720261548168755e-15
	-1.603960400925731e-17
	-1.903440466435255e-14
	1.642563393644996e-05
	1.653285759076610e-03
	2.403486676899460e-04
	2.951837844582427e-01

 81	8.100000000000005e-01
	-3.716802484856973e-15
	-1.652960565213846e-17
	-1.909581076338595e-14
	1.728337965752850e-05
	1.737333930548965e-03
	2.572909282774132e-04
	2.951856440226907e-01

 82	8.200000000000005e-01
	-3.713853922516051e-15
	-1.703526558038800e-17
	-1.915566482130289e-14
	1.817755492949907e-05
	1.822584131209472e-03
	2.750788542139413e-04
	2.951875963955722e-01

 83	8.300000000000005e-01
	-3.711401688644023e-15
	-1.755713733735056e-17
	-1.921399055070537e-14
	1.910925776104292e-05
	1.908825010232168e-03
	2.937233509382878e-04
	2.951896427721262e-01

 84	8.400000000000005e-01
	-3.709431786739884e-15
	-1.809579654500635e-17
	-1.927081188097410e-14
	2.007959511605660e-05
	1.995838217898790e-03
	3.132331741415991e-04
	2.951917841116361e-01

 85	8.500000000000005e-01
	-3.707930404215412e-15
	-1.865184187506715e-17
	-1.932615292049632e-14
	2.108968144476593e-05
	2.083400320858339e-03
	3.336148697958506e-04
	2.951940211308731e-01

 86	8.600000000000005e-01
	-3.706883919555202e-15
	-1.922589606646715e-17
	-1.938003792041014e-14
	2.214063718321935e-05
	2.171284773026451e-03
	3.548727336448952e-04
	2.951963542996346e-01

 87	8.700000000000006e-01
	-3.706278908746428e-15
	-1.981860699165920e-17
	-1.943249123986859e-14
	2.323358724231563e-05
	2.259263909100732e-03
	3.770087905407690e-04
	2.951987838385053e-01

 88	8.800000000000006e-01
	-3.706102150999960e-15
	-2.043064877426269e-17
	-1.948353731282270e-14
	2.436965950944841e-05
	2.347110927717044e-03
	4.000227936773744e-04
	2.952013097187681e-01

 89	8.900000000000006e-01
	-3.706340633785815e-15
	-2.106272296074071e-17
	-1.953320061631789e-14
	2.554998338734431e-05
	2.434601832167556e-03
	4.239122434478264e-04
	2.952039316644769e-01

 90	9.000000000000006e-01
	-3.706981557206058e-15
	-2.171555974892557e-17
	-1.958150564029397e-14
	2.677568839569445e-05
	2.521517298295239e-03
	4.486724253393492e-04
	2.952066491566241e-01

 91	9.100000000000006e-01
	-3.708012337728916e-15
	-2.238991927636127e-17
	-1.962847685887527e-14
	2.804790286167548e-05
	2.607644441591288e-03
	4.742964659879931e-04
	2.952094614392874e-01

 92	9.200000000000006e-01
	-3.709420611308177e-15
	-2.308659297158005e-17
	-1.967413870313326e-14
	2.936775272539592e-05
	2.692778458549676e-03
	5.007754062512739e-04
	2.952123675276629e-01

 93	9.300000000000006e-01
	-3.711194235911915e-15
	-2.380640497160570e-17
	-1.971851553530108e-14
	3.073636048568760e-05
	2.776724120857570e-03
	5.280982899257916e-04
	2.952153662177859e-01

 94	9.400000000000006e-01
	-3.713321293485131e-15
	-2.455021360912315e-17
	-1.976163162441545e-14
	3.215484431048468e-05
	2.859297104888986e-03
	5.562522665429699e-04
	2.952184560978299e-01

 95	9.500000000000006e-01
	-3.715790091370218e-15
	-2.531891297294953e-17
	-1.980351112335889e-14
	3.362431733434654e-05
	2.940325143086805e-03
	5.852227065225844e-04
	2.952216355607301e-01

 96	9.600000000000006e-01
	-3.718589163209749e-15
	-2.611343454561608e-17
	-1.984417804727213e-14
	3.514588716350773e-05
	3.019648988026640e-03
	6.149933268517910e-04
	2.952249028179901e-01

 97	9.700000000000006e-01
	-3.721707269355121e-15
	-2.693474892206554e-17
	-1.988365625330447e-14
	3.672065560626776e-05
	3.097123184127397e-03
	6.455463253876320e-04
	2.952282559144153e-01

 98	9.800000000000006e-01
	-3.725133396804926e-15
	-2.778386761367290e-17
	-1.992196942166671e-14
	3.834971864361739e-05
	3.172616645986687e-03
	6.768625218520152e-04
	2.952316927435887e-01

 99	9.900000000000007e-01
	-3.728856758695970e-15
	-2.866184494200496e-17
	-1.995914103795043e-14
	4.003416665184192e-05
	3.246013046072273e-03
	7.089215035981465e-04
	2.952352110638712e-01

 100	1.000000000000001e+00
	-3.732866793369736e-15
	-2.956978002695908e-17
	-1.999519437667474e-14
	4.177508488552169e-05
	3.317211017906321e-03
	7.417017742730122e-04
	2.952388085147212e-01

 101	1.010000000000001e+00
	-3.737153163036341e-15
	-3.050881887415116e-17
	-2.003015248602070e-14
