Title: ** sch_path: /home/andylithia/openmpw/project-yatsuhashi-chip1/xschem/gmid_test/nmos_test.sch
Date: Tue Jul 19 23:15:45  2022
Plotname: DC transfer characteristic
Flags: real
No. Variables: 8
No. Points: 181
Variables:
	0	v(v-sweep)	voltage
	1	@m.xm1.msky130_fd_pr__nfet_01v8[cgb]	capacitance
	2	@m.xm1.msky130_fd_pr__nfet_01v8[cgd]	capacitance
	3	@m.xm1.msky130_fd_pr__nfet_01v8[cgs]	capacitance
	4	@m.xm1.msky130_fd_pr__nfet_01v8[gds]	admittance
	5	@m.xm1.msky130_fd_pr__nfet_01v8[gm]	admittance
	6	i(@m.xm1.msky130_fd_pr__nfet_01v8[id])	current
	7	v(@m.xm1.msky130_fd_pr__nfet_01v8[vth])	voltage
Values:
 0	0.000000000000000e+00
	-2.505091687096568e-15
	-2.323045520202487e-20
	-1.409659725459521e-15
	1.001782613692484e-09
	6.620961173689005e-08
	4.722644520026404e-09
	4.146209947423761e-01

 1	1.000000000000000e-02
	-2.479555028670955e-15
	-2.422933013999669e-20
	-1.461996878885616e-15
	1.152074075636265e-09
	7.605207300499020e-08
	5.432833790868307e-09
	4.146209948083128e-01

 2	2.000000000000000e-02
	-2.453861960412311e-15
	-2.526899293187329e-20
	-1.515602062891105e-15
	1.324567595348954e-09
	8.733162355696598e-08
	6.248473474263216e-09
	4.146209948840446e-01

 3	3.000000000000000e-02
	-2.428020823541794e-15
	-2.635083141721150e-20
	-1.570459450430226e-15
	1.522463614345954e-09
	1.002528217539869e-07
	7.184935236547345e-09
	4.146209949709958e-01

 4	4.000000000000000e-02
	-2.402040962181332e-15
	-2.747625734865221e-20
	-1.626549933330187e-15
	1.749405873736267e-09
	1.150483665873462e-07
	8.259774114836225e-09
	4.146209950707980e-01

 5	5.000000000000000e-02
	-2.375932709377557e-15
	-2.864670526668291e-20
	-1.683851079347996e-15
	2.009538767951190e-09
	1.319828166447987e-07
	9.493028144288774e-09
	4.146209951853143e-01

 6	6.000000000000000e-02
	-2.349707367183413e-15
	-2.986363130134097e-20
	-1.742337106271157e-15
	2.307571221654384e-09
	1.513567864423318e-07
	1.090755751261842e-08
	4.146209953166684e-01

 7	7.000000000000001e-02
	-2.323377180711528e-15
	-3.112851190698416e-20
	-1.801978873947306e-15
	2.648847633616622e-09
	1.735116836293922e-07
	1.252942832536982e-08
	4.146209954672865e-01

 8	8.000000000000000e-02
	-2.296955306132090e-15
	-3.244284253705714e-20
	-1.862743894987330e-15
	3.039426431350664e-09
	1.988350606550601e-07
	1.438834674943617e-08
	4.146209956399254e-01

 9	9.000000000000000e-02
	-2.270455772649427e-15
	-3.380813626654384e-20
	-1.924596364729838e-15
	3.486166767500790e-09
	2.277666665686368e-07
	1.651815009674942e-08
	4.146209958377339e-01

 10	9.999999999999999e-02
	-2.243893438554941e-15
	-3.522592237053973e-20
	-1.987497210885462e-15
	3.996823860148523e-09
	2.608052991174804e-07
	1.895736233708714e-08
	4.146209960642975e-01

 11	1.100000000000000e-01
	-2.217283941518548e-15
	-3.669774486799056e-20
	-2.051404163096789e-15
	4.580153430691039e-09
	2.985165746334152e-07
	2.174982261462901e-08
	4.146209963236920e-01

 12	1.200000000000000e-01
	-2.190643643345630e-15
	-3.822516104023998e-20
	-2.116271842457872e-15
	5.246025620780896e-09
	3.415417538273433e-07
	2.494539661799926e-08
	4.146209966205595e-01

 13	1.300000000000000e-01
	-2.163989569490271e-15
	-3.980973993454079e-20
	-2.182051870838460e-15
	6.005548669668750e-09
	3.906077859940393e-07
	2.860078215331832e-08
	4.146209969601814e-01

 14	1.400000000000000e-01
	-2.137339343677779e-15
	-4.145306086302722e-20
	-2.248692999654070e-15
	6.871202500628499e-09
	4.465387626689411e-07
	3.278042203387383e-08
	4.146209973485581e-01

 15	1.500000000000000e-01
	-2.110711118048694e-15
	-4.315671190797951e-20
	-2.316141257517708e-15
	7.856982195357695e-09
	5.102690047618380e-07
	3.755753947154169e-08
	4.146209977925165e-01

 16	1.600000000000000e-01
	-2.084123499291914e-15
	-4.492228844437938e-20
	-2.384340116005710e-15
	8.978551123843673e-09
	5.828580446946343e-07
	4.301531357911575e-08
	4.146209982998092e-01

 17	1.700000000000000e-01
	-2.057595471285299e-15
	-4.675139169079953e-20
	-2.453230672570386e-15
	1.025340324002650e-08
	6.655078068320414e-07
	4.924821541337556e-08
	4.146209988792549e-01

 18	1.800000000000000e-01
	-2.031146314806908e-15
	-4.864562729967896e-20
	-2.522751849441782e-15
	1.170103374725482e-08
	7.595823347665285e-07
	5.636352824551357e-08
	4.146209995408636e-01

 19	1.900000000000000e-01
	-2.004795524918655e-15
	-5.060660399776233e-20
	-2.592840607179565e-15
	1.334311697961860e-08
	8.666304613638572e-07
	6.448307946681959e-08
	4.146210002960272e-01

 20	2.000000000000000e-01
	-1.978562726655206e-15
	-5.263593228732717e-20
	-2.663432171371172e-15
	1.520368993496305e-08
	9.884118645497402e-07
	7.374521573345516e-08
	4.146210011576779e-01

 21	2.100000000000000e-01
	-1.952467589674489e-15
	-5.473522321827277e-20
	-2.734460270821359e-15
	1.730933943384648e-08
	1.126926995106274e-06
	8.430705760509684e-08
	4.146210021405236e-01

 22	2.200000000000001e-01
	-1.926529742541172e-15
	-5.690608724076366e-20
	-2.805857385449697e-15
	1.968939036975962e-08
	1.284451397323555e-06
	9.634707497748468e-08
	4.146210032612893e-01

 23	2.300000000000001e-01
	-1.900768687321052e-15
	-5.915013314738322e-20
	-2.877555002003491e-15
	2.237609196638974e-08
	1.463574962617459e-06
	1.100680299293870e-07
	4.146210045389969e-01

 24	2.400000000000001e-01
	-1.875203715162022e-15
	-6.146896711315006e-20
	-2.949483875608900e-15
	2.540479837821466e-08
	1.667246651741927e-06
	1.257003390067413e-07
	4.146210059952865e-01

 25	2.500000000000001e-01
	-1.849853823526323e-15
	-6.386419184084732e-20
	-3.021574295123222e-15
	2.881413937593966e-08
	1.898825182630951e-06
	1.435059121628751e-07
	4.146210076547969e-01

 26	2.600000000000001e-01
	-1.824737635719168e-15
	-6.633740581830145e-20
	-3.093756350217791e-15
	3.264617626748630e-08
	2.162136096025286e-06
	1.637825301633510e-07
	4.146210095455800e-01

 27	2.700000000000001e-01
	-1.799873323331141e-15
	-6.889020269332817e-20
	-3.165960198113030e-15
	3.694653764218002e-08
	2.461535466222005e-06
	1.868688257166297e-07
	4.146210116995865e-01

 28	2.800000000000001e-01
	-1.775278532176139e-15
	-7.152417077098897e-20
	-3.238116327906786e-15
	4.176452901890115e-08
	2.801980305106417e-06
	2.131499352365203e-07
	4.146210141532262e-01

 29	2.900000000000001e-01
	-1.750970312263974e-15
	-7.424089263693011e-20
	-3.310155820482355e-15
	4.715321006066695e-08
	3.189105399955602e-06
	2.430638871640104e-07
	4.146210169479781e-01

 30	3.000000000000001e-01
	-1.726965052297885e-15
	-7.704194490936695e-20
	-3.382010602052068e-15
	5.316943272400402e-08
	3.629305917053180e-06
	2.771087882254913e-07
	4.146210201311247e-01

 31	3.100000000000001e-01
	-1.703278419132440e-15
	-7.992889812144815e-20
	-3.453613689487570e-15
	5.987383357936316e-08
	4.129824585508344e-06
	3.158508598285571e-07
	4.146210237565193e-01

 32	3.200000000000001e-01
	-1.679925302568674e-15
	-8.290331673448731e-20
	-3.524899425701681e-15
	6.733077360621999e-08
	4.698841646661038e-06
	3.599333618845656e-07
	4.146210278854955e-01

 33	3.300000000000001e-01
	-1.656919765800408e-15
	-8.596675928175012e-20
	-3.595803703483573e-15
	7.560821906959777e-08
	5.345565020954064e-06
	4.100864196130894e-07
	4.146210325878475e-01

 34	3.400000000000001e-01
	-1.634275001761090e-15
	-8.912077864137802e-20
	-3.666264176339764e-15
	8.477755765450540e-08
	6.080317324750862e-06
	4.671377393624713e-07
	4.146210379429189e-01

 35	3.500000000000001e-01
	-1.612003295553936e-15
	-9.236692243622068e-20
	-3.736220455060621e-15
	9.491334489532872e-08
	6.914615497139430e-06
	5.320241614669727e-07
	4.146210440407716e-01

 36	3.600000000000002e-01
	-1.590115993081840e-15
	-9.570673355743885e-20
	-3.805614288908558e-15
	1.060929771019919e-07
	7.861237920095360e-06
	6.058039513532135e-07
	4.146210509834605e-01

 37	3.700000000000002e-01
	-1.568623475927550e-15
	-9.914175080796003e-20
	-3.874389730510314e-15
	1.183962884543832e-07
	8.934273099782636e-06
	6.896696747787286e-07
	4.146210588863799e-01

 38	3.800000000000002e-01
	-1.547535142470700e-15
	-1.026735096612674e-19
	-3.942493283725725e-15
	1.319050716959887e-07
	1.014914330271534e-05
	7.849614402343633e-07
	4.146210678796563e-01

 39	3.900000000000002e-01
	-1.526859395166896e-15
	-1.063035431302346e-19
	-4.009874033957553e-15
	1.467025238745801e-07
	1.152259610014331e-05
	8.931802230386802e-07
	4.146210781095866e-01

 40	4.000000000000002e-01
	-1.506603633856364e-15
	-1.100333827403155e-19
	-4.076483760557884e-15
	1.628726208017828e-07
	1.307265666519016e-05
	1.016000914322178e-06
	4.146210897400804e-01

 41	4.100000000000002e-01
	-1.486774254915834e-15
	-1.138645596009266e-19
	-4.142277031173930e-15
	1.804994262659992e-07
	1.481853398492195e-05
	1.155284667738728e-06
	4.146211029540425e-01

 42	4.200000000000002e-01
	-1.467376656018914e-15
	-1.177986055684716e-19
	-4.207211278055463e-15
	1.996663444496495e-07
	1.678047497507785e-05
	1.313090052038621e-06
	4.146211179547042e-01

 43	4.300000000000002e-01
	-1.448415246226544e-15
	-1.218370544942895e-19
	-4.271246856518149e-15
	2.204553263744865e-07
	1.897956187462168e-05
	1.491682463981249e-06
	4.146211349667823e-01

 44	4.400000000000002e-01
	-1.429893461091486e-15
	-1.259814435505721e-19
	-4.334347085916392e-15
	2.429460434201608e-07
	2.143745026888515e-05
	1.693541219218190e-06
	4.146211542374609e-01

 45	4.500000000000002e-01
	-1.411813782429087e-15
	-1.302333146272108e-19
	-4.396478273626596e-15
	2.672150429213818e-07
	2.417604761419872e-05
	1.921363724461686e-06
	4.146211760371105e-01

 46	4.600000000000002e-01
	-1.394177762380633e-15
	-1.345942157926192e-19
	-4.457609722674679e-15
	2.933349024396197e-07
	2.721713512849284e-05
	2.178066147614802e-06
	4.146212006596769e-01

 47	4.700000000000003e-01
	-1.376986051376047e-15
	-1.390657028114923e-19
	-4.517713723758753e-15
	3.213734004283179e-07
	3.058193922887838e-05
	2.466780047587857e-06
	4.146212284227000e-01

 48	4.800000000000003e-01
	-1.360238429588729e-15
	-1.436493407127981e-19
	-4.576765532519739e-15
	3.513927215841602e-07
	3.429066214283322e-05
	2.790844504573671e-06
	4.146212596668833e-01

 49	4.900000000000003e-01
	-1.343933841467317e-15
	-1.483467054012731e-19
	-4.634743332997254e-15
	3.834487151415299e-07
	3.836198465623295e-05
	3.153793404728362e-06
	4.146212947551646e-01

 50	5.000000000000002e-01
	-1.328070432926487e-15
	-1.531593853061480e-19
	-4.691628188276554e-15
	4.175902236909983e-07
	4.281255692665891e-05
	3.559337678112002e-06
	4.146213340712943e-01

 51	5.100000000000002e-01
	-1.312645590781099e-15
	-1.580889830609707e-19
	-4.747403979385136e-15
	4.538584987853770e-07
	4.765649562079829e-05
	4.011342460347787e-06
	4.146213780178464e-01

 52	5.200000000000002e-01
	-1.297655984015163e-15
	-1.631371172088349e-19
	-4.802057333533523e-15
	4.922867176696285e-07
	5.290490709208507e-05
	4.513799339175455e-06
	4.146214270136881e-01

 53	5.300000000000002e-01
	-1.283097606488073e-15
	-1.683054239275484e-19
	-4.855577542816695e-15
	5.328996129986799e-07
	5.856545671272274e-05
	5.070794047194419e-06
	4.146214814909404e-01

 54	5.400000000000003e-01
	-1.268965820695377e-15
	-1.735955587699558e-19
	-4.907956474500221e-15
	5.757132244831627e-07
	6.464200370130029e-05
	5.686470160388811e-06
	4.146215418914383e-01

 55	5.500000000000003e-01
	-1.255255402219250e-15
	-1.790091984145897e-19
	-4.959188474009567e-15
	6.207347781447861e-07
	7.113431882296336e-05
	6.364989546599233e-06
	4.146216086627810e-01

 56	5.600000000000003e-01
	-1.241960584524339e-15
	-1.845480424227773e-19
	-5.009270261724083e-15
	6.679626954069551e-07
	7.803789926182852e-05
	7.110490467358200e-06
	4.146216822540266e-01

 57	5.700000000000003e-01
	-1.229075103777314e-15
	-1.902138149983112e-19
	-5.058200824649144e-15
	7.173867307371506e-07
	8.534389094831117e-05
	7.927044360086761e-06
	4.146217631111636e-01

 58	5.800000000000003e-01
	-1.216592243392609e-15
	-1.960082667465524e-19
	-5.105981304003635e-15
	7.689882331434147e-07
	9.303912392216139e-05
	8.818612407387704e-06
	4.146218516724283e-01

 59	5.900000000000003e-01
	-1.204504878032357e-15
	-2.019331764300914e-19
	-5.152614879714438e-15
	8.227405236466835e-07
	1.011062612383488e-04
	9.789003030732023e-06
	4.146219483636284e-01

 60	6.000000000000003e-01
	-1.192805516814446e-15
	-2.079903527186971e-19
	-5.198106652758902e-15
	8.786093780292142e-07
	1.095240568201404e-04
	1.084183142522291e-05
	4.146220535935629e-01

 61	6.100000000000003e-01
	-1.181486345509097e-15
	-2.141816359314780e-19
	-5.242463526239293e-15
	9.365536017982358e-07
	1.182677128714601e-04
	1.198048218174547e-05
	4.146221677496777e-01

 62	6.200000000000003e-01
	-1.170539267530690e-15
	-2.205088997699454e-19
	-5.285694086012472e-15
	9.965256824793881e-07
	1.273093232853915e-04
	1.320807592736392e-05
	4.146222911940705e-01

 63	6.300000000000003e-01
	-1.159955943557344e-15
	-2.269740530406814e-19
	-5.327808481634724e-15
	1.058472503111291e-06
	1.366183861744008e-04
	1.452744076177500e-05
	4.146224242599234e-01

 64	6.400000000000003e-01
	-1.149727829636160e-15
	-2.335790413670668e-19
	-5.368818308315660e-15
	1.122336100165072e-06
	1.461623663693804e-04
	1.594108908652198e-05
	4.146225672484763e-01

 65	6.500000000000004e-01
	-1.139846213656201e-15
	-2.403258488896441e-19
	-5.408736490509197e-15
	1.188054449045942e-06
	1.559072875704475e-04
	1.745120022534038e-05
	4.146227204265809e-01

 66	6.600000000000004e-01
	-1.130302250094557e-15
	-2.472164999551280e-19
	-5.447577167702842e-15
	1.255562260805976e-06
	1.658183337763088e-04
	1.905960902962088e-05
	4.146228840248877e-01

 67	6.700000000000004e-01
	-1.121086992962626e-15
	-2.542530607944238e-19
	-5.485355582901256e-15
	1.324791774644858e-06
	1.758604405856662e-04
	2.076780046326097e-05
	4.146230582366847e-01

 68	6.800000000000004e-01
	-1.112191426900363e-15
	-2.614376411902489e-19
	-5.522087974235679e-15
	1.395673532118731e-06
	1.859988588041182e-04
	2.257690997565702e-05
	4.146232432173759e-01

 69	6.900000000000004e-01
	-1.103606496385020e-15
	-2.687723961351900e-19
	-5.557791470069068e-15
	1.468137120626458e-06
	1.961996753091562e-04
	2.448772930805166e-05
	4.146234390845979e-01

 70	7.000000000000004e-01
	-1.095323133038441e-15
	-2.762595274814673e-19
	-5.592483987907317e-15
	1.542111875604133e-06
	2.064302791062681e-04
	2.650071724262133e-05
	4.146236459189040e-01

 71	7.100000000000004e-01
	-1.087332281032670e-15
	-2.839012855834861e-19
	-5.626184137370437e-15
	1.617527532839004e-06
	2.166597637292009e-04
	2.861601469903626e-05
	4.146238637649931e-01

 72	7.200000000000004e-01
	-1.079624920607794e-15
	-2.916999709349745e-19
	-5.658911127424824e-15
	1.694314824328333e-06
	2.268592603897447e-04
	3.083346351112752e-05
	4.146240926333933e-01

 73	7.300000000000004e-01
	-1.072192089728565e-15
	-2.996579358021550e-19
	-5.690684678027981e-15
	1.772406013078723e-06
	2.370021993866885e-04
	3.315262817609885e-05
	4.146243325025350e-01

 74	7.400000000000004e-01
	-1.065024903917322e-15
	-3.077775858548508e-19
	-5.721524936291518e-15
	1.851735364104735e-06
	2.470645000963749e-04
	3.557281985822771e-05
	4.146245833211455e-01

 75	7.500000000000004e-01
	-1.058114574310222e-15
	-3.160613817974553e-19
	-5.751452397226362e-15
	1.932239550590927e-06
	2.570246922854992e-04
	3.809312194472954e-05
	4.146248450108580e-01

 76	7.600000000000005e-01
	-1.051452423991952e-15
	-3.245118410017656e-19
	-5.780487829095857e-15
	2.013857995692239e-06
	2.668639734482181e-04
	4.071241648909685e-05
	4.146251174690043e-01

 77	7.700000000000005e-01
	-1.045029902670681e-15
	-3.331315391437270e-19
	-5.808652203368623e-15
	2.096533151743189e-06
	2.765662083501204e-04
	4.342941093211058e-05
	4.146254005714622e-01

 78	7.800000000000005e-01
	-1.038838599760598e-15
	-3.419231118463216e-19
	-5.835966629232030e-15
	2.180210719713377e-06
	2.861178779685075e-04
	4.624266455796590e-05
	4.146256941755602e-01

 79	7.900000000000005e-01
	-1.032870255943497e-15
	-3.508892563307478e-19
	-5.862452292600972e-15
	2.264839812589585e-06
	2.955079855854424e-04
	4.915061421808600e-05
	4.146259981229114e-01

 80	8.000000000000005e-01
	-1.027116773284173e-15
	-3.600327330781441e-19
	-5.888130399532739e-15
	2.350373066988675e-06
	3.047279279678691e-04
	5.215159893393847e-05
	4.146263122421728e-01

 81	8.100000000000005e-01
	-1.021570223976545e-15
	-3.693563675041278e-19
	-5.913022123939041e-15
	2.436766707729409e-06
	3.137713394205690e-04
	5.524388306903179e-05
	4.146266363516832e-01

 82	8.200000000000005e-01
	-1.016222857798673e-15
	-3.788630516484296e-19
	-5.937148559469408e-15
	2.523980570334359e-06
	3.226339160897850e-04
	5.842567783627846e-05
	4.146269702619374e-01

 83	8.300000000000005e-01
	-1.011067108355430e-15
	-3.885557458819201e-19
	-5.960530675425989e-15
	2.611978086518942e-06
	3.313132272949248e-04
	6.169516097781418e-05
	4.146273137778690e-01

 84	8.400000000000005e-01
	-1.006095598187350e-15
	-3.984374806333839e-19
	-5.983189276558712e-15
	2.700726237677804e-06
	3.398085199355795e-04
	6.505049451855665e-05
	4.146276667009430e-01

 85	8.500000000000005e-01
	-1.001301142823396e-15
	-4.085113581382480e-19
	-6.005144966580751e-15
	2.790195481224739e-06
	3.481205212169769e-04
	6.848984055127565e-05
	4.146280288310341e-01

 86	8.600000000000005e-01
	-9.966767538540045e-16
	-4.187805542117503e-19
	-6.026418115237909e-15
	2.880359654403637e-06
	3.562512441062235e-04
	7.201137505920926e-05
	4.146283999680938e-01

 87	8.700000000000006e-01
	-9.922156410990720e-16
	-4.292483200486704e-19
	-6.047028828760814e-15
	2.971195859887270e-06
	3.642037991125319e-04
	7.561329982225610e-05
	4.146287799136038e-01

 88	8.800000000000006e-01
	-9.879112139433379e-16
	-4.399179840521246e-19
	-6.066996923526192e-15
	3.062684337137051e-06
	3.719822152062521e-04
	7.929385248474702e-05
	4.146291684718313e-01

 89	8.900000000000006e-01
	-9.837570819091347e-16
	-4.507929536936150e-19
	-6.086341902752452e-15
	3.154808323127846e-06
	3.795912719748115e-04
	8.305131488730478e-05
	4.146295654508828e-01

 90	9.000000000000006e-01
	-9.797470545338242e-16
	-4.618767174067480e-19
	-6.105082936055096e-15
	3.247553905661146e-06
	3.870363444719050e-04
	8.688401978298211e-05
	4.146299706635683e-01

 91	9.100000000000006e-01
	-9.758751406163083e-16
	-4.731728465168509e-19
	-6.123238841689035e-15
	3.340909872109535e-06
	3.943232616566013e-04
	9.079035606955083e-05
	4.146303839281083e-01

 92	9.200000000000006e-01
	-9.721355468939802e-16
	-4.846849972088907e-19
	-6.140828071307599e-15
	3.434867556065354e-06
	4.014581788435466e-04
	9.476877267633323e-05
	4.146308050686766e-01

 93	9.300000000000006e-01
	-9.685226762083122e-16
	-4.964169125359838e-19
	-6.157868697071577e-15
	3.529420684012642e-06
	4.084474641921146e-04
	9.881778124613156e-05
	4.146312339157954e-01

 94	9.400000000000006e-01
	-9.650311252141809e-16
	-5.083724244707989e-19
	-6.174378400945869e-15
	3.624565223809659e-06
	4.152975989465390e-04
	1.029359577514289e-04
	4.146316703066206e-01

 95	9.500000000000006e-01
	-9.616556816847007e-16
	-5.205554560023449e-19
	-6.190374466026417e-15
	3.720299236463673e-06
	4.220150908942095e-04
	1.071219431798933e-04
	4.146321140850978e-01

 96	9.600000000000006e-01
	-9.583913214602785e-16
	-5.329700232802319e-19
	-6.205873769745410e-15
	3.816622732400440e-06
	4.286064003274582e-04
	1.113744434178999e-04
	4.146325651020351e-01

 97	9.700000000000006e-01
	-9.552332050873369e-16
	-5.456202378090415e-19
	-6.220892778808679e-15
	3.913537533180599e-06
	4.350778776673086e-04
	1.156922284529744e-04
	4.146330232150880e-01

 98	9.800000000000006e-01
	-9.521766741891206e-16
	-5.585103086949946e-19
	-6.235447545725350e-15
	4.011047139392986e-06
	4.414357118273419e-04
	1.200741310072039e-04
	4.146334882886732e-01

 99	9.900000000000007e-01
	-9.492172476079455e-16
	-5.716445449474826e-19
	-6.249553706796109e-15
	4.109156605259681e-06
	4.476858883541978e-04
	1.245190447041998e-04
	4.146339601938187e-01

 100	1.000000000000001e+00
	-9.463506173553730e-16
	-5.850273578376650e-19
	-6.263226481432997e-15
	4.207872420318685e-06
	4.538341563708872e-04
	1.290259218624800e-04
	4.146344388079864e-01

 101	1.010000000000001e+00
	-9.435726444038625e-16
	-5.986632633168474e-19
	-6.276480672690183e-15
