Title: ** sch_path: /home/andylithia/openmpw/project-yatsuhashi-chip1/xschem/gmid_test/nmos_test.sch
Date: Tue Jul 19 23:15:45  2022
Plotname: DC transfer characteristic
Flags: real
No. Variables: 8
No. Points: 181
Variables:
	0	v(v-sweep)	voltage
	1	@m.xm1.msky130_fd_pr__nfet_01v8[cgb]	capacitance
	2	@m.xm1.msky130_fd_pr__nfet_01v8[cgd]	capacitance
	3	@m.xm1.msky130_fd_pr__nfet_01v8[cgs]	capacitance
	4	@m.xm1.msky130_fd_pr__nfet_01v8[gds]	admittance
	5	@m.xm1.msky130_fd_pr__nfet_01v8[gm]	admittance
	6	i(@m.xm1.msky130_fd_pr__nfet_01v8[id])	current
	7	v(@m.xm1.msky130_fd_pr__nfet_01v8[vth])	voltage
Values:
 0	0.000000000000000e+00
	-1.290160918107424e-14
	-9.723957859020340e-19
	-2.507971842909082e-14
	6.215512593937451e-08
	2.339650837875966e-06
	3.076267993700952e-07
	1.863369859577418e-01

 1	1.000000000000000e-02
	-1.276406145403903e-14
	-9.946776745526446e-19
	-2.540644737818538e-14
	6.685655336727562e-08
	2.522736883560184e-06
	3.319271635561857e-07
	1.863369877257071e-01

 2	2.000000000000000e-02
	-1.262837454021469e-14
	-1.017429278678162e-18
	-2.573255833696762e-14
	7.189492794495094e-08
	2.720245375723579e-06
	3.581295530204426e-07
	1.863369896338035e-01

 3	3.000000000000000e-02
	-1.249457348874619e-14
	-1.040659269832763e-18
	-2.605794447210469e-14
	7.729250471632235e-08
	2.933358294272292e-06
	3.863840182413004e-07
	1.863369916933429e-01

 4	4.000000000000000e-02
	-1.236268248076674e-14
	-1.064376458474693e-18
	-2.638249974705631e-14
	8.307282914496182e-08
	3.163362332396419e-06
	4.168529449692995e-07
	1.863369939166127e-01

 5	5.000000000000000e-02
	-1.223272478653310e-14
	-1.088589796416581e-18
	-2.670611904466212e-14
	8.926079631796513e-08
	3.411658962146941e-06
	4.497121508867759e-07
	1.863369963169526e-01

 6	6.000000000000000e-02
	-1.210472272489454e-14
	-1.113308379347235e-18
	-2.702869828757822e-14
	9.588271163918129e-08
	3.679775483700989e-06
	4.851520877698425e-07
	1.863369989088649e-01

 7	7.000000000000001e-02
	-1.197869762516676e-14
	-1.138541449427409e-18
	-2.735013455628507e-14
	1.029663529598926e-07
	3.969377143761212e-06
	5.233791594122853e-07
	1.863370017081237e-01

 8	8.000000000000000e-02
	-1.185466979147440e-14
	-1.164298397961578e-18
	-2.767032620439767e-14
	1.105410340876833e-07
	4.282280413381030e-06
	5.646171664496559e-07
	1.863370047318861e-01

 9	9.000000000000000e-02
	-1.173265846961900e-14
	-1.190588768147930e-18
	-2.798917297101725e-14
	1.186376696066205e-07
	4.620467520178337e-06
	6.091088901480172e-07
	1.863370079988406e-01

 10	9.999999999999999e-02
	-1.161268181652026e-14
	-1.217422257909208e-18
	-2.830657608987724e-14
	1.272888409341345e-07
	4.986102334303393e-06
	6.571178281938861e-07
	1.863370115293475e-01

 11	1.100000000000000e-01
	-1.149475687227097e-14
	-1.244808722806258e-18
	-2.862243839504604e-14
	1.365288635318944e-07
	5.381547711546274e-06
	7.089300965356494e-07
	1.863370153456074e-01

 12	1.200000000000000e-01
	-1.137889953483771e-14
	-1.272758179037432e-18
	-2.893666442296355e-14
	1.463938551797043e-07
	5.809384400485268e-06
	7.648565123785554e-07
	1.863370194718422e-01

 13	1.300000000000000e-01
	-1.126512453743070e-14
	-1.301280806525140e-18
	-2.924916051060081e-14
	1.569218052129070e-07
	6.272431623447246e-06
	8.252348745192121e-07
	1.863370239344855e-01

 14	1.400000000000000e-01
	-1.115344542855851e-14
	-1.330386952093205e-18
	-2.955983488954679e-14
	1.681526446149322e-07
	6.773769443113483e-06
	8.904324583138014e-07
	1.863370287624138e-01

 15	1.500000000000000e-01
	-1.104387455477457e-14
	-1.360087132736766e-18
	-2.986859777584126e-14
	1.801283168475407e-07
	7.316763027690123e-06
	9.608487436988836e-07
	1.863370339871921e-01

 16	1.600000000000000e-01
	-1.093642304611371e-14
	-1.390392038987300e-18
	-3.017536145539001e-14
	1.928928492918744e-07
	7.905088927471833e-06
	1.036918395813128e-06
	1.863370396433222e-01

 17	1.700000000000000e-01
	-1.083110080421013e-14
	-1.421312538375804e-18
	-3.048004036481001e-14
	2.064924251635155e-07
	8.542763474146522e-06
	1.119114518889505e-06
	1.863370457685549e-01

 18	1.800000000000000e-01
	-1.072791649307892e-14
	-1.452859678996126e-18
	-3.078255116757371e-14
	2.209754557547373e-07
	9.234173411099440e-06
	1.207952205187237e-06
	1.863370524042186e-01

 19	1.900000000000000e-01
	-1.062687753253531e-14
	-1.485044693171656e-18
	-3.108281282533618e-14
	2.363926528463989e-07
	9.984108858013344e-06
	1.303992401791393e-06
	1.863370595955560e-01

 20	2.000000000000000e-01
	-1.052799009421964e-14
	-1.517879001227647e-18
	-3.138074666434367e-14
	2.527971011208518e-07
	1.079779870596699e-05
	1.407846119106258e-06
	1.863370673921332e-01

 21	2.100000000000000e-01
	-1.043125910018698e-14
	-1.551374215372186e-18
	-3.167627643684259e-14
	2.702443303957257e-07
	1.168094852973680e-05
	1.520179005785333e-06
	1.863370758482693e-01

 22	2.200000000000001e-01
	-1.033668822401389e-14
	-1.585542143688438e-18
	-3.196932837742342e-14
	2.887923874863335e-07
	1.263978109179204e-05
	1.641716315647831e-06
	1.863370850235089e-01

 23	2.300000000000001e-01
	-1.024427989436819e-14
	-1.620394794241263e-18
	-3.225983125425013e-14
	3.085019074916562e-07
	1.368107949725078e-05
	1.773248292801820e-06
	1.863370949831385e-01

 24	2.400000000000001e-01
	-1.015403530098105e-14
	-1.655944379300484e-18
	-3.254771641514404e-14
	3.294361842856855e-07
	1.481223304051470e-05
	1.915636001696055e-06
	1.863371057987664e-01

 25	2.500000000000001e-01
	-1.006595440295405e-14
	-1.692203319684713e-18
	-3.283291782850694e-14
	3.516612399818475e-07
	1.604128576210759e-05
	2.069817629120437e-06
	1.863371175489339e-01

 26	2.600000000000001e-01
	-9.980035939329123e-15
	-1.729184249227865e-18
	-3.311537211908449e-14
	3.752458931236889e-07
	1.737698770809075e-05
	2.236815285231051e-06
	1.863371303198150e-01

 27	2.700000000000001e-01
	-9.896277441843059e-15
	-1.766900019371677e-18
	-3.339501859858758e-14
	4.002618253395991e-07
	1.882884885401970e-05
	2.417742330449682e-06
	1.863371442059538e-01

 28	2.800000000000001e-01
	-9.814675249784029e-15
	-1.805363703887922e-18
	-3.367179929120422e-14
	4.267836461834777e-07
	2.040719562044191e-05
	2.613811254533957e-06
	1.863371593110716e-01

 29	2.900000000000001e-01
	-9.735224526862806e-15
	-1.844588603732371e-18
	-3.394565895404907e-14
	4.548889558662715e-07
	2.212322986715711e-05
	2.826342133186441e-06
	1.863371757489770e-01

 30	3.000000000000001e-01
	-9.657919280007411e-15
	-1.884588252035078e-18
	-3.421654509261441e-14
	4.846584055662885e-07
	2.398909020865522e-05
	3.056771686222106e-06
	1.863371936445123e-01

 31	3.100000000000001e-01
	-9.582752379986749e-15
	-1.925376419229198e-18
	-3.448440797129683e-14
	5.161757549878024e-07
	2.601791544310057e-05
	3.306662959486728e-06
	1.863372131346133e-01

 32	3.200000000000001e-01
	-9.509715583764923e-15
	-1.966967118322285e-18
	-3.474920061909044e-14
	5.495279268190739e-07
	2.822390983186878e-05
	3.577715650367845e-06
	1.863372343694501e-01

 33	3.300000000000001e-01
	-9.438799558486470e-15
	-2.009374610313973e-18
	-3.501087883054708e-14
	5.848050577216136e-07
	3.062240990588271e-05
	3.871777093805497e-06
	1.863372575136645e-01

 34	3.400000000000001e-01
	-9.369993906989295e-15
	-2.052613409762204e-18
	-3.526940116211842e-14
	6.221005454632066e-07
	3.322995240891123e-05
	4.190853922142476e-06
	1.863372827476983e-01

 35	3.500000000000001e-01
	-9.303287194741842e-15
	-2.096698290503482e-18
	-3.552472892400253e-14
	6.615110917870685e-07
	3.606434291671825e-05
	4.537124407896752e-06
	1.863373102692489e-01

 36	3.600000000000002e-01
	-9.238666978098344e-15
	-2.141644291529565e-18
	-3.577682616763154e-14
	7.031367405900576e-07
	3.914472459478327e-05
	4.912951493546408e-06
	1.863373402948021e-01

 37	3.700000000000002e-01
	-9.176119833766721e-15
	-2.187466723024829e-18
	-3.602565966894164e-14
	7.470809109625729e-07
	4.249164647663684e-05
	5.320896506635364e-06
	1.863373730613346e-01

 38	3.800000000000002e-01
	-9.115631389381718e-15
	-2.234181172568426e-18
	-3.627119890758060e-14
	7.934504246239821e-07
	4.612713056031128e-05
	5.763733551905954e-06
	1.863374088280716e-01

 39	3.900000000000002e-01
	-9.057186355077568e-15
	-2.281803511504886e-18
	-3.651341604221000e-14
	8.423555272680786e-07
	5.007473693264035e-05
	6.244464564689142e-06
	1.863374478784308e-01

 40	4.000000000000002e-01
	-9.000768555953945e-15
	-2.330349901488084e-18
	-3.675228588207009e-14
	8.939099033159129e-07
	5.435962604123957e-05
	6.766335001429179e-06
	1.863374905220486e-01

 41	4.100000000000002e-01
	-8.946360965329596e-15
	-2.379836801201443e-18
	-3.698778585497958e-14
	9.482306835566236e-07
	5.900861714296795e-05
	7.332850133949192e-06
	1.863375370969672e-01

 42	4.200000000000002e-01
	-8.893945738680728e-15
	-2.430280973260254e-18
	-3.721989597194691e-14
	1.005438445142922e-06
	6.405024186700337e-05
	7.947791903890966e-06
	1.863375879719436e-01

 43	4.300000000000002e-01
	-8.843504248160908e-15
	-2.481699491299580e-18
	-3.744859878857550e-14
	1.065657203395599e-06
	6.951479174186835e-05
	8.615236282685083e-06
	1.863376435488799e-01

 44	4.400000000000002e-01
	-8.795017117602550e-15
	-2.534109747252853e-18
	-3.767387936344693e-14
	1.129014394862579e-06
	7.543435845069286e-05
	9.339571070460311e-06
	1.863377042654057e-01

 45	4.500000000000002e-01
	-8.748464257901664e-15
	-2.587529458825571e-18
	-3.789572521366985e-14
	1.195640851072702e-06
	8.184286549974846e-05
	1.012551405453211e-05
	1.863377705975751e-01

 46	4.600000000000002e-01
	-8.703824902690350e-15
	-2.641976677169171e-18
	-3.811412626778295e-14
	1.265670762423322e-06
	8.877608991408789e-05
	1.097813143458363e-05
	1.863378430626845e-01

 47	4.700000000000003e-01
	-8.661077644203536e-15
	-2.697469794759921e-18
	-3.832907481620262e-14
	1.339241631644787e-06
	9.627167251349364e-05
	1.190285640746740e-05
	1.863379222222070e-01

 48	4.800000000000003e-01
	-8.620200469250565e-15
	-2.754027553488262e-18
	-3.854056545940473e-14
	1.416494216294895e-06
	1.043691152745108e-04
	1.290550778982638e-05
	1.863380086848336e-01

 49	4.900000000000003e-01
	-8.581170795204707e-15
	-2.811669052963850e-18
	-3.874859505402962e-14
	1.497572459752782e-06
	1.131097642529674e-04
	1.399230854161046e-05
	1.863381031095992e-01

 50	5.000000000000002e-01
	-8.543965505926766e-15
	-2.870413759040922e-18
	-3.895316265709946e-14
	1.582623410206002e-06
	1.225367765289567e-04
	1.516990403821861e-05
	1.863382062090857e-01

 51	5.100000000000002e-01
	-8.508560987543293e-15
	-2.930281512571225e-18
	-3.915426946853375e-14
	1.671797127156983e-06
	1.326950696457642e-04
	1.644537992363812e-05
	1.863383187526716e-01

 52	5.200000000000002e-01
	-8.474933164003175e-15
	-2.991292538388517e-18
	-3.935191877214640e-14
	1.765246575017010e-06
	1.436312520486258e-04
	1.782627936181090e-05
	1.863384415698166e-01

 53	5.300000000000002e-01
	-8.443057532339815e-15
	-3.053467454532157e-18
	-3.954611587530592e-14
	1.863127503407620e-06
	1.553935330913574e-04
	1.932061948879903e-05
	1.863385755533454e-01

 54	5.400000000000003e-01
	-8.412909197570554e-15
	-3.116827281714922e-18
	-3.973686804743549e-14
	1.965598313852673e-06
	1.680316112715330e-04
	2.093690685444193e-05
	1.863387216626901e-01

 55	5.500000000000003e-01
	-8.384462907168643e-15
	-3.181393453041639e-18
	-3.992418445752603e-14
	2.072819912618244e-06
	1.815965394803333e-04
	2.268415162940229e-05
	1.863388809270817e-01

 56	5.600000000000003e-01
	-8.357693085047051e-15
	-3.247187823985541e-18
	-4.010807611083090e-14
	2.184955549544971e-06
	1.961405662136313e-04
	2.457188034214846e-05
	1.863390544486157e-01

 57	5.700000000000003e-01
	-8.332573864997227e-15
	-3.314232682628366e-18
	-4.028855578490605e-14
	2.302170642816520e-06
	2.117169518876697e-04
	2.661014690084703e-05
	1.863392434051634e-01

 58	5.800000000000003e-01
	-8.309079123530506e-15
	-3.382550760172639e-18
	-4.046563796515386e-14
	2.424632589720359e-06
	2.283797596369524e-04
	2.880954164773790e-05
	1.863394490530948e-01

 59	5.900000000000003e-01
	-8.287182512073101e-15
	-3.452165241731129e-18
	-4.063933878002336e-14
	2.552510563582828e-06
	2.461836202437959e-04
	3.118119818869621e-05
	1.863396727297225e-01

 60	6.000000000000003e-01
	-8.266857488470104e-15
	-3.523099777403346e-18
	-4.080967593601403e-14
	2.685975297198396e-06
	2.651834711577955e-04
	3.373679773872460e-05
	1.863399158554491e-01

 61	6.100000000000003e-01
	-8.248077347757688e-15
	-3.595378493644892e-18
	-4.097666865262362e-14
	2.825198853224186e-06
	2.854342699077413e-04
	3.648857072544355e-05
	1.863401799355362e-01

 62	6.200000000000003e-01
	-8.230815252166209e-15
	-3.669026004939071e-18
	-4.114033759737529e-14
	2.970354382172762e-06
	3.069906825855963e-04
	3.944929539757749e-05
	1.863404665614309e-01

 63	6.300000000000003e-01
	-8.215044260321787e-15
	-3.744067425777864e-18
	-4.130070482105030e-14
	3.121615868809137e-06
	3.299067484884387e-04
	4.263229319430176e-05
	1.863407774116133e-01

 64	6.400000000000003e-01
	-8.200737355615813e-15
	-3.820528382961469e-18
	-4.145779369325017e-14
	3.279157867939636e-06
	3.542355224349124e-04
	4.605142064437907e-05
	1.863411142518668e-01

 65	6.500000000000004e-01
	-8.187867473717259e-15
	-3.898435028225250e-18
	-4.161162883840078e-14
	3.443155230768611e-06
	3.800286967216796e-04
	4.972105758148075e-05
	1.863414789349356e-01

 66	6.600000000000004e-01
	-8.176407529205482e-15
	-3.977814051202615e-18
	-4.176223607230758e-14
	3.613782823192953e-06
	4.073362051456705e-04
	5.365609148412823e-05
	1.863418733995151e-01

 67	6.700000000000004e-01
	-8.166330441303529e-15
	-4.058692692734322e-18
	-4.190964233936352e-14
	3.791215237599470e-06
	4.362058119811494e-04
	5.787189777535327e-05
	1.863422996684748e-01

 68	6.800000000000004e-01
	-8.157609158697554e-15
	-4.141098758531589e-18
	-4.205387565050315e-14
	3.975626499925037e-06
	4.666826892577254e-04
	6.238431594844731e-05
	1.863427598463308e-01

 69	6.900000000000004e-01
	-8.150216683428624e-15
	-4.225060633206676e-18
	-4.219496502199221e-14
	4.167189773929896e-06
	4.988089861263585e-04
	6.720962142096335e-05
	1.863432561158546e-01

 70	7.000000000000004e-01
	-8.144126093848238e-15
	-4.310607294677261e-18
	-4.233294041513268e-14
	4.366077064817000e-06
	5.326233945144007e-04
	7.236449305918951e-05
	1.863437907338412e-01

 71	7.100000000000004e-01
	-8.139310566630220e-15
	-4.397768328958064e-18
	-4.246783267695964e-14
	4.572458924501404e-06
	5.681607156467397e-04
	7.786597635934460e-05
	1.863443660259731e-01

 72	7.200000000000004e-01
	-8.135743397835700e-15
	-4.486573945348029e-18
	-4.259967348199722e-14
	4.786504160989282e-06
	6.054514323369234e-04
	8.373144231929143e-05
	1.863449843807780e-01

 73	7.300000000000004e-01
	-8.133398023029443e-15
	-4.577054992027919e-18
	-4.272849527513706e-14
	5.008379554462093e-06
	6.445212922186205e-04
	8.997854208507427e-05
	1.863456482426837e-01

 74	7.400000000000004e-01
	-8.132248036449140e-15
	-4.669242972074999e-18
	-4.285433121569500e-14
	5.238249582774160e-06
	6.853909072834673e-04
	9.662515750941883e-05
	1.863463601041558e-01

 75	7.500000000000004e-01
	-8.132267209231340e-15
	-4.763170059910315e-18
	-4.297721512269672e-14
	5.476276159157510e-06
	7.280753752064640e-04
	1.036893478136990e-04
	1.863471224969937e-01

 76	7.600000000000005e-01
	-8.133429506699603e-15
	-4.858869118188028e-18
	-4.309718142143747e-14
	5.722618384983073e-06
	7.725839279663110e-04
	1.111892925999578e-04
	1.863479379827790e-01

 77	7.700000000000005e-01
	-8.135709104723235e-15
	-4.956373715141535e-18
	-4.321426509135493e-14
	5.977432320449017e-06
	8.189196131984365e-04
	1.191432315144073e-04
	1.863488091425404e-01

 78	7.800000000000005e-01
	-8.139080405156297e-15
	-5.055718142395855e-18
	-4.332850161525027e-14
	6.240870776052565e-06
	8.670790135481028e-04
	1.275694009174566e-04
	1.863497385657441e-01

 79	7.900000000000005e-01
	-8.143518050368991e-15
	-5.156937433261286e-18
	-4.343992692988588e-14
	6.513083127650095e-06
	9.170520090172417e-04
	1.364859679667119e-04
	1.863507288386460e-01

 80	8.000000000000005e-01
	-8.148996936884930e-15
	-5.260067381520645e-18
	-4.354857737798488e-14
	6.794215157818757e-06
	9.688215869210607e-04
	1.459109625674723e-04
	1.863517825321572e-01

 81	8.100000000000005e-01
	-8.155492228139108e-15
	-5.365144560723641e-18
	-4.365448966165267e-14
	7.084408926104028e-06
	1.022363703591862e-03
	1.558622076890748e-04
	1.863529021892911e-01

 82	8.200000000000005e-01
	-8.162979366373624e-15
	-5.472206344001723e-18
	-4.375770079723606e-14
	7.383802670567645e-06
	1.077647201392332e-03
	1.663572485838868e-04
	1.863540903123530e-01

 83	8.300000000000005e-01
	-8.171434083688870e-15
	-5.581290924417881e-18
	-4.385824807163182e-14
	7.692530742846126e-06
	1.134633783937427e-03
	1.774132814780479e-04
	1.863553493499994e-01

 84	8.400000000000005e-01
	-8.180832412269139e-15
	-5.692437335866100e-18
	-4.395616900005313e-14
	8.010723578689200e-06
	1.193278051682823e-03
	1.890470823282582e-04
	1.863566816842980e-01

 85	8.500000000000005e-01
	-8.191150693803301e-15
	-5.805685474533730e-18
	-4.405150128525763e-14
	8.338507705675794e-06
	1.253527599231876e-03
	2.012749362563338e-04
	1.863580896179632e-01

 86	8.600000000000005e-01
	-8.202365588120981e-15
	-5.921076120945469e-18
	-4.414428277823900e-14
	8.676005789507071e-06
	1.315323174857596e-03
	2.141125682823780e-04
	1.863595753618745e-01

 87	8.700000000000006e-01
	-8.214454081067023e-15
	-6.038650962600761e-18
	-4.423455144037937e-14
	9.023336719954191e-06
	1.378598901847640e-03
	2.275750759777238e-04
	1.863611410230823e-01

 88	8.800000000000006e-01
	-8.227393491635959e-15
	-6.158452617224524e-18
	-4.432234530705794e-14
	9.380615737200661e-06
	1.443282560377761e-03
	2.416768646501821e-04
	1.863627885933882e-01

 89	8.900000000000006e-01
	-8.241161478390614e-15
	-6.280524656646274e-18
	-4.440770245270782e-14
	9.747954598970495e-06
	1.509295927721309e-03
	2.564315856564491e-04
	1.863645199386854e-01

 90	9.000000000000006e-01
	-8.255736045187750e-15
	-6.404911631326685e-18
	-4.449066095731100e-14
	1.012546178847986e-05
	1.576555173728893e-03
	2.718520784099801e-04
	1.863663367891622e-01

 91	9.100000000000006e-01
	-8.271095546235119e-15
	-6.531659095549481e-18
	-4.457125887431854e-14
	1.051324276289890e-05
	1.644971307682393e-03
	2.879503166175525e-04
	1.863682407304788e-01

 92	9.200000000000006e-01
	-8.287218690504230e-15
	-6.660813633299722e-18
	-4.464953419998109e-14
	1.091140024166800e-05
	1.714450671859501e-03
	3.047373592346565e-04
	1.863702331960469e-01

 93	9.300000000000006e-01
	-8.304084545523105e-15
	-6.792422884844669e-18
	-4.472552484407274e-14
	1.132003453368495e-05
	1.784895476455687e-03
	3.222233065794720e-04
	1.863723154604733e-01

 94	9.400000000000006e-01
	-8.321672540573282e-15
	-6.926535574045779e-18
	-4.479926860198934e-14
	1.173924390207475e-05
	1.856204369915328e-03
	3.404172619884339e-04
	1.863744886342354e-01

 95	9.500000000000006e-01
	-8.339962469315781e-15
	-7.063201536416426e-18
	-4.487080312820039e-14
	1.216912496497287e-05
	1.928273038234426e-03
	3.593272993341395e-04
	1.863767536596476e-01

 96	9.600000000000006e-01
	-8.358934491869969e-15
	-7.202471747955856e-18
	-4.494016591103258e-14
	1.260977313050673e-05
	2.000994826424774e-03
	3.789604366598989e-04
	1.863791113081419e-01

 97	9.700000000000006e-01
	-8.378569136369706e-15
	-7.344398354778156e-18
	-4.500739424876043e-14
	1.306128306394766e-05
	2.074261375079439e-03
	3.993226161156124e-04
	1.863815621788698e-01

 98	9.800000000000006e-01
	-8.398847300019832e-15
	-7.489034703567193e-18
	-4.507252522698002e-14
	1.352374918483524e-05
	2.147963264856475e-03
	4.204186903083140e-04
	1.863841066986002e-01

 99	9.900000000000007e-01
	-8.419750249677592e-15
	-7.636435372880779e-18
	-4.513559569723769e-14
	1.399726619174273e-05
	2.221990661700942e-03
	4.422524151086156e-04
	1.863867451229255e-01

 100	1.000000000000001e+00
	-8.441259621980858e-15
	-7.786656205335514e-18
	-4.519664225688769e-14
	1.448192961226869e-05
	2.296233955753761e-03
	4.648264488831590e-04
	1.863894775386708e-01

 101	1.010000000000001e+00
	-8.463357423046411e-15
	-7.939754340699165e-18
	-4.525570123014956e-14
