Title: ** sch_path: /home/andylithia/openmpw/project-yatsuhashi-chip1/xschem/gmid_test/nmos_test.sch
Date: Sun Jul 17 22:51:45  2022
Plotname: DC transfer characteristic
Flags: real
No. Variables: 8
No. Points: 181
Variables:
	0	v(v-sweep)	voltage
	1	@m.xm1.msky130_fd_pr__nfet_01v8[cgb]	capacitance
	2	@m.xm1.msky130_fd_pr__nfet_01v8[cgd]	capacitance
	3	@m.xm1.msky130_fd_pr__nfet_01v8[cgs]	capacitance
	4	@m.xm1.msky130_fd_pr__nfet_01v8[gds]	admittance
	5	@m.xm1.msky130_fd_pr__nfet_01v8[gm]	admittance
	6	i(@m.xm1.msky130_fd_pr__nfet_01v8[id])	current
	7	v(@m.xm1.msky130_fd_pr__nfet_01v8[vth])	voltage
Values:
 0	0.000000000000000e+00
	-1.507433765905333e-15
	1.466480346077167e-19
	-1.084137560284942e-17
	3.232231351928192e-14
	7.433201292406353e-13
	2.351587890871038e-14
	7.517637600261973e-01

 1	1.000000000000000e-02
	-1.500216064527026e-15
	1.565964628684206e-19
	-1.155908433114900e-17
	4.402502684200524e-14
	1.019646859588411e-12
	3.225805155055026e-14
	7.517637600261977e-01

 2	2.000000000000000e-02
	-1.493087964327560e-15
	1.671477446423811e-19
	-1.233491584654936e-17
	5.996166825187840e-14
	1.398692220057084e-12
	4.425007560105558e-14
	7.517637600261983e-01

 3	3.000000000000000e-02
	-1.486046510732585e-15
	1.783447518339455e-19
	-1.317408523320763e-17
	8.166278287657778e-14
	1.918636767484370e-12
	6.070000185089579e-14
	7.517637600261995e-01

 4	4.000000000000000e-02
	-1.479088716947596e-15
	1.902353113880770e-19
	-1.408243058601083e-17
	1.112117054688978e-13
	2.631851028037840e-12
	8.326490632353848e-14
	7.517637600262008e-01

 5	5.000000000000000e-02
	-1.472211548960021e-15
	2.028726946830991e-19
	-1.506649105473968e-17
	1.514440123614658e-13
	3.610168199415410e-12
	1.142177677734194e-13
	7.517637600262025e-01

 6	6.000000000000000e-02
	-1.465411909646847e-15
	2.163160975869329e-19
	-1.613359139341005e-17
	2.062188548460942e-13
	4.952115439879891e-12
	1.566763506296820e-13
	7.517637600262050e-01

 7	7.000000000000001e-02
	-1.458686621981745e-15
	2.306311024413576e-19
	-1.729193313699747e-17
	2.807880442526181e-13
	6.792830888387499e-12
	2.149171240855768e-13
	7.517637600262084e-01

 8	8.000000000000000e-02
	-1.452032411335809e-15
	2.458901130822941e-19
	-1.855069252878529e-17
	3.822980540303236e-13
	9.317663284253722e-12
	2.948057973646961e-13
	7.517637600262130e-01

 9	9.000000000000000e-02
	-1.445445886865242e-15
	2.621727539315937e-19
	-1.992012532699518e-17
	5.204727315284003e-13
	1.278082068743935e-11
	4.043877711801115e-13
	7.517637600262195e-01

 10	9.999999999999999e-02
	-1.438923521977767e-15
	2.795662241835651e-19
	-2.141167862793815e-17
	7.085416630084570e-13
	1.753094126136901e-11
	5.546978700413771e-13
	7.517637600262286e-01

 11	1.100000000000000e-01
	-1.432461633867509e-15
	2.981655981377545e-19
	-2.303810985347384e-17
	9.645024248475293e-13
	2.404615288208437e-11
	7.608707370958849e-13
	7.517637600262401e-01

 12	1.200000000000000e-01
	-1.426056362105645e-15
	3.180740627824116e-19
	-2.481361306190251e-17
	1.312836570830434e-12
	3.298213855415307e-11
	1.043663443332227e-12
	7.517637600262568e-01

 13	1.300000000000000e-01
	-1.419703646271698e-15
	3.394030837955158e-19
	-2.675395275205247e-17
	1.786842115558740e-12
	4.523802565844292e-11
	1.431543198162717e-12
	7.517637600262793e-01

 14	1.400000000000000e-01
	-1.413399202607964e-15
	3.622724911829568e-19
	-2.887660533823970e-17
	2.431803491763847e-12
	6.204669787403261e-11
	1.963549667674246e-12
	7.517637600263106e-01

 15	1.500000000000000e-01
	-1.407138499678154e-15
	3.868104757870717e-19
	-3.120090847566024e-17
	3.309298918097211e-12
	8.509856522622665e-11
	2.693218943410564e-12
	7.517637600263527e-01

 16	1.600000000000000e-01
	-1.400916733011434e-15
	4.131534878283558e-19
	-3.374821840626148e-17
	4.503052157957847e-12
	1.167111601142396e-10
	3.693962353440072e-12
	7.517637600264111e-01

 17	1.700000000000000e-01
	-1.394728798716380e-15
	4.414460284235870e-19
	-3.654207546643060e-17
	6.126880702979185e-12
	1.600614823506801e-10
	5.066438578627479e-12
	7.517637600264905e-01

 18	1.800000000000000e-01
	-1.388569266057508e-15
	4.718403245681699e-19
	-3.960837783830296e-17
	8.335488867929181e-12
	2.195042390604189e-10
	6.948656267613698e-12
	7.517637600265998e-01

 19	1.900000000000000e-01
	-1.382432349003172e-15
	5.044958772736499e-19
	-4.297556352080649e-17
	1.133912019249016e-11
	3.010076202054060e-10
	9.529816080537618e-12
	7.517637600267502e-01

 20	2.000000000000000e-01
	-1.376311876780643e-15
	5.395788712952753e-19
	-4.667480032484360e-17
	1.542344321483466e-11
	4.127498373304345e-10
	1.306927244467418e-11
	7.517637600269562e-01

 21	2.100000000000000e-01
	-1.370201263516710e-15
	5.772614330521750e-19
	-5.074018343499865e-17
	2.097653079118354e-11
	5.659354416674002e-10
	1.792250246701015e-11
	7.517637600272383e-01

 22	2.200000000000001e-01
	-1.364093477104605e-15
	6.177207208339939e-19
	-5.520893969981373e-17
	2.852544953261542e-11
	7.759119265780678e-10
	2.457666155319413e-11
	7.517637600276252e-01

 23	2.300000000000001e-01
	-1.357981007525971e-15
	6.611378281401638e-19
	-6.012163728271929e-17
	3.878586134500221e-11
	1.063696326564641e-09
	3.369924892970046e-11
	7.517637600281556e-01

 24	2.400000000000001e-01
	-1.351855834975095e-15
	7.076964770092835e-19
	-6.552239859335243e-17
	5.272923194448303e-11
	1.458061158953530e-09
	4.620469151807835e-11
	7.517637600288830e-01

 25	2.500000000000001e-01
	-1.345709398287431e-15
	7.575814735471343e-19
	-7.145911349149673e-17
	7.167384611110897e-11
	1.998382734885275e-09
	6.334540297052008e-11
	7.517637600298800e-01

 26	2.600000000000001e-01
	-1.339532564369665e-15
	8.109768927390369e-19
	-7.798364858330863e-17
	9.740798513115929e-11
	2.738527408347998e-09
	8.683624954871080e-11
	7.517637600312463e-01

 27	2.700000000000001e-01
	-1.333315599568539e-15
	8.680639543454587e-19
	-8.515204698699314e-17
	1.323565119541844e-10
	3.752149102739767e-09
	1.190245749046353e-10
	7.517637600331186e-01

 28	2.800000000000001e-01
	-1.327048144201747e-15
	9.290185466783404e-19
	-9.302471121717059e-17
	1.798059757575057e-10
	5.139902813028757e-09
	1.631222939157463e-10
	7.517637600356828e-01

 29	2.900000000000001e-01
	-1.320719191806400e-15
	9.940083509378947e-19
	-1.016665598211488e-16
	2.442085063423143e-10
	7.039254606883998e-09
	2.235224494689031e-10
	7.517637600391958e-01

 30	3.000000000000001e-01
	-1.314317075035128e-15
	1.063189516307363e-18
	-1.111471461119576e-16
	3.315916317212318e-10
	9.637802944861775e-09
	3.062305472954978e-10
	7.517637600440060e-01

 31	3.100000000000001e-01
	-1.307829460538911e-15
	1.136702836058620e-18
	-1.215407248222809e-16
	4.501102505610690e-10
	1.319133669118286e-08
	4.194516128418614e-10
	7.517637600505909e-01

 32	3.200000000000001e-01
	-1.301243355606268e-15
	1.214669378553655e-18
	-1.329262498217246e-16
	6.107890035807246e-10
	1.804826418161887e-08
	5.743881203005959e-10
	7.517637600596015e-01

 33	3.300000000000001e-01
	-1.294545129760483e-15
	1.297185535384653e-18
	-1.453872833079208e-16
	8.285190716287520e-10
	2.468258220833486e-08
	7.863228428775803e-10
	7.517637600719277e-01

 34	3.400000000000001e-01
	-1.287720554922559e-15
	1.384317463188188e-18
	-1.590117942578843e-16
	1.123394049057468e-09
	3.373824574243766e-08
	1.076085676007225e-09
	7.517637600887794e-01

 35	3.500000000000001e-01
	-1.280754868090944e-15
	1.476094917092282e-18
	-1.738918216229092e-16
	1.522496300179929e-09
	4.608868476029319e-08
	1.472036344001007e-09
	7.517637601118073e-01

 36	3.600000000000002e-01
	-1.273632860723266e-15
	1.572504503374607e-18
	-1.901229760412882e-16
	2.062279652486986e-09
	6.291633172274328e-08
	2.012737741462563e-09
	7.517637601432537e-01

 37	3.700000000000002e-01
	-1.266338999074634e-15
	1.673482417510244e-18
	-2.078037530620638e-16
	2.791738194181095e-09
	8.581840748547978e-08
	2.750549982097305e-09
	7.517637601861639e-01

 38	3.800000000000002e-01
	-1.258857579587275e-15
	1.778906781665476e-18
	-2.270346314080935e-16
	3.776606276548133e-09
	1.169468892128624e-07
	3.756445836071641e-09
	7.517637602446653e-01

 39	3.900000000000002e-01
	-1.251172922968275e-15
	1.888589752424066e-18
	-2.479169320837249e-16
	5.104903552508761e-09
	1.591925512805253e-07
	5.126437076538452e-09
	7.517637603243417e-01

 40	4.000000000000002e-01
	-1.243269609766927e-15
	2.002269633695614e-18
	-2.705514185855244e-16
	6.894222753575043e-09
	2.164251839301762e-07
	6.990111064835092e-09
	7.517637604327301e-01

 41	4.100000000000002e-01
	-1.235132759009515e-15
	2.119603298686602e-18
	-2.950366255020563e-16
	9.301257982816580e-09
	2.938044340932340e-07
	9.521909621097159e-09
	7.517637605799755e-01

 42	4.200000000000002e-01
	-1.226748349724026e-15
	2.240159294393742e-18
	-3.214669126936218e-16
	1.253418728343629e-08
	3.981779426960956e-07
	1.295593804791384e-08
	7.517637607796933e-01

 43	4.300000000000002e-01
	-1.218103582977029e-15
	2.363412066643615e-18
	-3.499302551613048e-16
	1.686865247658780e-08
	5.385851738624538e-07
	1.760526816359991e-08
	7.517637610500914e-01

 44	4.400000000000002e-01
	-1.209187279379341e-15
	2.488737796134912e-18
	-3.805057945364061e-16
	2.266821538117550e-08
	7.268859312439267e-07
	2.388688740429659e-08
	7.517637614154205e-01

 45	4.500000000000002e-01
	-1.199990303980370e-15
	2.615412368009753e-18
	-4.132611964147553e-16
	3.041030073906356e-08
	9.785311725034588e-07
	3.235363115855240e-08
	7.517637619078332e-01

 46	4.600000000000002e-01
	-1.190506007211106e-15
	2.742612000476050e-18
	-4.482498777124530e-16
	4.071874328804705e-08
	1.313489255604778e-06
	4.373459230211859e-08
	7.517637625697325e-01

 47	4.700000000000003e-01
	-1.180730667266712e-15
	2.869417023672659e-18
	-4.855081886097433e-16
	5.440411096488556e-08
	1.757331911173164e-06
	5.898559319075189e-08
	7.517637634567070e-01

 48	4.800000000000003e-01
	-1.170663916316648e-15
	2.994819221714978e-18
	-5.250526528723564e-16
	7.251293910539083e-08
	2.342469829313532e-06
	7.935128130397737e-08
	7.517637646411441e-01

 49	4.900000000000003e-01
	-1.160309130512253e-15
	3.117733025081626e-18
	-5.668773864897048e-16
	9.638683236107530e-08
	3.109507051597860e-06
	1.064402103868061e-07
	7.517637662165941e-01

 50	5.000000000000002e-01
	-1.149673762265049e-15
	3.237010667893597e-18
	-6.109518255958387e-16
	1.277320153752701e-07
	4.108656749408612e-06
	1.423138320525145e-07
	7.517637683029484e-01

 51	5.100000000000002e-01
	-1.138769593008748e-15
	3.351461211189596e-18
	-6.572188985633717e-16
	1.686992840471060e-07
	5.401130706062991e-06
	1.895895986560374e-07
	7.517637710524347e-01

 52	5.200000000000002e-01
	-1.127612885884585e-15
	3.459873090781244e-18
	-7.055937723382713e-16
	2.219733842582132e-07
	7.060385740679282e-06
	2.515573521092665e-07
	7.517637746563841e-01

 53	5.300000000000002e-01
	-1.116224420643570e-15
	3.561039593918164e-18
	-7.559632884787328e-16
	2.908696150386711e-07
	9.173090060939560e-06
	3.323068930429661e-07
	7.517637793526543e-01

 54	5.400000000000003e-01
	-1.104629397533437e-15
	3.653786424321679e-18
	-8.081861797907664e-16
	3.794339648976394e-07
	1.183967074659838e-05
	4.368632258563229e-07
	7.517637854334919e-01

 55	5.500000000000003e-01
	-1.092857202853615e-15
	3.737000303884421e-18
	-8.620941247484104e-16
	4.925414662659833e-07
	1.517432951902125e-05
	5.713246905003345e-07
	7.517637932535672e-01

 56	5.600000000000003e-01
	-1.080941035865805e-15
	3.809657404661378e-18
	-9.174936559402587e-16
	6.359859006425503e-07
	1.930447260253145e-05
	7.429983290663544e-07
	7.517638032378490e-01

 57	5.700000000000003e-01
	-1.068917404336258e-15
	3.870850326271846e-18
	-9.741688934446742e-16
	8.165527798912105e-07
	2.436958779516547e-05
	9.605267105201736e-07
	7.517638158889768e-01

 58	5.800000000000003e-01
	-1.056825503549490e-15
	3.919812344565643e-18
	-1.031885027855914e-15
	1.042066955605405e-06
	3.051970140244604e-05
	1.234001265605899e-06
	7.517638317938559e-01

 59	5.900000000000003e-01
	-1.044706500524109e-15
	3.955937761745514e-18
	-1.090392434541923e-15
	1.321406486031790e-06
	3.791363112447092e-05
	1.575058954889638e-06
	7.517638516292786e-01

 60	6.000000000000003e-01
	-1.032602750769801e-15
	3.978797380650211e-18
	-1.149431264365791e-15
	1.664475567845596e-06
	4.671728448615330e-05
	1.996961476277826e-06
	7.517638761665311e-01

 61	6.100000000000003e-01
	-1.020556978753344e-15
	3.988148391645531e-18
	-1.208736329721602e-15
	2.082131231606251e-06
	5.710220829462305e-05
	2.514658565586218e-06
	7.517639062750773e-01

 62	6.200000000000003e-01
	-1.008611454967864e-15
	3.983938276753778e-18
	-1.268042090527694e-15
	2.586060695486849e-06
	6.924446445171727e-05
	3.144838415882077e-06
	7.517639429254896e-01

 63	6.300000000000003e-01
	-9.968072020126215e-16
	3.966302674443870e-18
	-1.327087543765828e-15
	3.188608261337524e-06
	8.332371029595485e-05
	3.905968049175708e-06
	7.517639871918002e-01

 64	6.400000000000003e-01
	-9.851832594995460e-16
	3.935557480493625e-18
	-1.385620831920859e-15
	3.902552020624493e-06
	9.952214247508875e-05
	4.818324154640231e-06
	7.517640402532947e-01

 65	6.500000000000004e-01
	-9.737760332152662e-16
	3.892185758108368e-18
	-1.443403408708016e-15
	4.740831350646476e-06
	1.180227811213659e-04
	5.904010531050676e-06
	7.517641033955275e-01

 66	6.600000000000004e-01
	-9.626187482430964e-16
	3.836820271709625e-18
	-1.500213632248087e-15
	5.716226621307782e-06
	1.390064814241894e-04
	7.186952495352617e-06
	7.517641780100000e-01

 67	6.700000000000004e-01
	-9.517410192362814e-16
	3.770222628431407e-18
	-1.555849693224460e-15
	6.840993501653920e-06
	1.626470997160651e-04
	8.692852575646808e-06
	7.517642655915826e-01

 68	6.800000000000004e-01
	-9.411685443001649e-16
	3.693260102595047e-18
	-1.610131825176187e-15
	8.126456699550060e-06
	1.891044223175911e-04
	1.044908687186254e-05
	7.517643677324874e-01

 69	6.900000000000004e-01
	-9.309229225114945e-16
	3.606881232580585e-18
	-1.662903782766969e-15
	9.582572584597675e-06
	2.185147741803721e-04
	1.248451900388485e-05
	7.517644861114517e-01

 70	7.000000000000004e-01
	-9.210215894099394e-16
	3.512091224787039e-18
	-1.714033608922654e-15
	1.121747698669665e-05
	2.509796273051060e-04
	1.482920969850283e-05
	7.517646224768434e-01

 71	7.100000000000004e-01
	-9.114778601475663e-16
	3.409928089026054e-18
	-1.763413741143426e-15
	1.303704268673470e-05
	2.865529760866398e-04
	1.751400549743774e-05
	7.517647786227412e-01

 72	7.200000000000004e-01
	-9.023010665487358e-16
	3.301440279817346e-18
	-1.810960529850273e-15
	1.504447898648451e-05
	3.252286727655868e-04
	2.056999992596563e-05
	7.517649563575928e-01

 73	7.300000000000004e-01
	-8.934967721585280e-16
	3.187666445476927e-18
	-1.856613256865752e-15
	1.724001095327374e-05
	3.669292415340932e-04
	2.402787414443336e-05
	7.517651574658646e-01

 74	7.400000000000004e-01
	-8.850670483758255e-16
	3.069617707338340e-18
	-1.900332750275771e-15
	1.962067619893962e-05
	4.114978286890841e-04
	2.791714017473390e-05
	7.517653836640222e-01

 75	7.500000000000004e-01
	-8.770107948297156e-16
	2.948262718263315e-18
	-1.942099693706755e-15
	2.218027086075181e-05
	4.586948248052036e-04
	3.226532599424279e-05
	7.517656365531321e-01

 76	7.600000000000005e-01
	-8.693240880657594e-16
	2.824515592956368e-18
	-1.981912724559421e-15
	2.490946372134476e-05
	5.082002786817642e-04
	3.709715530006629e-05
	7.517659175711481e-01

 77	7.700000000000005e-01
	-8.620005441413412e-16
	2.699226669286581e-18
	-2.019786408212671e-15
	2.779607977872247e-05
	5.596225422318118e-04
	4.243378270984188e-05
	7.517662279484257e-01

 78	7.800000000000005e-01
	-8.550316826682835e-16
	2.573175953398207e-18
	-2.055749164918424e-15
	3.082553517514488e-05
	6.125127458987995e-04
	4.829214540756912e-05
	7.517665686700107e-01

 79	7.900000000000005e-01
	-8.484072819882908e-16
	2.447069022671998e-18
	-2.089841214228398e-15
	3.398138801892957e-05
	6.663838691994435e-04
	5.468448396217649e-05
	7.517669404477630e-01

 80	8.000000000000005e-01
	-8.421157173562687e-16
	2.321535108248184e-18
	-2.122112589339736e-15
	3.724595769489355e-05
	7.207325195872868e-04
	6.161806919783810e-05
	7.517673437044730e-01

 81	8.100000000000005e-01
	-8.361442761086831e-16
	2.197127050017485e-18
	-2.152621261527521e-15
	4.060096080631006e-05
	7.750612050733693e-04
	6.909515117230158e-05
	7.517677785708899e-01

 82	8.200000000000005e-01
	-8.304794457165702e-16
	2.074322808029431e-18
	-2.181431403445092e-15
	4.402811512574142e-05
	8.288989396361063e-04
	7.711312412921142e-05
	7.517682448953200e-01

 83	8.300000000000005e-01
	-8.251071723074988e-16
	1.953528221082063e-18
	-2.208611809914723e-15
	4.750967234816074e-05
	8.818184165633800e-04
	8.566488142824304e-05
	7.517687422642728e-01

 84	8.400000000000005e-01
	-8.200130886585546e-16
	1.835080721802832e-18
	-2.234234486123614e-15
	5.102885346507019e-05
	9.334486076042616e-04
	9.473931981418074e-05
	7.517692700317907e-01

 85	8.500000000000005e-01
	-8.151827118075528e-16
	1.719253744073432e-18
	-2.258373405963263e-15
	5.457017441099530e-05
	9.834823444946840e-04
	1.043219444803653e-04
	7.517698273546485e-01

 86	8.600000000000005e-01
	-8.106016113134218e-16
	1.606261589932808e-18
	-2.281103437575597e-15
	5.811966195597607e-05
	1.031679074587409e-03
	1.143955252453678e-04
	7.517704132305191e-01

 87	8.700000000000006e-01
	-8.062555498420884e-16
	1.496264556446620e-18
	-2.302499428891071e-15
	6.166496919105373e-05
	1.077863458475507e-03
	1.249407586334781e-04
	7.517710265364858e-01

 88	8.800000000000006e-01
	-8.021305981912253e-16
	1.389374156364725e-18
	-2.322635442908952e-15
	6.519540587094331e-05
	1.121920755064548e-03
	1.359368988941345e-04
	7.517716660657492e-01

 89	8.900000000000006e-01
	-7.982132271288423e-16
	1.285658298179809e-18
	-2.341584130499224e-15
	6.870190156855858e-05
	1.163790028060527e-03
	1.473623310398287e-04
	7.517723305609556e-01

 90	9.000000000000006e-01
	-7.944903785402408e-16
	1.185146320434053e-18
	-2.359416227413100e-15
	7.217691972823303e-05
	1.203456148567293e-03
	1.591950691250192e-04
	7.517730187431840e-01

 91	9.100000000000006e-01
	-7.909495183864083e-16
	1.087833801175312e-18
	-2.376200161796401e-15
	7.561433910209157e-05
	1.240941415166625e-03
	1.714131720196023e-04
	7.517737293361250e-01

 92	9.200000000000006e-01
	-7.875786739028360e-16
	9.936870860827558e-19
	-2.392001758642102e-15
	7.900931649177783e-05
	1.276297416563488e-03
	1.839950761728127e-04
	7.517744610854413e-01

 93	9.300000000000006e-01
	-7.843664573350650e-16
	9.026474979169920e-19
	-2.406884028152037e-15
	8.235814181123188e-05
	1.309597562354042e-03
	1.969198500990215e-04
	7.517752127735660e-01

 94	9.400000000000006e-01
	-7.813020783362793e-16
	8.146352057680785e-19
	-2.420907025780364e-15
	8.565809365888855e-05
	1.340930530335564e-03
	2.101673786540718e-04
	7.517759832304226e-01

 95	9.500000000000006e-01
	-7.783753469591659e-16
	7.295527453196047e-19
	-2.434127772704297e-15
	8.890730108718338e-05
	1.370394736774920e-03
	2.237184869074009e-04
	7.517767713406285e-01

 96	9.600000000000006e-01
	-7.755766689717116e-16
	6.472881913561789e-19
	-2.446600226530736e-15
	9.210461519458615e-05
	1.398093832243873e-03
	2.375550139246208e-04
	7.517775760477858e-01

 97	9.700000000000006e-01
	-7.728970350240474e-16
	5.677179913597177e-19
	-2.458375293141271e-15
	9.524949255853008e-05
	1.424133156946518e-03
	2.516598464277859e-04
	7.517783963564413e-01

 98	9.800000000000006e-01
	-7.703280049976460e-16
	4.907094746221989e-19
	-2.469500871657446e-15
	9.834189133957290e-05
	1.448617049749699e-03
	2.660169214180804e-04
	7.517792313322339e-01

 99	9.900000000000007e-01
	-7.678616886838782e-16
	4.161230551921353e-19
	-2.480021925541570e-15
	1.013821800544357e-04
	1.471646887318629e-03
	2.806112056823098e-04
	7.517800801007068e-01

 100	1.000000000000001e+00
	-7.654907237688358e-16
	3.438141494663382e-19
	-2.489980573815430e-15
	1.043710584671558e-04
	1.493319727218783e-03
	2.954286588453522e-04
	7.517809418451550e-01

 101	1.010000000000001e+00
	-7.632082519470846e-16
	2.736348306288827e-19
	-2.499416197267025e-15
	1.073094897159597e-04
	1.513727436014967e-03
	3.104561853991730e-04
	7.517818158038353e-01

