Title: ** sch_path: /home/andylithia/openmpw/project-yatsuhashi-chip1/xschem/gmid_test/nmos_test.sch
Date: Sun Jul 17 22:51:45  2022
Plotname: DC transfer characteristic
Flags: real
No. Variables: 8
No. Points: 181
Variables:
	0	v(v-sweep)	voltage
	1	@m.xm1.msky130_fd_pr__nfet_01v8[cgb]	capacitance
	2	@m.xm1.msky130_fd_pr__nfet_01v8[cgd]	capacitance
	3	@m.xm1.msky130_fd_pr__nfet_01v8[cgs]	capacitance
	4	@m.xm1.msky130_fd_pr__nfet_01v8[gds]	admittance
	5	@m.xm1.msky130_fd_pr__nfet_01v8[gm]	admittance
	6	i(@m.xm1.msky130_fd_pr__nfet_01v8[id])	current
	7	v(@m.xm1.msky130_fd_pr__nfet_01v8[vth])	voltage
Values:
 0	0.000000000000000e+00
	-5.811429361243967e-15
	-6.198181404469001e-19
	-4.827390460084590e-15
	1.078875569211010e-09
	5.490646770053481e-08
	4.320342229403554e-09
	3.505966885251211e-01

 1	1.000000000000000e-02
	-5.744108007460192e-15
	-6.441265776987158e-19
	-4.974628863179357e-15
	1.223688851197069e-09
	6.223327261495324e-08
	4.905289001493547e-09
	3.505966885908403e-01

 2	2.000000000000000e-02
	-5.676698209739878e-15
	-6.693565089473498e-19
	-5.124115205460617e-15
	1.387448624369565e-09
	7.051945876619979e-08
	5.568204041854508e-09
	3.505966886653182e-01

 3	3.000000000000000e-02
	-5.609232929017623e-15
	-6.955401337209991e-19
	-5.275763351849611e-15
	1.572534493616427e-09
	7.988831692651708e-08
	6.319285296092711e-09
	3.505966887497020e-01

 4	4.000000000000000e-02
	-5.541746513429240e-15
	-7.227106346443222e-19
	-5.429481542730633e-15
	1.781605299704614e-09
	9.047887028126177e-08
	7.170040669149273e-09
	3.505966888452870e-01

 5	5.000000000000000e-02
	-5.474274587094711e-15
	-7.509022044754543e-19
	-5.585172581599853e-15
	2.017628093393647e-09
	1.024479418078707e-07
	8.133455456298786e-09
	3.505966889535269e-01

 6	6.000000000000000e-02
	-5.406853931164659e-15
	-7.801500741644190e-19
	-5.742734052171410e-15
	2.283909398872631e-09
	1.159725195066976e-07
	9.224181899847270e-09
	3.505966890760701e-01

 7	7.000000000000001e-02
	-5.339522357749224e-15
	-8.104905419972436e-19
	-5.902058564158365e-15
	2.584128811534906e-09
	1.312524680135903e-07
	1.045875408634671e-08
	3.505966892147763e-01

 8	8.000000000000000e-02
	-5.272318577422507e-15
	-8.419610038926789e-19
	-6.063034026687985e-15
	2.922374946611800e-09
	1.485136432598566e-07
	1.185583192424746e-08
	3.505966893717394e-01

 9	9.000000000000000e-02
	-5.205282061064345e-15
	-8.745999849215464e-19
	-6.225543948058885e-15
	3.303183720303455e-09
	1.680114760292764e-07
	1.343647855360950e-08
	3.505966895493248e-01

 10	9.999999999999999e-02
	-5.138452896862909e-15
	-9.084471721220947e-19
	-6.389467760303464e-15
	3.731578903230578e-09
	1.900351004703813e-07
	1.522447624820645e-08
	3.505966897502091e-01

 11	1.100000000000000e-01
	-5.071871643355461e-15
	-9.435434486876676e-19
	-6.554681166786731e-15
	4.213114836833432e-09
	2.149121147575576e-07
	1.724668668590878e-08
	3.505966899774043e-01

 12	1.200000000000000e-01
	-5.005579179430278e-15
	-9.799309296063116e-19
	-6.721056510852015e-15
	4.753921146444354e-09
	2.430140729579053e-07
	1.953346239397060e-08
	3.505966902343278e-01

 13	1.300000000000000e-01
	-4.939616552248587e-15
	-1.017652998835339e-18
	-6.888463163326596e-15
	5.360749220042117e-09
	2.747628194227537e-07
	2.211911722759334e-08
	3.505966905248301e-01

 14	1.400000000000000e-01
	-4.874024824071706e-15
	-1.056754348096909e-18
	-7.056767926516368e-15
	6.041020149235737e-09
	3.106377891853867e-07
	2.504246491444007e-08
	3.505966908532717e-01

 15	1.500000000000000e-01
	-4.808844918994338e-15
	-1.097281017384545e-18
	-7.225835452164123e-15
	6.802873749247721e-09
	3.511844092114865e-07
	2.834743599044899e-08
	3.505966912245904e-01

 16	1.600000000000000e-01
	-4.744117470590028e-15
	-1.139280437273519e-18
	-7.395528670713276e-15
	7.655218188280593e-09
	3.970237449754985e-07
	3.208378485077425e-08
	3.505966916443765e-01

 17	1.700000000000000e-01
	-4.679882671469141e-15
	-1.182801473132129e-18
	-7.565709229114384e-15
	8.607779664813986e-09
	4.488635435136613e-07
	3.630790012082861e-08
	3.505966921189625e-01

 18	1.800000000000000e-01
	-4.616180125733323e-15
	-1.227894471333993e-18
	-7.736237934336437e-15
	9.671151475660516e-09
	5.075108263245319e-07
	4.108373307940004e-08
	3.505966926555395e-01

 19	1.900000000000000e-01
	-4.553048705282902e-15
	-1.274611307575999e-18
	-7.906975199700891e-15
	1.085684172008610e-08
	5.738861814376603e-07
	4.648386038533625e-08
	3.505966932622563e-01

 20	2.000000000000000e-01
	-4.490526410897033e-15
	-1.323005437409537e-18
	-8.077781491139045e-15
	1.217731878850919e-08
	6.490398915423722e-07
	5.259069879818599e-08
	3.505966939483745e-01

 21	2.100000000000000e-01
	-4.428650238958519e-15
	-1.373131949097415e-18
	-8.248517770492916e-15
	1.364605369135054e-08
	7.341700119069475e-07
	5.949789084629738e-08
	3.505966947244190e-01

 22	2.200000000000001e-01
	-4.367456054639875e-15
	-1.425047618912717e-18
	-8.419045933024067e-15
	1.527755819799938e-08
	8.306424753952184e-07
	6.731188136308171e-08
	3.505966956023458e-01

 23	2.300000000000001e-01
	-4.306978472302408e-15
	-1.478810969000137e-18
	-8.589229236372068e-15
	1.708741768159890e-08
	9.400132496381106e-07
	7.615370533812590e-08
	3.505966965957543e-01

 24	2.400000000000001e-01
	-4.247250743788879e-15
	-1.534482327924757e-18
	-8.758932718309569e-15
	1.909231750673292e-08
	1.064052500916903e-06
	8.616100744398430e-08
	3.505966977201150e-01

 25	2.500000000000001e-01
	-4.188304655212105e-15
	-1.592123894038284e-18
	-8.928023600772436e-15
	2.131006175861054e-08
	1.204770628516884e-06
	9.749031270853859e-08
	3.505966989930105e-01

 26	2.600000000000001e-01
	-4.130170432759495e-15
	-1.651799801797034e-18
	-9.096371677798507e-15
	2.375958309857132e-08
	1.364445920842265e-06
	1.103195658962486e-07
	3.505967004344380e-01

 27	2.700000000000001e-01
	-4.072876657946104e-15
	-1.713576191171549e-18
	-9.263849685188847e-15
	2.646094254613191e-08
	1.545653450088763e-06
	1.248509540201338e-07
	3.505967020671124e-01

 28	2.800000000000001e-01
	-4.016450192659880e-15
	-1.777521280292932e-18
	-9.430333649901024e-15
	2.943531803636979e-08
	1.751294666768775e-06
	1.413140218130815e-07
	3.505967039168326e-01

 29	2.900000000000001e-01
	-3.960916114251312e-15
	-1.843705441486684e-18
	-9.595703217399708e-15
	3.270498068676181e-08
	1.984626981659842e-06
	1.599690837447613e-07
	3.505967060128451e-01

 30	3.000000000000001e-01
	-3.906297660828992e-15
	-1.912201280850385e-18
	-9.759841955415353e-15
	3.629325783221457e-08
	2.249292435669378e-06
	1.811109281187799e-07
	3.505967083882716e-01

 31	3.100000000000001e-01
	-3.852616186832157e-15
	-1.983083721538489e-18
	-9.922637632799911e-15
	4.022448205258006e-08
	2.549344364913751e-06
	2.050727988248210e-07
	3.505967110805623e-01

 32	3.200000000000001e-01
	-3.799891128863326e-15
	-2.056430090923503e-18
	-1.008398247241176e-14
	4.452392562365801e-08
	2.889270778710137e-06
	2.322306284373926e-07
	3.505967141319603e-01

 33	3.300000000000001e-01
	-3.748139981679269e-15
	-2.132320211810235e-18
	-1.024377337720780e-14
	4.921772006931045e-08
	3.274012994318409e-06
	2.630074826411806e-07
	3.505967175900016e-01

 34	3.400000000000001e-01
	-3.697378284158087e-15
	-2.210836497886678e-18
	-1.040191212896731e-14
	5.433276077600289e-08
	3.708977928424978e-06
	2.978781606502642e-07
	3.505967215080449e-01

 35	3.500000000000001e-01
	-3.647619614984153e-15
	-2.292064053603982e-18
	-1.055830555931599e-14
	5.989659694729747e-08
	4.200042347363324e-06
	3.373738797529488e-07
	3.505967259457823e-01

 36	3.600000000000002e-01
	-3.598875597723261e-15
	-2.376090778684632e-18
	-1.071286569295346e-14
	6.593730751818056e-08
	4.753547342430975e-06
	3.820869548962456e-07
	3.505967309697736e-01

 37	3.700000000000002e-01
	-3.551155914896725e-15
	-2.463007477468530e-18
	-1.086550986321680e-14
	7.248336400983086e-08
	5.376281339439867e-06
	4.326753670296303e-07
	3.505967366539602e-01

 38	3.800000000000002e-01
	-3.504468330606684e-15
	-2.552907973314856e-18
	-1.101616080032799e-14
	7.956348167505902e-08
	6.075450086980215e-06
	4.898670976132376e-07
	3.505967430801512e-01

 39	3.900000000000002e-01
	-3.458818721215849e-15
	-2.645889228288065e-18
	-1.116474669287578e-14
	8.720646065262025e-08
	6.858632306499832e-06
	5.544640922441021e-07
	3.505967503384671e-01

 40	4.000000000000002e-01
	-3.414211113543196e-15
	-2.742051468366676e-18
	-1.131120122326959e-14
	9.544101920345096e-08
	7.733720034863200e-06
	6.273457048315562e-07
	3.505967585277255e-01

 41	4.100000000000002e-01
	-3.370647730003147e-15
	-2.841498314424767e-18
	-1.145546357807306e-14
	1.042956214316263e-07
	8.708843145685574e-06
	7.094714662503766e-07
	3.505967677557613e-01

 42	4.200000000000002e-01
	-3.328129040089376e-15
	-2.944336919248471e-18
	-1.159747843427710e-14
	1.137983021854941e-07
	9.792278090868811e-06
	8.018830189627909e-07
	3.505967781396329e-01

 43	4.300000000000002e-01
	-3.286653817585596e-15
	-3.050678110861455e-18
	-1.173719592270491e-14
	1.239764920783336e-07
	1.099234154142379e-05
	9.057050626445563e-07
	3.505967898057366e-01

 44	4.400000000000002e-01
	-3.246219202873907e-15
	-3.160636542447711e-18
	-1.187457156985556e-14
	1.348568457525400e-07
	1.231727030146958e-05
	1.022145166082492e-06
	3.505968028897812e-01

 45	4.500000000000002e-01
	-3.206820769706745e-15
	-3.274330849173910e-18
	-1.200956621958666e-14
	1.464650766273335e-07
	1.377508958814558e-05
	1.152492317941508e-06
	3.505968175366281e-01

 46	4.600000000000002e-01
	-3.168452595810191e-15
	-3.391883812228868e-18
	-1.214214593611144e-14
	1.588258014102216e-07
	1.537347247383491e-05
	1.298114113478089e-06
	3.505968338999707e-01

 47	4.700000000000003e-01
	-3.131107336694391e-15
	-3.513422530413244e-18
	-1.227228188984164e-14
	1.719623976117950e-07
	1.711959393251161e-05
	1.460452505538231e-06
	3.505968521418629e-01

 48	4.800000000000003e-01
	-3.094776302060127e-15
	-3.639078599631097e-18
	-1.239995022764482e-14
	1.858968771797287e-07
	1.901998347530283e-05
	1.641018085419030e-06
	3.505968724320701e-01

 49	4.900000000000003e-01
	-3.059449534209046e-15
	-3.768988300651242e-18
	-1.252513192910542e-14
	2.006497791616616e-07
	2.108038076015915e-05
	1.841382901161729e-06
	3.505968949472634e-01

 50	5.000000000000002e-01
	-3.025115887887840e-15
	-3.903292795527806e-18
	-1.264781265038179e-14
	2.162400840217908e-07
	2.330559878160202e-05
	2.063171865963314e-06
	3.505969198700585e-01

 51	5.100000000000002e-01
	-2.991763111023021e-15
	-4.042138333088010e-18
	-1.276798255724152e-14
	2.326851518793669e-07
	2.569939926296604e-05
	2.308052855717138e-06
	3.505969473878968e-01

 52	5.200000000000002e-01
	-2.959377925832740e-15
	-4.185676463918740e-18
	-1.288563614883095e-14
	2.500006865186222e-07
	2.826438467154511e-05
	2.577725640093519e-06
	3.505969776917985e-01

 53	5.300000000000002e-01
	-2.927946109834444e-15
	-4.334064265305256e-18
	-1.300077207369761e-14
	2.682007265516284e-07
	3.100191085662435e-05
	2.873909833852505e-06
	3.505970109750204e-01

 54	5.400000000000003e-01
	-2.897452576301066e-15
	-4.487464576601466e-18
	-1.311339293953658e-14
	2.872976646130222e-07
	3.391202368612100e-05
	3.198332092121043e-06
	3.505970474316008e-01

 55	5.500000000000003e-01
	-2.867881453754431e-15
	-4.646046245536190e-18
	-1.322350511807239e-14
	3.073022949447582e-07
	3.699342225794510e-05
	3.552712803253952e-06
	3.505970872548768e-01

 56	5.600000000000003e-01
	-2.839216164120935e-15
	-4.809984385987728e-18
	-1.333111854642312e-14
	3.282238892079293e-07
	4.024345032792241e-05
	3.938752554079912e-06
	3.505971306359558e-01

 57	5.700000000000003e-01
	-2.811439499211561e-15
	-4.979460647789830e-18
	-1.343624652621974e-14
	3.500702998546980e-07
	4.365811657698967e-05
	4.358118653699814e-06
	3.505971777621995e-01

 58	5.800000000000003e-01
	-2.784533695225365e-15
	-5.154663499160978e-18
	-1.353890552167628e-14
	3.728480899239476e-07
	4.723214329175833e-05
	4.812432002984805e-06
	3.505972288157549e-01

 59	5.900000000000003e-01
	-2.758480505011833e-15
	-5.335788522384425e-18
	-1.363911495772418e-14
	3.965626877052881e-07
	5.095904201113022e-05
	5.303254587504642e-06
	3.505972839721437e-01

 60	6.000000000000003e-01
	-2.733261267863666e-15
	-5.523038723399157e-18
	-1.373689701923923e-14
	4.212185643612016e-07
	5.483121375124169e-05
	5.832077852345275e-06
	3.505973433989575e-01

 61	6.100000000000003e-01
	-2.708856976645739e-15
	-5.716624856000924e-18
	-1.383227645230367e-14
	4.468194323178413e-07
	5.884007060880807e-05
	6.400312189206737e-06
	3.505974072546762e-01

 62	6.200000000000003e-01
	-2.685248342099810e-15
	-5.916765761389883e-18
	-1.392528036835840e-14
	4.733684620391088e-07
	6.297617489626967e-05
	7.009277730781753e-06
	3.505974756876343e-01

 63	6.300000000000003e-01
	-2.662415854195797e-15
	-6.123688723843979e-18
	-1.401593805201481e-14
	5.008685146909811e-07
	6.722939150645603e-05
	7.660196606499130e-06
	3.505975488351536e-01

 64	6.400000000000003e-01
	-2.640339840430850e-15
	-6.337629843340664e-18
	-1.410428077320934e-14
	5.293223881848087e-07
	7.158904895222671e-05
	8.354186769255445e-06
	3.505976268228397e-01

 65	6.500000000000004e-01
	-2.619000521005399e-15
	-6.558834425995061e-18
	-1.419034160430140e-14
	5.587330741573090e-07
	7.604410447723735e-05
	9.092257456794535e-06
	3.505977097640885e-01

 66	6.600000000000004e-01
	-2.598378060831360e-15
	-6.787557393232279e-18
	-1.427415524263463e-14
	5.891040235965851e-07
	8.058330877538549e-05
	9.875306305913601e-06
	3.505977977597529e-01

 67	6.700000000000004e-01
	-2.578452618352080e-15
	-7.024063710664320e-18
	-1.435575783900354e-14
	6.204394190495567e-07
	8.519536616628268e-05
	1.070411809446381e-05
	3.505978908980009e-01

 68	6.800000000000004e-01
	-2.559204391175362e-15
	-7.268628837693317e-18
	-1.443518683239409e-14
	6.527444516379436e-07
	8.986908652270314e-05
	1.157936504673111e-05
	3.505979892543539e-01

 69	6.900000000000004e-01
	-2.540613658540908e-15
	-7.521539198924733e-18
	-1.451248079129699e-14
	6.860256014563774e-07
	9.459352579889471e-05
	1.250160860343650e-05
	3.505980928918829e-01

 70	7.000000000000004e-01
	-2.522660820661503e-15
	-7.783092678531055e-18
	-1.458767926182620e-14
	7.202909203161087e-07
	9.935811262956055e-05
	1.347130252914701e-05
	3.505982018615658e-01

 71	7.100000000000004e-01
	-2.505326434992843e-15
	-8.053599138775822e-18
	-1.466082262281501e-14
	7.555503162204968e-07
	1.041527591225314e-04
	1.448879720784944e-05
	3.505983162027588e-01

 72	7.200000000000004e-01
	-2.488591249501162e-15
	-8.333380963970757e-18
	-1.473195194800384e-14
	7.918158394027963e-07
	1.089679546205151e-04
	1.555434496194071e-05
	3.505984359438039e-01

 73	7.300000000000004e-01
	-2.472436233009434e-15
	-8.622773631214263e-18
	-1.480110887538339e-14
	8.291019702145436e-07
	1.137948418303779e-04
	1.666810622080487e-05
	3.505985611027207e-01

 74	7.400000000000004e-01
	-2.456842602713429e-15
	-8.922126309337054e-18
	-1.486833548370820e-14
	8.674259096156963e-07
	1.186252752888806e-04
	1.783015636203813e-05
	3.505986916879648e-01

 75	7.500000000000004e-01
	-2.441791848967269e-15
	-9.231802487555664e-18
	-1.493367417615295e-14
	9.068078734800434e-07
	1.234518626345662e-04
	1.904049305063984e-05
	3.505988276992690e-01

 76	7.600000000000005e-01
	-2.427265757445020e-15
	-9.552180635427826e-18
	-1.499716757104569e-14
	9.472713923884001e-07
	1.282679895755279e-04
	2.029904390837007e-05
	3.505989691284941e-01

 77	7.700000000000005e-01
	-2.413246428790396e-15
	-9.883654895786357e-18
	-1.505885839957749e-14
	9.888436190348547e-07
	1.330678297764670e-04
	2.160567435610598e-05
	3.505991159605120e-01

 78	7.800000000000005e-01
	-2.399716295870694e-15
	-1.022663581243019e-17
	-1.511878941035816e-14
	1.031555645819927e-06
	1.378463411354996e-04
	2.296019548558062e-05
	3.505992681740923e-01

 79	7.900000000000005e-01
	-2.386658138753788e-15
	-1.058155109444671e-17
	-1.517700328066151e-14
	1.075442835650603e-06
	1.425992500851675e-04
	2.436237183247878e-05
	3.505994257427699e-01

 80	8.000000000000005e-01
	-2.374055097528918e-15
	-1.094884641915122e-17
	-1.523354253418116e-14
	1.120545169415989e-06
	1.473230256399452e-04
	2.581192893971033e-05
	3.505995886357043e-01

 81	8.100000000000005e-01
	-2.361890683092359e-15
	-1.132898627573812e-17
	-1.528844946509928e-14
	1.166907614065203e-06
	1.520148449333356e-04
	2.730856061706469e-05
	3.505997568184860e-01

 82	8.200000000000005e-01
	-2.350148786019140e-15
	-1.172245485186116e-17
	-1.534176606825454e-14
	1.214580515689104e-06
	1.566725519517482e-04
	2.885193582074022e-05
	3.505999302539155e-01

 83	8.300000000000005e-01
	-2.338813683640601e-15
	-1.212975696548516e-17
	-1.539353397518352e-14
	1.263620022509793e-06
	1.612946110907749e-04
	3.044170509294470e-05
	3.506001089027214e-01

 84	8.400000000000005e-01
	-2.327870045446052e-15
	-1.255141904448484e-17
	-1.544379439579975e-14
	1.314088543222425e-06
	1.658800570429821e-04
	3.207750651745883e-05
	3.506002927242324e-01

 85	8.500000000000005e-01
	-2.317302936924303e-15
	-1.298799015660714e-17
	-1.549258806546713e-14
	1.366055246726222e-06
	1.704284423851432e-04
	3.375897116145552e-05
	3.506004816769915e-01

 86	8.600000000000005e-01
	-2.307097821957783e-15
	-1.344004309256683e-17
	-1.553995519722041e-14
	1.419596609939999e-06
	1.749397840761690e-04
	3.548572798677664e-05
	3.506006757193000e-01

 87	8.700000000000006e-01
	-2.297240563878944e-15
	-1.390817550519468e-17
	-1.558593543888150e-14
	1.474797021138136e-06
	1.794145099127897e-04
	3.725740822515390e-05
	3.506008748097209e-01

 88	8.800000000000006e-01
	-2.287717425294594e-15
	-1.439301110773496e-17
	-1.563056783482031e-14
	1.531749447084819e-06
	1.838534058251042e-04
	3.907364922151574e-05
	3.506010789074962e-01

 89	8.900000000000006e-01
	-2.278515066780048e-15
	-1.489520093455388e-17
	-1.567389079210910e-14
	1.590556173206819e-06
	1.882575647336161e-04
	4.093409775751959e-05
	3.506012879729316e-01

 90	9.000000000000006e-01
	-2.269620544540527e-15
	-1.541542466771484e-17
	-1.571594205082204e-14
	1.651329627152488e-06
	1.926283375375780e-04
	4.283841287390911e-05
	3.506015019677088e-01

 91	9.100000000000006e-01
	-2.261021307133136e-15
	-1.595439203306936e-17
	-1.575675865823410e-14
	1.714193297361964e-06
	1.969672866640858e-04
	4.478626821527189e-05
	3.506017208551543e-01

 92	9.200000000000006e-01
	-2.252705191337760e-15
	-1.651284426971753e-17
	-1.579637694667973e-14
	1.779282759751491e-06
	2.012761424803819e-04
	4.677735392442583e-05
	3.506019446004409e-01

 93	9.300000000000006e-01
	-2.244660417261279e-15
	-1.709155567691455e-17
	-1.583483251483504e-14
	1.846746827326142e-06
	2.055567627591253e-04
	4.881137811610303e-05
	3.506021731707655e-01

 94	9.400000000000006e-01
	-2.236875582754190e-15
	-1.769133524272496e-17
	-1.587216021219589e-14
	1.916748839520548e-06
	2.098110952883047e-04
	5.088806796100228e-05
	3.506024065354619e-01

 95	9.500000000000006e-01
	-2.229339657214705e-15
	-1.831302835897316e-17
	-1.590839412652918e-14
	1.989468110369593e-06
	2.140411436335804e-04
	5.300717041175842e-05
	3.506026446660937e-01

 96	9.600000000000006e-01
	-2.222041974850449e-15
	-1.895751862729177e-17
	-1.594356757408351e-14
	2.065101557284146e-06
	2.182489359905026e-04
	5.516845260210150e-05
	3.506028875364843e-01

 97	9.700000000000006e-01
	-2.214972227463541e-15
	-1.962572976133752e-17
	-1.597771309235256e-14
	2.143865535308586e-06
	2.224364970060472e-04
	5.737170194953684e-05
	3.506031351227389e-01

 98	9.800000000000006e-01
	-2.208120456820507e-15
	-2.031862759052747e-17
	-1.601086243519288e-14
	2.225997905338805e-06
	2.266058224021528e-04
	5.961672599044516e-05
	3.506033874032263e-01

 99	9.900000000000007e-01
	-2.201477046663914e-15
	-2.103722217094997e-17
	-1.604304657010630e-14
	2.311760368959534e-06
	2.307588561968725e-04
	6.190335197462824e-05
	3.506036443585235e-01

 100	1.000000000000001e+00
	-2.195032714418873e-15
	-2.178257000940451e-17
	-1.607429567750531e-14
	2.401441107411217e-06
	2.348974702899809e-04
	6.423142624412360e-05
	3.506039059713605e-01

 101	1.010000000000001e+00
	-2.188778502643003e-15
	-2.255577640686970e-17
	-1.610463915178890e-14
