Title: ** sch_path: /home/andylithia/openmpw/project-yatsuhashi-chip1/xschem/gmid_test/nmos_test.sch
Date: Sun Jul 17 22:51:45  2022
Plotname: DC transfer characteristic
Flags: real
No. Variables: 8
No. Points: 181
Variables:
	0	v(v-sweep)	voltage
	1	@m.xm1.msky130_fd_pr__nfet_01v8[cgb]	capacitance
	2	@m.xm1.msky130_fd_pr__nfet_01v8[cgd]	capacitance
	3	@m.xm1.msky130_fd_pr__nfet_01v8[cgs]	capacitance
	4	@m.xm1.msky130_fd_pr__nfet_01v8[gds]	admittance
	5	@m.xm1.msky130_fd_pr__nfet_01v8[gm]	admittance
	6	i(@m.xm1.msky130_fd_pr__nfet_01v8[id])	current
	7	v(@m.xm1.msky130_fd_pr__nfet_01v8[vth])	voltage
Values:
 0	0.000000000000000e+00
	-6.919828230724352e-15
	-2.410473602958901e-18
	-1.131762791230404e-14
	3.149815607397008e-08
	1.072197114843785e-06
	1.267362336934087e-07
	2.375447676927503e-01

 1	1.000000000000000e-02
	-6.842914051827311e-15
	-2.478538552657030e-18
	-1.149551484194461e-14
	3.418335427939822e-08
	1.165939470471035e-06
	1.379203523440689e-07
	2.375447689879133e-01

 2	2.000000000000000e-02
	-6.766832933383161e-15
	-2.548537538896252e-18
	-1.167352495340761e-14
	3.708728337188340e-08
	1.267903416535255e-06
	1.500824094394001e-07
	2.375447703963302e-01

 3	3.000000000000000e-02
	-6.691604410228689e-15
	-2.620526317558949e-18
	-1.185158791138378e-14
	4.022656638484661e-08
	1.378833452686070e-06
	1.633082858164240e-07
	2.375447719279478e-01

 4	4.000000000000000e-02
	-6.617247633659893e-15
	-2.694562333538202e-18
	-1.202963333664014e-14
	4.361895742575523e-08
	1.499546563369420e-06
	1.776916635951617e-07
	2.375447735936183e-01

 5	5.000000000000000e-02
	-6.543781331792963e-15
	-2.770704777244356e-18
	-1.220759090745206e-14
	4.728340505744597e-08
	1.630939950490613e-06
	1.933347890001688e-07
	2.375447754051783e-01

 6	6.000000000000000e-02
	-6.471223771249502e-15
	-2.849014643242111e-18
	-1.238539046079700e-14
	5.124011796592631e-08
	1.773999629618427e-06
	2.103493167533621e-07
	2.375447773755639e-01

 7	7.000000000000001e-02
	-6.399592720266361e-15
	-2.929554791107773e-18
	-1.256296209301819e-14
	5.551063289180444e-08
	1.929809979400006e-06
	2.288572451161315e-07
	2.375447795189065e-01

 8	8.000000000000000e-02
	-6.328905413325940e-15
	-3.012390008599395e-18
	-1.274023625966604e-14
	6.011788479357287e-08
	2.099564340639160e-06
	2.489919515891309e-07
	2.375447818506553e-01

 9	9.000000000000000e-02
	-6.259178517396618e-15
	-3.097587077237435e-18
	-1.291714387423027e-14
	6.508627920201702e-08
	2.284576768248120e-06
	2.708993402765578e-07
	2.375447843877042e-01

 10	9.999999999999999e-02
	-6.190428099867143e-15
	-3.185214840397302e-18
	-1.309361640547940e-14
	7.044176671598284e-08
	2.486295045884488e-06
	2.947391129868761e-07
	2.375447871485574e-01

 11	1.100000000000000e-01
	-6.122669598251808e-15
	-3.275344274021401e-18
	-1.326958597313273e-14
	7.621191958085110e-08
	2.706315079381660e-06
	3.206861772719864e-07
	2.375447901534725e-01

 12	1.200000000000000e-01
	-6.055917791736784e-15
	-3.368048560061141e-18
	-1.344498544159486e-14
	8.242601028220434e-08
	2.946396790885788e-06
	3.489322057970582e-07
	2.375447934246517e-01

 13	1.300000000000000e-01
	-5.990186774630299e-15
	-3.463403162765359e-18
	-1.361974851149381e-14
	8.911509207869341e-08
	3.208481640722973e-06
	3.796873626787378e-07
	2.375447969864413e-01

 14	1.400000000000000e-01
	-5.925489931772010e-15
	-3.561485907938767e-18
	-1.379380980877316e-14
	9.631208138987647e-08
	3.494711908187463e-06
	4.131822137211737e-07
	2.375448008655480e-01

 15	1.500000000000000e-01
	-5.861839915949152e-15
	-3.662377065295691e-18
	-1.396710497109960e-14
	1.040518419470204e-07
	3.807451865392219e-06
	4.496698388068900e-07
	2.375448050912874e-01

 16	1.600000000000000e-01
	-5.799248627358962e-15
	-3.766159434044917e-18
	-1.413957073136032e-14
	1.123712706076218e-07
	4.149310979747012e-06
	4.894281660493906e-07
	2.375448096958588e-01

 17	1.700000000000000e-01
	-5.737727195148857e-15
	-3.872918431844334e-18
	-1.431114499803779e-14
	1.213093847277540e-07
	4.523169280176831e-06
	5.327625486692127e-07
	2.375448147146345e-01

 18	1.800000000000000e-01
	-5.677285961057708e-15
	-3.982742187272041e-18
	-1.448176693226315e-14
	1.309074109803819e-07
	4.932205019483340e-06
	5.800086068944126e-07
	2.375448201864958e-01

 19	1.900000000000000e-01
	-5.617934465173389e-15
	-4.095721635967211e-18
	-1.465137702136525e-14
	1.412088755026503e-07
	5.379924759867649e-06
	6.315353584857630e-07
	2.375448261541923e-01

 20	2.000000000000000e-01
	-5.559681433813577e-15
	-4.211950620601533e-18
	-1.481991714874754e-14
	1.522596952508421e-07
	5.870196000121103e-06
	6.877486627168715e-07
	2.375448326647483e-01

 21	2.100000000000000e-01
	-5.502534769528401e-15
	-4.331525994848998e-18
	-1.498733065994216e-14
	1.641082704383695e-07
	6.407282450873004e-06
	7.490950037667580e-07
	2.375448397698883e-01

 22	2.200000000000001e-01
	-5.446501543216495e-15
	-4.454547731530214e-18
	-1.515356242470548e-14
	1.768055779298177e-07
	6.995882048051635e-06
	8.160656404679946e-07
	2.375448475265304e-01

 23	2.300000000000001e-01
	-5.391587988336897e-15
	-4.581119035115984e-18
	-1.531855889503925e-14
	1.904052654628799e-07
	7.641167773847400e-06
	8.892011501543957e-07
	2.375448559973104e-01

 24	2.400000000000001e-01
	-5.337799497192748e-15
	-4.711346458783409e-18
	-1.548226815903680e-14
	2.049637465700181e-07
	8.348831328425279e-06
	9.690963949186083e-07
	2.375448652511462e-01

 25	2.500000000000001e-01
	-5.285140619255104e-15
	-4.845340026226387e-18
	-1.564463999047161e-14
	2.205402960728688e-07
	9.125129663880940e-06
	1.056405938867282e-06
	2.375448753638860e-01

 26	2.600000000000001e-01
	-5.233615061487633e-15
	-4.983213358433990e-18
	-1.580562589406480e-14
	2.371971460252064e-07
	9.976934353963431e-06
	1.151849944891686e-06
	2.375448864189768e-01

 27	2.700000000000001e-01
	-5.183225690627234e-15
	-5.125083805658682e-18
	-1.596517914638359e-14
	2.549995819842269e-07
	1.091178372838157e-05
	1.256220578986884e-06
	2.375448985082105e-01

 28	2.800000000000001e-01
	-5.133974537368448e-15
	-5.271072584806761e-18
	-1.612325483234138e-14
	2.740160394957561e-07
	1.193793764865357e-05
	1.370388949186723e-06
	2.375449117325288e-01

 29	2.900000000000001e-01
	-5.085862802394083e-15
	-5.421304922497468e-18
	-1.627980987728713e-14
	2.943182006863641e-07
	1.306443474305540e-05
	1.495312604658714e-06
	2.375449262028989e-01

 30	3.000000000000001e-01
	-5.038890864188672e-15
	-5.575910204045950e-18
	-1.643480307468846e-14
	3.159810908647786e-07
	1.430115185100672e-05
	1.632043618347204e-06
	2.375449420412390e-01

 31	3.100000000000001e-01
	-4.993058288566620e-15
	-5.735022128639765e-18
	-1.658819510942890e-14
	3.390831750463121e-07
	1.565886535203548e-05
	1.781737273684532e-06
	2.375449593814328e-01

 32	3.200000000000001e-01
	-4.948363839842049e-15
	-5.898778870989540e-18
	-1.673994857675584e-14
	3.637064543277594e-07
	1.714931397128581e-05
	1.945661372229395e-06
	2.375449783704165e-01

 33	3.300000000000001e-01
	-4.904805493563185e-15
	-6.067323249753968e-18
	-1.689002799693150e-14
	3.899365620565168e-07
	1.878526256255741e-05
	2.125206174560146e-06
	2.375449991693132e-01

 34	3.400000000000001e-01
	-4.862380450730769e-15
	-6.240802903044291e-18
	-1.703839982565216e-14
	4.178628597565258e-07
	2.058056627146955e-05
	2.321894981269938e-06
	2.375450219546749e-01

 35	3.500000000000001e-01
	-4.821085153416500e-15
	-6.419370471338544e-18
	-1.718503246031646e-14
	4.475785327960433e-07
	2.255023437620936e-05
	2.537395354413354e-06
	2.375450469197819e-01

 36	3.600000000000002e-01
	-4.780915301695027e-15
	-6.603183788146528e-18
	-1.732989624223540e-14
	4.791806858077766e-07
	2.471049299236373e-05
	2.773530972173225e-06
	2.375450742760132e-01

 37	3.700000000000002e-01
	-4.741865871800711e-15
	-6.792406078783648e-18
	-1.747296345488927e-14
	5.127704379016551e-07
	2.707884571282586e-05
	3.032294100802114e-06
	2.375451042542957e-01

 38	3.800000000000002e-01
	-4.703931135418956e-15
	-6.987206167632301e-18
	-1.761420831834753e-14
	5.484530177444834e-07
	2.967413113532774e-05
	3.315858658006954e-06
	2.375451371066250e-01

 39	3.900000000000002e-01
	-4.667104680020133e-15
	-7.187758694286189e-18
	-1.775360697997894e-14
	5.863378586198126e-07
	3.251657611077520e-05
	3.626593830868439e-06
	2.375451731076332e-01

 40	4.000000000000002e-01
	-4.631379430144230e-15
	-7.394244338992604e-18
	-1.789113750158682e-14
	6.265386936256918e-07
	3.562784342763848e-05
	3.967078199118985e-06
	2.375452125562391e-01

 41	4.100000000000002e-01
	-4.596747669543165e-15
	-7.606850057830215e-18
	-1.802677984311492e-14
	6.691736512187809e-07
	3.903107253402447e-05
	4.340114301177892e-06
	2.375452557773310e-01

 42	4.200000000000002e-01
	-4.563201064088524e-15
	-7.825769328081480e-18
	-1.816051584307475e-14
	7.143653513705662e-07
	4.275091179289245e-05
	4.748743565811334e-06
	2.375453031235044e-01

 43	4.300000000000002e-01
	-4.530730685352650e-15
	-8.051202404279013e-18
	-1.829232919585321e-14
	7.622410026664265e-07
	4.681354067084842e-05
	5.196261516747838e-06
	2.375453549768183e-01

 44	4.400000000000002e-01
	-4.499327034772368e-15
	-8.283356585435200e-18
	-1.842220542606330e-14
	8.129325007513818e-07
	5.124668018099699e-05
	5.686233141162173e-06
	2.375454117505862e-01

 45	4.500000000000002e-01
	-4.468980068305357e-15
	-8.522446493983261e-18
	-1.855013186010703e-14
	8.665765286084350e-07
	5.607958983977726e-05
	6.222508295818553e-06
	2.375454738911530e-01

 46	4.600000000000002e-01
	-4.439679221491707e-15
	-8.768694366991108e-18
	-1.867609759512092e-14
	9.233146592471216e-07
	6.134304936107518e-05
	6.809237007051019e-06
	2.375455418796835e-01

 47	4.700000000000003e-01
	-4.411413434834304e-15
	-9.022330360233208e-18
	-1.880009346547945e-14
	9.832934614821441e-07
	6.706932330292259e-05
	7.450884502922854e-06
	2.375456162338926e-01

 48	4.800000000000003e-01
	-4.384171179414838e-15
	-9.283592865736881e-18
	-1.892211200703133e-14
	1.046664609594770e-06
	7.329210690742186e-05
	8.152245798149230e-06
	2.375456975097466e-01

 49	4.900000000000003e-01
	-4.357940482664184e-15
	-9.552728843452501e-18
	-1.904214741924610e-14
	1.113584997794692e-06
	8.004645143790244e-05
	8.918459635058650e-06
	2.375457863030656e-01

 50	5.000000000000002e-01
	-4.332708954209159e-15
	-9.829994167727038e-18
	-1.916019552544695e-14
	1.184216860536319e-06
	8.736866742294541e-05
	9.755021567395133e-06
	2.375458832510564e-01

 51	5.100000000000002e-01
	-4.308463811720386e-15
	-1.011565398929601e-17
	-1.927625373130649e-14
	1.258727899892755e-06
	9.529620436883697e-05
	1.066779595858571e-05
	2.375459890336902e-01

 52	5.200000000000002e-01
	-4.285191906689516e-15
	-1.040998311354895e-17
	-1.939032098177914e-14
	1.337291421351604e-06
	1.038675057033361e-04
	1.166302665267891e-05
	2.375461043749455e-01

 53	5.300000000000002e-01
	-4.262879750067226e-15
	-1.071326639585517e-17
	-1.950239771664270e-14
	1.420086479570676e-06
	1.131218379668542e-04
	1.274734606502387e-05
	2.375462300438534e-01

 54	5.400000000000003e-01
	-4.241513537697080e-15
	-1.102579915478357e-17
	-1.961248582481791e-14
	1.507298035816503e-06
	1.230990935733998e-04
	1.392778243141705e-05
	2.375463668553398e-01

 55	5.500000000000003e-01
	-4.221079175483886e-15
	-1.134788760408811e-17
	-1.972058859763221e-14
	1.599117129005481e-06
	1.338395668230115e-04
	1.521176494944211e-05
	2.375465156708140e-01

 56	5.600000000000003e-01
	-4.201562304239067e-15
	-1.167984930437922e-17
	-1.982671068118855e-14
	1.695741062473508e-06
	1.453837032582073e-04
	1.660712654457713e-05
	2.375466773984924e-01

 57	5.700000000000003e-01
	-4.182948324148919e-15
	-1.202201363544440e-17
	-1.993085802799748e-14
	1.797373608815664e-06
	1.577718229160914e-04
	1.812210399686029e-05
	2.375468529934001e-01

 58	5.800000000000003e-01
	-4.165222418816085e-15
	-1.237472229023578e-17
	-2.003303784802325e-14
	1.904225235359146e-06
	1.710438185299048e-04
	1.976533517192700e-05
	2.375470434570477e-01

 59	5.900000000000003e-01
	-4.148369578827598e-15
	-1.273832979158906e-17
	-2.013325855929218e-14
	2.016513353060048e-06
	1.852388302721266e-04
	2.154585311348199e-05
	2.375472498367384e-01

 60	6.000000000000003e-01
	-4.132374624807623e-15
	-1.311320403279988e-17
	-2.023152973820241e-14
	2.134462591843611e-06
	2.003948991964701e-04
	2.347307677303825e-05
	2.375474732244991e-01

 61	6.100000000000003e-01
	-4.117222229915474e-15
	-1.349972684323658e-17
	-2.032786206967223e-14
	2.258305105637123e-06
	2.165486021175157e-04
	2.555679817728808e-05
	2.375477147555655e-01

 62	6.200000000000003e-01
	-4.102896941754719e-15
	-1.389829458023189e-17
	-2.042226729725337e-14
	2.388280910569576e-06
	2.337346712511675e-04
	2.780716586382762e-05
	2.375479756064724e-01

 63	6.300000000000003e-01
	-4.089383203661595e-15
	-1.430931874856056e-17
	-2.051475817333346e-14
	2.524638260032222e-06
	2.519856025124933e-04
	3.023466445214355e-05
	2.375482569926750e-01

 64	6.400000000000003e-01
	-4.076665375345056e-15
	-1.473322664887921e-17
	-2.060534840954210e-14
	2.667634060503387e-06
	2.713312569137086e-04
	3.285009025855250e-05
	2.375485601657104e-01

 65	6.500000000000004e-01
	-4.064727752854442e-15
	-1.517046205657339e-17
	-2.069405262747011e-14
	2.817534332237628e-06
	2.917984600075341e-04
	3.566452291082878e-05
	2.375488864099117e-01

 66	6.600000000000004e-01
	-4.053554587853542e-15
	-1.562148593253911e-17
	-2.078088630980409e-14
	2.974614719100942e-06
	3.134106047627136e-04
	3.868929297004276e-05
	2.375492370386449e-01

 67	6.700000000000004e-01
	-4.043130106183558e-15
	-1.608677716749900e-17
	-2.086586575197189e-14
	3.139161051996505e-06
	3.361872636219192e-04
	4.193594562294309e-05
	2.375496133900896e-01

 68	6.800000000000004e-01
	-4.033438525700500e-15
	-1.656683336154285e-17
	-2.094900801438748e-14
	3.311469970468371e-06
	3.601438157612858e-04
	4.541620056719974e-05
	2.375500168226054e-01

 69	6.900000000000004e-01
	-4.024464073375193e-15
	-1.706217164067346e-17
	-2.103033087537795e-14
	3.491849607192915e-06
	3.852910957304859e-04
	4.914190827296878e-05
	2.375504487096395e-01

 70	7.000000000000004e-01
	-4.016191001647501e-15
	-1.757332951222755e-17
	-2.110985278486750e-14
	3.680620340167367e-06
	4.116350696893416e-04
	5.312500286634002e-05
	2.375509104342872e-01

 71	7.100000000000004e-01
	-4.008603604028257e-15
	-1.810086576114839e-17
	-2.118759281888840e-14
	3.878115617485299e-06
	4.391765453615988e-04
	5.737745194206501e-05
	2.375514033834575e-01

 72	7.200000000000004e-01
	-4.001686229945978e-15
	-1.864536138918680e-17
	-2.126357063498075e-14
	4.084682859649416e-06
	4.679109215912599e-04
	6.191120367310233e-05
	2.375519289417560e-01

 73	7.300000000000004e-01
	-3.995423298836739e-15
	-1.920742059922388e-17
	-2.133780642853851e-14
	4.300684444418562e-06
	4.978279830090340e-04
	6.673813164160000e-05
	2.375524884850988e-01

 74	7.400000000000004e-01
	-3.989799313478524e-15
	-1.978767182702478e-17
	-2.141032089015223e-14
	4.526498779221996e-06
	5.289117447968765e-04
	7.186997786850518e-05
	2.375530833741039e-01

 75	7.500000000000004e-01
	-3.984798872573262e-15
	-2.038676882285704e-17
	-2.148113516399330e-14
	4.762521466205493e-06
	5.611403518827598e-04
	7.731829456563533e-05
	2.375537149473559e-01

 76	7.600000000000005e-01
	-3.980406682581634e-15
	-2.100539178553910e-17
	-2.155027080727940e-14
	5.009166565011306e-06
	5.944860361162395e-04
	8.309438517351528e-05
	2.375543845145764e-01

 77	7.700000000000005e-01
	-3.976607568817465e-15
	-2.164424855162822e-17
	-2.161774975085496e-14
	5.266867958442739e-06
	6.289151340821996e-04
	8.920924527930111e-05
	2.375550933497817e-01

 78	7.800000000000005e-01
	-3.973386485810264e-15
	-2.230407584259485e-17
	-2.168359426091590e-14
	5.536080826238535e-06
	6.643881672246024e-04
	9.567350403073337e-05
	2.375558426845085e-01

 79	7.900000000000005e-01
	-3.970728526945834e-15
	-2.298564057299784e-17
	-2.174782690190268e-14
	5.817283232291730e-06
	7.008599848964164e-04
	1.024973666734329e-04
	2.375566337011492e-01

 80	8.000000000000005e-01
	-3.968618933396439e-15
	-2.368974122282307e-17
	-2.181047050058091e-14
	6.110977830804394e-06
	7.382799698516414e-04
	1.096905588393837e-04
	2.375574675265154e-01

 81	8.100000000000005e-01
	-3.967043102352768e-15
	-2.441720927733885e-17
	-2.187154811132492e-14
	6.417693697089925e-06
	7.765923045785365e-04
	1.172622732039106e-04
	2.375583452256536e-01

 82	8.200000000000005e-01
	-3.965986594571376e-15
	-2.516891073798439e-17
	-2.193108298261541e-14
	6.737988289027390e-06
	8.157362957683783e-04
	1.252211191067275e-04
	2.375592677960084e-01

 83	8.300000000000005e-01
	-3.965435141252218e-15
	-2.594574770801132e-17
	-2.198909852475756e-14
	7.072449545554923e-06
	8.556467531508517e-04
	1.335750757000661e-04
	2.375602361620120e-01

 84	8.400000000000005e-01
	-3.965374650261317e-15
	-2.674866005679957e-17
	-2.204561827882354e-14
	7.421698129073957e-06
	8.962544179340215e-04
	1.423314491440405e-04
	2.375612511701028e-01

 85	8.500000000000005e-01
	-3.965791211714835e-15
	-2.757862716696508e-17
	-2.210066588681892e-14
	7.786389819233164e-06
	9.374864351897591e-04
	1.514968343170276e-04
	2.375623135843094e-01

 86	8.600000000000005e-01
	-3.966671102940776e-15
	-2.843666976862501e-17
	-2.215426506306968e-14
	8.167218066286889e-06
	9.792668637489323e-04
	1.610770814481616e-04
	2.375634240823742e-01

 87	8.700000000000006e-01
	-3.968000792835626e-15
	-2.932385186539283e-17
	-2.220643956682324e-14
	8.564916713084524e-06
	1.021517216534001e-03
	1.710772680112515e-04
	2.375645832524877e-01

 88	8.800000000000006e-01
	-3.969766945633053e-15
	-3.024128275693822e-17
	-2.225721317605440e-14
	8.980262895755565e-06
	1.064157023775575e-03
	1.815016761460563e-04
	2.375657915906856e-01

 89	8.900000000000006e-01
	-3.971956424102451e-15
	-3.119011916320091e-17
	-2.230660966246379e-14
	9.414080134320652e-06
	1.107104411244922e-03
	1.923537757955630e-04
	2.375670494988756e-01

 90	9.000000000000006e-01
	-3.974556292194961e-15
	-3.217156745560877e-17
	-2.235465276765485e-14
	9.867241625784426e-06
	1.150276685491080e-03
	2.036362136682866e-04
	2.375683572835618e-01

 91	9.100000000000006e-01
	-3.977553817154797e-15
	-3.318688600094274e-17
	-2.240136618047251e-14
	1.034067375376283e-05
	1.193590918099818e-03
	2.153508080545151e-04
	2.375697151552367e-01

 92	9.200000000000006e-01
	-3.980936471113972e-15
	-3.423738762378299e-17
	-2.244677351548432e-14
	1.083535983036510e-05
	1.236964521186446e-03
	2.274985494464041e-04
	2.375711232284502e-01

 93	9.300000000000006e-01
	-3.984691932187620e-15
	-3.532444219377413e-17
	-2.249089829258417e-14
	1.135234408789812e-05
	1.280315806685816e-03
	2.400796068356375e-04
	2.375725815225322e-01

 94	9.400000000000006e-01
	-3.988808085088018e-15
	-3.644947934428509e-17
	-2.253376391769524e-14
	1.189273593998636e-05
	1.323564522496008e-03
	2.530933394903920e-04
	2.375740899629572e-01

 95	9.500000000000006e-01
	-3.993273021274201e-15
	-3.761399132935581e-17
	-2.257539366454884e-14
	1.245771453391221e-05
	1.366632359149666e-03
	2.665383139470026e-04
	2.375756483833029e-01

 96	9.600000000000006e-01
	-3.998075038654429e-15
	-3.881953602619261e-17
	-2.261581065751314e-14
	1.304853361837553e-05
	1.409443421407250e-03
	2.804123258920521e-04
	2.375772565277936e-01

 97	9.700000000000006e-01
	-4.003202640857857e-15
	-4.006774009083328e-17
	-2.265503785544559e-14
	1.366652675345797e-05
	1.451924659967664e-03
	2.947124265586615e-04
	2.375789140543489e-01

 98	9.800000000000006e-01
	-4.008644536091956e-15
	-4.136030227498399e-17
	-2.269309803654061e-14
	1.431311289235199e-05
	1.494006259349014e-03
	3.094349532170499e-04
	2.375806205381162e-01

 99	9.900000000000007e-01
	-4.014389635601074e-15
	-4.269899691242305e-17
	-2.273001378414416e-14
	1.498980236738583e-05
	1.535621978882307e-03
	3.245755633045414e-04
	2.375823754754333e-01

 100	1.000000000000001e+00
	-4.020427051741548e-15
	-4.408567758379413e-17
	-2.276580747350520e-14
	1.569820331604529e-05
	1.576709444659988e-03
	3.401292717142766e-04
	2.375841782881382e-01

 101	1.010000000000001e+00
	-4.026746095687836e-15
	-4.552228096901077e-17
	-2.280050125943417e-14
