Title: ** sch_path: /home/andylithia/openmpw/project-yatsuhashi-chip1/xschem/gmid_test/nmos_test.sch
Date: Tue Jul 19 23:15:45  2022
Plotname: DC transfer characteristic
Flags: real
No. Variables: 8
No. Points: 181
Variables:
	0	v(v-sweep)	voltage
	1	@m.xm1.msky130_fd_pr__nfet_01v8[cgb]	capacitance
	2	@m.xm1.msky130_fd_pr__nfet_01v8[cgd]	capacitance
	3	@m.xm1.msky130_fd_pr__nfet_01v8[cgs]	capacitance
	4	@m.xm1.msky130_fd_pr__nfet_01v8[gds]	admittance
	5	@m.xm1.msky130_fd_pr__nfet_01v8[gm]	admittance
	6	i(@m.xm1.msky130_fd_pr__nfet_01v8[id])	current
	7	v(@m.xm1.msky130_fd_pr__nfet_01v8[vth])	voltage
Values:
 0	0.000000000000000e+00
	-7.937674976021441e-15
	-4.737773542226033e-19
	-1.367957690466347e-14
	2.042950670737197e-08
	8.386170216850661e-07
	1.005504462728920e-07
	2.202993321384837e-01

 1	1.000000000000000e-02
	-7.848483878273730e-15
	-4.855504645223909e-19
	-1.388761535226561e-14
	2.214495178982569e-08
	9.106123619668547e-07
	1.092916611829671e-07
	2.202993328595310e-01

 2	2.000000000000000e-02
	-7.760304741930701e-15
	-4.975902671023916e-19
	-1.409565016166362e-14
	2.399750531491214e-08
	9.887790415766251e-07
	1.187832530321529e-07
	2.202993336429105e-01

 3	3.000000000000000e-02
	-7.673159432981958e-15
	-5.099018948608915e-19
	-1.430360034747314e-14
	2.599732351863404e-08
	1.073660265199005e-06
	1.290896105504721e-07
	2.202993344940457e-01

 4	4.000000000000000e-02
	-7.587069304195970e-15
	-5.224905594295654e-19
	-1.451138508040228e-14
	2.815522723863017e-08
	1.165850420891083e-06
	1.402808062416772e-07
	2.202993354188476e-01

 5	5.000000000000000e-02
	-7.502055152369010e-15
	-5.353615524086277e-19
	-1.471892380158058e-14
	3.048273645179026e-08
	1.266000355337272e-06
	1.524331341396833e-07
	2.202993364237676e-01

 6	6.000000000000000e-02
	-7.418137177266388e-15
	-5.485202466461612e-19
	-1.492613633604131e-14
	3.299210575881529e-08
	1.374823216615503e-06
	1.656297031094971e-07
	2.202993375158478e-01

 7	7.000000000000001e-02
	-7.335334942359244e-15
	-5.619720975625165e-19
	-1.513294300503480e-14
	3.569636076345807e-08
	1.493100920450258e-06
	1.799610916443663e-07
	2.202993387027808e-01

 8	8.000000000000000e-02
	-7.253667337453238e-15
	-5.757226445221257e-19
	-1.533926473685513e-14
	3.860933528584972e-08
	1.621691299700002e-06
	1.955260706894948e-07
	2.202993399929765e-01

 9	9.000000000000000e-02
	-7.173152543298268e-15
	-5.897775122537110e-19
	-1.554502317587018e-14
	4.174570934071885e-08
	1.761536000489972e-06
	2.124324016386035e-07
	2.202993413956346e-01

 10	9.999999999999999e-02
	-7.093807998260906e-15
	-6.041424123210338e-19
	-1.575014078945227e-14
	4.512104780238674e-08
	1.913669191867777e-06
	2.307977173012267e-07
	2.202993429208224e-01

 11	1.100000000000000e-01
	-7.015650367133059e-15
	-6.188231446457394e-19
	-1.595454097251632e-14
	4.875183966922859e-08
	2.079227159026589e-06
	2.507504943234462e-07
	2.202993445795663e-01

 12	1.200000000000000e-01
	-6.938695512142189e-15
	-6.338255990836813e-19
	-1.615814814938337e-14
	5.265553783088542e-08
	2.259458852891939e-06
	2.724311262594087e-07
	2.202993463839570e-01

 13	1.300000000000000e-01
	-6.862958466219757e-15
	-6.491557570569515e-19
	-1.636088787270007e-14
	5.685059923184956e-08
	2.455737471066176e-06
	2.959931072303767e-07
	2.202993483472451e-01

 14	1.400000000000000e-01
	-6.788453408575763e-15
	-6.648196932426219e-19
	-1.656268691915636e-14
	6.135652531517532e-08
	2.669573146616436e-06
	3.216043368659448e-07
	2.202993504839798e-01

 15	1.500000000000000e-01
	-6.715193642618298e-15
	-6.808235773205728e-19
	-1.676347338176048e-14
	6.619390262006922e-08
	2.902626821809050e-06
	3.494485579909323e-07
	2.202993528101336e-01

 16	1.600000000000000e-01
	-6.643191576248011e-15
	-6.971736757815640e-19
	-1.696317675844357e-14
	7.138444339687737e-08
	3.156725383440642e-06
	3.797269392909077e-07
	2.202993553432584e-01

 17	1.700000000000000e-01
	-6.572458704548133e-15
	-7.138763537976972e-19
	-1.716172803678407e-14
	7.695102609266912e-08
	3.433878134690702e-06
	4.126598159483636e-07
	2.202993581026471e-01

 18	1.800000000000000e-01
	-6.503005594881642e-15
	-7.309380771564678e-19
	-1.735905977465878e-14
	8.291773555013860e-08
	3.736294675192710e-06
	4.484886019758323e-07
	2.202993611095194e-01

 19	1.900000000000000e-01
	-6.434841874398220e-15
	-7.483654142607585e-19
	-1.755510617664496e-14
	8.930990275193934e-08
	4.066404256049502e-06
	4.874778886657074e-07
	2.202993643872279e-01

 20	2.000000000000000e-01
	-6.367976219944420e-15
	-7.661650381958713e-19
	-1.774980316601734e-14
	9.615414393192789e-08
	4.426876669548610e-06
	5.299177442106825e-07
	2.202993679614796e-01

 21	2.100000000000000e-01
	-6.302416350362123e-15
	-7.843437288659093e-19
	-1.794308845220146e-14
	1.034783988639759e-07
	4.820644724091640e-06
	5.761262301016758e-07
	2.202993718605882e-01

 22	2.200000000000001e-01
	-6.238169021151111e-15
	-8.029083752005936e-19
	-1.813490159356556e-14
	1.113119681282144e-07
	5.250928343067032e-06
	6.264521503584832e-07
	2.202993761157391e-01

 23	2.300000000000001e-01
	-6.175240021464354e-15
	-8.218659774350531e-19
	-1.832518405545067e-14
	1.196855491436559e-07
	5.721260311781448e-06
	6.812780499645721e-07
	2.202993807613043e-01

 24	2.400000000000001e-01
	-6.113634173395222e-15
	-8.412236494636125e-19
	-1.851387926336116e-14
	1.286312707452843e-07
	6.235513678851043e-06
	7.410234790327329e-07
	2.202993858351551e-01

 25	2.500000000000001e-01
	-6.053355333509844e-15
	-8.609886212698195e-19
	-1.870093265125321e-14
	1.381827260727264e-07
	6.797930797359574e-06
	8.061485391887826e-07
	2.202993913790452e-01

 26	2.600000000000001e-01
	-5.994406396568919e-15
	-8.811682414343159e-19
	-1.888629170488323e-14
	1.483750035268410e-07
	7.413153966380884e-06
	8.771577283933428e-07
	2.202993974389943e-01

 27	2.700000000000001e-01
	-5.936789301377760e-15
	-9.017699797224095e-19
	-1.906990600019259e-14
	1.592447155396933e-07
	8.086257604896292e-06
	9.546040998869446e-07
	2.202994040657343e-01

 28	2.800000000000001e-01
	-5.880505038696309e-15
	-9.228014297531095e-19
	-1.925172723672746e-14
	1.708300248928396e-07
	8.822781857545759e-06
	1.039093750104348e-06
	2.202994113151759e-01

 29	2.900000000000001e-01
	-5.825553661135295e-15
	-9.442703117514727e-19
	-1.943170926610815e-14
	1.831706683083218e-07
	9.628767494886704e-06
	1.131290649216781e-06
	2.202994192489370e-01

 30	3.000000000000001e-01
	-5.771934294958995e-15
	-9.661844753862676e-19
	-1.960980811558251e-14
	1.963079770267786e-07
	1.051079192984189e-05
	1.231921826385769e-06
	2.202994279349034e-01

 31	3.100000000000001e-01
	-5.719645153710428e-15
	-9.885519026945657e-19
	-1.978598200671339e-14
	2.102848940772793e-07
	1.147600612679689e-05
	1.341782919804934e-06
	2.202994374478421e-01

 32	3.200000000000001e-01
	-5.668683553570591e-15
	-1.011380711095416e-18
	-1.996019136926711e-14
	2.251459879344069e-07
	1.253217213047961e-05
	1.461744099126590e-06
	2.202994478700711e-01

 33	3.300000000000001e-01
	-5.619045930359107e-15
	-1.034679156494400e-18
	-2.013239885038598e-14
	2.409374622496650e-07
	1.368770088853832e-05
	1.592756364877041e-06
	2.202994592921695e-01

 34	3.400000000000001e-01
	-5.570727858080840e-15
	-1.058455636481093e-18
	-2.030256931914216e-14
	2.577071613367596e-07
	1.495168998498176e-05
	1.735858225920892e-06
	2.202994718137584e-01

 35	3.500000000000001e-01
	-5.523724068920180e-15
	-1.082718693621401e-18
	-2.047066986658389e-14
	2.755045710838613e-07
	1.633396084187205e-05
	1.892182751908399e-06
	2.202994855443392e-01

 36	3.600000000000002e-01
	-5.478028474582287e-15
	-1.107477018846900e-18
	-2.063666980139905e-14
	2.943808149610214e-07
	1.784509488452642e-05
	2.062964992903043e-06
	2.202995006041712e-01

 37	3.700000000000002e-01
	-5.433634188879463e-15
	-1.132739454943103e-18
	-2.080054064133136e-14
	3.143886447874123e-07
	1.949646810183838e-05
	2.249549753019037e-06
	2.202995171252339e-01

 38	3.800000000000002e-01
	-5.390533551459317e-15
	-1.158515000138817e-18
	-2.096225610049651e-14
	3.355824259217902e-07
	2.130028336922785e-05
	2.453399698892495e-06
	2.202995352522540e-01

 39	3.900000000000002e-01
	-5.348718152570683e-15
	-1.184812811799135e-18
	-2.112179207275576e-14
	3.580181165406352e-07
	2.326959983840599e-05
	2.676103777165107e-06
	2.202995551437555e-01

 40	4.000000000000002e-01
	-5.308178858763885e-15
	-1.211642210223532e-18
	-2.127912661131106e-14
	3.817532406719613e-07
	2.541835863703531e-05
	2.919385907888977e-06
	2.202995769732297e-01

 41	4.100000000000002e-01
	-5.268905839421201e-15
	-1.239012682551999e-18
	-2.143423990469670e-14
	4.068468546601178e-07
	2.776140406417454e-05
	3.185113912901969e-06
	2.202996009303081e-01

 42	4.200000000000002e-01
	-5.230888594015368e-15
	-1.266933886781398e-18
	-2.158711424934576e-14
	4.333595067471647e-07
	3.031449941591088e-05
	3.475308629813362e-06
	2.202996272220349e-01

 43	4.300000000000002e-01
	-5.194115979994360e-15
	-1.295415655894209e-18
	-2.173773401891778e-14
	4.613531894716998e-07
	3.309433653190168e-05
	3.792153153357693e-06
	2.202996560741675e-01

 44	4.400000000000002e-01
	-5.158576241192721e-15
	-1.324468002102240e-18
	-2.188608563057703e-14
	4.908912846051402e-07
	3.611853811979686e-05
	4.138002136599053e-06
	2.202996877325359e-01

 45	4.500000000000002e-01
	-5.124257036671838e-15
	-1.354101121208098e-18
	-2.203215750841458e-14
	5.220385003706859e-07
	3.940565189305266e-05
	4.515391074918284e-06
	2.202997224644409e-01

 46	4.600000000000002e-01
	-5.091145469893722e-15
	-1.384325397086482e-18
	-2.217594004421012e-14
	5.548608007205130e-07
	4.297513555082100e-05
	4.927045486019987e-06
	2.202997605600847e-01

 47	4.700000000000003e-01
	-5.059228118135577e-15
	-1.415151406288617e-18
	-2.231742555573066e-14
	5.894253264838953e-07
	4.684733163882411e-05
	5.375889889517746e-06
	2.202998023340172e-01

 48	4.800000000000003e-01
	-5.028491062055764e-15
	-1.446589922771897e-18
	-2.245660824276341e-14
	6.258003082425803e-07
	5.104343135972831e-05
	5.865056480173458e-06
	2.202998481266124e-01

 49	4.900000000000003e-01
	-4.998919915324563e-15
	-1.478651922758190e-18
	-2.259348414108081e-14
	6.640549708409111e-07
	5.558542645274375e-05
	6.397893379789718e-06
	2.202998983055148e-01

 50	5.000000000000002e-01
	-4.970499854236893e-15
	-1.511348589723408e-18
	-2.272805107453333e-14
	7.042594294968094e-07
	6.049604833694861e-05
	6.977972344302911e-06
	2.202999532670867e-01

 51	5.100000000000002e-01
	-4.943215647227819e-15
	-1.544691319521187e-18
	-2.286030860546432e-14
	7.464845775464230e-07
	6.579869381287554e-05
	7.609095795051089e-06
	2.203000134378013e-01

 52	5.200000000000002e-01
	-4.917051684215566e-15
	-1.578691725644617e-18
	-2.299025798363819e-14
	7.908019659300129e-07
	7.151733674339143e-05
	8.295303036746485e-06
	2.203000792755951e-01

 53	5.300000000000002e-01
	-4.891992005700208e-15
	-1.613361644628070e-18
	-2.311790209387022e-14
	8.372836746095931e-07
	7.767642528860738e-05
	9.040875519644059e-06
	2.203001512711093e-01

 54	5.400000000000003e-01
	-4.868020331551434e-15
	-1.648713141593118e-18
	-2.324324540254098e-14
	8.860021761994942e-07
	8.430076445047967e-05
	9.850341000028886e-06
	2.203002299488650e-01

 55	5.500000000000003e-01
	-4.845120089421591e-15
	-1.684758515942597e-18
	-2.336629390317560e-14
	9.370301921899549e-07
	9.141538389032695e-05
	1.072847645172997e-05
	2.203003158682530e-01

 56	5.600000000000003e-01
	-4.823274442725577e-15
	-1.721510307204522e-18
	-2.348705506126069e-14
	9.904405422486888e-07
	9.904539121506383e-05
	1.168030958214440e-05
	2.203004096244199e-01

 57	5.700000000000003e-01
	-4.802466318132621e-15
	-1.758981301031781e-18
	-2.360553775846825e-14
	1.046305987197721e-06
	1.072158111833346e-04
	1.271111880949203e-05
	2.203005118489204e-01

 58	5.800000000000003e-01
	-4.782678432519696e-15
	-1.797184535359835e-18
	-2.372175223644808e-14
	1.104699066379024e-06
	1.159514115573911e-04
	1.382643156389798e-05
	2.203006232101622e-01

 59	5.900000000000003e-01
	-4.763893319340487e-15
	-1.836133306726539e-18
	-2.383571004034470e-14
	1.165691930243092e-06
	1.252765166163456e-04
	1.503202078361401e-05
	2.203007444136135e-01

 60	6.000000000000003e-01
	-4.746093354367696e-15
	-1.875841176759082e-18
	-2.394742396218790e-14
	1.229356169117021e-06
	1.352148096460367e-04
	1.633389948935692e-05
	2.203008762017078e-01

 61	6.100000000000003e-01
	-4.729260780771260e-15
	-1.916321978831252e-18
	-2.405690798429867e-14
	1.295762639230978e-06
	1.457891260239824e-04
	1.773831333442522e-05
	2.203010193534689e-01

 62	6.200000000000003e-01
	-4.713377733498294e-15
	-1.957589824895428e-18
	-2.416417722284599e-14
	1.364981287202493e-06
	1.570212388178851e-04
	1.925173104597133e-05
	2.203011746837661e-01

 63	6.300000000000003e-01
	-4.698426262925447e-15
	-1.999659112495012e-18
	-2.426924787168119e-14
	1.437080974293408e-06
	1.689316391051305e-04
	2.088083269346351e-05
	2.203013430422391e-01

 64	6.400000000000003e-01
	-4.684388357757455e-15
	-2.042544531959811e-18
	-2.437213714657077e-14
	1.512129301863135e-06
	1.815393134906793e-04
	2.263249574384274e-05
	2.203015253118300e-01

 65	6.500000000000004e-01
	-4.671245967149967e-15
	-2.086261073791340e-18
	-2.447286322993973e-14
	1.590192439540385e-06
	1.948615215431703e-04
	2.451377888891228e-05
	2.203017224069234e-01

 66	6.600000000000004e-01
	-4.658981022037930e-15
	-2.130824036241327e-18
	-2.457144521623124e-14
	1.671334957721338e-06
	2.089135760755251e-04
	2.653190365878416e-05
	2.203019352710634e-01

 67	6.700000000000004e-01
	-4.647575455654874e-15
	-2.176249033089949e-18
	-2.466790305797937e-14
	1.755619666072605e-06
	2.237086293587037e-04
	2.869423386534117e-05
	2.203021648742781e-01

 68	6.800000000000004e-01
	-4.637011223231075e-15
	-2.222552001627530e-18
	-2.476225751268605e-14
	1.843107459769375e-06
	2.392574684678857e-04
	3.100825295117817e-05
	2.203024122099787e-01

 69	6.900000000000004e-01
	-4.627270320862295e-15
	-2.269749210846816e-18
	-2.485453009058501e-14
	1.933857175230686e-06
	2.555683230125335e-04
	3.348153935181070e-05
	2.203026782914441e-01

 70	7.000000000000004e-01
	-4.618334803543803e-15
	-2.317857269849991e-18
	-2.494474300336801e-14
	2.027925457121850e-06
	2.726466884899158e-04
	3.612174001145250e-05
	2.203029641479366e-01

 71	7.100000000000004e-01
	-4.610186802366838e-15
	-2.366893136477085e-18
	-2.503291911394293e-14
	2.125366638378286e-06
	2.904951684218912e-04
	3.893654222474131e-05
	2.203032708204305e-01

 72	7.200000000000004e-01
	-4.602808540877923e-15
	-2.416874126161892e-18
	-2.511908188728525e-14
	2.226232634962043e-06
	3.091133382844344e-04
	4.193364400768657e-05
	2.203035993570052e-01

 73	7.300000000000004e-01
	-4.596182350603707e-15
	-2.467817921020900e-18
	-2.520325534243811e-14
	2.330572856993412e-06
	3.284976340185087e-04
	4.512072323016954e-05
	2.203039508079478e-01

 74	7.400000000000004e-01
	-4.590290685746310e-15
	-2.519742579181895e-18
	-2.528546400571040e-14
	2.438434137803328e-06
	3.486412676208829e-04
	4.850540576880498e-05
	2.203043262206016e-01

 75	7.500000000000004e-01
	-4.585116137056657e-15
	-2.572666544359523e-18
	-2.536573286511503e-14
	2.549860682329555e-06
	3.695341719584361e-04
	5.209523296222799e-05
	2.203047266339970e-01

 76	7.600000000000005e-01
	-4.580641444895051e-15
	-2.626608655683571e-18
	-2.544408732608468e-14
	2.664894036130800e-06
	3.911629765351823e-04
	5.589762867024878e-05
	2.203051530733667e-01

 77	7.700000000000005e-01
	-4.576849511490356e-15
	-2.681588157787760e-18
	-2.552055316849567e-14
	2.783573076121498e-06
	4.135110154760105e-04
	5.991986625330996e-05
	2.203056065445598e-01

 78	7.800000000000005e-01
	-4.573723412410629e-15
	-2.737624711165964e-18
	-2.559515650502615e-14
	2.905934023936528e-06
	4.365583684845221e-04
	6.416903579877230e-05
	2.203060880284541e-01

 79	7.900000000000005e-01
	-4.571246407259880e-15
	-2.794738402803955e-18
	-2.566792374086886e-14
	3.032010482624944e-06
	4.602819349961564e-04
	6.865201192543834e-05
	2.203065984754195e-01

 80	8.000000000000005e-01
	-4.569401949617051e-15
	-2.852949757093566e-18
	-2.573888153481388e-14
	3.161833497146509e-06
	4.846555411944305e-04
	7.337542249712520e-05
	2.203071387999344e-01

 81	8.100000000000005e-01
	-4.568173696234048e-15
	-2.912279747038627e-18
	-2.580805676171312e-14
	3.295431638911132e-06
	5.096500790014055e-04
	7.834561856996056e-05
	2.203077098753617e-01

 82	8.200000000000005e-01
	-4.567545515511709e-15
	-2.972749805760108e-18
	-2.587547647633248e-14
	3.432831114360659e-06
	5.352336756068974e-04
	8.356864588636766e-05
	2.203083125290388e-01

 83	8.300000000000005e-01
	-4.567501495272601e-15
	-3.034381838309590e-18
	-2.594116787859467e-14
	3.574055897353158e-06
	5.613718915787335e-04
	8.905021821168747e-05
	2.203089475376651e-01

 84	8.400000000000005e-01
	-4.568025949851092e-15
	-3.097198233800274e-18
	-2.600515828021136e-14
	3.719127884873865e-06
	5.880279451112569e-04
	9.479569278728396e-05
	2.203096156231030e-01

 85	8.500000000000005e-01
	-4.569103426521551e-15
	-3.161221877865254e-18
	-2.606747507269971e-14
	3.868067075370488e-06
	6.151629595336771e-04
	1.008100481472785e-04
	2.203103174486319e-01

 86	8.600000000000005e-01
	-4.570718711286031e-15
	-3.226476165451919e-18
	-2.612814569677536e-14
	4.020891768798797e-06
	6.427362308244320e-04
	1.070978645153141e-04
	2.203110536156841e-01

 87	8.700000000000006e-01
	-4.572856834043519e-15
	-3.292985013964127e-18
	-2.618719761311026e-14
	4.177618787269710e-06
	6.707055115710634e-04
	1.136633069635616e-04
	2.203118246611192e-01

 88	8.800000000000006e-01
	-4.575503073163031e-15
	-3.360772876761484e-18
	-2.624465827444153e-14
	4.338263715017291e-06
	6.990273075841721e-04
	1.205101114793218e-04
	2.203126310550798e-01

 89	8.900000000000006e-01
	-4.578642959483024e-15
	-3.429864757027978e-18
	-2.630055509901459e-14
	4.502841156260741e-06
	7.276571832232119e-04
	1.276415740458331e-04
	2.203134731993991e-01

 90	9.000000000000006e-01
	-4.582262279759998e-15
	-3.500286222021106e-18
	-2.635491544534105e-14
	4.671365009413856e-06
	7.565500714228292e-04
	1.350605428039981e-04
	2.203143514266299e-01

 91	9.100000000000006e-01
	-4.586347079589020e-15
	-3.572063417712694e-18
	-2.640776658825037e-14
	4.843848756007660e-06
	7.856605844213877e-04
	1.427694133216554e-04
	2.203152659996624e-01

 92	9.200000000000006e-01
	-4.590883665818841e-15
	-3.645223083835808e-18
	-2.645913569621189e-14
	5.020305762633206e-06
	8.149433212848069e-04
	1.507701269573923e-04
	2.203162171119200e-01

 93	9.300000000000006e-01
	-4.595858608484406e-15
	-3.719792569349100e-18
	-2.650904980990182e-14
	5.200749594186020e-06
	8.443531684845194e-04
	1.590641722676243e-04
	2.203172048881190e-01

 94	9.400000000000006e-01
	-4.601258742279314e-15
	-3.795799848332547e-18
	-2.655753582198874e-14
	5.385194336697672e-06
	8.738455900210079e-04
	1.676525893693409e-04
	2.203182293855944e-01

 95	9.500000000000006e-01
	-4.607071167590368e-15
	-3.873273536329261e-18
	-2.660462045810922e-14
	5.573654928076258e-06
	9.033769038761859e-04
	1.765359771373053e-04
	2.203192905961030e-01

 96	9.600000000000006e-01
	-4.613283251116313e-15
	-3.952242907147618e-18
	-2.665033025900429e-14
	5.766147495140443e-06
	9.329045419185438e-04
	1.857145030839806e-04
	2.203203884481124e-01

 97	9.700000000000006e-01
	-4.619882626092489e-15
	-4.032737910137979e-18
	-2.669469156378611e-14
	5.962689695422589e-06
	9.623872907647027e-04
	1.951879157436095e-04
	2.203215228095129e-01

 98	9.800000000000006e-01
	-4.626857192142547e-15
	-4.114789187961050e-18
	-2.673773049430359e-14
	6.163301062331065e-06
	9.917855115086076e-04
	2.049555593589735e-04
	2.203226934906907e-01

 99	9.900000000000007e-01
	-4.634195114778155e-15
	-4.198428094863642e-18
	-2.677947294057470e-14
	6.368003352397022e-06
	1.021061336653999e-03
	2.150163906505992e-04
	2.203239002479229e-01

 100	1.000000000000001e+00
	-4.641884824567297e-15
	-4.283686715477664e-18
	-2.681994454725270e-14
	6.576820893484684e-06
	1.050178843016574e-03
	2.253689974337370e-04
	2.203251427870619e-01

 101	1.010000000000001e+00
	-4.649915015990782e-15
	-4.370597884161759e-18
	-2.685917070109276e-14
