Title: ** sch_path: /home/andylithia/openmpw/project-yatsuhashi-chip1/xschem/gmid_test/nmos_test.sch
Date: Sun Jul 17 22:51:45  2022
Plotname: DC transfer characteristic
Flags: real
No. Variables: 8
No. Points: 181
Variables:
	0	v(v-sweep)	voltage
	1	@m.xm1.msky130_fd_pr__nfet_01v8[cgb]	capacitance
	2	@m.xm1.msky130_fd_pr__nfet_01v8[cgd]	capacitance
	3	@m.xm1.msky130_fd_pr__nfet_01v8[cgs]	capacitance
	4	@m.xm1.msky130_fd_pr__nfet_01v8[gds]	admittance
	5	@m.xm1.msky130_fd_pr__nfet_01v8[gm]	admittance
	6	i(@m.xm1.msky130_fd_pr__nfet_01v8[id])	current
	7	v(@m.xm1.msky130_fd_pr__nfet_01v8[vth])	voltage
Values:
 0	0.000000000000000e+00
	-7.390084699535072e-15
	-1.938597945888441e-18
	-1.041050439839526e-14
	5.527118483988827e-09
	2.176419776549286e-07
	2.253073058936060e-08
	2.642284079297212e-01

 1	1.000000000000000e-02
	-7.302673292814075e-15
	-1.999394485097895e-18
	-1.061034321635595e-14
	6.071779339776952e-09
	2.394547892649776e-07
	2.481448493996831e-08
	2.642284081961840e-01

 2	2.000000000000000e-02
	-7.215947545385434e-15
	-2.062079900353223e-18
	-1.081088213094086e-14
	6.667912061191194e-09
	2.634467504069496e-07
	2.732708732811239e-08
	2.642284084893485e-01

 3	3.000000000000000e-02
	-7.129938083514199e-15
	-2.126712077902451e-18
	-1.101202257707928e-14
	7.320072212366185e-09
	2.898399884605993e-07
	3.009142094376375e-08
	2.642284088118831e-01

 4	4.000000000000000e-02
	-7.044675276820506e-15
	-2.193350704518808e-18
	-1.121366506872290e-14
	8.033177122736144e-09
	3.188806708437998e-07
	3.313270821200091e-08
	2.642284091667341e-01

 5	5.000000000000000e-02
	-6.960189162977205e-15
	-2.262057328608148e-18
	-1.141570938359810e-14
	8.812529341156695e-09
	3.508418569017063e-07
	3.647876516867565e-08
	2.642284095571452e-01

 6	6.000000000000000e-02
	-6.876509373736121e-15
	-2.332895423708239e-18
	-1.161805475029920e-14
	9.663840975440110e-09
	3.860267108587387e-07
	4.016028612548921e-08
	2.642284099866975e-01

 7	7.000000000000001e-02
	-6.793665062555479e-15
	-2.405930454484495e-18
	-1.182060003702328e-14
	1.059325887535485e-08
	4.247721194083918e-07
	4.421116244973659e-08
	2.642284104593483e-01

 8	8.000000000000000e-02
	-6.711684834094243e-15
	-2.481229945331939e-18
	-1.202324394123683e-14
	1.160739060655062e-08
	4.674527614128235e-07
	4.866883973918009e-08
	2.642284109794668e-01

 9	9.000000000000000e-02
	-6.630596675829992e-15
	-2.558863551697658e-18
	-1.222588517955858e-14
	1.271333115167419e-08
	5.144856810599717e-07
	5.357471816666048e-08
	2.642284115518800e-01

 10	9.999999999999999e-02
	-6.550427892046829e-15
	-2.638903134244263e-18
	-1.242842267714213e-14
	1.391869026320223e-08
	5.663354195751698e-07
	5.897460130141972e-08
	2.642284121819381e-01

 11	1.100000000000000e-01
	-6.471205040427311e-15
	-2.721422835980023e-18
	-1.263075575584664e-14
	1.523162038033663e-08
	6.235197640772862e-07
	6.491919928284870e-08
	2.642284128755534e-01

 12	1.200000000000000e-01
	-6.392953871469249e-15
	-2.806499162486975e-18
	-1.283278432048922e-14
	1.666084500973995e-08
	6.866161752481118e-07
	7.146469282399968e-08
	2.642284136392848e-01

 13	1.300000000000000e-01
	-6.315699270933132e-15
	-2.894211065385634e-18
	-1.303440904248809e-14
	1.821568745712582e-08
	7.562689579646561e-07
	7.867336515195682e-08
	2.642284144804006e-01

 14	1.400000000000000e-01
	-6.239465205509687e-15
	-2.984640029180331e-18
	-1.323553154021959e-14
	1.990609978379267e-08
	8.331972407081532e-07
	8.661430964266102e-08
	2.642284154069625e-01

 15	1.500000000000000e-01
	-6.164274671880100e-15
	-3.077870161636611e-18
	-1.343605455543441e-14
	2.174269184932374e-08
	9.182038301658359e-07
	9.536422156995013e-08
	2.642284164279193e-01

 16	1.600000000000000e-01
	-6.090149649322800e-15
	-3.173988287849310e-18
	-1.363588212510264e-14
	2.373676028897018e-08
	1.012185006701965e-06
	1.050082830502443e-07
	2.642284175532150e-01

 17	1.700000000000000e-01
	-6.017111056002014e-15
	-3.273084048167775e-18
	-1.383491974808590e-14
	2.590031726187843e-08
	1.116141323985326e-06
	1.156411509106222e-07
	2.642284187938936e-01

 18	1.800000000000000e-01
	-5.945178709053243e-15
	-3.375250000151909e-18
	-1.403307454606628e-14
	2.824611879445625e-08
	1.231189471685170e-06
	1.273680578207501e-07
	2.642284201622359e-01

 19	1.900000000000000e-01
	-5.874371288560864e-15
	-3.480581724741931e-18
	-1.423025541819770e-14
	3.078769253201975e-08
	1.358575253429417e-06
	1.403060375867671e-07
	2.642284216719015e-01

 20	2.000000000000000e-01
	-5.804706305502333e-15
	-3.589177936832847e-18
	-1.442637318898302e-14
	3.353936470156003e-08
	1.499687722781818e-06
	1.545852859823228e-07
	2.642284233380821e-01

 21	2.100000000000000e-01
	-5.736200073712702e-15
	-3.701140600454369e-18
	-1.462134074892037e-14
	3.651628607922540e-08
	1.656074507457675e-06
	1.703506688595085e-07
	2.642284251776864e-01

 22	2.200000000000001e-01
	-5.668867685902644e-15
	-3.816575048766897e-18
	-1.481507318750608e-14
	3.973445674813742e-08
	1.829458335982317e-06
	1.877633895075548e-07
	2.642284272095287e-01

 23	2.300000000000001e-01
	-5.602722993742312e-15
	-3.935590109092961e-18
	-1.500748791822524e-14
	4.321074942560351e-08
	2.021754761141324e-06
	2.070028272731333e-07
	2.642284294545438e-01

 24	2.400000000000001e-01
	-5.537778592003418e-15
	-4.058298233216671e-18
	-1.519850479520744e-14
	4.696293113388214e-08
	2.235091050550993e-06
	2.282685592829884e-07
	2.642284319360223e-01

 25	2.500000000000001e-01
	-5.474045806731957e-15
	-4.184815633192607e-18
	-1.538804622127202e-14
	5.100968298559114e-08
	2.471826186218585e-06
	2.517825766742426e-07
	2.642284346798762e-01

 26	2.600000000000001e-01
	-5.411534687404735e-15
	-4.315262422919388e-18
	-1.557603724713614e-14
	5.537061785382042e-08
	2.734571881869312e-06
	2.777917059947514e-07
	2.642284377149153e-01

 27	2.700000000000001e-01
	-5.350254003004723e-15
	-4.449762765744084e-18
	-1.576240566160554e-14
	6.006629569822185e-08
	3.026214488994449e-06
	3.065702453382532e-07
	2.642284410731495e-01

 28	2.800000000000001e-01
	-5.290211241932619e-15
	-4.588445028377668e-18
	-1.594708207261638e-14
	6.511823632199992e-08
	3.349937620055772e-06
	3.384228232795508e-07
	2.642284447901422e-01

 29	2.900000000000001e-01
	-5.231412615655094e-15
	-4.731441941416527e-18
	-1.612999997904562e-14
	7.054892934110723e-08
	3.709245270259171e-06
	3.736874867278441e-07
	2.642284489053445e-01

 30	3.000000000000001e-01
	-5.173863065975413e-15
	-4.878890766776452e-18
	-1.631109583325126e-14
	7.638184115610457e-08
	4.107985168149440e-06
	4.127390213771101e-07
	2.642284534625073e-01

 31	3.100000000000001e-01
	-5.117566275796994e-15
	-5.030933472365094e-18
	-1.649030909435264e-14
	8.264141872958661e-08
	4.550372030582603e-06
	4.559925054642709e-07
	2.642284585100795e-01

 32	3.200000000000001e-01
	-5.062524683238232e-15
	-5.187716914331612e-18
	-1.666758227230218e-14
	8.935308998773414e-08
	5.041010340212030e-06
	5.039070940153674e-07
	2.642284641016583e-01

 33	3.300000000000001e-01
	-5.008739498944304e-15
	-5.349393027251466e-18
	-1.684286096284500e-14
	9.654326068396555e-08
	5.584916204583229e-06
	5.569900266467456e-07
	2.642284702964551e-01

 34	3.400000000000001e-01
	-4.956210726431970e-15
	-5.516119022620508e-18
	-1.701609387350125e-14
	1.042393075859126e-07
	6.187537796626189e-06
	6.158008472816134e-07
	2.642284771597871e-01

 35	3.500000000000001e-01
	-4.904937185293838e-15
	-5.688057596053788e-18
	-1.718723284074560e-14
	1.124695678744182e-07
	6.854773818419882e-06
	6.809558188482210e-07
	2.642284847635930e-01

 36	3.600000000000002e-01
	-4.854916537081175e-15
	-5.865377143601468e-18
	-1.735623283859308e-14
	1.212633246752115e-07
	7.592989375512100e-06
	7.531325101673809e-07
	2.642284931869758e-01

 37	3.700000000000002e-01
	-4.806145313677734e-15
	-6.048251987618540e-18
	-1.752305197883497e-14
	1.306507886806881e-07
	8.409028600014328e-06
	8.330745258585363e-07
	2.642285025167375e-01

 38	3.800000000000002e-01
	-4.758618947972682e-15
	-6.236862612644150e-18
	-1.768765150319682e-14
	1.406630758610380e-07
	9.310223319584432e-06
	9.215963432614157e-07
	2.642285128479666e-01

 39	3.900000000000002e-01
	-4.712331806636462e-15
	-6.431395911772370e-18
	-1.784999576772091e-14
	1.513321813113261e-07
	1.030439703890307e-05
	1.019588213178990e-06
	2.642285242845973e-01

 40	4.000000000000002e-01
	-4.667277224801871e-15
	-6.632045444018842e-18
	-1.801005221969777e-14
	1.626909493340154e-07
	1.139986348306903e-05
	1.128021073814024e-06
	2.642285369399798e-01

 41	4.100000000000002e-01
	-4.623447542451251e-15
	-6.839011703215188e-18
	-1.816779136749399e-14
	1.747730399154151e-07
	1.260541895128985e-05
	1.247951419745552e-06
	2.642285509374616e-01

 42	4.200000000000002e-01
	-4.580834142310983e-15
	-7.052502398989692e-18
	-1.832318674364307e-14
	1.876128918196697e-07
	1.393032774703850e-05
	1.380526060347342e-06
	2.642285664109332e-01

 43	4.300000000000002e-01
	-4.539427489056171e-15
	-7.272732750422298e-18
	-1.847621486157999e-14
	2.012456825953460e-07
	1.538429999000388e-05
	1.526986694888211e-06
	2.642285835053663e-01

 44	4.400000000000002e-01
	-4.499217169630570e-15
	-7.499925792991621e-18
	-1.862685516641428e-14
	2.157072858675997e-07
	1.697746117789779e-05
	1.688674224900730e-06
	2.642286023773170e-01

 45	4.500000000000002e-01
	-4.460191934490672e-15
	-7.734312699465592e-18
	-1.877508998014575e-14
	2.310342263732246e-07
	1.872031295420431e-05
	1.867032718503854e-06
	2.642286231953894e-01

 46	4.600000000000002e-01
	-4.422339739586987e-15
	-7.976133115418590e-18
	-1.892090444173407e-14
	2.472636332864646e-07
	2.062368465236822e-05
	2.063612936476013e-06
	2.642286461406411e-01

 47	4.700000000000003e-01
	-4.385647788901354e-15
	-8.225635510097719e-18
	-1.906428644243736e-14
	2.644331924800666e-07
	2.269867532802664e-05
	2.280075326264003e-06
	2.642286714069458e-01

 48	4.800000000000003e-01
	-4.350102577364569e-15
	-8.483077543394351e-18
	-1.920522655683757e-14
	2.825810984682270e-07
	2.495658615808704e-05
	2.518192388045435e-06
	2.642286992012549e-01

 49	4.900000000000003e-01
	-4.315689933986107e-15
	-8.748726449720569e-18
	-1.934371796996859e-14
	3.017460068851502e-07
	2.740884327708042e-05
	2.779850316690101e-06
	2.642287297437926e-01

 50	5.000000000000002e-01
	-4.282395065034627e-15
	-9.022859439631310e-18
	-1.947975640096036e-14
	3.219669884642207e-07
	3.006691133449887e-05
	3.067049825221966e-06
	2.642287632681617e-01

 51	5.100000000000002e-01
	-4.250202597115778e-15
	-9.305764120076117e-18
	-1.961334002360781e-14
	3.432834855972555e-07
	3.294219828779725e-05
	3.381906059365788e-06
	2.642288000213224e-01

 52	5.200000000000002e-01
	-4.219096620002589e-15
	-9.597738934214997e-18
	-1.974446938426464e-14
	3.657352726697510e-07
	3.604595218923889e-05
	3.726647519120840e-06
	2.642288402634639e-01

 53	5.300000000000002e-01
	-4.189060729081772e-15
	-9.899093621777585e-18
	-1.987314731745448e-14
	3.893624214852339e-07
	3.938915097455738e-05
	4.103613912136285e-06
	2.642288842677601e-01

 54	5.400000000000003e-01
	-4.160078067288740e-15
	-1.021014970100391e-17
	-1.999937885957988e-14
	4.142052732084124e-07
	4.298238651024055e-05
	4.515252874995728e-06
	2.642289323199842e-01

 55	5.500000000000003e-01
	-4.132131366412614e-15
	-1.053124097325407e-17
	-2.012317116109918e-14
	4.403044183710824e-07
	4.683574439604221e-05
	4.964115512299883e-06
	2.642289847179818e-01

 56	5.600000000000003e-01
	-4.105202987662219e-15
	-1.086271405143879e-17
	-2.024453339752576e-14
	4.677006865954502e-07
	5.095868124153143e-05
	5.452850719536968e-06
	2.642290417710111e-01

 57	5.700000000000003e-01
	-4.079274961392906e-15
	-1.120492891347856e-17
	-2.036347667959128e-14
	4.964351477950568e-07
	5.535990133126334e-05
	5.984198273928201e-06
	2.642291037989374e-01

 58	5.800000000000003e-01
	-4.054329025903367e-15
	-1.155825948207460e-17
	-2.048001396289853e-14
	5.265491267127020e-07
	6.004723475381525e-05
	6.560980697422504e-06
	2.642291711312754e-01

 59	5.900000000000003e-01
	-4.030346665220619e-15
	-1.192309423213044e-17
	-2.059415995737299e-14
	5.580842327465655e-07
	6.502751918733893e-05
	7.186093917397978e-06
	2.642292441061033e-01

 60	6.000000000000003e-01
	-4.007309145800398e-15
	-1.229983682725309e-17
	-2.070593103680544e-14
	5.910824070995520e-07
	7.030648760122792e-05
	7.862496772938112e-06
	2.642293230688300e-01

 61	6.100000000000003e-01
	-3.985197552078837e-15
	-1.268890678682297e-17
	-2.081534514876103e-14
	6.255859893626619e-07
	7.588866414413743e-05
	8.593199437252166e-06
	2.642294083708581e-01

 62	6.200000000000003e-01
	-3.963992820819687e-15
	-1.309074018522142e-17
	-2.092242172511251e-14
	6.616378057113574e-07
	8.177727043881063e-05
	9.381250849319173e-06
	2.642295003680947e-01

 63	6.300000000000003e-01
	-3.943675774210071e-15
	-1.350579038487697e-17
	-2.102718159343646e-14
	6.992812809554821e-07
	8.797414439179315e-05
	1.022972526952786e-05
	2.642295994193998e-01

 64	6.400000000000003e-01
	-3.924227151664911e-15
	-1.393452880489398e-17
	-2.112964688949572e-14
	7.385605767409020e-07
	9.447967345143157e-05
	1.114170809434919e-05
	2.642297058849211e-01

 65	6.500000000000004e-01
	-3.905627640308483e-15
	-1.437744572711939e-17
	-2.122984097101099e-14
	7.795207582568036e-07
	1.012927440129659e-04
	1.212028108328259e-05
	2.642298201243717e-01

 66	6.600000000000004e-01
	-3.887857904108356e-15
	-1.483505114160564e-17
	-2.132778833290887e-14
	8.222079918611920e-07
	1.084107083801125e-04
	1.316850716690086e-05
	2.642299424952624e-01

 67	6.700000000000004e-01
	-3.870898611643832e-15
	-1.530787563354620e-17
	-2.142351452421537e-14
	8.666697761030938e-07
	1.158293703554879e-04
	1.428941501725989e-05
	2.642300733510917e-01

 68	6.800000000000004e-01
	-3.854730462497705e-15
	-1.579647131385936e-17
	-2.151704606674714e-14
	9.129552086994089e-07
	1.235429901568780e-04
	1.548598357080671e-05
	2.642302130395457e-01

 69	6.900000000000004e-01
	-3.839334212265881e-15
	-1.630141279573375e-17
	-2.160841037573615e-14
	9.611152921244410e-07
	1.315443089537846e-04
	1.676112669888883e-05
	2.642303619007192e-01

 70	7.000000000000004e-01
	-3.824690696185199e-15
	-1.682329821957100e-17
	-2.169763568250798e-14
	1.011203280599115e-06
	1.398245929012011e-04
	1.811767822182581e-05
	2.642305202653487e-01

 71	7.100000000000004e-01
	-3.810780851385077e-15
	-1.736275032889476e-17
	-2.178475095931735e-14
	1.063275071433417e-06
	1.483736961282005e-04
	1.955837745915791e-05
	2.642306884531446e-01

 72	7.200000000000004e-01
	-3.797585737773181e-15
	-1.792041759994580e-17
	-2.186978584643108e-14
	1.117389643890907e-06
	1.571801417310740e-04
	2.108585550120518e-05
	2.642308667711823e-01

 73	7.300000000000004e-01
	-3.785086557569993e-15
	-1.849697542783254e-17
	-2.195277058153308e-14
	1.173609549018475e-06
	1.662312194371564e-04
	2.270262237560992e-05
	2.642310555124091e-01

 74	7.400000000000004e-01
	-3.773264673510851e-15
	-1.909312737226569e-17
	-2.203373593151348e-14
	1.232001454230862e-06
	1.755130982581589e-04
	2.441105526741671e-05
	2.642312549542650e-01

 75	7.500000000000004e-01
	-3.762101625737914e-15
	-1.970960646608114e-17
	-2.211271312669056e-14
	1.292636746870832e-06
	1.850109521511819e-04
	2.621338793287553e-05
	2.642314653574546e-01

 76	7.600000000000005e-01
	-3.751579147407571e-15
	-2.034717658992711e-17
	-2.218973379750199e-14
	1.355592201497085e-06
	1.947090964602096e-04
	2.811170142605075e-05
	2.642316869648633e-01

 77	7.700000000000005e-01
	-3.741679179041555e-15
	-2.100663391669238e-17
	-2.226482991369114e-14
	1.420950716298608e-06
	2.045911327270883e-04
	3.010791623406801e-05
	2.642319200006356e-01

 78	7.800000000000005e-01
	-3.732383881652910e-15
	-2.168880842944006e-17
	-2.233803372600218e-14
	1.488802124813495e-06
	2.146400993426169e-04
	3.220378589205977e-05
	2.642321646694428e-01

 79	7.900000000000005e-01
	-3.723675648679388e-15
	-2.239456551684002e-17
	-2.240937771038954e-14
	1.559244090062246e-06
	2.248386254569621e-04
	3.440089212327083e-05
	2.642324211558960e-01

 80	8.000000000000005e-01
	-3.715537116759619e-15
	-2.312480765029346e-17
	-2.247889451473600e-14
	1.632383089309976e-06
	2.351690855827603e-04
	3.670064152397431e-05
	2.642326896241765e-01

 81	8.100000000000005e-01
	-3.707951175387916e-15
	-2.388047614720650e-17
	-2.254661690806702e-14
	1.708335498975197e-06
	2.456137524009437e-04
	3.910426378752955e-05
	2.642329702178186e-01

 82	8.200000000000005e-01
	-3.700900975485663e-15
	-2.466255302509156e-17
	-2.261257773223925e-14
	1.787228790730221e-06
	2.561549454127143e-04
	4.161281143762426e-05
	2.642332630596806e-01

 83	8.300000000000005e-01
	-3.694369936927359e-15
	-2.547206295146094e-17
	-2.267680985607588e-14
	1.869202851623114e-06
	2.667751732642767e-04
	4.422716101806260e-05
	2.642335682520833e-01

 84	8.400000000000005e-01
	-3.688341755060787e-15
	-2.631007529473400e-17
	-2.273934613191304e-14
	1.954411443129666e-06
	2.774572677953506e-04
	4.694801566582118e-05
	2.642338858771028e-01

 85	8.500000000000005e-01
	-3.682800406260719e-15
	-2.717770628168520e-17
	-2.280021935451706e-14
	2.043023816459136e-06
	2.881845081187926e-04
	4.977590897586455e-05
	2.642342159970316e-01

 86	8.600000000000005e-01
	-3.677730152555916e-15
	-2.807612126725918e-17
	-2.285946222232620e-14
	2.135226504241013e-06
	2.989407333171881e-04
	5.271121005067696e-05
	2.642345586549593e-01

 87	8.700000000000006e-01
	-3.673115545369223e-15
	-2.900653712290326e-17
	-2.291710730096635e-14
	2.231225311970972e-06
	3.097104426331118e-04
	5.575412961477392e-05
	2.642349138754839e-01

 88	8.800000000000006e-01
	-3.668941428410396e-15
	-2.997022474991077e-17
	-2.297318698898552e-14
	2.331247536363986e-06
	3.204788823236210e-04
	5.890472706470207e-05
	2.642352816655403e-01

 89	8.900000000000006e-01
	-3.665192939760646e-15
	-3.096851172462259e-17
	-2.302773348574892e-14
	2.435544442136009e-06
	3.312321186376884e-04
	6.216291831820691e-05
	2.642356620153136e-01

 90	9.000000000000006e-01
	-3.661855513187786e-15
	-3.200278508271118e-17
	-2.308077876143290e-14
	2.544394033811609e-06
	3.419570966498335e-04
	6.552848432221971e-05
	2.642360548992261e-01

 91	9.100000000000006e-01
	-3.658914878729741e-15
	-3.307449425016518e-17
	-2.313235452905370e-14
	2.658104165053064e-06
	3.526416849376643e-04
	6.900108007795253e-05
	2.642364602769963e-01

 92	9.200000000000006e-01
	-3.656357062583857e-15
	-3.418515412900942e-17
	-2.318249221846445e-14
	2.777016034866899e-06
	3.632747063199114e-04
	7.258024404244344e-05
	2.642368780947408e-01

 93	9.300000000000006e-01
	-3.654168386337818e-15
	-3.533634834622872e-17
	-2.323122295225289e-14
	2.901508128032858e-06
	3.738459550707588e-04
	7.626540776909233e-05
	2.642373082860816e-01

 94	9.400000000000006e-01
	-3.652335465577971e-15
	-3.652973267480563e-17
	-2.327857752346971e-14
	3.032000666413665e-06
	3.843462011928583e-04
	8.005590565473556e-05
	2.642377507733120e-01

 95	9.500000000000006e-01
	-3.650845207908493e-15
	-3.776703863629366e-17
	-2.332458637511801e-14
	3.168960648675482e-06
	3.947671824641290e-04
	8.395098466736920e-05
	2.642382054685020e-01

 96	9.600000000000006e-01
	-3.649684810414866e-15
	-3.905007729479445e-17
	-2.336927958133213e-14
	3.312907568645393e-06
	4.051015850709986e-04
	8.794981393625034e-05
	2.642386722746362e-01

 97	9.700000000000006e-01
	-3.648841756603010e-15
	-4.038074325276984e-17
	-2.341268683017502e-14
	3.464419917378291e-06
	4.153430137043900e-04
	9.205149409463202e-05
	2.642391510867064e-01

 98	9.800000000000006e-01
	-3.648303812844427e-15
	-4.176101885964496e-17
	-2.345483740798276e-14
	3.624142591364625e-06
	4.254859520248884e-04
	9.625506627430652e-05
	2.642396417927530e-01

 99	9.900000000000007e-01
	-3.648059024356318e-15
	-4.319297864471682e-17
	-2.349576018518502e-14
	3.792795349615394e-06
	4.355257144022377e-04
	1.005595206602212e-04
	2.642401442748663e-01

 100	1.000000000000001e+00
	-3.648095710744274e-15
	-4.467879398647721e-17
	-2.353548360353094e-14
	3.971182486100781e-06
	4.454583898037225e-04
	1.049638045223584e-04
	2.642406584101255e-01

 101	1.010000000000001e+00
	-3.648402461133731e-15
	-4.622073803106224e-17
	-2.357403566465014e-14
