Title: ** sch_path: /home/andylithia/openmpw/project-yatsuhashi-chip1/xschem/gmid_test/nmos_test.sch
Date: Tue Jul 19 23:15:45  2022
Plotname: DC transfer characteristic
Flags: real
No. Variables: 8
No. Points: 181
Variables:
	0	v(v-sweep)	voltage
	1	@m.xm1.msky130_fd_pr__nfet_01v8[cgb]	capacitance
	2	@m.xm1.msky130_fd_pr__nfet_01v8[cgd]	capacitance
	3	@m.xm1.msky130_fd_pr__nfet_01v8[cgs]	capacitance
	4	@m.xm1.msky130_fd_pr__nfet_01v8[gds]	admittance
	5	@m.xm1.msky130_fd_pr__nfet_01v8[gm]	admittance
	6	i(@m.xm1.msky130_fd_pr__nfet_01v8[id])	current
	7	v(@m.xm1.msky130_fd_pr__nfet_01v8[vth])	voltage
Values:
 0	0.000000000000000e+00
	-1.507483222902322e-15
	1.594387847246929e-19
	-1.159838008154093e-17
	6.339599654906410e-14
	1.872575323451541e-12
	6.069754315335041e-14
	7.516401351443358e-01

 1	1.000000000000000e-02
	-1.500271242733942e-15
	1.699135425608058e-19
	-1.235866905494573e-17
	8.554227971143793e-14
	2.549290087758433e-12
	8.263317979120275e-14
	7.516401351443368e-01

 2	2.000000000000000e-02
	-1.493149214254072e-15
	1.810214390554685e-19
	-1.318017185397569e-17
	1.154154281379494e-13
	3.470544003142244e-12
	1.124958990201271e-13
	7.516401351443386e-01

 3	3.000000000000000e-02
	-1.486114180613440e-15
	1.928095639687913e-19
	-1.406849788267576e-17
	1.557077210049304e-13
	4.724696556203328e-12
	1.531502149178042e-13
	7.516401351443402e-01

 4	4.000000000000000e-02
	-1.479163153481819e-15
	2.053301772176075e-19
	-1.502991571799042e-17
	2.100481154187777e-13
	6.432029713240911e-12
	2.084956583462878e-13
	7.516401351443436e-01

 5	5.000000000000000e-02
	-1.472293099147433e-15
	2.186411262409881e-19
	-1.607142916378084e-17
	2.833275854215774e-13
	8.756278220289614e-12
	2.838406957377122e-13
	7.516401351443470e-01

 6	6.000000000000000e-02
	-1.465500923886492e-15
	2.328062448405607e-19
	-1.720085900190992e-17
	3.821372467976871e-13
	1.192032306311149e-11
	3.864116993602358e-13
	7.516401351443525e-01

 7	7.000000000000001e-02
	-1.458783458590428e-15
	2.478957262264022e-19
	-1.842693056131984e-17
	5.153582800647151e-13
	1.622755033867824e-11
	5.260457270605716e-13
	7.516401351443600e-01

 8	8.000000000000000e-02
	-1.452137442636939e-15
	2.639864629791303e-19
	-1.975936723423006e-17
	6.949561219310132e-13
	2.209091933435071e-11
	7.161334611726897e-13
	7.516401351443700e-01

 9	9.000000000000000e-02
	-1.445559506989211e-15
	2.811623466570885e-19
	-2.120899007901880e-17
	9.370494801962156e-13
	3.007252006334782e-11
	9.749025882583244e-13
	7.516401351443837e-01

 10	9.999999999999999e-02
	-1.439046156505489e-15
	2.995145198210593e-19
	-2.278782366132978e-17
	1.263349021960967e-12
	4.093740182504019e-11
	1.327164454414063e-12
	7.516401351444019e-01

 11	1.100000000000000e-01
	-1.432593751438624e-15
	3.191415733057954e-19
	-2.450920829737944e-17
	1.703093212695227e-12
	5.572681552348230e-11
	1.806691104947666e-12
	7.516401351444271e-01

 12	1.200000000000000e-01
	-1.426198488102813e-15
	3.401496816249886e-19
	-2.638791887534329e-17
	2.295652586493794e-12
	7.585786232920366e-11
	2.459450021766944e-12
	7.516401351444614e-01

 13	1.300000000000000e-01
	-1.419856378682348e-15
	3.626526694360140e-19
	-2.844029043996831e-17
	3.094032511099169e-12
	1.032590545280908e-10
	3.348005723524082e-12
	7.516401351445079e-01

 14	1.400000000000000e-01
	-1.413563230155598e-15
	3.867720019846731e-19
	-3.068435072941525e-17
	4.169583364538375e-12
	1.405547078040130e-10
	4.557508650006436e-12
	7.516401351445710e-01

 15	1.500000000000000e-01
	-1.407314622307287e-15
	4.126366923568401e-19
	-3.313995984687361e-17
	5.618332766476965e-12
	1.913157182912944e-10
	6.203842937173709e-12
	7.516401351446572e-01

 16	1.600000000000000e-01
	-1.401105884804525e-15
	4.403831181250663e-19
	-3.582895722593160e-17
	7.569496190831214e-12
	2.604005661008674e-10
	8.444710068741524e-12
	7.516401351447750e-01

 17	1.700000000000000e-01
	-1.394932073318608e-15
	4.701547395199967e-19
	-3.877531599817437e-17
	1.019691204434620e-11
	3.544189155294042e-10
	1.149470428926844e-11
	7.516401351449348e-01

 18	1.800000000000000e-01
	-1.388787944687489e-15
	5.021017104905557e-19
	-4.200530478132098e-17
	1.373440127556022e-11
	4.823617414330488e-10
	1.564581424114563e-11
	7.516401351451524e-01

 19	1.900000000000000e-01
	-1.382667931135607e-15
	5.363803728489912e-19
	-4.554765676005749e-17
	1.849639126396166e-11
	6.564575665666691e-10
	2.129529891329562e-11
	7.516401351454490e-01

 20	2.000000000000000e-01
	-1.376566113601620e-15
	5.731526220346232e-19
	-4.943374571028150e-17
	2.490559767485212e-11
	8.933355788993716e-10
	2.898358243536846e-11
	7.516401351458517e-01

 21	2.100000000000000e-01
	-1.370476194274238e-15
	6.125851307979240e-19
	-5.369776829829003e-17
	3.353016400965688e-11
	1.215605034171390e-09
	3.944575595401320e-11
	7.516401351463999e-01

 22	2.200000000000001e-01
	-1.364391468505681e-15
	6.548484142596906e-19
	-5.837693154505009e-17
	4.513346684149366e-11
	1.653999012024010e-09
	5.368155255812475e-11
	7.516401351471463e-01

 23	2.300000000000001e-01
	-1.358304796365337e-15
	7.001157163423453e-19
	-6.351164375636041e-17
	6.074087136952254e-11
	2.250282720960433e-09
	7.305038960991120e-11
	7.516401351481616e-01

 24	2.400000000000001e-01
	-1.352208574217152e-15
	7.485616935707583e-19
	-6.914570645689133e-17
	8.172915409259139e-11
	3.061196710152443e-09
	9.940040831074263e-11
	7.516401351495430e-01

 25	2.500000000000001e-01
	-1.346094706856699e-15
	8.003608678477788e-19
	-7.532650390625463e-17
	1.099462114828821e-10
	4.163799600593758e-09
	1.352435921105269e-10
	7.516401351514215e-01

 26	2.600000000000001e-01
	-1.339954580930620e-15
	8.556858152697090e-19
	-8.210518559873808e-17
	1.478711951656983e-10
	5.662701275907595e-09
	1.839932926773101e-10
	7.516401351539767e-01

 27	2.700000000000001e-01
	-1.333779040584220e-15
	9.147050537087975e-19
	-8.953683574211089e-17
	1.988285501430144e-10
	7.699846329133406e-09
	2.502862052552157e-10
	7.516401351574516e-01

 28	2.800000000000001e-01
	-1.327558366542407e-15
	9.775805882172873e-19
	-9.768062207144710e-17
	2.672738355502594e-10
	1.046773254042698e-08
	3.404185046911301e-10
	7.516401351621756e-01

 29	2.900000000000001e-01
	-1.321282260123046e-15
	1.044465070881589e-18
	-1.065999144911289e-16
	3.591750025555844e-10
	1.422724777784032e-08
	4.629361243851877e-10
	7.516401351685975e-01

 30	3.000000000000001e-01
	-1.314939834005162e-15
	1.115498531272625e-18
	-1.163623619795391e-16
	4.825204072591165e-10
	1.933170328517513e-08
	6.294328764923365e-10
	7.516401351773252e-01

 31	3.100000000000001e-01
	-1.308519611918567e-15
	1.190804635905493e-18
	-1.270399139871679e-16
	6.479947752875310e-10
	2.625915987804034e-08
	8.556283674543217e-10
	7.516401351891813e-01

 32	3.200000000000001e-01
	-1.302009539773092e-15
	1.270486441034696e-18
	-1.387087702892994e-16
	8.698772711080374e-10
	3.565582068255307e-08
	1.162821865318013e-09
	7.516401352052834e-01

 33	3.300000000000001e-01
	-1.295397011085839e-15
	1.354621613625334e-18
	-1.514492410339011e-16
	1.167232579067924e-09
	4.839414134440178e-08
	1.579850212054035e-09
	7.516401352271422e-01

 34	3.400000000000001e-01
	-1.288668909867860e-15
	1.443257111418800e-18
	-1.653454967093666e-16
	1.565487474983179e-09
	6.565043459522754e-08
	2.145719784082237e-09
	7.516401352568031e-01

 35	3.500000000000001e-01
	-1.281811674365242e-15
	1.536403335545033e-18
	-1.804851861468943e-16
	2.098512952051798e-09
	8.900817452905471e-08
	2.913137139954664e-09
	7.516401352970282e-01

 36	3.600000000000002e-01
	-1.274811385173220e-15
	1.634027798834816e-18
	-1.969588997168679e-16
	2.811366953949962e-09
	1.205949923373756e-07
	3.953233658903898e-09
	7.516401353515463e-01

 37	3.700000000000002e-01
	-1.267653881209126e-15
	1.736048390245738e-18
	-2.148594548709059e-16
	3.763896721986385e-09
	1.632635491772190e-07
	5.361870004171666e-09
	7.516401354253819e-01

 38	3.800000000000002e-01
	-1.260324906788808e-15
	1.842326360527703e-18
	-2.342809824486640e-16
	5.035454343059525e-09
	2.208291041558454e-07
	7.268020893098848e-09
	7.516401355252952e-01

 39	3.900000000000002e-01
	-1.252810292547711e-15
	1.952659205617810e-18
	-2.553177950550005e-16
	6.731045913584880e-09
	2.983796573619574e-07
	9.844883806086563e-09
	7.516401356603658e-01

 40	4.000000000000002e-01
	-1.245096172131491e-15
	2.066773680573096e-18
	-2.780630236496380e-16
	8.989315156516819e-09
	4.026779595551626e-07
	1.332453089112832e-08
	7.516401358427567e-01

 41	4.100000000000002e-01
	-1.237169235410085e-15
	2.184319235353009e-18
	-3.026070155561236e-16
	1.199285702905147e-08
	5.426782455952695e-07
	1.801713405609855e-08
	7.516401360887266e-01

 42	4.200000000000002e-01
	-1.229017017420094e-15
	2.304862220496227e-18
	-3.290354965646675e-16
	1.598146528940488e-08
	7.301838963626686e-07
	2.433603894143102e-08
	7.516401364199430e-01

 43	4.300000000000002e-01
	-1.220628220315892e-15
	2.427881260560609e-18
	-3.574275116880819e-16
	2.126903755736875e-08
	9.806747442023751e-07
	3.283023909302418e-08
	7.516401368651826e-01

 44	4.400000000000002e-01
	-1.211993063349179e-15
	2.552764229951874e-18
	-3.878531732259297e-16
	2.826498636974750e-08
	1.314333465650056e-06
	4.422609441269193e-08
	7.516401374625203e-01

 45	4.500000000000002e-01
	-1.203103653382658e-15
	2.678807282647604e-18
	-4.203712606213738e-16
	3.750112483901876e-08
	1.757298122618846e-06
	5.948042372034032e-08
	7.516401382621122e-01

 46	4.600000000000002e-01
	-1.193954365807926e-15
	2.805216377461390e-18
	-4.550267333743157e-16
	4.966509436824041e-08
	2.343160694911584e-06
	7.984734058709870e-08
	7.516401393297013e-01

 47	4.700000000000003e-01
	-1.184542223160793e-15
	2.931111697775657e-18
	-4.918482349096317e-16
	6.564145521581180e-08
	3.114717373510161e-06
	1.069613361920011e-07
	7.516401407509713e-01

 48	4.800000000000003e-01
	-1.174867256431412e-15
	3.055535284705779e-18
	-5.308456804222399e-16
	8.656153502574338e-08
	4.125953425554268e-06
	1.429390639303707e-07
	7.516401426368881e-01

 49	4.900000000000003e-01
	-1.164932832301096e-15
	3.177462083788982e-18
	-5.720080337749749e-16
	1.138629823573066e-07
	5.444212106285606e-06
	1.905019507757257e-07
	7.516401451301313e-01

 50	5.000000000000002e-01
	-1.154745928556721e-15
	3.295814449518788e-18
	-6.153013858982303e-16
	1.493596496230970e-07
	7.152453286906140e-06
	2.531210441079458e-07
	7.516401484126961e-01

 51	5.100000000000002e-01
	-1.144317339967130e-15
	3.409479965660649e-18
	-6.606674483426159e-16
	1.953218758143407e-07
	9.351455616770980e-06
	3.351843046714339e-07
	7.516401527146773e-01

 52	5.200000000000002e-01
	-1.133661798127459e-15
	3.517332233037174e-18
	-7.080225695011476e-16
	2.545664007077810e-07
	1.216176223840853e-05
	4.421848230695424e-07
	7.516401583241612e-01

 53	5.300000000000002e-01
	-1.122797991271854e-15
	3.618254065136072e-18
	-7.572573669047073e-16
	3.305539831447996e-07
	1.572512476911232e-05
	5.809261978014280e-07
	7.516401655980282e-01

 54	5.400000000000003e-01
	-1.111748473794011e-15
	3.711162333166868e-18
	-8.082370469555203e-16
	4.274913178587856e-07
	2.020517772114371e-05
	7.597387211141675e-07
	7.516401749733503e-01

 55	5.500000000000003e-01
	-1.100539460041537e-15
	3.795033534967555e-18
	-8.608024543443300e-16
	5.504321103991055e-07
	2.578709131886682e-05
	9.886973809786085e-07
	7.516401869789079e-01

 56	5.600000000000003e-01
	-1.089200502580362e-15
	3.868929044378734e-18
	-9.147718588459686e-16
	7.053703229359323e-07
	3.267601673213654e-05
	1.279830452025555e-06
	7.516402022462660e-01

 57	5.700000000000003e-01
	-1.077764061167394e-15
	3.932018944021688e-18
	-9.699434495552758e-16
	8.993168831533900e-07
	4.109425575579580e-05
	1.647306137985451e-06
	7.516402215197562e-01

 58	5.800000000000003e-01
	-1.066264974658498e-15
	3.983603364129688e-18
	-1.026098468753827e-15
	1.140349870298723e-06
	5.127724212206278e-05
	2.107584804235886e-06
	7.516402456647439e-01

 59	5.900000000000003e-01
	-1.054739853525967e-15
	4.023130345554956e-18
	-1.083004882533178e-15
	1.437627699865370e-06
	6.346858042313957e-05
	2.679526020250810e-06
	7.516402756736242e-01

 60	6.000000000000003e-01
	-1.043226415107091e-15
	4.050209411091743e-18
	-1.140421455949690e-15
	1.801355403011867e-06
	7.791450407620219e-05
	3.384442726285423e-06
	7.516403126691826e-01

 61	6.100000000000003e-01
	-1.031762786779733e-15
	4.064620253340719e-18
	-1.198102079283370e-15
	2.242695853869350e-06
	9.485813935825483e-05
	4.246098672513521e-06
	7.516403579051292e-01

 62	6.200000000000003e-01
	-1.020386803716712e-15
	4.066316211120629e-18
	-1.255800180596105e-15
	2.773620607248433e-06
	1.145338714683255e-04
	5.290648794855979e-06
	7.516404127638141e-01

 63	6.300000000000003e-01
	-1.009135327617966e-15
	4.055422487778792e-18
	-1.313273058969160e-15
	3.406698494325996e-06
	1.371619106619517e-04
	6.546524237200956e-06
	7.516404787512199e-01

 64	6.400000000000003e-01
	-9.980436109298399e-16
	4.032229340410476e-18
	-1.370285982279065e-15
	4.154823769008634e-06
	1.629429037012973e-04
	8.044263462952419e-06
	7.516405574893099e-01

 65	6.500000000000004e-01
	-9.871447277536853e-16
	3.997180717273081e-18
	-1.426615911944582e-15
	5.030888943396006e-06
	1.920522111283548e-04
	9.816288169067092e-06
	7.516406507056346e-01

 66	6.600000000000004e-01
	-9.764690882562989e-16
	3.950859023777993e-18
	-1.482054742794038e-15
	6.047410297032366e-06
	2.246333628436351e-04
	1.189661825508397e-05
	7.516407602198628e-01

 67	6.700000000000004e-01
	-9.660440483284932e-16
	3.893966843119287e-18
	-1.536411976624666e-15
	7.216116552847158e-06
	2.607902775891732e-04
	1.432051542919689e-05
	7.516408879266134e-01

 68	6.800000000000004e-01
	-9.558936209235254e-16
	3.827306519986469e-18
	-1.589516780528597e-15
	8.547513827516310e-06
	3.005781035963704e-04
	1.712404209662834e-05
	7.516410357737831e-01

 69	6.900000000000004e-01
	-9.460382903479184e-16
	3.751758535336865e-18
	-1.641219413122368e-15
	1.005044315736954e-05
	3.439929702002511e-04
	2.034352281387929e-05
	7.516412057355656e-01

 70	7.000000000000004e-01
	-9.364949261150230e-16
	3.668259562760214e-18
	-1.691392031261341e-15
	1.173165083403723e-05
	3.909614483321107e-04
	2.401490102007474e-05
	7.516413997796174e-01

 71	7.100000000000004e-01
	-9.272767890606891e-16
	3.577781012543773e-18
	-1.739928914981706e-15
	1.359539603768711e-05
	4.413309868702236e-04
	2.817299416924593e-05
	7.516416198283463e-01

 72	7.200000000000004e-01
	-9.183936194164236e-16
	3.481308750595448e-18
	-1.786746168219719e-15
	1.564312377021379e-05
	4.948629015739745e-04
	3.285066478509811e-05
	7.516418677150634e-01

 73	7.300000000000004e-01
	-9.098517944972306e-16
	3.379824539199801e-18
	-1.831780966834295e-15
	1.787323238228898e-05
	5.512295429289622e-04
	3.807794121645120e-05
	7.516421451366363e-01

 74	7.400000000000004e-01
	-9.016545425628848e-16
	3.274289597877439e-18
	-1.874990433662875e-15
	2.028096260544217e-05
	6.100170015781140e-04
	4.388113705322598e-05
	7.516424536051265e-01

 75	7.500000000000004e-01
	-8.938021991604398e-16
	3.165630536465453e-18
	-1.916350223252333e-15
	2.285842808163092e-05
	6.707341316097467e-04
	5.028202907100275e-05
	7.516427944015766e-01

 76	7.600000000000005e-01
	-8.862924927153823e-16
	3.054727777685830e-18
	-1.955852897304721e-15
	2.559479611159282e-05
	7.328278623120571e-04
	5.729715743906322e-05
	7.516431685354273e-01

 77	7.700000000000005e-01
	-8.791208471485331e-16
	2.942406469086613e-18
	-1.993506166705923e-15
	2.847661310744701e-05
	7.957038722513387e-04
	6.493730712068604e-05
	7.516435767128974e-01

 78	7.800000000000005e-01
	-8.722806906904859e-16
	2.829429787959499e-18
	-2.029331068257786e-15
	3.148825438555525e-05
	8.587508951634971e-04
	7.320721593542360e-05
	7.516440193170469e-01

 79	7.900000000000005e-01
	-8.657637616894042e-16
	2.716494469024691e-18
	-2.063360134864509e-15
	3.461246519331094e-05
	9.213663846141683e-04
	8.210553444664655e-05
	7.516444964012170e-01

 80	8.000000000000005e-01
	-8.595604039253439e-16
	2.604228332875659e-18
	-2.095635607779003e-15
	3.783095157055920e-05
	9.829810957954661e-04
	9.162503893048942e-05
	7.516450076962715e-01

 81	8.100000000000005e-01
	-8.536598456439962e-16
	2.493189561578890e-18
	-2.126207729297396e-15
	4.112497713377099e-05
	1.043080371270393e-03
	1.017530751097586e-04
	7.516455526307808e-01

 82	8.200000000000005e-01
	-8.480504581208165e-16
	2.383867453726803e-18
	-2.155133144543387e-15
	4.447592516396656e-05
	1.101220473471930e-03
	1.124721907885388e-04
	7.516461303621222e-01

 83	8.300000000000005e-01
	-8.427199910051611e-16
	2.276684391499439e-18
	-2.182473432093378e-15
	4.786579331654049e-05
	1.157039053756486e-03
	1.237609026265859e-04
	7.516467398157232e-01

 84	8.400000000000005e-01
	-8.376557829388680e-16
	2.171998763607260e-18
	-2.208293775400120e-15
	5.127759894887696e-05
	1.210259625488001e-03
	1.355945371497883e-04
	7.516473797292420e-01

 85	8.500000000000005e-01
	-8.328449469800656e-16
	2.070108607245206e-18
	-2.232661780394275e-15
	5.469568440364467e-05
	1.260690576907284e-03
	1.479460882727970e-04
	7.516480486985340e-01

 86	8.600000000000005e-01
	-8.282745311915542e-16
	1.971255756562902e-18
	-2.255646439300504e-15
	5.810592183680345e-05
	1.308219728505570e-03
	1.607870415168580e-04
	7.516487452225763e-01

 87	8.700000000000006e-01
	-8.239316553860493e-16
	1.875630312273132e-18
	-2.277317236543257e-15
	6.149582519517632e-05
	1.352805678890251e-03
	1.740881265457257e-04
	7.516494677451274e-01

 88	8.800000000000006e-01
	-8.198036254772299e-16
	1.783375274955534e-18
	-2.297743389534667e-15
	6.485458225640336e-05
	1.394467213087072e-03
	1.878199723863003e-04
	7.516502146915461e-01

 89	8.900000000000006e-01
	-8.158780271895920e-16
	1.694591211921057e-18
	-2.316993214999552e-15
	6.817302233135274e-05
	1.433271919981319e-03
	2.019536519005337e-04
	7.516509844998772e-01

 90	9.000000000000006e-01
	-8.121428010566469e-16
	1.609340853151507e-18
	-2.335133610155180e-15
	7.144353574547703e-05
	1.469324944398134e-03
	2.164611124766773e-04
	7.516517756458870e-01

 91	9.100000000000006e-01
	-8.085863007107442e-16
	1.527653535157801e-18
	-2.352229637379393e-15
	7.465996017122935e-05
	1.502758542425413e-03
	2.313154978743005e-04
	7.516525866622059e-01

 92	9.200000000000006e-01
	-8.051973364616869e-16
	1.449529432239647e-18
	-2.368344200832353e-15
	7.781744689057747e-05
	1.533722860162093e-03
	2.464913715683331e-04
	7.516534161520394e-01

 93	9.300000000000006e-01
	-8.019652060957065e-16
	1.374943532450658e-18
	-2.383537803719932e-15
	8.091231764216489e-05
	1.562378143530821e-03
	2.619648550291623e-04
	7.516542627981319e-01

 94	9.400000000000006e-01
	-7.988797147188651e-16
	1.303849330601690e-18
	-2.397868375392992e-15
	8.394192023373874e-05
	1.588888422512598e-03
	2.777136955809818e-04
	7.516551253677345e-01

 95	9.500000000000006e-01
	-7.959311853339856e-16
	1.236182223030982e-18
	-2.411391158175928e-15
	8.690448882294524e-05
	1.613416598407749e-03
	2.937172782953718e-04
	7.516560027143612e-01

 96	9.600000000000006e-01
	-7.931104616894382e-16
	1.171862598847781e-18
	-2.424158644636401e-15
	8.979901281994377e-05
	1.636120791927278e-03
	3.099565952727912e-04
	7.516568937770423e-01

 97	9.700000000000006e-01
	-7.904089047807384e-16
	1.110798630192933e-18
	-2.436220556887860e-15
	9.262511679037764e-05
	1.657151774273899e-03
	3.264141840376788e-04
	7.516577975777413e-01

 98	9.800000000000006e-01
	-7.878183842286287e-16
	1.052888770019618e-18
	-2.447623860413090e-15
	9.538295252859325e-05
	1.676651293432471e-03
	3.430740449269614e-04
	7.516587132174752e-01

 99	9.900000000000007e-01
	-7.853312656052033e-16
	9.980239702726807e-19
	-2.458412805777420e-15
	9.807310358876018e-05
	1.694751115083974e-03
	3.599215454994170e-04
	7.516596398715962e-01

 100	1.000000000000001e+00
	-7.829403946360223e-16
	9.460896363854085e-19
	-2.468628992441664e-15
	1.006965019519933e-04
	1.711572614909847e-03
	3.769433182693595e-04
	7.516605767845987e-01

 101	1.010000000000001e+00
	-7.806390790732215e-16
	8.969673359663380e-19
	-2.478311449671637e-15
	1.032543561145472e-04
	1.727226781348320e-03
	3.941271565461542e-04
	7.516615232647309e-01

