Title: ** sch_path: /home/andylithia/openmpw/project-yatsuhashi-chip1/xschem/gmid_test/nmos_test.sch
Date: Sun Jul 17 22:51:45  2022
Plotname: DC transfer characteristic
Flags: real
No. Variables: 8
No. Points: 181
Variables:
	0	v(v-sweep)	voltage
	1	@m.xm1.msky130_fd_pr__nfet_01v8[cgb]	capacitance
	2	@m.xm1.msky130_fd_pr__nfet_01v8[cgd]	capacitance
	3	@m.xm1.msky130_fd_pr__nfet_01v8[cgs]	capacitance
	4	@m.xm1.msky130_fd_pr__nfet_01v8[gds]	admittance
	5	@m.xm1.msky130_fd_pr__nfet_01v8[gm]	admittance
	6	i(@m.xm1.msky130_fd_pr__nfet_01v8[id])	current
	7	v(@m.xm1.msky130_fd_pr__nfet_01v8[vth])	voltage
Values:
 0	0.000000000000000e+00
	-1.101987241161922e-14
	-5.052528060986753e-18
	-2.047713165179964e-14
	1.671065658700334e-08
	5.654430213860872e-07
	6.957099268849270e-08
	1.960479844956422e-01

 1	1.000000000000000e-02
	-1.089699966653596e-14
	-5.192843125367990e-18
	-2.076701557549652e-14
	1.805709056192796e-08
	6.131665631145468e-07
	7.546077219127171e-08
	1.960479852027502e-01

 2	2.000000000000000e-02
	-1.077564973451801e-14
	-5.337139111095586e-18
	-2.105656708899293e-14
	1.950645560868103e-08
	6.649844240457913e-07
	8.184796483943176e-08
	1.960479859695816e-01

 3	3.000000000000000e-02
	-1.065584936230665e-14
	-5.485533291554120e-18
	-2.134568043508905e-14
	2.106601610818692e-08
	7.212658853303932e-07
	8.877533156369317e-08
	1.960479868012691e-01

 4	4.000000000000000e-02
	-1.053762449157315e-14
	-5.638146653199851e-18
	-2.163425045432992e-14
	2.274348762322003e-08
	7.824163561431485e-07
	9.628950373050254e-08
	1.960479877034122e-01

 5	5.000000000000000e-02
	-1.042100021026873e-14
	-5.795104026136425e-18
	-2.192217272278634e-14
	2.454705918288640e-08
	8.488811717791369e-07
	1.044413630935160e-07
	1.960479886821224e-01

 6	6.000000000000000e-02
	-1.030600070638221e-14
	-5.956534219822903e-18
	-2.220934368782220e-14
	2.648541618887322e-08
	9.211497907248300e-07
	1.132864616910858e-07
	1.960479897440670e-01

 7	7.000000000000001e-02
	-1.019264922420539e-14
	-6.122570164136044e-18
	-2.249566080149184e-14
	2.856776392527302e-08
	9.997604272527320e-07
	1.228854858604026e-07
	1.960479908965351e-01

 8	8.000000000000000e-02
	-1.008096802319701e-14
	-6.293349056022743e-18
	-2.278102265122291e-14
	3.080385165116107e-08
	1.085305158172906e-06
	1.333047689149588e-07
	1.960479921474955e-01

 9	9.000000000000000e-02
	-9.970978339527089e-15
	-6.469012511985531e-18
	-2.306532908744943e-14
	3.320399725248281e-08
	1.178435544344238e-06
	1.446168574282495e-07
	1.960479935056587e-01

 10	9.999999999999999e-02
	-9.862700350373986e-15
	-6.649706726658346e-18
	-2.334848134787312e-14
	3.577911242723444e-08
	1.279868809350093e-06
	1.569011364818185e-07
	1.960479949805551e-01

 11	1.100000000000000e-01
	-9.756153141035575e-15
	-6.835582637740342e-18
	-2.363038217804641e-14
	3.854072837539605e-08
	1.390394619315708e-06
	1.702445196678755e-07
	1.960479965826254e-01

 12	1.200000000000000e-01
	-9.651354674906862e-15
	-7.026796097570272e-18
	-2.391093594798546e-14
	4.150102196262319e-08
	1.510882509119420e-06
	1.847422100831263e-07
	1.960479983233053e-01

 13	1.300000000000000e-01
	-9.548321766365249e-15
	-7.223508051636303e-18
	-2.419004876453772e-14
	4.467284232434285e-08
	1.642290001148325e-06
	2.004985390077796e-07
	1.960480002151204e-01

 14	1.400000000000000e-01
	-9.447070056594387e-15
	-7.425884724329412e-18
	-2.446762857924696e-14
	4.806973787461142e-08
	1.785671463185288e-06
	2.176278894277413e-07
	1.960480022718092e-01

 15	1.500000000000000e-01
	-9.347613992367326e-15
	-7.634097812265467e-18
	-2.474358529147740e-14
	5.170598368196862e-08
	1.942187751893348e-06
	2.362557120238174e-07
	1.960480045084411e-01

 16	1.600000000000000e-01
	-9.249966807798485e-15
	-7.848324685516064e-18
	-2.501783084657850e-14
	5.559660917248257e-08
	2.113116687580180e-06
	2.565196417129854e-07
	1.960480069415497e-01

 17	1.700000000000000e-01
	-9.154140509064365e-15
	-8.068748597103884e-18
	-2.529027932889176e-14
	5.975742611830330e-08
	2.299864404367596e-06
	2.785707232765016e-07
	1.960480095892697e-01

 18	1.800000000000000e-01
	-9.060145862082312e-15
	-8.295558901135791e-18
	-2.556084704942086e-14
	6.420505686830740e-08
	2.503977617437152e-06
	3.025747550392460e-07
	1.960480124715223e-01

 19	1.900000000000000e-01
	-8.967992383126139e-15
	-8.528951279967956e-18
	-2.582945262801176e-14
	6.895696277589754e-08
	2.727156845547390e-06
	3.287137599650774e-07
	1.960480156101690e-01

 20	2.000000000000000e-01
	-8.877688332348543e-15
	-8.769127980811104e-18
	-2.609601706990542e-14
	7.403147277760195e-08
	2.971270622381046e-06
	3.571875938923957e-07
	1.960480190292185e-01

 21	2.100000000000000e-01
	-8.789240710169642e-15
	-9.016298062210246e-18
	-2.636046383655331e-14
	7.944781207499540e-08
	3.238370724350232e-06
	3.882157009413299e-07
	1.960480227550288e-01

 22	2.200000000000001e-01
	-8.702655256482843e-15
	-9.270677650849593e-18
	-2.662271891060371e-14
	8.522613087149516e-08
	3.530708435115122e-06
	4.220390263643312e-07
	1.960480268165436e-01

 23	2.300000000000001e-01
	-8.617936452619561e-15
	-9.532490209159094e-18
	-2.688271085499174e-14
	9.138753311489658e-08
	3.850751858120673e-06
	4.589220972711090e-07
	1.960480312455453e-01

 24	2.400000000000001e-01
	-8.535087526006540e-15
	-9.801966814221055e-18
	-2.714037086608671e-14
	9.795410519608618e-08
	4.201204277783816e-06
	4.991552817198278e-07
	1.960480360769142e-01

 25	2.500000000000001e-01
	-8.454110457441414e-15
	-1.007934644849998e-17
	-2.739563282087169e-14
	1.049489445542591e-07
	4.585023557437299e-06
	5.430572366114801e-07
	1.960480413489330e-01

 26	2.600000000000001e-01
	-8.375005990904965e-15
	-1.036487630294609e-17
	-2.764843331815220e-14
	1.123961881391871e-07
	5.005442547636203e-06
	5.909775546344940e-07
	1.960480471036040e-01

 27	2.700000000000001e-01
	-8.297773645821342e-15
	-1.065881209304960e-17
	-2.789871171381174e-14
	1.203210406817469e-07
	5.465990461848154e-06
	6.432996201612496e-07
	1.960480533869871e-01

 28	2.800000000000001e-01
	-8.222411731671774e-15
	-1.096141838845177e-17
	-2.814641015015102e-14
	1.287498027249989e-07
	5.970515157792609e-06
	7.004436834760507e-07
	1.960480602495797e-01

 29	2.900000000000001e-01
	-8.148917364860893e-15
	-1.127296895675106e-17
	-2.839147357936865e-14
	1.377098983697654e-07
	6.523206241710646e-06
	7.628701619935183e-07
	1.960480677466986e-01

 30	3.000000000000001e-01
	-8.077286487730551e-15
	-1.159374712217108e-17
	-2.863384978125822e-14
	1.472299026909147e-07
	7.128618889602606e-06
	8.310831761841975e-07
	1.960480759389180e-01

 31	3.100000000000001e-01
	-8.007513889610707e-15
	-1.192404613979647e-17
	-2.887348937521572e-14
	1.573395687835982e-07
	7.791698253987047e-06
	9.056343267387264e-07
	1.960480848925227e-01

 32	3.200000000000001e-01
	-7.939593229793383e-15
	-1.226416958611271e-17
	-2.911034582666811e-14
	1.680698544025667e-07
	8.517804297068721e-06
	9.871267180503165e-07
	1.960480946799861e-01

 33	3.300000000000001e-01
	-7.873517062312773e-15
	-1.261443176663124e-17
	-2.934437544804849e-14
	1.794529481626037e-07
	9.312736861474249e-06
	1.076219231356485e-06
	1.960481053804818e-01

 34	3.400000000000001e-01
	-7.809276862411120e-15
	-1.297515814140823e-17
	-2.957553739445982e-14
	1.915222952741993e-07
	1.018276075810734e-05
	1.173631048835249e-06
	1.960481170804404e-01

 35	3.500000000000001e-01
	-7.746863054568590e-15
	-1.334668576932622e-17
	-2.980379365418211e-14
	2.043126227961784e-07
	1.113463061744904e-05
	1.280146427581301e-06
	1.960481298741120e-01

 36	3.600000000000002e-01
	-7.686265041973680e-15
	-1.372936377203092e-17
	-3.002910903419050e-14
	2.178599643960631e-07
	1.217561521610616e-05
	1.396619719677745e-06
	1.960481438641779e-01

 37	3.700000000000002e-01
	-7.627471237309450e-15
	-1.412355381848130e-17
	-3.025145114086403e-14
	2.322016846201180e-07
	1.331352095503362e-05
	1.523980631520313e-06
	1.960481591623707e-01

 38	3.800000000000002e-01
	-7.570469094731268e-15
	-1.452963063110454e-17
	-3.047079035607364e-14
	2.473765026882412e-07
	1.455671413012185e-05
	1.663239712135047e-06
	1.960481758901560e-01

 39	3.900000000000002e-01
	-7.515245142911089e-15
	-1.494798251461299e-17
	-3.068709980884977e-14
	2.634245158448571e-07
	1.591414160037766e-05
	1.815494056459215e-06
	1.960481941793912e-01

 40	4.000000000000002e-01
	-7.461785019024764e-15
	-1.537901190858118e-17
	-3.090035534283418e-14
	2.803872223156671e-07
	1.739534942442992e-05
	1.981933205431617e-06
	1.960482141730643e-01

 41	4.100000000000002e-01
	-7.410073503559517e-15
	-1.582313596495436e-17
	-3.111053547973174e-14
	2.983075439425451e-07
	1.901049900339780e-05
	2.163845220280566e-06
	1.960482360259987e-01

 42	4.200000000000002e-01
	-7.360094555820749e-15
	-1.628078715170522e-17
	-3.131762137897974e-14
	3.172298485948390e-07
	2.077038023814686e-05
	2.362622903622885e-06
	1.960482599056147e-01

 43	4.300000000000002e-01
	-7.311831350019490e-15
	-1.675241388393255e-17
	-3.152159679385891e-14
	3.371999724860638e-07
	2.268642118265554e-05
	2.579770134932033e-06
	1.960482859926945e-01

 44	4.400000000000002e-01
	-7.265266311823839e-15
	-1.723848118375517e-17
	-3.172244802427378e-14
	3.582652425605054e-07
	2.477069365368142e-05
	2.816908282637103e-06
	1.960483144821449e-01

 45	4.500000000000002e-01
	-7.220381155261326e-15
	-1.773947137043256e-17
	-3.192016386643094e-14
	3.804744991555316e-07
	2.703591424130122e-05
	3.075782649631292e-06
	1.960483455837695e-01

 46	4.600000000000002e-01
	-7.177156919861925e-15
	-1.825588478221066e-17
	-3.211473555964621e-14
	4.038781191930074e-07
	2.949544015639009e-05
	3.358268903363764e-06
	1.960483795230586e-01

 47	4.700000000000003e-01
	-7.135574007935124e-15
	-1.878824053148352e-17
	-3.230615673051145e-14
	4.285280402080104e-07
	3.216325935092463e-05
	3.666379436041150e-06
	1.960484165419341e-01

 48	4.800000000000003e-01
	-7.095612221878184e-15
	-1.933707729493307e-17
	-3.249442333465155e-14
	4.544777855855327e-07
	3.505397435630997e-05
	4.002269594859139e-06
	1.960484568995104e-01

 49	4.900000000000003e-01
	-7.057250801417147e-15
	-1.990295414040625e-17
	-3.267953359629942e-14
	4.817824914473409e-07
	3.818277930494471e-05
	4.368243716728181e-06
	1.960485008728156e-01

 50	5.000000000000002e-01
	-7.020468460685980e-15
	-2.048645139238077e-17
	-3.286148794591543e-14
	5.104989357120712e-07
	4.156542963198131e-05
	4.766760896756372e-06
	1.960485487574832e-01

 51	5.100000000000002e-01
	-6.985243425053953e-15
	-2.108817153796944e-17
	-3.304028895607400e-14
	5.406855699433194e-07
	4.521820399869358e-05
	5.200440414934011e-06
	1.960486008684044e-01

 52	5.200000000000002e-01
	-6.951553467616092e-15
	-2.170874017551645e-17
	-3.321594127583577e-14
	5.724025547035083e-07
	4.915785803677674e-05
	5.672066741156050e-06
	1.960486575403312e-01

 53	5.300000000000002e-01
	-6.919375945265904e-15
	-2.234880700795211e-17
	-3.338845156381949e-14
	6.057117992472648e-07
	5.340156958485898e-05
	6.184594035061577e-06
	1.960487191284117e-01

 54	5.400000000000003e-01
	-6.888687834274731e-15
	-2.300904688318990e-17
	-3.355782842018195e-14
	6.406770065173049e-07
	5.796687517475113e-05
	6.741150054301787e-06
	1.960487860086572e-01

 55	5.500000000000003e-01
	-6.859465765306828e-15
	-2.369016088396647e-17
	-3.372408231770870e-14
	6.773637245502385e-07
	6.287159762548998e-05
	7.345039382916547e-06
	1.960488585783372e-01

 56	5.600000000000003e-01
	-6.831686057804029e-15
	-2.439287746966477e-17
	-3.388722553221185e-14
	7.158394055599267e-07
	6.813376471763276e-05
	7.999745890643957e-06
	1.960489372562616e-01

 57	5.700000000000003e-01
	-6.805324753679029e-15
	-2.511795367279269e-17
	-3.404727207242382e-14
	7.561734741435896e-07
	7.377151904772312e-05
	8.708934334341536e-06
	1.960490224829761e-01

 58	5.800000000000003e-01
	-6.780357650261000e-15
	-2.586617635293011e-17
	-3.420423760956930e-14
	7.984374062520067e-07
	7.980301930214487e-05
	9.476451014388765e-06
	1.960491147208356e-01

 59	5.900000000000003e-01
	-6.756760332442031e-15
	-2.663836351112260e-17
	-3.435813940678992e-14
	8.427048207813951e-07
	8.624633333901199e-05
	1.030632340207771e-05
	1.960492144539631e-01

 60	6.000000000000003e-01
	-6.734508203977849e-15
	-2.743536566785444e-17
	-3.450899624858760e-14
	8.890515858824468e-07
	9.311932362414349e-05
	1.120275865867267e-05
	1.960493221880602e-01

 61	6.100000000000003e-01
	-6.713576517900819e-15
	-2.825806730789604e-17
	-3.465682837044540e-14
	9.375559423432481e-07
	1.004395257299164e-04
	1.217014097309657e-05
	1.960494384500912e-01

 62	6.200000000000003e-01
	-6.693940406007761e-15
	-2.910738839552744e-17
	-3.480165738877557e-14
	9.882986466897661e-07
	1.082240207708498e-04
	1.321302765312431e-05
	1.960495637878024e-01

 63	6.300000000000003e-01
	-6.675574907389646e-15
	-2.998428596379442e-17
	-3.494350623133661e-14
	1.041363136961988e-06
	1.164893028136370e-04
	1.433614391452885e-05
	1.960496987691058e-01

 64	6.400000000000003e-01
	-6.658454995974475e-15
	-3.088975578169143e-17
	-3.508239906825258e-14
	1.096835724469261e-06
	1.252511424583225e-04
	1.554437632381722e-05
	1.960498439812741e-01

 65	6.500000000000004e-01
	-6.642555607058877e-15
	-3.182483410335147e-17
	-3.521836124375902e-14
	1.154805815207227e-06
	1.345244479372607e-04
	1.684276486292460e-05
	1.960500000299936e-01

 66	6.600000000000004e-01
	-6.627851662807977e-15
	-3.279059950355738e-17
	-3.535141920879148e-14
	1.215366165035684e-06
	1.443231252153010e-04
	1.823649359841011e-05
	1.960501675382436e-01

 67	6.700000000000004e-01
	-6.614318096706593e-15
	-3.378817480413554e-17
	-3.548160045452520e-14
	1.278613173176057e-06
	1.546599386940490e-04
	1.973087995315600e-05
	1.960503471450008e-01

 68	6.800000000000004e-01
	-6.601929876949044e-15
	-3.481872909602471e-17
	-3.560893344696443e-14
	1.344647219094663e-06
	1.655463742208797e-04
	2.133136259511691e-05
	1.960505395037870e-01

 69	6.900000000000004e-01
	-6.590662028757843e-15
	-3.588347986209457e-17
	-3.573344756267235e-14
	1.413573048400658e-06
	1.769925061757672e-04
	2.304348797506748e-05
	1.960507452810454e-01

 70	7.000000000000004e-01
	-6.580489655624964e-15
	-3.698369520605590e-17
	-3.585517302572582e-14
	1.485500214013850e-06
	1.890068704523754e-04
	2.487289556327859e-05
	1.960509651543823e-01

 71	7.100000000000004e-01
	-6.571387959472505e-15
	-3.812069619311049e-17
	-3.597414084596871e-14
	1.560543579557463e-06
	2.015963451611712e-04
	2.682530185330804e-05
	1.960511998106332e-01

 72	7.200000000000004e-01
	-6.563332259732427e-15
	-3.929585930829038e-17
	-3.609038275863201e-14
	1.638823892716833e-06
	2.147660408592388e-04
	2.890648321928928e-05
	1.960514499438111e-01

 73	7.300000000000004e-01
	-6.556298011347616e-15
	-4.051061903876768e-17
	-3.620393116538074e-14
	1.720468437191511e-06
	2.285192020523336e-04
	3.112225773088593e-05
	1.960517162529267e-01

 74	7.400000000000004e-01
	-6.550260821699296e-15
	-4.176647058677018e-17
	-3.631481907683986e-14
	1.805611772873449e-06
	2.428571216188630e-04
	3.347846604709287e-05
	1.960519994396920e-01

 75	7.500000000000004e-01
	-6.545196466467831e-15
	-4.306497272009029e-17
	-3.642308005664542e-14
	1.894396575028315e-06
	2.577790696730258e-04
	3.598095152592398e-05
	1.960523002061427e-01

 76	7.600000000000005e-01
	-6.541080904435936e-15
	-4.440775076757449e-17
	-3.652874816706022e-14
	1.986974584566861e-06
	2.732822382166619e-04
	3.863553970139155e-05
	1.960526192521671e-01

 77	7.700000000000005e-01
	-6.537890291245791e-15
	-4.579649976737683e-17
	-3.663185791618583e-14
	2.083507682997962e-06
	2.893617027285695e-04
	4.144801729169265e-05
	1.960529572729917e-01

 78	7.800000000000005e-01
	-6.535600992122788e-15
	-4.723298777618843e-17
	-3.673244420679842e-14
	2.184169107391027e-06
	3.060104016094663e-04
	4.442411091286748e-05
	1.960533149566343e-01

 79	7.900000000000005e-01
	-6.534189593580075e-15
	-4.871905934812487e-17
	-3.683054228682853e-14
	2.289144822685638e-06
	3.232191341445613e-04
	4.756946568011023e-05
	1.960536929813248e-01

 80	8.000000000000005e-01
	-6.533632914119945e-15
	-5.025663919238836e-17
	-3.692618770150016e-14
	2.398635071020718e-06
	3.409765773687718e-04
	5.088962388414186e-05
	1.960540920129573e-01

 81	8.100000000000005e-01
	-6.533908013948628e-15
	-5.184773601937455e-17
	-3.701941624713931e-14
	2.512856120475613e-06
	3.592693219278147e-04
	5.439000393245039e-05
	1.960545127025538e-01

 82	8.200000000000005e-01
	-6.534992203722940e-15
	-5.349444658536373e-17
	-3.711026392665620e-14
	2.632042238791411e-06
	3.780819267277158e-04
	5.807587974461311e-05
	1.960549556837998e-01

 83	8.300000000000005e-01
	-6.536863052346834e-15
	-5.519895994654023e-17
	-3.719876690670246e-14
	2.756447921358903e-06
	3.973969918624498e-04
	6.195236078731656e-05
	1.960554215706319e-01

 84	8.400000000000005e-01
	-6.539498393837859e-15
	-5.696356193361726e-17
	-3.728496147649873e-14
	2.886350407119437e-06
	4.171952490108563e-04
	6.602437292805644e-05
	1.960559109549502e-01

 85	8.500000000000005e-01
	-6.542876333283265e-15
	-5.879063985899179e-17
	-3.736888400832440e-14
	3.022052521148048e-06
	4.374556682064938e-04
	7.029664027695917e-05
	1.960564244044284e-01

 86	8.600000000000005e-01
	-6.546975251906047e-15
	-6.068268746896407e-17
	-3.745057091965802e-14
	3.163885888716206e-06
	4.581555796135298e-04
	7.477366817379639e-05
	1.960569624604656e-01

 87	8.700000000000006e-01
	-6.551773811261826e-15
	-6.264231015423897e-17
	-3.753005863695228e-14
	3.312214572736407e-06
	4.792708086941450e-04
	7.945972746232818e-05
	1.960575256363020e-01

 88	8.800000000000006e-01
	-6.557250956586683e-15
	-6.467223043262440e-17
	-3.760738356102604e-14
	3.467439194875459e-06
	5.007758229329426e-04
	8.435884017682147e-05
	1.960581144152844e-01

 89	8.900000000000006e-01
	-6.563385919317467e-15
	-6.677529371856512e-17
	-3.768258203404976e-14
	3.630001610531899e-06
	5.226438880954913e-04
	8.947476674624854e-05
	1.960587292493323e-01

 90	9.000000000000006e-01
	-6.570158218804311e-15
	-6.895447439492941e-17
	-3.775569030810198e-14
	3.800390219598232e-06
	5.448472318446322e-04
	9.481099480064401e-05
	1.960593705575805e-01

 91	9.100000000000006e-01
	-6.577547663236430e-15
	-7.121288220322640e-17
	-3.782674451526805e-14
	3.979146008820227e-06
	5.673572124209210e-04
	1.003707296416892e-04
	1.960600387252444e-01

 92	9.200000000000006e-01
	-6.585534349800353e-15
	-7.355376896932615e-17
	-3.789578063925315e-14
	4.166869438046051e-06
	5.901444900136633e-04
	1.061568864162364e-04
	1.960607341026590e-01

 93	9.300000000000006e-01
	-6.594098664091036e-15
	-7.598053568253367e-17
	-3.796283448847681e-14
	4.364228302231555e-06
	6.131791984052203e-04
	1.121720840074681e-04
	1.960614570045528e-01

 94	9.400000000000006e-01
	-6.603221278793862e-15
	-7.849673994682872e-17
	-3.802794167061726e-14
	4.571966724346772e-06
	6.364311144622910e-04
	1.184186406341661e-04
	1.960622077095089e-01

 95	9.500000000000006e-01
	-6.612883151656705e-15
	-8.110610382397102e-17
	-3.809113756856928e-14
	4.790915462041729e-06
	6.598698230701294e-04
	1.248985711243624e-04
	1.960629864596390e-01

 96	9.600000000000006e-01
	-6.623065522768995e-15
	-8.381252208914514e-17
	-3.815245731777975e-14
	5.022003743961643e-06
	6.834648751552732e-04
	1.316135858058517e-04
	1.960637934604453e-01

 97	9.700000000000006e-01
	-6.633749911165066e-15
	-8.662007092079289e-17
	-3.821193578492332e-14
	5.266272891008391e-06
	7.071859365139106e-04
	1.385650909328412e-04
	1.960646288808797e-01

 98	9.800000000000006e-01
	-6.644918110767464e-15
	-8.953301704730977e-17
	-3.826960754787902e-14
	5.524892024898931e-06
	7.310029252504148e-04
	1.457541905456279e-04
	1.960654928535528e-01

 99	9.900000000000007e-01
	-6.656552185685383e-15
	-9.255582737430361e-17
	-3.832550687696818e-14
	5.799176222589060e-06
	7.548861357267115e-04
	1.531816896387148e-04
	1.960663854751255e-01

 100	1.000000000000001e+00
	-6.668634464882280e-15
	-9.569317911718268e-17
	-3.837966771741297e-14
	6.090607542325123e-06
	7.788063470206181e-04
	1.608480984923064e-04
	1.960673068068256e-01

 101	1.010000000000001e+00
	-6.681147536225706e-15
	-9.894997046492521e-17
	-3.843212367297423e-14
