Title: ** sch_path: /home/andylithia/openmpw/project-yatsuhashi-chip1/xschem/gmid_test/nmos_test.sch
Date: Tue Jul 19 23:15:45  2022
Plotname: DC transfer characteristic
Flags: real
No. Variables: 8
No. Points: 181
Variables:
	0	v(v-sweep)	voltage
	1	@m.xm1.msky130_fd_pr__nfet_01v8[cgb]	capacitance
	2	@m.xm1.msky130_fd_pr__nfet_01v8[cgd]	capacitance
	3	@m.xm1.msky130_fd_pr__nfet_01v8[cgs]	capacitance
	4	@m.xm1.msky130_fd_pr__nfet_01v8[gds]	admittance
	5	@m.xm1.msky130_fd_pr__nfet_01v8[gm]	admittance
	6	i(@m.xm1.msky130_fd_pr__nfet_01v8[id])	current
	7	v(@m.xm1.msky130_fd_pr__nfet_01v8[vth])	voltage
Values:
 0	0.000000000000000e+00
	-7.939722272977656e-15
	-4.633928240865876e-19
	-1.352947300243414e-14
	3.988428685400936e-08
	1.593237126458921e-06
	1.944186135191560e-07
	2.266041957287081e-01

 1	1.000000000000000e-02
	-7.852433824904624e-15
	-4.747464970197452e-19
	-1.373251111891592e-14
	4.318036322654338e-08
	1.727388405272412e-06
	2.110127340021093e-07
	2.266041970141982e-01

 2	2.000000000000000e-02
	-7.766150455314237e-15
	-4.863538500573152e-19
	-1.393555558653127e-14
	4.673604946461017e-08
	1.872792291299195e-06
	2.290038583365639e-07
	2.266041984087509e-01

 3	3.000000000000000e-02
	-7.680892733545395e-15
	-4.982196905608756e-19
	-1.413852974794264e-14
	5.057033896950913e-08
	2.030414586131818e-06
	2.485092710057643e-07
	2.266041999216672e-01

 4	4.000000000000000e-02
	-7.596680759160922e-15
	-5.103488980121624e-19
	-1.434135705631210e-14
	5.470345824707263e-08
	2.201309599396767e-06
	2.696563499476488e-07
	2.266042015630625e-01

 5	5.000000000000000e-02
	-7.513534121965279e-15
	-5.227464251139975e-19
	-1.454396117990533e-14
	5.915693124703517e-08
	2.386629048750998e-06
	2.925834953757540e-07
	2.266042033439558e-01

 6	6.000000000000000e-02
	-7.431471863541016e-15
	-5.354172989304563e-19
	-1.474626610605803e-14
	6.395364559687685e-08
	2.587631904234379e-06
	3.174411522449363e-07
	2.266042052763547e-01

 7	7.000000000000001e-02
	-7.350512440396956e-15
	-5.483666220676817e-19
	-1.494819624421913e-14
	6.911792065477979e-08
	2.805695270534787e-06
	3.443929362673585e-07
	2.266042073733501e-01

 8	8.000000000000000e-02
	-7.270673688815684e-15
	-5.615995738969515e-19
	-1.514967652778871e-14
	7.467557729258489e-08
	3.042326407384383e-06
	3.736168743530200e-07
	2.266042096492256e-01

 9	9.000000000000000e-02
	-7.191972791481704e-15
	-5.751214118212611e-19
	-1.535063251447418e-14
	8.065400930528082e-08
	3.299175994897372e-06
	4.053067713842949e-07
	2.266042121195748e-01

 10	9.999999999999999e-02
	-7.114426245964971e-15
	-5.889374725869802e-19
	-1.555099048489427e-14
	8.708225632866157e-08
	3.578052757056561e-06
	4.396737163341858e-07
	2.266042148014256e-01

 11	1.100000000000000e-01
	-7.038049835128095e-15
	-6.030531736421055e-19
	-1.575067753916731e-14
	9.399107813131539e-08
	3.880939562606833e-06
	4.769477419004291e-07
	2.266042177134051e-01

 12	1.200000000000000e-01
	-6.962858599517633e-15
	-6.174740145423917e-19
	-1.594962169123143e-14
	1.014130301312200e-07
	4.210011128148870e-06
	5.173796530485710e-07
	2.266042208758786e-01

 13	1.300000000000000e-01
	-6.888866811793412e-15
	-6.322055784071014e-19
	-1.614775196065032e-14
	1.093825399706948e-07
	4.567653453034538e-06
	5.612430411291617e-07
	2.266042243111379e-01

 14	1.400000000000000e-01
	-6.816087953241397e-15
	-6.472535334256601e-19
	-1.634499846167282e-14
	1.179359849666383e-07
	4.956485119527628e-06
	6.088365015506325e-07
	2.266042280436038e-01

 15	1.500000000000000e-01
	-6.744534692408289e-15
	-6.626236344166821e-19
	-1.654129248932470e-14
	1.271117702356301e-07
	5.379380594339007e-06
	6.604860743381019e-07
	2.266042321000371e-01

 16	1.600000000000000e-01
	-6.674218865887959e-15
	-6.783217244410519e-19
	-1.673656660232393e-14
	1.369504072756901e-07
	5.839495668783488e-06
	7.165479282761085e-07
	2.266042365097814e-01

 17	1.700000000000000e-01
	-6.605151461282125e-15
	-6.943537364703457e-19
	-1.693075470262470e-14
	1.474945927683499e-07
	6.340295174114329e-06
	7.774113107037564e-07
	2.266042413050426e-01

 18	1.800000000000000e-01
	-6.537342602349078e-15
	-7.107256951121471e-19
	-1.712379211141058e-14
	1.587892873461509e-07
	6.885583105709453e-06
	8.435017863836189e-07
	2.266042465211750e-01

 19	1.900000000000000e-01
	-6.470801536347120e-15
	-7.274437183939149e-19
	-1.731561564137090e-14
	1.708817940516829e-07
	7.479535284320525e-06
	9.152847901767643e-07
	2.266042521970156e-01

 20	2.000000000000000e-01
	-6.405536623570848e-15
	-7.445140196065411e-19
	-1.750616366511110e-14
	1.838218361949887e-07
	8.126734674137352e-06
	9.932695194984621e-07
	2.266042583752483e-01

 21	2.100000000000000e-01
	-6.341555329070811e-15
	-7.619429092096260e-19
	-1.769537617956402e-14
	1.976616342964597e-07
	8.832209465514152e-06
	1.078013193669528e-06
	2.266042651028012e-01

 22	2.200000000000001e-01
	-6.278864216539648e-15
	-7.797367967993903e-19
	-1.788319486628484e-14
	2.124559817822108e-07
	9.601474014380197e-06
	1.170125708280110e-06
	2.266042724312937e-01

 23	2.300000000000001e-01
	-6.217468944340186e-15
	-7.979021931411875e-19
	-1.806956314752977e-14
	2.282623190785769e-07
	1.044057271013263e-05
	1.270274713505216e-06
	2.266042804175184e-01

 24	2.400000000000001e-01
	-6.157374263643662e-15
	-8.164457122681668e-19
	-1.825442623803529e-14
	2.451408057314641e-07
	1.135612681867199e-05
	1.379191145906292e-06
	2.266042891239865e-01

 25	2.500000000000001e-01
	-6.098584018639947e-15
	-8.353740736470894e-19
	-1.843773119243176e-14
	2.631543901552865e-07
	1.235538431670455e-05
	1.497675243571175e-06
	2.266042986195110e-01

 26	2.600000000000001e-01
	-6.041101148774209e-15
	-8.546941044135713e-19
	-1.861942694824208e-14
	2.823688765946714e-07
	1.344627269698939e-05
	1.626603074426923e-06
	2.266043089798567e-01

 27	2.700000000000001e-01
	-5.984927692958955e-15
	-8.744127416777588e-19
	-1.879946436443301e-14
	3.028529888604907e-07
	1.463745468139539e-05
	1.766933607146806e-06
	2.266043202884512e-01

 28	2.800000000000001e-01
	-5.930064795704110e-15
	-8.945370349023763e-19
	-1.897779625550319e-14
	3.246784303798639e-07
	1.593838672901223e-05
	1.919716353197259e-06
	2.266043326371597e-01

 29	2.900000000000001e-01
	-5.876512715102375e-15
	-9.150741483543603e-19
	-1.915437742110835e-14
	3.479199400777060e-07
	1.735938016975309e-05
	2.086099607162560e-06
	2.266043461271366e-01

 30	3.000000000000001e-01
	-5.824270832602291e-15
	-9.360313636322017e-19
	-1.932916467123997e-14
	3.726553435854152e-07
	1.891166472960089e-05
	2.267339310472098e-06
	2.266043608697503e-01

 31	3.100000000000001e-01
	-5.773337664496424e-15
	-9.574160822700572e-19
	-1.950211684698895e-14
	3.989655992502973e-07
	2.060745414167487e-05
	2.464808560959829e-06
	2.266043769875895e-01

 32	3.200000000000001e-01
	-5.723710875048352e-15
	-9.792358284208148e-19
	-1.967319483694077e-14
	4.269348383976725e-07
	2.246001345756539e-05
	2.680007787231670e-06
	2.266043946155669e-01

 33	3.300000000000001e-01
	-5.675387291177914e-15
	-1.001498251619305e-18
	-1.984236158926326e-14
	4.566503992765569e-07
	2.448372758598462e-05
	2.914575602527085e-06
	2.266044139021005e-01

 34	3.400000000000001e-01
	-5.628362918621568e-15
	-1.024211129627860e-18
	-2.000958211956074e-14
	4.882028540992698e-07
	2.669417049096228e-05
	3.170300347558242e-06
	2.266044350103963e-01

 35	3.500000000000001e-01
	-5.582632959481393e-15
	-1.047382371365512e-18
	-2.017482351458170e-14
	5.216860285660203e-07
	2.910817438007799e-05
	3.449132325624586e-06
	2.266044581198380e-01

 36	3.600000000000002e-01
	-5.538191831074290e-15
	-1.071020019922873e-18
	-2.033805493187931e-14
	5.571970132476776e-07
	3.174389810529256e-05
	3.753196726065472e-06
	2.266044834274889e-01

 37	3.700000000000002e-01
	-5.495033185990701e-15
	-1.095132255664436e-18
	-2.049924759553551e-14
	5.948361661838352e-07
	3.462089388582291e-05
	4.084807223771490e-06
	2.266045111496702e-01

 38	3.800000000000002e-01
	-5.453149933271817e-15
	-1.119727399420043e-18
	-2.065837478806781e-14
	6.347071060393374e-07
	3.776017134551415e-05
	4.446480232978481e-06
	2.266045415236994e-01

 39	3.900000000000002e-01
	-5.412534260611614e-15
	-1.144813915767614e-18
	-2.081541183865116e-14
	6.769166951520118e-07
	4.118425773800135e-05
	4.840949782894170e-06
	2.266045748097000e-01

 40	4.000000000000002e-01
	-5.373177657491548e-15
	-1.170400416408817e-18
	-2.097033610779141e-14
	7.215750117965287e-07
	4.491725311355490e-05
	5.271182970830730e-06
	2.266046112925538e-01

 41	4.100000000000002e-01
	-5.335070939154076e-15
	-1.196495663639804e-18
	-2.112312696859840e-14
	7.687953109865977e-07
	4.898487906436192e-05
	5.740395935461543e-06
	2.266046512839565e-01

 42	4.200000000000002e-01
	-5.298204271322484e-15
	-1.223108573919210e-18
	-2.127376578481095e-14
	8.186939731393748e-07
	5.341451957280232e-05
	6.252070278611165e-06
	2.266046951245744e-01

 43	4.300000000000002e-01
	-5.262567195574951e-15
	-1.250248221534795e-18
	-2.142223588573251e-14
	8.713904399336174e-07
	5.823525238324184e-05
	6.809969848695095e-06
	2.266047431863415e-01

 44	4.400000000000002e-01
	-5.228148655281904e-15
	-1.277923842371855e-18
	-2.156852253824205e-14
	9.270071367077575e-07
	6.347786922551085e-05
	7.418157782651321e-06
	2.266047958748193e-01

 45	4.500000000000002e-01
	-5.194937022017198e-15
	-1.306144837784784e-18
	-2.171261291604702e-14
	9.856693807658459e-07
	6.917488314137731e-05
	8.081013686075632e-06
	2.266048536316846e-01

 46	4.600000000000002e-01
	-5.162920122355559e-15
	-1.334920778574448e-18
	-2.185449606635023e-14
	1.047505274990404e-06
	7.536052110819781e-05
	8.803250813477331e-06
	2.266049169372643e-01

 47	4.700000000000003e-01
	-5.132085264970786e-15
	-1.364261409073360e-18
	-2.199416287410275e-14
	1.112645586201275e-06
	8.207070012079788e-05
	9.589933092313628e-06
	2.266049863131775e-01

 48	4.800000000000003e-01
	-5.102419267951483e-15
	-1.394176651341528e-18
	-2.213160602401831e-14
	1.181223607751167e-06
	8.934298488814065e-05
	1.044649181602155e-05
	2.266050623249928e-01

 49	4.900000000000003e-01
	-5.073908486253976e-15
	-1.424676609474823e-18
	-2.226681996052366e-14
	1.253375005910974e-06
	9.721652532989230e-05
	1.137874181293539e-05
	2.266051455849364e-01

 50	5.000000000000002e-01
	-5.046538839214616e-15
	-1.455771574028828e-18
	-2.239980084582010e-14
	1.329237649673867e-06
	1.057319721241528e-04
	1.239289688012679e-05
	2.266052367545928e-01

 51	5.100000000000002e-01
	-5.020295838047135e-15
	-1.487472026560527e-18
	-2.253054651623004e-14
	1.408951423695982e-06
	1.149313686654929e-04
	1.349558425421823e-05
	2.266053365475810e-01

 52	5.200000000000002e-01
	-4.995164613253466e-15
	-1.519788644290617e-18
	-2.265905643700092e-14
	1.492658024194784e-06
	1.248580179458589e-04
	1.469385787554273e-05
	2.266054457321848e-01

 53	5.300000000000002e-01
	-4.971129941880305e-15
	-1.552732304889091e-18
	-2.278533165573679e-14
	1.580500737744620e-06
	1.355563230730452e-04
	1.599521018812761e-05
	2.266055651338650e-01

 54	5.400000000000003e-01
	-4.948176274556810e-15
	-1.586314091387102e-18
	-2.290937475462443e-14
	1.672624203041901e-06
	1.470716003946180e-04
	1.740758220635658e-05
	2.266056956376593e-01

 55	5.500000000000003e-01
	-4.926287762252712e-15
	-1.620545297217798e-18
	-2.303118980161787e-14
	1.769174155861229e-06
	1.594498645008956e-04
	1.893937157035156e-05
	2.266058381903837e-01

 56	5.600000000000003e-01
	-4.905448282699498e-15
	-1.655437431389340e-18
	-2.315078230074119e-14
	1.870297157587262e-06
	1.727375847388846e-04
	2.059943830661942e-05
	2.266059938026055e-01

 57	5.700000000000003e-01
	-4.885641466421467e-15
	-1.691002223792918e-18
	-2.326815914166447e-14
	1.976140307885021e-06
	1.869814132788285e-04
	2.239710800886562e-05
	2.266061635503404e-01

 58	5.800000000000003e-01
	-4.866850722326636e-15
	-1.727251630649808e-18
	-2.338332854870392e-14
	2.086850942263023e-06
	2.022278852334233e-04
	2.434217215658713e-05
	2.266063485764080e-01

 59	5.900000000000003e-01
	-4.849059262811795e-15
	-1.764197840099322e-18
	-2.349630002939078e-14
	2.202576315486652e-06
	2.185230918322291e-04
	2.644488529657714e-05
	2.266065500913911e-01

 60	6.000000000000003e-01
	-4.832250128339464e-15
	-1.801853277932627e-18
	-2.360708432274889e-14
	2.323463272012731e-06
	2.359123281941183e-04
	2.871595882522790e-05
	2.266067693741476e-01

 61	6.100000000000003e-01
	-4.816406211448074e-15
	-1.840230613474968e-18
	-2.371569334741480e-14
	2.449657904836999e-06
	2.544397178104490e-04
	3.116655112783435e-05
	2.266070077718108e-01

 62	6.200000000000003e-01
	-4.801510280160778e-15
	-1.879342765620162e-18
	-2.382214014972786e-14
	2.581305204371471e-06
	2.741478164410168e-04
	3.380825385522962e-05
	2.266072666992340e-01

 63	6.300000000000003e-01
	-4.787545000761590e-15
	-1.919202909021221e-18
	-2.392643885191176e-14
	2.718548699195451e-06
	2.950771987218176e-04
	3.665307414816446e-05
	2.266075476378030e-01

 64	6.400000000000003e-01
	-4.774492959911004e-15
	-1.959824480441341e-18
	-2.402860460046296e-14
	2.861530090747163e-06
	3.172660313747094e-04
	3.971341265587319e-05
	2.266078521335958e-01

 65	6.500000000000004e-01
	-4.762336686077238e-15
	-2.001221185267769e-18
	-2.412865351485375e-14
	3.010388884239670e-06
	3.407496374793416e-04
	4.300203723712853e-05
	2.266081817948296e-01

 66	6.600000000000004e-01
	-4.751058670261611e-15
	-2.043407004195043e-18
	-2.422660263665298e-14
	3.165262018289376e-06
	3.655600568012171e-04
	4.653205227948292e-05
	2.266085382885488e-01

 67	6.700000000000004e-01
	-4.740641386001043e-15
	-2.086396200079303e-18
	-2.432246987915902e-14
	3.326283495932727e-06
	3.917256076497707e-04
	5.031686362485759e-05
	2.266089233365638e-01

 68	6.800000000000004e-01
	-4.731067308632653e-15
	-2.130203324969940e-18
	-2.441627397763420e-14
	3.493584019873215e-06
	4.192704561502145e-04
	5.437013914658466e-05
	2.266093387105781e-01

 69	6.900000000000004e-01
	-4.722318933809016e-15
	-2.174843227321702e-18
	-2.450803444022349e-14
	3.667290634939326e-06
	4.482141991359979e-04
	5.870576508360369e-05
	2.266097862265239e-01

 70	7.000000000000004e-01
	-4.714378795255765e-15
	-2.220331059392831e-18
	-2.459777149963258e-14
	3.847526380841351e-06
	4.785714670897071e-04
	6.333779830084191e-05
	2.266102677381349e-01

 71	7.100000000000004e-01
	-4.707229481764855e-15
	-2.266682284833450e-18
	-2.468550606563613e-14
	4.034409958386403e-06
	5.103515536652424e-04
	6.828041470977862e-05
	2.266107851296991e-01

 72	7.200000000000004e-01
	-4.700853653421095e-15
	-2.313912686468530e-18
	-2.477125967847888e-14
	4.228055412340304e-06
	5.435580783012052e-04
	7.354785414852237e-05
	2.266113403081487e-01

 73	7.300000000000004e-01
	-4.695234057060305e-15
	-2.362038374281889e-18
	-2.485505446322778e-14
	4.428571834113400e-06
	5.781886882763813e-04
	7.915436208521256e-05
	2.266119351944105e-01

 74	7.400000000000004e-01
	-4.690353540960965e-15
	-2.411075793604260e-18
	-2.493691308512672e-14
	4.636063087386007e-06
	6.142348062566906e-04
	8.511412857062978e-05
	2.266125717141866e-01

 75	7.500000000000004e-01
	-4.686195068772967e-15
	-2.461041733512857e-18
	-2.501685870599991e-14
	4.850627559682877e-06
	6.516814289381990e-04
	9.144122492429460e-05
	2.266132517881801e-01

 76	7.600000000000005e-01
	-4.682741732688989e-15
	-2.511953335445849e-18
	-2.509491494174510e-14
	5.072357942749425e-06
	6.905069818046302e-04
	9.814953869150450e-05
	2.266139773218851e-01

 77	7.700000000000005e-01
	-4.679976765866326e-15
	-2.563828102038839e-18
	-2.517110582095153e-14
	5.301341044378134e-06
	7.306832342973531e-04
	1.052527074553614e-04
	2.266147501950588e-01

 78	7.800000000000005e-01
	-4.677883554108173e-15
	-2.616683906187911e-18
	-2.524545574467417e-14
	5.537657634084484e-06
	7.721752788525397e-04
	1.127640521266316e-04
	2.266155722509522e-01

 79	7.900000000000005e-01
	-4.676445646815829e-15
	-2.670539000346526e-18
	-2.531798944738895e-14
	5.781382324737298e-06
	8.149415763090103e-04
	1.206965103639894e-04
	2.266164452854861e-01

 80	8.000000000000005e-01
	-4.675646767223650e-15
	-2.725412026060509e-18
	-2.538873195915160e-14
	6.032583491918000e-06
	8.589340691515077e-04
	1.290625707969971e-04
	2.266173710364466e-01

 81	8.100000000000005e-01
	-4.675470821930974e-15
	-2.781322023749682e-18
	-2.545770856897626e-14
	6.291323232417032e-06
	9.040983629498136e-04
	1.378742087331462e-04
	2.266183511728634e-01

 82	8.200000000000005e-01
	-4.675901909745819e-15
	-2.838288442741242e-18
	-2.552494478944730e-14
	6.557657362883876e-06
	9.503739752106513e-04
	1.471428240280313e-04
	2.266193872847002e-01

 83	8.300000000000005e-01
	-4.676924329856612e-15
	-2.896331151561898e-18
	-2.559046632257344e-14
	6.831635459234222e-06
	9.976946497039204e-04
	1.568791817839061e-04
	2.266204808730228e-01

 84	8.400000000000005e-01
	-4.678522589348349e-15
	-2.955470448497408e-18
	-2.565429902689023e-14
	7.113300936994493e-06
	1.045988733186807e-03
	1.670933565166109e-04
	2.266216333406915e-01

 85	8.500000000000005e-01
	-4.680681410082071e-15
	-3.015727072425134e-18
	-2.571646888581212e-14
	7.402691172333534e-06
	1.095179610356790e-03
	1.777946803943253e-04
	2.266228459838160e-01

 86	8.600000000000005e-01
	-4.683385734955075e-15
	-3.077122213928836e-18
	-2.577700197723442e-14
	7.699837663108328e-06
	1.145186191846635e-03
	1.889916961046105e-04
	2.266241199839736e-01

 87	8.700000000000006e-01
	-4.686620733561727e-15
	-3.139677526703406e-18
	-2.583592444438004e-14
	8.004766228837679e-06
	1.195923449156250e-03
	2.006921148494336e-04
	2.266254564013551e-01

 88	8.800000000000006e-01
	-4.690371807274420e-15
	-3.203415139258778e-18
	-2.589326246788497e-14
	8.317497248125681e-06
	1.247302989621624e-03
	2.129027799025669e-04
	2.266268561689138e-01

 89	8.900000000000006e-01
	-4.694624593764184e-15
	-3.268357666931543e-18
	-2.594904223911297e-14
	8.638045931692522e-06
	1.299233663869711e-03
	2.256296360912328e-04
	2.266283200875475e-01

 90	9.000000000000006e-01
	-4.699364970981971e-15
	-3.334528224213625e-18
	-2.600328993468744e-14
	8.966422628839176e-06
	1.351622197715064e-03
	2.388777054856266e-04
	2.266298488224103e-01

 91	9.100000000000006e-01
	-4.704579060620638e-15
	-3.401950437409156e-18
	-2.605603169222657e-14
	9.302633164881067e-06
	1.404373840130262e-03
	2.526510694976454e-04
	2.266314429003597e-01

 92	9.200000000000006e-01
	-4.710253231078199e-15
	-3.470648457628920e-18
	-2.610729358726577e-14
	9.646679206838417e-06
	1.457393018772958e-03
	2.669528575055292e-04
	2.266331027085440e-01

 93	9.300000000000006e-01
	-4.716374099943319e-15
	-3.540646974133608e-18
	-2.615710161134888e-14
	9.998558654469850e-06
	1.510583994577949e-03
	2.817852420358829e-04
	2.266348284941470e-01

 94	9.400000000000006e-01
	-4.722928536023504e-15
	-3.611971228037391e-18
	-2.620548165126845e-14
	1.035826605358476e-05
	1.563851507118537e-03
	2.971494404504970e-04
	2.266366203652541e-01

 95	9.500000000000006e-01
	-4.729903660936170e-15
	-3.684647026383960e-18
	-2.625245946943393e-14
	1.072579302846822e-05
	1.617101402797743e-03
	3.130457230041208e-04
	2.266384782927813e-01

 96	9.600000000000006e-01
	-4.737286850283644e-15
	-3.758700756607159e-18
	-2.629806068534397e-14
	1.110112873019896e-05
	1.670241238432705e-03
	3.294734270623726e-04
	2.266404021134641e-01

 97	9.700000000000006e-01
	-4.745065734431453e-15
	-3.834159401388698e-18
	-2.634231075813944e-14
	1.148426029763834e-05
	1.723180853428076e-03
	3.464309771978473e-04
	2.266423915337751e-01

 98	9.800000000000006e-01
	-4.753228198910341e-15
	-3.911050553927653e-18
	-2.638523497021081e-14
	1.187517332790726e-05
	1.775832904474759e-03
	3.639159108180886e-04
	2.266444461347357e-01

 99	9.900000000000007e-01
	-4.761762384461234e-15
	-3.989402433633916e-18
	-2.642685841183397e-14
	1.227385235325264e-05
	1.828113357537779e-03
	3.819249089227585e-04
	2.266465653775190e-01

 100	1.000000000000001e+00
	-4.770656686742590e-15
	-4.069243902261752e-18
	-2.646720596680627e-14
	1.268028132132611e-05
	1.879941932786677e-03
	4.004538315395050e-04
	2.266487486097410e-01

 101	1.010000000000001e+00
	-4.779899755718721e-15
	-4.150604480496613e-18
	-2.650630229905546e-14
