Title: ** sch_path: /home/andylithia/openmpw/project-yatsuhashi-chip1/xschem/gmid_test/nmos_test.sch
Date: Tue Jul 19 23:15:45  2022
Plotname: DC transfer characteristic
Flags: real
No. Variables: 8
No. Points: 181
Variables:
	0	v(v-sweep)	voltage
	1	@m.xm1.msky130_fd_pr__nfet_01v8[cgb]	capacitance
	2	@m.xm1.msky130_fd_pr__nfet_01v8[cgd]	capacitance
	3	@m.xm1.msky130_fd_pr__nfet_01v8[cgs]	capacitance
	4	@m.xm1.msky130_fd_pr__nfet_01v8[gds]	admittance
	5	@m.xm1.msky130_fd_pr__nfet_01v8[gm]	admittance
	6	i(@m.xm1.msky130_fd_pr__nfet_01v8[id])	current
	7	v(@m.xm1.msky130_fd_pr__nfet_01v8[vth])	voltage
Values:
 0	0.000000000000000e+00
	-6.919911716508259e-15
	-3.789445095804776e-19
	-1.139182260163521e-14
	2.173647070699374e-08
	9.036890044838478e-07
	1.062767625782473e-07
	2.338453051641106e-01

 1	1.000000000000000e-02
	-6.842026350138280e-15
	-3.885235568294765e-19
	-1.157231102433153e-14
	2.360582690173184e-08
	9.827409363254381e-07
	1.157034158324335e-07
	2.338453059402440e-01

 2	2.000000000000000e-02
	-6.764977206299765e-15
	-3.983228910470723e-19
	-1.175292026428665e-14
	2.562855218246457e-08
	1.068672939394042e-06
	1.259545015181536e-07
	2.338453067846770e-01

 3	3.000000000000000e-02
	-6.688784560990695e-15
	-4.083467780245455e-19
	-1.193357761857905e-14
	2.781634636209473e-08
	1.162096083603364e-06
	1.371018297792095e-07
	2.338453077034335e-01

 4	4.000000000000000e-02
	-6.613468286058990e-15
	-4.185995472966967e-19
	-1.211421035789231e-14
	3.018170176128428e-08
	1.263679207858319e-06
	1.492236055488081e-07
	2.338453087030840e-01

 5	5.000000000000000e-02
	-6.539047807908175e-15
	-4.290855930684458e-19
	-1.229474583356691e-14
	3.273794626713971e-08
	1.374154910205650e-06
	1.624050356652085e-07
	2.338453097908005e-01

 6	6.000000000000000e-02
	-6.465542067617523e-15
	-4.398093751769825e-19
	-1.247511158432448e-14
	3.549928767786939e-08
	1.494326195890323e-06
	1.767389991233399e-07
	2.338453109744160e-01

 7	7.000000000000001e-02
	-6.392969482584122e-15
	-4.507754200907380e-19
	-1.265523544234853e-14
	3.848085926958995e-08
	1.625073851069728e-06
	1.923267873758910e-07
	2.338453122624936e-01

 8	8.000000000000000e-02
	-6.321347909788447e-15
	-4.619883219468801e-19
	-1.283504563840884e-14
	4.169876650984587e-08
	1.767364614940892e-06
	2.092789222999269e-07
	2.338453136643985e-01

 9	9.000000000000000e-02
	-6.250694610778519e-15
	-4.734527436284322e-19
	-1.301447090572100e-14
	4.517013483023837e-08
	1.922260227970449e-06
	2.277160601973507e-07
	2.338453151903785e-01

 10	9.999999999999999e-02
	-6.181026218461339e-15
	-4.851734178827639e-19
	-1.319344058223798e-14
	4.891315835792867e-08
	2.090927438676966e-06
	2.477699909983928e-07
	2.338453168516524e-01

 11	1.100000000000000e-01
	-6.112358705782745e-15
	-4.971551484827218e-19
	-1.337188471107839e-14
	5.294714949267883e-08
	2.274649055872584e-06
	2.695847426843396e-07
	2.338453186605182e-01

 12	1.200000000000000e-01
	-6.044707356369198e-15
	-5.094028114319556e-19
	-1.354973413880513e-14
	5.729258920258993e-08
	2.474836137277105e-06
	2.933178018352516e-07
	2.338453206304592e-01

 13	1.300000000000000e-01
	-5.978086737197216e-15
	-5.219213562157338e-19
	-1.372692061127772e-14
	6.197117789781018e-08
	2.693041408798656e-06
	3.191414621349352e-07
	2.338453227762657e-01

 14	1.400000000000000e-01
	-5.912510673348094e-15
	-5.347158070988787e-19
	-1.390337686681287e-14
	6.700588672725082e-08
	2.930974011333770e-06
	3.472443136218422e-07
	2.338453251141865e-01

 15	1.500000000000000e-01
	-5.847992224896242e-15
	-5.477912644722526e-19
	-1.407903672640232e-14
	7.242100912886610e-08
	3.190515673453226e-06
	3.778328864516809e-07
	2.338453276620626e-01

 16	1.600000000000000e-01
	-5.784543665972088e-15
	-5.611529062490375e-19
	-1.425383518074786e-14
	7.824221244924160e-08
	3.473738408553804e-06
	4.111334639230931e-07
	2.338453304395126e-01

 17	1.700000000000000e-01
	-5.722176466030551e-15
	-5.748059893125481e-19
	-1.442770847389117e-14
	8.449658943328395e-08
	3.782923833699020e-06
	4.473940804982738e-07
	2.338453334681204e-01

 18	1.800000000000000e-01
	-5.660901273347848e-15
	-5.887558510168031e-19
	-1.460059418323063e-14
	9.121270936965446e-08
	4.120584204135046e-06
	4.868867215079410e-07
	2.338453367716336e-01

 19	1.900000000000000e-01
	-5.600727900760535e-15
	-6.030079107413975e-19
	-1.477243129573334e-14
	9.842066866225965e-08
	4.489485252024561e-06
	5.299097421443279e-07
	2.338453403762038e-01

 20	2.000000000000000e-01
	-5.541665313651573e-15
	-6.175676715021608e-19
	-1.494316028016970e-14
	1.061521405827659e-07
	4.892670909943580e-06
	5.767905241935652e-07
	2.338453443106459e-01

 21	2.100000000000000e-01
	-5.483721620179776e-15
	-6.324407216188390e-19
	-1.511272315521411e-14
	1.144404239436505e-07
	5.333489988759548e-06
	6.278883897118392e-07
	2.338453486067164e-01

 22	2.200000000000001e-01
	-5.426904063740375e-15
	-6.476327364415998e-19
	-1.528106355327531e-14
	1.233204904158532e-07
	5.815624865272745e-06
	6.835977914773333e-07
	2.338453532994238e-01

 23	2.300000000000001e-01
	-5.371219017636031e-15
	-6.631494801373903e-19
	-1.544812677993715e-14
	1.328290301996293e-07
	6.343122217061797e-06
	7.443518005167503e-07
	2.338453584273858e-01

 24	2.400000000000001e-01
	-5.316671981929518e-15
	-6.789968075378581e-19
	-1.561385986891152e-14
	1.430044957419539e-07
	6.920425819941656e-06
	8.106259112729618e-07
	2.338453640331966e-01

 25	2.500000000000001e-01
	-5.263267582441685e-15
	-6.951806660502970e-19
	-1.577821163242257e-14
	1.538871431785108e-07
	7.552411396924692e-06
	8.829421850046276e-07
	2.338453701638508e-01

 26	2.600000000000001e-01
	-5.211009571850703e-15
	-7.117070976327895e-19
	-1.594113270696141e-14
	1.655190711633975e-07
	8.244423476223261e-06
	9.618737517446654e-07
	2.338453768712104e-01

 27	2.700000000000001e-01
	-5.159900832841314e-15
	-7.285822408353180e-19
	-1.610257559437027e-14
	1.779442567349335e-07
	9.002314179310771e-06
	1.048049690540906e-06
	2.338453842124907e-01

 28	2.800000000000001e-01
	-5.109943383246785e-15
	-7.458123329081944e-19
	-1.626249469823160e-14
	1.912085878515757e-07
	9.832483818088491e-06
	1.142160306705819e-06
	2.338453922508311e-01

 29	2.900000000000001e-01
	-5.061138383119329e-15
	-7.634037119789982e-19
	-1.642084635555898e-14
	2.053598922182239e-07
	1.074192313259534e-05
	1.244962823359167e-06
	2.338454010558838e-01

 30	3.000000000000001e-01
	-5.013486143659386e-15
	-7.813628193000793e-19
	-1.657758886380247e-14
	2.204479620098517e-07
	1.173825694730651e-05
	1.357287502597635e-06
	2.338454107044789e-01

 31	3.100000000000001e-01
	-4.966986137928880e-15
	-7.996962015674438e-19
	-1.673268250319977e-14
	2.365245740871277e-07
	1.282978896491230e-05
	1.480044209114344e-06
	2.338454212813238e-01

 32	3.200000000000001e-01
	-4.921637013268866e-15
	-8.184105133130470e-19
	-1.688608955452055e-14
	2.536435052870957e-07
	1.402554735165401e-05
	1.614229425958117e-06
	2.338454328797981e-01

 33	3.300000000000001e-01
	-4.877436605337362e-15
	-8.375125193717070e-19
	-1.703777431226882e-14
	2.718605423619784e-07
	1.533533069813678e-05
	1.760933728316128e-06
	2.338454456027635e-01

 34	3.400000000000001e-01
	-4.834381953680274e-15
	-8.570090974242898e-19
	-1.718770309342114e-14
	2.912334861301835e-07
	1.676975386447582e-05
	1.921349716667541e-06
	2.338454595634959e-01

 35	3.500000000000001e-01
	-4.792469318744125e-15
	-8.769072406186156e-19
	-1.733584424179632e-14
	3.118221493969041e-07
	1.834029313939444e-05
	2.096780405350942e-06
	2.338454748866318e-01

 36	3.600000000000002e-01
	-4.751694200237706e-15
	-8.972140602698967e-19
	-1.748216812816239e-14
	3.336883481966689e-07
	2.005933006034897e-05
	2.288648056469805e-06
	2.338454917092238e-01

 37	3.700000000000002e-01
	-4.712051356746939e-15
	-9.179367886419067e-19
	-1.762664714620162e-14
	3.568958859080399e-07
	2.194019315713045e-05
	2.498503442107487e-06
	2.338455101818500e-01

 38	3.800000000000002e-01
	-4.673534826506103e-15
	-9.390827818109601e-19
	-1.776925570446514e-14
	3.815105297913204e-07
	2.399719679610707e-05
	2.728035510017542e-06
	2.338455304698082e-01

 39	3.900000000000002e-01
	-4.636137949227285e-15
	-9.606595226139782e-19
	-1.790997021445930e-14
	4.075999795043172e-07
	2.624567621808731e-05
	2.979081419301455e-06
	2.338455527543575e-01

 40	4.000000000000002e-01
	-4.599853388889694e-15
	-9.826746236826603e-19
	-1.804876907501522e-14
	4.352338271593154e-07
	2.870201778172218e-05
	3.253636903102365e-06
	2.338455772340624e-01

 41	4.100000000000002e-01
	-4.564673157390025e-15
	-1.005135830565143e-18
	-1.818563265310211e-14
	4.644835084972858e-07
	3.138368334878364e-05
	3.553866905076673e-06
	2.338456041261867e-01

 42	4.200000000000002e-01
	-4.530588638955862e-15
	-1.028051024937303e-18
	-1.832054326125156e-14
	4.954222447732669e-07
	3.430922768013976e-05
	3.882116425418738e-06
	2.338456336681559e-01

 43	4.300000000000002e-01
	-4.497590615224660e-15
	-1.051428227905152e-18
	-1.845348513176703e-14
	5.281249749707513e-07
	3.749830765468517e-05
	4.240921500605320e-06
	2.338456661190847e-01

 44	4.400000000000002e-01
	-4.465669290892332e-15
	-1.075275603400521e-18
	-1.858444438789729e-14
	5.626682779933298e-07
	4.097168208096639e-05
	4.633020228920266e-06
	2.338457017613463e-01

 45	4.500000000000002e-01
	-4.434814319837230e-15
	-1.099601461671560e-18
	-1.871340901215709e-14
	5.991302845193973e-07
	4.475120084599408e-05
	5.061363741370627e-06
	2.338457409022036e-01

 46	4.600000000000002e-01
	-4.405014831626799e-15
	-1.124414262870558e-18
	-1.884036881198206e-14
	6.375905782514516e-07
	4.885978214114969e-05
	5.529127005007748e-06
	2.338457838754517e-01

 47	4.700000000000003e-01
	-4.376259458317379e-15
	-1.149722620740460e-18
	-1.896531538290572e-14
	6.781300863453799e-07
	5.332137652446148e-05
	6.039719333136557e-06
	2.338458310431020e-01

 48	4.800000000000003e-01
	-4.348536361459633e-15
	-1.175535306402570e-18
	-1.908824206944904e-14
	7.208309588685785e-07
	5.816091662516427e-05
	6.596794464698792e-06
	2.338458827970555e-01

 49	4.900000000000003e-01
	-4.321833259225375e-15
	-1.201861252247652e-18
	-1.920914392391244e-14
	7.657764372085192e-07
	6.340425137334332e-05
	7.204260063530861e-06
	2.338459395607677e-01

 50	5.000000000000002e-01
	-4.296137453574610e-15
	-1.228709555932312e-18
	-1.932801766325981e-14
	8.130507114363565e-07
	6.907806374731243e-05
	7.866286477547045e-06
	2.338460017908805e-01

 51	5.100000000000002e-01
	-4.271435857385356e-15
	-1.256089484482997e-18
	-1.944486162428264e-14
	8.627387667234681e-07
	7.520977117635398e-05
	8.587314588522654e-06
	2.338460699787955e-01

 52	5.200000000000002e-01
	-4.247715021471691e-15
	-1.284010478510469e-18
	-1.955967571723049e-14
	9.149262190123738e-07
	8.182740791806986e-05
	9.372062575408828e-06
	2.338461446521544e-01

 53	5.300000000000002e-01
	-4.224961161420341e-15
	-1.312482156536049e-18
	-1.967246137809006e-14
	9.696991402573238e-07
	8.895948894856942e-05
	1.022553140837194e-05
	2.338462263762345e-01

 54	5.400000000000003e-01
	-4.203160184178630e-15
	-1.341514319433804e-18
	-1.978322151969341e-14
	1.027143873673697e-06
	9.663485515984270e-05
	1.115300888739543e-05
	2.338463157551615e-01

 55	5.500000000000003e-01
	-4.182297714332022e-15
	-1.371116954989307e-18
	-1.989196048182928e-14
	1.087346839567833e-06
	1.048824999504677e-04
	1.216007203866117e-05
	2.338464134329766e-01

 56	5.600000000000003e-01
	-4.162359120012397e-15
	-1.401300242579470e-18
	-1.999868398052876e-14
	1.150394332460055e-06
	1.137313776208418e-04
	1.325258768440638e-05
	2.338465200944904e-01

 57	5.700000000000003e-01
	-4.143329538382888e-15
	-1.432074557974736e-18
	-2.010339905668999e-14
	1.216372310361199e-06
	1.232101943383823e-04
	1.443671100782908e-05
	2.338466364658729e-01

 58	5.800000000000003e-01
	-4.125193900649079e-15
	-1.463450478267686e-18
	-2.020611402420149e-14
	1.285366177215418e-06
	1.333471828163804e-04
	1.571888194416081e-05
	2.338467633149896e-01

 59	5.900000000000003e-01
	-4.107936956550419e-15
	-1.495438786929990e-18
	-2.030683841771721e-14
	1.357460559677827e-06
	1.441698622457800e-04
	1.710581924245716e-05
	2.338469014513913e-01

 60	6.000000000000003e-01
	-4.091543298289915e-15
	-1.528050479001508e-18
	-2.040558294023015e-14
	1.432739079551033e-06
	1.557047854239754e-04
	1.860451206008756e-05
	2.338470517259847e-01

 61	6.100000000000003e-01
	-4.075997383863952e-15
	-1.561296766414363e-18
	-2.050235941058484e-14
	1.511284123358550e-06
	1.679772754296990e-04
	2.022220897341378e-05
	2.338472150302821e-01

 62	6.200000000000003e-01
	-4.061283559758365e-15
	-1.595189083455039e-18
	-2.059718071106166e-14
	1.593176610680496e-06
	1.810111545876444e-04
	2.196640431364185e-05
	2.338473922952700e-01

 63	6.300000000000003e-01
	-4.047386082980625e-15
	-1.629739092368527e-18
	-2.069006073515897e-14
	1.678495763016407e-06
	1.948284688397383e-04
	2.384482176620015e-05
	2.338475844898144e-01

 64	6.400000000000003e-01
	-4.034289142401700e-15
	-1.664958689107265e-18
	-2.078101433569212e-14
	1.767318875066054e-06
	2.094492109799765e-04
	2.586539520492097e-05
	2.338477926186151e-01

 65	6.500000000000004e-01
	-4.021976879384902e-15
	-1.700860009228953e-18
	-2.087005727332097e-14
	1.859721090429655e-06
	2.248910465047585e-04
	2.803624676842856e-05
	2.338480177196666e-01

 66	6.600000000000004e-01
	-4.010433407682850e-15
	-1.737455433946705e-18
	-2.095720616560963e-14
	1.955775183818785e-06
	2.411690460688373e-04
	3.036566222492032e-05
	2.338482608612538e-01

 67	6.700000000000004e-01
	-3.999642832586635e-15
	-1.774757596335513e-18
	-2.104247843671588e-14
	2.055551351936545e-06
	2.582954287074753e-04
	3.286206371237928e-05
	2.338485231384440e-01

 68	6.800000000000004e-01
	-3.989589269314897e-15
	-1.812779387698976e-18
	-2.112589226779970e-14
	2.159117015225123e-06
	2.762793200780300e-04
	3.553397998340855e-05
	2.338488056690969e-01

 69	6.900000000000004e-01
	-3.980256860633509e-15
	-1.851533964100116e-18
	-2.120746654823354e-14
	2.266536632689448e-06
	2.951265299808100e-04
	3.839001432654243e-05
	2.338491095894154e-01

 70	7.000000000000004e-01
	-3.971629793699827e-15
	-1.891034753061018e-18
	-2.128722082768945e-14
	2.377871531983304e-06
	3.148393533331332e-04
	4.143881037814362e-05
	2.338494360490564e-01

 71	7.100000000000004e-01
	-3.963692316127716e-15
	-1.931295460435267e-18
	-2.136517526917235e-14
	2.493179756888631e-06
	3.354163985883120e-04
	4.468901607991804e-05
	2.338497862058279e-01

 72	7.200000000000004e-01
	-3.956428751273026e-15
	-1.972330077457567e-18
	-2.144135060306046e-14
	2.612515934227114e-06
	3.568524473113400e-04
	4.814924607566424e-05
	2.338501612200359e-01

 73	7.300000000000004e-01
	-3.949823512740916e-15
	-2.014152887975667e-18
	-2.151576808220900e-14
	2.735931162116855e-06
	3.791383482473905e-04
	5.182804287618804e-05
	2.338505622485101e-01

 74	7.400000000000004e-01
	-3.943861118119412e-15
	-2.056778475869015e-18
	-2.158844943816562e-14
	2.863472921325259e-06
	4.022609487524579e-04
	5.573383715238585e-05
	2.338509904383978e-01

 75	7.500000000000004e-01
	-3.938526201945413e-15
	-2.100221732659190e-18
	-2.165941683854081e-14
	2.995185011274595e-06
	4.262030659057144e-04
	5.987490754247954e-05
	2.338514469207796e-01

 76	7.600000000000005e-01
	-3.933803527911223e-15
	-2.144497865317567e-18
	-2.172869284557056e-14
	3.131107512031512e-06
	4.509434990013121e-04
	6.425934037949341e-05
	2.338519328041627e-01

 77	7.700000000000005e-01
	-3.929678000322253e-15
	-2.189622404274947e-18
	-2.179630037590240e-14
	3.271276773358362e-06
	4.764570844369600e-04
	6.889498975861602e-05
	2.338524491679794e-01

 78	7.800000000000005e-01
	-3.926134674817434e-15
	-2.235611211639454e-18
	-2.186226266163129e-14
	3.415725431628902e-06
	5.027147932939617e-04
	7.378943837063970e-05
	2.338529970561316e-01

 79	7.900000000000005e-01
	-3.923158768365737e-15
	-2.282480489627627e-18
	-2.192660321260665e-14
	3.564482455116458e-06
	5.296838711559816e-04
	7.894995952681547e-05
	2.338535774706887e-01

 80	8.000000000000005e-01
	-3.920735668553878e-15
	-2.330246789215831e-18
	-2.198934578002642e-14
	3.717573217856294e-06
	5.573280189610276e-04
	8.438348079210578e-05
	2.338541913658014e-01

 81	8.100000000000005e-01
	-3.918850942181058e-15
	-2.378927019016727e-18
	-2.205051432133041e-14
	3.875019601970777e-06
	5.856076129424216e-04
	9.009654962797089e-05
	2.338548396419561e-01

 82	8.200000000000005e-01
	-3.917490343177896e-15
	-2.428538454388486e-18
	-2.211013296640012e-14
	4.036840128032937e-06
	6.144799610096161e-04
	9.609530142275433e-05
	2.338555231405945e-01

 83	8.300000000000005e-01
	-3.916639819867761e-15
	-2.479098746783301e-18
	-2.216822598506867e-14
	4.203050112737250e-06
	6.438995922671586e-04
	1.023854302578562e-04
	2.338562426392039e-01

 84	8.400000000000005e-01
	-3.916285521589571e-15
	-2.530625933341570e-18
	-2.222481775594015e-14
	4.373661852852054e-06
	6.738185757871165e-04
	1.089721627218096e-04
	2.338569988469453e-01

 85	8.500000000000005e-01
	-3.916413804701197e-15
	-2.583138446739954e-18
	-2.227993273651548e-14
	4.548684834152682e-06
	7.041868642519908e-04
	1.158602350429102e-04
	2.338577924008495e-01

 86	8.600000000000005e-01
	-3.917011237984412e-15
	-2.636655125300285e-18
	-2.233359543461622e-14
	4.728125963782708e-06
	7.349526576837344e-04
	1.230538737650605e-04
	2.338586238626505e-01

 87	8.700000000000006e-01
	-3.918064607471547e-15
	-2.691195223368193e-18
	-2.238583038109746e-14
	4.911989824268136e-06
	7.660627821793380e-04
	1.305567801420390e-04
	2.338594937162879e-01

 88	8.800000000000006e-01
	-3.919560920714977e-15
	-2.746778421967968e-18
	-2.243666210383604e-14
	5.100278947219680e-06
	7.974630783903135e-04
	1.383721183735521e-04
	2.338604023660840e-01

 89	8.900000000000006e-01
	-3.921487410521070e-15
	-2.803424839745354e-18
	-2.248611510297845e-14
	5.292994104605010e-06
	8.290987944147909e-04
	1.465025077533576e-04
	2.338613501356264e-01

 90	9.000000000000006e-01
	-3.923831538169542e-15
	-2.861155044203812e-18
	-2.253421382743093e-14
	5.490134615356877e-06
	8.609149778152902e-04
	1.549500187465111e-04
	2.338623372673558e-01

 91	9.100000000000006e-01
	-3.926580996140229e-15
	-2.919990063246575e-18
	-2.258098265257080e-14
	5.691698665008062e-06
	8.928568616286220e-04
	1.637161729606443e-04
	2.338633639228290e-01

 92	9.200000000000006e-01
	-3.929723710368473e-15
	-2.979951397032517e-18
	-2.262644585915757e-14
	5.897683636007038e-06
	9.248702394884442e-04
	1.728019469260047e-04
	2.338644301836561e-01

 93	9.300000000000006e-01
	-3.933247842050746e-15
	-3.041061030156720e-18
	-2.267062761341925e-14
	6.108086446371284e-06
	9.569018253261182e-04
	1.822077795518973e-04
	2.338655360530666e-01

 94	9.400000000000006e-01
	-3.937141789021729e-15
	-3.103341444166251e-18
	-2.271355194828867e-14
	6.322903894374757e-06
	9.888995935386853e-04
	1.919335830838994e-04
	2.338666814580806e-01

 95	9.500000000000006e-01
	-3.941394186723905e-15
	-3.166815630422216e-18
	-2.275524274576277e-14
	6.542133007040515e-06
	1.020813096000235e-03
	2.019787573475490e-04
	2.338678662521992e-01

 96	9.600000000000006e-01
	-3.945993908790612e-15
	-3.231507103318661e-18
	-2.279572372035632e-14
	6.765771390315420e-06
	1.052593752829031e-03
	2.123422070306508e-04
	2.338690902186206e-01

 97	9.700000000000006e-01
	-3.950930067262766e-15
	-3.297439913871367e-18
	-2.283501840362139e-14
	6.993817578938080e-06
	1.084195114392335e-03
	2.230223617283717e-04
	2.338703530738598e-01

 98	9.800000000000006e-01
	-3.956192012459816e-15
	-3.364638663687613e-18
	-2.287315012970163e-14
	7.226271384169064e-06
	1.115573092617605e-03
	2.340171984530830e-04
	2.338716544717600e-01

 99	9.900000000000007e-01
	-3.961769332524205e-15
	-3.433128519330058e-18
	-2.291014202189113e-14
	7.463134237729920e-06
	1.146686160268210e-03
	2.453242662946172e-04
	2.338729940077998e-01

 100	1.000000000000001e+00
	-3.967651852658965e-15
	-3.502935227087555e-18
	-2.294601698016555e-14
	7.704409530490809e-06
	1.177495517419526e-03
	2.569407129061579e-04
	2.338743712236483e-01

 101	1.010000000000001e+00
	-3.973829634077134e-15
	-3.574085128166219e-18
	-2.298079766965424e-14
