Title: ** sch_path: /home/andylithia/openmpw/project-yatsuhashi-chip1/xschem/gmid_test/nmos_test.sch
Date: Sun Jul 17 22:51:45  2022
Plotname: DC transfer characteristic
Flags: real
No. Variables: 8
No. Points: 181
Variables:
	0	v(v-sweep)	voltage
	1	@m.xm1.msky130_fd_pr__nfet_01v8[cgb]	capacitance
	2	@m.xm1.msky130_fd_pr__nfet_01v8[cgd]	capacitance
	3	@m.xm1.msky130_fd_pr__nfet_01v8[cgs]	capacitance
	4	@m.xm1.msky130_fd_pr__nfet_01v8[gds]	admittance
	5	@m.xm1.msky130_fd_pr__nfet_01v8[gm]	admittance
	6	i(@m.xm1.msky130_fd_pr__nfet_01v8[id])	current
	7	v(@m.xm1.msky130_fd_pr__nfet_01v8[vth])	voltage
Values:
 0	0.000000000000000e+00
	-1.923733069415297e-15
	1.856420168306200e-19
	-8.422689116632051e-16
	2.414915897339401e-09
	9.313097176709433e-08
	6.741522029222763e-09
	4.713300956871179e-01

 1	1.000000000000000e-02
	-1.906674183489816e-15
	1.889005414017411e-19
	-8.745461642586047e-16
	2.771180303235876e-09
	1.068116468863285e-07
	7.739689638765037e-09
	4.713300957826609e-01

 2	2.000000000000000e-02
	-1.889517716265473e-15
	1.920276974691446e-19
	-9.077106497573497e-16
	3.179484031733781e-09
	1.224768076225343e-07
	8.884365988736000e-09
	4.713300958922275e-01

 3	3.000000000000000e-02
	-1.872266246577954e-15
	1.950076105211826e-19
	-9.417614634948864e-16
	3.647310712848938e-09
	1.404090340389940e-07
	1.019677820068231e-08
	4.713300960178495e-01

 4	4.000000000000000e-02
	-1.854922984496629e-15
	1.978238031850150e-19
	-9.766958215180771e-16
	4.183193687952859e-09
	1.609300868815021e-07
	1.170117099322246e-08
	4.713300961618472e-01

 5	5.000000000000000e-02
	-1.837491776557285e-15
	2.004592186438851e-19
	-1.012508990842930e-15
	4.796857342569735e-09
	1.844061451845588e-07
	1.342522415042817e-08
	4.713300963268709e-01

 6	6.000000000000000e-02
	-1.819977108015392e-15
	2.028962477905533e-19
	-1.049194226777013e-15
	5.499376162230176e-09
	2.112537134847300e-07
	1.540052564933303e-08
	4.713300965159437e-01

 7	7.000000000000001e-02
	-1.802384101946604e-15
	2.051167600568377e-19
	-1.086742718108244e-15
	6.303353446759802e-09
	2.419462813188162e-07
	1.766310754775161e-08
	4.713300967325154e-01

 8	8.000000000000000e-02
	-1.784718515043466e-15
	2.071021378170864e-19
	-1.125143540930429e-15
	7.223121766098273e-09
	2.770218283280833e-07
	2.025405261229078e-08
	4.713300969805150e-01

 9	9.000000000000000e-02
	-1.766986729982375e-15
	2.088333142205034e-19
	-1.164383621833631e-15
	8.274967384764609e-09
	3.170912806546926e-07
	2.322018065986477e-08
	4.713300972644293e-01

 10	9.999999999999999e-02
	-1.749195744262796e-15
	2.102908142633567e-19
	-1.204447711135053e-15
	9.477381017856772e-09
	3.628480387824300e-07
	2.661482471329139e-08
	4.713300975893595e-01

 11	1.100000000000000e-01
	-1.731353155451056e-15
	2.114547988689714e-19
	-1.245318366762233e-15
	1.085133740327644e-08
	4.150787140077854e-07
	3.049870835582504e-08
	4.713300979611197e-01

 12	1.200000000000000e-01
	-1.713467142793676e-15
	2.123051117002578e-19
	-1.286975949327403e-15
	1.242060627578570e-08
	4.746752309034517e-07
	3.494093713934346e-08
	4.713300983863219e-01

 13	1.300000000000000e-01
	-1.695546445199597e-15
	2.128213283885965e-19
	-1.329398628848021e-15
	1.421209740011053e-08
	5.426484771443717e-07
	4.002011859098077e-08
	4.713300988724943e-01

 14	1.400000000000000e-01
	-1.677600335626485e-15
	2.129828078233604e-19
	-1.372562403476700e-15
	1.625624235272460e-08
	6.201437107322706e-07
	4.582562731576890e-08
	4.713300994281898e-01

 15	1.500000000000000e-01
	-1.659638591943147e-15
	2.127687451103692e-19
	-1.416441130502684e-15
	1.858741572351458e-08
	7.084579689393070e-07
	5.245903395940473e-08
	4.713301000631300e-01

 16	1.600000000000000e-01
	-1.641671464377308e-15
	2.121582257744811e-19
	-1.461006569780001e-15
	2.124439832595537e-08
	8.090597642999393e-07
	6.003571943738287e-08
	4.713301007883595e-01

 17	1.700000000000000e-01
	-1.623709639695346e-15
	2.111302807528069e-19
	-1.506228439623596e-15
	2.427088484253587e-08
	9.236114019373573e-07
	6.868669892753929e-08
	4.713301016164217e-01

 18	1.800000000000000e-01
	-1.605764202297114e-15
	2.096639417011070e-19
	-1.552074485097182e-15
	2.771603807416231e-08
	1.053994310734990e-06
	7.856068374864594e-08
	4.713301025615467e-01

 19	1.900000000000000e-01
	-1.587846592444593e-15
	2.077382961172357e-19
	-1.598510558495271e-15
	3.163509158970876e-08
	1.202337849697174e-06
	8.982641350739109e-08
	4.713301036398888e-01

 20	2.000000000000000e-01
	-1.569968561876873e-15
	2.053325417721763e-19
	-1.645500711700337e-15
	3.609000206518719e-08
	1.371052131556133e-06
	1.026752959025894e-07
	4.713301048697681e-01

 21	2.100000000000000e-01
	-1.552142127095492e-15
	2.024260399325645e-19
	-1.693007299973815e-15
	4.115015194063163e-08
	1.562865499310849e-06
	1.173243974527457e-07
	4.713301062719645e-01

 22	2.200000000000001e-01
	-1.534379520633037e-15
	1.989983668576386e-19
	-1.740991096620597e-15
	4.689310218627004e-08
	1.780867398525431e-06
	1.340198352940885e-07
	4.713301078700359e-01

 23	2.300000000000001e-01
	-1.516693140643310e-15
	1.950293630597155e-19
	-1.789411417851060e-15
	5.340539393798063e-08
	2.028557508721110e-06
	1.530406282157097e-07
	4.713301096906877e-01

 24	2.400000000000001e-01
	-1.499095499173268e-15
	1.904991798294369e-19
	-1.838226257055061e-15
	6.078339651761492e-08
	2.309902129801347e-06
	1.747030743851402e-07
	4.713301117641990e-01

 25	2.500000000000001e-01
	-1.481599169494513e-15
	1.853883225459431e-19
	-1.887392427600664e-15
	6.913419788203263e-08
	2.629398961281352e-06
	1.993657338796647e-07
	4.713301141248898e-01

 26	2.600000000000001e-01
	-1.464216732885477e-15
	1.796776903174163e-19
	-1.936865713176985e-15
	7.857653183625805e-08
	2.992151558090296e-06
	2.274351062446926e-07
	4.713301168116720e-01

 27	2.700000000000001e-01
	-1.446960725263850e-15
	1.733486115283445e-19
	-1.986601024619070e-15
	8.924173439911880e-08
	3.403954888967934e-06
	2.593721068557888e-07
	4.713301198686660e-01

 28	2.800000000000001e-01
	-1.429843584072597e-15
	1.663828749064443e-19
	-2.036552562082373e-15
	1.012747195313538e-07
	3.871393550471122e-06
	2.956994607731773e-07
	4.713301233459078e-01

 29	2.900000000000001e-01
	-1.412877595821461e-15
	1.587627557640303e-19
	-2.086673981377885e-15
	1.148349620461544e-07
	4.401954285485765e-06
	3.370101488190431e-07
	4.713301273001599e-01

 30	3.000000000000001e-01
	-1.396074844679682e-15
	1.504710371141876e-19
	-2.136918563236501e-15
	1.300974729546419e-07
	5.004154498999768e-06
	3.839770573673142e-07
	4.713301317958315e-01

 31	3.100000000000001e-01
	-1.379447162504423e-15
	1.414910254120254e-19
	-2.187239384243497e-15
	1.472537498053104e-07
	5.687688429247818e-06
	4.373640001646624e-07
	4.713301369060410e-01

 32	3.200000000000001e-01
	-1.363006080673476e-15
	1.318065607232438e-19
	-2.237589488172071e-15
	1.665126818282190e-07
	6.463592486917304e-06
	4.980382964589106e-07
	4.713301427138096e-01

 33	3.300000000000001e-01
	-1.346762784070561e-15
	1.214020211772601e-19
	-2.287922056447717e-15
	1.881013869837356e-07
	7.344430981098581e-06
	5.669851035032680e-07
	4.713301493134441e-01

 34	3.400000000000001e-01
	-1.330728067546930e-15
	1.102623216168834e-19
	-2.338190576494437e-15
	2.122659554569496e-07
	8.344502965754442e-06
	6.453237114385311e-07
	4.713301568120913e-01

 35	3.500000000000001e-01
	-1.314912295154897e-15
	9.837290641281019e-20
	-2.388349006746961e-15
	2.392720718685196e-07
	9.480070219706732e-06
	7.343260124961357e-07
	4.713301653315012e-01

 36	3.600000000000002e-01
	-1.299325362417425e-15
	8.571973646616949e-20
	-2.438351937161367e-15
	2.694054866474812e-07
	1.076960537200748e-05
	8.354373518300337e-07
	4.713301750100375e-01

 37	3.700000000000002e-01
	-1.283976661863772e-15
	7.228927047532185e-20
	-2.488154744118019e-15
	3.029723058041536e-07
	1.223405786344330e-05
	9.502999510669058e-07
	4.713301860049072e-01

 38	3.800000000000002e-01
	-1.268875052024892e-15
	5.806844059515441e-20
	-2.537713738684193e-15
	3.402990679336877e-07
	1.389713376481312e-05
	1.080779064503286e-06
	4.713301984946678e-01

 39	3.900000000000002e-01
	-1.254028830044427e-15
	4.304462266436027e-20
	-2.586986307288455e-15
	3.817325778573082e-07
	1.578558344236861e-05
	1.228991978213010e-06
	4.713302126820158e-01

 40	4.000000000000002e-01
	-1.239445708022269e-15
	2.720560122062217e-20
	-2.635931043953354e-15
	4.276394680419554e-07
	1.792948868520316e-05
	1.397339890604986e-06
	4.713302287968131e-01

 41	4.100000000000002e-01
	-1.225132793168605e-15
	1.053952956402212e-20
	-2.684507873333948e-15
	4.784054619781969e-07
	2.036253823784438e-05
	1.588542615947908e-06
	4.713302470994397e-01

 42	4.200000000000002e-01
	-1.211096571807301e-15
	-6.965114837218898e-21
	-2.732678163918838e-15
	5.344343181521687e-07
	2.312227780632735e-05
	1.805675927526698e-06
	4.713302678843519e-01

 43	4.300000000000002e-01
	-1.197342897229495e-15
	-2.531957927381540e-20
	-2.780404830861584e-15
	5.961464391692662e-07
	2.625031766955462e-05
	2.052211203037437e-06
	4.713302914838760e-01

 44	4.400000000000002e-01
	-1.183876981361485e-15
	-4.453488870680784e-20
	-2.827652428025487e-15
	6.639771379562520e-07
	2.979247822532841e-05
	2.332056851891143e-06
	4.713303182721911e-01

 45	4.500000000000002e-01
	-1.170703390176094e-15
	-6.462190229671628e-20
	-2.874387228940307e-15
	7.383745616728810e-07
	3.379885137992553e-05
	2.649600794818316e-06
	4.713303486693814e-01

 46	4.600000000000002e-01
	-1.157826042744104e-15
	-8.559137317067405e-20
	-2.920577296483321e-15
	8.197972837928965e-07
	3.832375394465698e-05
	3.009753035798612e-06
	4.713303831455214e-01

 47	4.700000000000003e-01
	-1.145248213792386e-15
	-1.074540110411943e-19
	-2.966192541209209e-15
	9.087115854522063e-07
	4.342554845642474e-05
	3.417987123245625e-06
	4.713304222246439e-01

 48	4.800000000000003e-01
	-1.132972539608420e-15
	-1.302205472888652e-19
	-3.011204768360501e-15
	1.005588458188571e-06
	4.916630742344616e-05
	3.880379053210390e-06
	4.713304664884657e-01

 49	4.900000000000003e-01
	-1.121001027107085e-15
	-1.539018021248497e-19
	-3.055587713692378e-15
	1.110900371101646e-06
	5.561129922061623e-05
	4.403641937019856e-06
	4.713305165797061e-01

 50	5.000000000000002e-01
	-1.109335065855292e-15
	-1.785087534580951e-19
	-3.099317068340679e-15
	1.225117855665377e-06
	6.282827796943747e-05
	4.995154556944319e-06
	4.713305732048292e-01

 51	5.100000000000002e-01
	-1.097975442833153e-15
	-2.040526071053143e-19
	-3.142370493049674e-15
	1.348705970313099e-06
	7.088656588149581e-05
	5.662981785907288e-06
	4.713306371359884e-01

 52	5.200000000000002e-01
	-1.086922359697010e-15
	-2.305448679988914e-19
	-3.184727622154748e-15
	1.482120713882405e-06
	7.985592472620314e-05
	6.415884771404490e-06
	4.713307092120133e-01

 53	5.300000000000002e-01
	-1.076175452299866e-15
	-2.579974120690412e-19
	-3.226370057785260e-15
	1.625805461507619e-06
	8.980522313040938e-05
	7.263318799376749e-06
	4.713307903381995e-01

 54	5.400000000000003e-01
	-1.065733812218265e-15
	-2.864225584998671e-19
	-3.267281354812918e-15
	1.780187498144993e-06
	1.008009179570925e-04
	8.215416877737110e-06
	4.713308814847345e-01

 55	5.500000000000003e-01
	-1.055596010031596e-15
	-3.158331420854606e-19
	-3.307446997121472e-15
	1.945674723337113e-06
	1.129053804658392e-04
	9.282957323800028e-06
	4.713309836836037e-01

 56	5.600000000000003e-01
	-1.045760120099590e-15
	-3.462425854403835e-19
	-3.346854365814593e-15
	2.122652595998699e-06
	1.261751105652737e-04
	1.047731401048084e-05
	4.713310980238146e-01

 57	5.700000000000003e-01
	-1.036223746586673e-15
	-3.776649708481388e-19
	-3.385492700009685e-15
	2.311481380091030e-06
	1.406588943178746e-04
	1.181038841986467e-05
	4.713312256448974e-01

 58	5.800000000000003e-01
	-1.026984050487055e-15
	-4.101151115621392e-19
	-3.423353050887690e-15
	2.512493741443576e-06
	1.563959699638438e-04
	1.329452325711281e-05
	4.713313677286282e-01

 59	5.900000000000003e-01
	-1.018037777412173e-15
	-4.436086224046352e-19
	-3.460428229681989e-15
	2.725992733285603e-06
	1.734142751138064e-04
	1.494239807024663e-05
	4.713315254890373e-01

 60	6.000000000000003e-01
	-1.009381285911716e-15
	-4.781619895404666e-19
	-3.496712750294600e-15
	2.952250194056897e-06
	1.917288515486641e-04
	1.676690807038825e-05
	4.713317001607967e-01

 61	6.100000000000003e-01
	-1.001010576110779e-15
	-5.137926393334109e-19
	-3.532202767225323e-15
	3.191505566671013e-06
	2.113404835941992e-04
	1.878102811300572e-05
	4.713318929862018e-01

 62	6.200000000000003e-01
	-9.929213184585194e-16
	-5.505190062240974e-19
	-3.566896009490223e-15
	3.443965134541744e-06
	2.322346409395886e-04
	2.099766453888190e-05
	4.713321052009729e-01

 63	6.300000000000003e-01
	-9.851088823974762e-16
	-5.883605995979463e-19
	-3.600791711190188e-15
	3.709801657229927e-06
	2.543807870342894e-04
	2.342949823720337e-05
	4.713323380192384e-01

 64	6.400000000000003e-01
	-9.775683647774246e-16
	-6.273380696413511e-19
	-3.633890539369815e-15
	3.989154378269203e-06
	2.777321002093313e-04
	2.608882283758866e-05
	4.713325926180274e-01

 65	6.500000000000004e-01
	-9.702946178529015e-16
	-6.674732722120979e-19
	-3.666194519781202e-15
	4.282129370117204e-06
	3.022256371878320e-04
	2.898738232396441e-05
	4.713328701217264e-01

 66	6.600000000000004e-01
	-9.632822767190854e-16
	-7.087893327768764e-19
	-3.697706961138234e-15
	4.588800176536305e-06
	3.277829487624285e-04
	3.213621256127992e-05
	4.713331715869071e-01

 67	6.700000000000004e-01
	-9.565257860564368e-16
	-7.513107094950283e-19
	-3.728432378414424e-15
	4.909208711037247e-06
	3.543111364437467e-04
	3.554549121852065e-05
	4.713334979879438e-01

 68	6.800000000000004e-01
	-9.500194260700753e-16
	-7.950632555505370e-19
	-3.758376415702464e-15
	5.243366371058639e-06
	3.817043182567016e-04
	3.922440035463994e-05
	4.713338502038741e-01

 69	6.900000000000004e-01
	-9.437573375252328e-16
	-8.400742808582042e-19
	-3.787545769116868e-15
	5.591255330827210e-06
	4.098454529926598e-04
	4.318100551858697e-05
	4.713342290068079e-01

 70	7.000000000000004e-01
	-9.377335457950453e-16
	-8.863726132898479e-19
	-3.815948110182916e-15
	5.952829980697146e-06
	4.386084563742471e-04
	4.742215462460781e-05
	4.713346350522553e-01

 71	7.100000000000004e-01
	-9.319419838513865e-16
	-9.339886595856394e-19
	-3.843592010115998e-15
	6.328018486487156e-06
	4.678605307506428e-04
	5.195339913500216e-05
	4.713350688715834e-01

 72	7.200000000000004e-01
	-9.263765141431564e-16
	-9.829544661337362e-19
	-3.870486865356351e-15
	6.716724448194419e-06
	4.974646227608467e-04
	5.677893925819468e-05
	4.713355308667666e-01

 73	7.300000000000004e-01
	-9.210309493195449e-16
	-1.033303779815640e-18
	-3.896642824684674e-15
	7.118828642824222e-06
	5.272819211378962e-04
	6.190159399858504e-05
	4.713360213075249e-01

 74	7.400000000000004e-01
	-9.158990717679800e-16
	-1.085072109129779e-18
	-3.922070718205551e-15
	7.534190840431371e-06
	5.571743093463797e-04
	6.732279602504524e-05
	4.713365403308424e-01

 75	7.500000000000004e-01
	-9.109746519478615e-16
	-1.138296785816858e-18
	-3.946781988447698e-15
	7.962651685493918e-06
	5.870066945666274e-04
	7.304261050279300e-05
	4.713370879427603e-01

 76	7.600000000000005e-01
	-9.062514655117370e-16
	-1.193017027221021e-18
	-3.970788623793117e-15
	8.404034637296035e-06
	6.166491449008829e-04
	7.905977629807373e-05
	4.713376640223355e-01

 77	7.700000000000005e-01
	-9.017233092150378e-16
	-1.249273999629912e-18
	-3.994103094412337e-15
	8.858147963135422e-06
	6.459787796321809e-04
	8.537176734744613e-05
	4.713382683275202e-01

 78	7.800000000000005e-01
	-8.973840156242277e-16
	-1.307110882843834e-18
	-4.016738290849115e-15
	9.324786777084737e-06
	6.748813718795717e-04
	9.197487150414779e-05
	4.713389005027087e-01

 79	7.900000000000005e-01
	-8.932274666408806e-16
	-1.366572936230185e-18
	-4.038707465366428e-15
	9.803735115039190e-06
	7.032526380367480e-04
	9.886428384338638e-05
	4.713395600876794e-01

 80	8.000000000000005e-01
	-8.892476058659741e-16
	-1.427707566524633e-18
	-4.060024176136110e-15
	1.029476803424885e-05
	7.309992030183795e-04
	1.060342112269702e-04
	4.713402465275978e-01

 81	8.100000000000005e-01
	-8.854384498346255e-16
	-1.490564397644260e-18
	-4.080702234326957e-15
	1.079765372284329e-05
	7.580392437845177e-04
	1.134779848871548e-04
	4.713409591838117e-01

 82	8.200000000000005e-01
	-8.817940981564129e-16
	-1.555195342782138e-18
	-4.100755654121370e-15
	1.131215560237763e-05
	7.843028252756014e-04
	1.211881778750185e-04
	4.713416973450827e-01

 83	8.300000000000005e-01
	-8.783087426007420e-16
	-1.621654679054758e-18
	-4.120198605667458e-15
	1.183803440444592e-05
	8.097319523805872e-04
	1.291567244098937e-04
	4.713424602390263e-01

 84	8.400000000000005e-01
	-8.749766751699811e-16
	-1.689999124977852e-18
	-4.139045370953437e-15
	1.237505020115211e-05
	8.342803686931400e-04
	1.373750384407819e-04
	4.713432470434550e-01

 85	8.500000000000005e-01
	-8.717922952058670e-16
	-1.760287921047718e-18
	-4.157310302572832e-15
	1.292296436880928e-05
	8.579131375772506e-04
	1.458341290642484e-04
	4.713440568974380e-01

 86	8.600000000000005e-01
	-8.687501155766255e-16
	-1.832582913709044e-18
	-4.175007785333083e-15
	1.348154146470880e-05
	8.806060436046486e-04
	1.545247108132288e-04
	4.713448889118440e-01

 87	8.700000000000006e-01
	-8.658447679936291e-16
	-1.906948642992166e-18
	-4.192152200646418e-15
	1.405055099810218e-05
	9.023448529891797e-04
	1.634373072161157e-04
	4.713457421792775e-01

 88	8.800000000000006e-01
	-8.630710075072507e-16
	-1.983452434107670e-18
	-4.208757893630080e-15
	1.462976907858920e-05
	9.231244705474657e-04
	1.725623464075512e-04
	4.713466157832132e-01

 89	8.900000000000006e-01
	-8.604237162318749e-16
	-2.062164493289051e-18
	-4.224839142833126e-15
	1.521897992773350e-05
	9.429480283117128e-04
	1.818902479363353e-04
	4.713475088063205e-01

 90	9.000000000000006e-01
	-8.578979063498889e-16
	-2.143158008179857e-18
	-4.240410132499002e-15
	1.581797724278448e-05
	9.618259375667445e-04
	1.914115002508670e-04
	4.713484203378670e-01

 91	9.100000000000006e-01
	-8.554887224440089e-16
	-2.226509253065702e-18
	-4.255484927266574e-15
	1.642656540467230e-05
	9.797749321137899e-04
	2.011167286404806e-04
	4.713493494802386e-01

 92	9.200000000000006e-01
	-8.531914432063832e-16
	-2.312297699260350e-18
	-4.270077449207453e-15
	1.704456052580709e-05
	9.968171262777535e-04
	2.109967536675815e-04
	4.713502953545216e-01

 93	9.300000000000006e-01
	-8.510014825718305e-16
	-2.400606130958867e-18
	-4.284201457093878e-15
	1.767179133648409e-05
	1.012979106823321e-03
	2.210426403385092e-04
	4.713512571052132e-01

 94	9.400000000000006e-01
	-8.489143903212114e-16
	-2.491520766882230e-18
	-4.297870527788861e-15
	1.830809991176300e-05
	1.028291073729227e-03
	2.312457384312408e-04
	4.713522339040818e-01

 95	9.500000000000006e-01
	-8.469258521993352e-16
	-2.585131388043966e-18
	-4.311098039649293e-15
	1.895334224343832e-05
	1.042786040837741e-03
	2.415977145272892e-04
	4.713532249532321e-01

 96	9.600000000000006e-01
	-8.450316895901078e-16
	-2.681531471981517e-18
	-4.323897157832170e-15
	1.960738866409335e-05
	1.056499103850056e-03
	2.520905763870531e-04
	4.713542294874439e-01

 97	9.700000000000006e-01
	-8.432278587898003e-16
	-2.780818333805551e-18
	-4.336280821394664e-15
	2.027012413218445e-05
	1.069466780037434e-03
	2.627166903664701e-04
	4.713552467758268e-01

 98	9.800000000000006e-01
	-8.415104499174130e-16
	-2.883093274432021e-18
	-4.348261732079952e-15
	2.094144838862533e-05
	1.081726421408326e-03
	2.734687926028082e-04
	4.713562761229003e-01

 99	9.900000000000007e-01
	-8.398756854990892e-16
	-2.988461736376546e-18
	-4.359852344682590e-15
	2.162127599644290e-05
	1.093315700911274e-03
	2.843399947035438e-04
	4.713573168691373e-01

 100	1.000000000000001e+00
	-8.383199187615537e-16
	-3.097033467504358e-18
	-4.371064858889545e-15
	2.230953627577412e-05
	1.104272169539665e-03
	2.953237846590152e-04
	4.713583683910467e-01

 101	1.010000000000001e+00
	-8.368396316675396e-16
	-3.208922693145420e-18
	-4.381911212495762e-15
	2.300617314681084e-05
	1.114632880901165e-03
