Title: ** sch_path: /home/andylithia/openmpw/project-yatsuhashi-chip1/xschem/gmid_test/nmos_test.sch
Date: Sun Jul 17 22:51:45  2022
Plotname: DC transfer characteristic
Flags: real
No. Variables: 8
No. Points: 181
Variables:
	0	v(v-sweep)	voltage
	1	@m.xm1.msky130_fd_pr__nfet_01v8[cgb]	capacitance
	2	@m.xm1.msky130_fd_pr__nfet_01v8[cgd]	capacitance
	3	@m.xm1.msky130_fd_pr__nfet_01v8[cgs]	capacitance
	4	@m.xm1.msky130_fd_pr__nfet_01v8[gds]	admittance
	5	@m.xm1.msky130_fd_pr__nfet_01v8[gm]	admittance
	6	i(@m.xm1.msky130_fd_pr__nfet_01v8[id])	current
	7	v(@m.xm1.msky130_fd_pr__nfet_01v8[vth])	voltage
Values:
 0	0.000000000000000e+00
	-8.309988832428038e-15
	-2.996411084074971e-18
	-1.380069893228292e-14
	1.172608733405932e-08
	4.197203909261720e-07
	4.820720163669858e-08
	2.275349642921431e-01

 1	1.000000000000000e-02
	-8.214582051772712e-15
	-3.083452585392646e-18
	-1.402239370143581e-14
	1.275161795840042e-08
	4.576078848143369e-07
	5.259109944022392e-08
	2.275349648106089e-01

 2	2.000000000000000e-02
	-8.120183669979232e-15
	-3.173040241659138e-18
	-1.424422668468212e-14
	1.386264591962819e-08
	4.989394759045223e-07
	5.737083455772917e-08
	2.275349653758920e-01

 3	3.000000000000000e-02
	-8.026819498813979e-15
	-3.265249723616899e-18
	-1.446610567138645e-14
	1.506579231421185e-08
	5.440401786174059e-07
	6.258244686805721e-08
	2.275349659922541e-01

 4	4.000000000000000e-02
	-7.934514818101930e-15
	-3.360159069009072e-18
	-1.468793846162717e-14
	1.636813310985621e-08
	5.932680809668696e-07
	6.826538886659998e-08
	2.275349666643598e-01

 5	5.000000000000000e-02
	-7.843294322551282e-15
	-3.457848764413856e-18
	-1.490963300688282e-14
	1.777722423701995e-08
	6.470180088392631e-07
	7.446287439069001e-08
	2.275349673973235e-01

 6	6.000000000000000e-02
	-7.753182070477493e-15
	-3.558401830267036e-18
	-1.513109755010353e-14
	1.930112746209468e-08
	7.057256079202619e-07
	8.122226604124227e-08
	2.275349681967452e-01

 7	7.000000000000001e-02
	-7.664201434570362e-15
	-3.661903909210049e-18
	-1.535224076473681e-14
	2.094843701116944e-08
	7.698718862872064e-07
	8.859550568963218e-08
	2.275349690687702e-01

 8	8.000000000000000e-02
	-7.576375054838452e-15
	-3.768443357907715e-18
	-1.557297189228448e-14
	2.272830690771037e-08
	8.399882636602540e-07
	9.663959290396076e-08
	2.275349700201411e-01

 9	9.000000000000000e-02
	-7.489724793857160e-15
	-3.878111342486726e-18
	-1.579320087797279e-14
	2.465047898174688e-08
	9.166621761753036e-07
	1.054171166032102e-07
	2.275349710582589e-01

 10	9.999999999999999e-02
	-7.404271694436501e-15
	-3.991001937752673e-18
	-1.601283850412763e-14
	2.672531150234621e-08
	1.000543288228144e-06
	1.149968457500311e-07
	2.275349721912612e-01

 11	1.100000000000000e-01
	-7.320035939814634e-15
	-4.107212230351182e-18
	-1.623179652085878e-14
	2.896380837932658e-08
	1.092350365350931e-06
	1.254543854207458e-07
	2.275349734280889e-01

 12	1.200000000000000e-01
	-7.237036816472662e-15
	-4.226842426046914e-18
	-1.644998777366885e-14
	3.137764887431636e-08
	1.192878864111389e-06
	1.368729051412018e-07
	2.275349747785819e-01

 13	1.300000000000000e-01
	-7.155292679654750e-15
	-4.349995961301406e-18
	-1.666732632761941e-14
	3.397921775550025e-08
	1.303009296552152e-06
	1.493439469451558e-07
	2.275349762535691e-01

 14	1.400000000000000e-01
	-7.074820921666470e-15
	-4.476779619340304e-18
	-1.688372758770252e-14
	3.678163582470550e-08
	1.423716427573004e-06
	1.629683211919947e-07
	2.275349778649756e-01

 15	1.500000000000000e-01
	-6.995637943012062e-15
	-4.607303650910051e-18
	-1.709910841508530e-14
	3.979879073996633e-08
	1.556079363750340e-06
	1.778570987657969e-07
	2.275349796259417e-01

 16	1.600000000000000e-01
	-6.917759126419883e-15
	-4.741681899931717e-18
	-1.731338723891468e-14
	4.304536805136730e-08
	1.701292591215571e-06
	1.941327088591704e-07
	2.275349815509501e-01

 17	1.700000000000000e-01
	-6.841198813792388e-15
	-4.880031934272086e-18
	-1.752648416339180e-14
	4.653688236287716e-08
	1.860678018192428e-06
	2.119301521123585e-07
	2.275349836559732e-01

 18	1.800000000000000e-01
	-6.765970286105726e-15
	-5.022475181861274e-18
	-1.773832106984744e-14
	5.028970852810310e-08
	2.035698074423720e-06
	2.313983394184732e-07
	2.275349859586259e-01

 19	1.900000000000000e-01
	-6.692085746271114e-15
	-5.169137072397323e-18
	-1.794882171357407e-14
	5.432111278341113e-08
	2.227969914787618e-06
	2.527015672045943e-07
	2.275349884783474e-01

 20	2.000000000000000e-01
	-6.619556304958678e-15
	-5.320147184890640e-18
	-1.815791181519520e-14
	5.864928371783805e-08
	2.439280767692520e-06
	2.760211404395345e-07
	2.275349912365880e-01

 21	2.100000000000000e-01
	-6.548391969372173e-15
	-5.475639401312840e-18
	-1.836551914637737e-14
	6.329336297553126e-08
	2.671604460116280e-06
	3.015571549828841e-07
	2.275349942570210e-01

 22	2.200000000000001e-01
	-6.478601634951950e-15
	-5.635752066626567e-18
	-1.857157360971660e-14
	6.827347558337444e-08
	2.927119140192140e-06
	3.295304511557306e-07
	2.275349975657775e-01

 23	2.300000000000001e-01
	-6.410193079971567e-15
	-5.800628155489906e-18
	-1.877600731265782e-14
	7.361075979382777e-08
	3.208226204809712e-06
	3.601847505572764e-07
	2.275350011916914e-01

 24	2.400000000000001e-01
	-6.343172962983479e-15
	-5.970415445937784e-18
	-1.897875463533114e-14
	7.932739633103024e-08
	3.517570423576483e-06
	3.937889881477438e-07
	2.275350051665852e-01

 25	2.500000000000001e-01
	-6.277546823057927e-15
	-6.145266700363774e-18
	-1.917975229221710e-14
	8.544663692692868e-08
	3.858061231473961e-06
	4.306398514387775e-07
	2.275350095255642e-01

 26	2.600000000000001e-01
	-6.213319082750091e-15
	-6.325339854136655e-18
	-1.937893938757799e-14
	9.199283203358590e-08
	4.232895140463011e-06
	4.710645382477029e-07
	2.275350143073459e-01

 27	2.700000000000001e-01
	-6.150493053720620e-15
	-6.510798212205039e-18
	-1.957625746461945e-14
	9.899145759814867e-08
	4.645579195011406e-06
	5.154237438507576e-07
	2.275350195546090e-01

 28	2.800000000000001e-01
	-6.089070944926432e-15
	-6.701810654062739e-18
	-1.977165054837155e-14
	1.064691407881000e-07
	5.099955367935545e-06
	5.641148874794793e-07
	2.275350253143840e-01

 29	2.900000000000001e-01
	-6.029053873290224e-15
	-6.898551847460495e-18
	-1.996506518230430e-14
	1.144536845567188e-07
	5.600225761043602e-06
	6.175755869114585e-07
	2.275350316384559e-01

 30	3.000000000000001e-01
	-5.970441876749995e-15
	-7.101202471275460e-18
	-2.015645045871620e-14
	1.229740909420756e-07
	6.150978439874163e-06
	6.762873883776028e-07
	2.275350385838113e-01

 31	3.100000000000001e-01
	-5.913233929583251e-15
	-7.309949447966431e-18
	-2.034575804295834e-14
	1.320605829976581e-07
	6.757213693481823e-06
	7.407797571115311e-07
	2.275350462131087e-01

 32	3.200000000000001e-01
	-5.857427959894282e-15
	-7.524986186065342e-18
	-2.053294219157861e-14
	1.417446252589993e-07
	7.424370468956293e-06
	8.116343315714810e-07
	2.275350545951816e-01

 33	3.300000000000001e-01
	-5.803020869148177e-15
	-7.746512833178619e-18
	-2.071795976449229e-14
	1.520589426586895e-07
	8.158352686532599e-06
	8.894894416442903e-07
	2.275350638055780e-01

 34	3.400000000000001e-01
	-5.750008553630266e-15
	-7.974736539996021e-18
	-2.090077023130520e-14
	1.630375378120926e-07
	8.965555095235810e-06
	9.750448879707716e-07
	2.275350739271194e-01

 35	3.500000000000001e-01
	-5.698385927706490e-15
	-8.209871735829192e-18
	-2.108133567193396e-14
	1.747157066082687e-07
	9.852888281634024e-06
	1.069066975894367e-06
	2.275350850505042e-01

 36	3.600000000000002e-01
	-5.648146948756652e-15
	-8.452140416230338e-18
	-2.125962077168675e-14
	1.871300520553289e-07
	1.082780239623511e-05
	1.172393793420056e-06
	2.275350972749292e-01

 37	3.700000000000002e-01
	-5.599284643650876e-15
	-8.701772443266373e-18
	-2.143559281098225e-14
	2.003184963470324e-07
	1.189830911429734e-05
	1.285940717975295e-06
	2.275351107087380e-01

 38	3.800000000000002e-01
	-5.551791136637558e-15
	-8.959005859058065e-18
	-2.160922164990023e-14
	2.143202911382607e-07
	1.307300130144773e-05
	1.410706131697712e-06
	2.275351254701054e-01

 39	3.900000000000002e-01
	-5.505657678510624e-15
	-9.224087213220672e-18
	-2.178047970777013e-14
	2.291760260415414e-07
	1.436106981080099e-05
	1.547777319456203e-06
	2.275351416877332e-01

 40	4.000000000000002e-01
	-5.460874676923578e-15
	-9.497271904878111e-18
	-2.194934193801564e-14
	2.449276353854470e-07
	1.577231679867603e-05
	1.698336517875557e-06
	2.275351595015646e-01

 41	4.100000000000002e-01
	-5.417431727718441e-15
	-9.778824539956374e-18
	-2.211578579848274e-14
	2.616184033089489e-07
	1.731716491211037e-05
	1.863667077329619e-06
	2.275351790635121e-01

 42	4.200000000000002e-01
	-5.375317647138789e-15
	-1.006901930449824e-17
	-2.227979121748820e-14
	2.792929673042444e-07
	1.900666167488317e-05
	2.045159692259490e-06
	2.275352005382052e-01

 43	4.300000000000002e-01
	-5.334520504797708e-15
	-1.036814035478134e-17
	-2.244134055583220e-14
	2.979973203647759e-07
	2.085247838148087e-05
	2.244318648344724e-06
	2.275352241037193e-01

 44	4.400000000000002e-01
	-5.295027657273879e-15
	-1.067648222506119e-17
	-2.260041856502402e-14
	3.177788119454992e-07
	2.286690280222364e-05
	2.462768028107026e-06
	2.275352499523159e-01

 45	4.500000000000002e-01
	-5.256825782211646e-15
	-1.099435025380327e-17
	-2.275701234197479e-14
	3.386861479998962e-07
	2.506282500949558e-05
	2.702257809579954e-06
	2.275352782911624e-01

 46	4.600000000000002e-01
	-5.219900912804353e-15
	-1.132206102931500e-17
	-2.291111128041281e-14
	3.607693904229590e-07
	2.745371565647498e-05
	2.964669785870533e-06
	2.275353093430374e-01

 47	4.700000000000003e-01
	-5.184238472543447e-15
	-1.165994285573682e-17
	-2.306270701928012e-14
	3.840799563023564e-07
	3.005359607764471e-05
	3.252023226927729e-06
	2.275353433469929e-01

 48	4.800000000000003e-01
	-5.149823310120476e-15
	-1.200833624039740e-17
	-2.321179338836748e-14
	4.086706174614835e-07
	3.287699963614814e-05
	3.566480198788118e-06
	2.275353805589931e-01

 49	4.900000000000003e-01
	-5.116639734372958e-15
	-1.236759440359934e-17
	-2.335836635144495e-14
	4.345955008689581e-07
	3.593892381796808e-05
	3.910350450179000e-06
	2.275354212524843e-01

 50	5.000000000000002e-01
	-5.084671549170019e-15
	-1.273808381194889e-17
	-2.350242394714287e-14
	4.619100905895476e-07
	3.925477266776446e-05
	4.286095771816189e-06
	2.275354657189141e-01

 51	5.100000000000002e-01
	-5.053902088138560e-15
	-1.312018473641077e-17
	-2.364396622783433e-14
	4.906712320622358e-07
	4.284028927642464e-05
	4.696333730243257e-06
	2.275355142681725e-01

 52	5.200000000000002e-01
	-5.024314249135867e-15
	-1.351429183632450e-17
	-2.378299519676668e-14
	5.209371396122904e-07
	4.671147816578954e-05
	5.143840675821339e-06
	2.275355672289464e-01

 53	5.300000000000002e-01
	-4.995890528379766e-15
	-1.392081477069094e-17
	-2.391951474368377e-14
	5.527674082362047e-07
	5.088451757088019e-05
	5.631553923694508e-06
	2.275356249489756e-01

 54	5.400000000000003e-01
	-4.968613054152872e-15
	-1.434017883810265e-17
	-2.405353057917517e-14
	5.862230308414830e-07
	5.537566179282154e-05
	6.162573007412819e-06
	2.275356877952026e-01

 55	5.500000000000003e-01
	-4.942463620003127e-15
	-1.477282564676993e-17
	-2.418505016798124e-14
	6.213664222774609e-07
	6.020113398439051e-05
	6.740159907562692e-06
	2.275357561537929e-01

 56	5.600000000000003e-01
	-4.917423717368199e-15
	-1.521921381616655e-17
	-2.431408266147610e-14
	6.582614516587045e-07
	6.537700993179231e-05
	7.367738162377348e-06
	2.275358304300297e-01

 57	5.700000000000003e-01
	-4.893474567557030e-15
	-1.567981971190679e-17
	-2.444063882954178e-14
	6.969734846592263e-07
	7.091909360724995e-05
	8.048890773991156e-06
	2.275359110480703e-01

 58	5.800000000000003e-01
	-4.870597153027059e-15
	-1.615513821554916e-17
	-2.456473099203956e-14
	7.375694376434381e-07
	7.684278548289844e-05
	8.787356832832622e-06
	2.275359984505327e-01

 59	5.900000000000003e-01
	-4.848772247901884e-15
	-1.664568353111512e-17
	-2.468637295007328e-14
	7.801178456983778e-07
	8.316294481224989e-05
	9.587026793642132e-06
	2.275360930979425e-01

 60	6.000000000000003e-01
	-4.827980447678631e-15
	-1.715199003020652e-17
	-2.480557991723275e-14
	8.246889468416186e-07
	8.989374729561436e-05
	1.045193634973191e-05
	2.275361954680048e-01

 61	6.100000000000003e-01
	-4.808202198080445e-15
	-1.767461313770877e-17
	-2.492236845099360e-14
	8.713547848998824e-07
	9.704853974423335e-05
	1.138625886728045e-05
	2.275363060547048e-01

 62	6.200000000000003e-01
	-4.789417823014081e-15
	-1.821413026017587e-17
	-2.503675638444135e-14
	9.201893337854142e-07
	1.046396935383026e-04
	1.239429635853063e-05
	2.275364253672364e-01

 63	6.300000000000003e-01
	-4.771607551598438e-15
	-1.877114175910617e-17
	-2.514876275847663e-14
	9.712686461409849e-07
	1.126784588301698e-04
	1.348046899152471e-05
	2.275365539287596e-01

 64	6.400000000000003e-01
	-4.754751544233821e-15
	-1.934627197143765e-17
	-2.525840775464911e-14
	1.024671029580703e-06
	1.211748215696351e-04
	1.464930315418678e-05
	2.275366922749933e-01

 65	6.500000000000004e-01
	-4.738829917687359e-15
	-1.994017027972330e-17
	-2.536571262875738e-14
	1.080477254024371e-06
	1.301373655177151e-04
	1.590541811182187e-05
	2.275368409526238e-01

 66	6.600000000000004e-01
	-4.723822769173885e-15
	-2.055351223457708e-17
	-2.547069964534167e-14
	1.138770793909323e-06
	1.395731414632985e-04
	1.725351131904585e-05
	2.275370005175725e-01

 67	6.700000000000004e-01
	-4.709710199416427e-15
	-2.118700073212505e-17
	-2.557339201318660e-14
	1.199638109368987e-06
	1.494875458596666e-04
	1.869834246936531e-05
	2.275371715331116e-01

 68	6.800000000000004e-01
	-4.696472334674185e-15
	-2.184136724935123e-17
	-2.567381382194158e-14
	1.263168970794931e-06
	1.598842110517248e-04
	2.024471638761124e-05
	2.275373545678365e-01

 69	6.900000000000004e-01
	-4.684089347729901e-15
	-2.251737314038023e-17
	-2.577198997995627e-14
	1.329456831554005e-06
	1.707649091682021e-04
	2.189746489170050e-05
	2.275375501935133e-01

 70	7.000000000000004e-01
	-4.672541477832659e-15
	-2.321581099690922e-17
	-2.586794615341918e-14
	1.398599254020334e-06
	1.821294716057358e-04
	2.366142777024721e-05
	2.275377589828493e-01

 71	7.100000000000004e-01
	-4.661809049594526e-15
	-2.393750607618719e-17
	-2.596170870687897e-14
	1.470698394511110e-06
	1.939757258349206e-04
	2.554143304087409e-05
	2.275379815071363e-01

 72	7.200000000000004e-01
	-4.651872490844027e-15
	-2.468331780011001e-17
	-2.605330464521793e-14
	1.545861553193963e-06
	2.062994510148541e-04
	2.754227667018161e-05
	2.275382183338697e-01

 73	7.300000000000004e-01
	-4.642712349441220e-15
	-2.545414132922028e-17
	-2.614276155713962e-14
	1.624201795574470e-06
	2.190943536171271e-04
	2.966870194980803e-05
	2.275384700243015e-01

 74	7.400000000000004e-01
	-4.634309309062821e-15
	-2.625090921559137e-17
	-2.623010756022326e-14
	1.705838652786514e-06
	2.323520639382818e-04
	3.192537873341821e-05
	2.275387371309932e-01

 75	7.500000000000004e-01
	-4.626644203967617e-15
	-2.707459313880719e-17
	-2.631537124759073e-14
	1.790898908613476e-06
	2.460621540291592e-04
	3.431688274651990e-05
	2.275390201953666e-01

 76	7.600000000000005e-01
	-4.619698032755187e-15
	-2.792620572948063e-17
	-2.639858163622331e-14
	1.879517481980356e-06
	2.602121771983882e-04
	3.684767518442060e-05
	2.275393197452890e-01

 77	7.700000000000005e-01
	-4.613451971133060e-15
	-2.880680248499584e-17
	-2.647976811695826e-14
	1.971838414599256e-06
	2.747877288651221e-04
	3.952208281329844e-05
	2.275396362927296e-01

 78	7.800000000000005e-01
	-4.607887383708745e-15
	-2.971748378242691e-17
	-2.655896040618922e-14
	2.068015974545945e-06
	2.897725281526429e-04
	4.234427878517110e-05
	2.275399703314872e-01

 79	7.900000000000005e-01
	-4.602985834825410e-15
	-3.065939699385424e-17
	-2.663618849928681e-14
	2.168215887822381e-06
	3.051485192396699e-04
	4.531826436955942e-05
	2.275403223350273e-01

 80	8.000000000000005e-01
	-4.598729098461023e-15
	-3.163373870958721e-17
	-2.671148262575041e-14
	2.272616711451135e-06
	3.208959911299335e-04
	4.844785179299013e-05
	2.275406927544541e-01

 81	8.100000000000005e-01
	-4.595099167212220e-15
	-3.264175707511378e-17
	-2.678487320609548e-14
	2.381411363389907e-06
	3.369937141720096e-04
	5.173664836240139e-05
	2.275410820166386e-01

 82	8.200000000000005e-01
	-4.592078260384823e-15
	-3.368475424791248e-17
	-2.685639081047705e-14
	2.494808826590505e-06
	3.534190913689390e-04
	5.518804203032203e-05
	2.275414905224966e-01

 83	8.300000000000005e-01
	-4.589648831214746e-15
	-3.476408898059689e-17
	-2.692606611904212e-14
	2.613036046905502e-06
	3.701483222678119e-04
	5.880518853878101e-05
	2.275419186454828e-01

 84	8.400000000000005e-01
	-4.587793573242345e-15
	-3.588117933722861e-17
	-2.699392988400247e-14
	2.736340047325301e-06
	3.871565770191788e-04
	6.259100025575825e-05
	2.275423667302565e-01

 85	8.500000000000005e-01
	-4.586495425865366e-15
	-3.703750554999770e-17
	-2.706001289341168e-14
	2.864990284272436e-06
	4.044181780486659e-04
	6.654813679307707e-05
	2.275428350915709e-01

 86	8.600000000000005e-01
	-4.585737579094757e-15
	-3.823461302386379e-17
	-2.712434593662870e-14
	2.999281275466646e-06
	4.219067866910995e-04
	7.067899746855212e-05
	2.275433240133840e-01

 87	8.700000000000006e-01
	-4.585503477538566e-15
	-3.947411549716866e-17
	-2.718695977144508e-14
	3.139535533291214e-06
	4.395955921011976e-04
	7.498571564847393e-05
	2.275438337481818e-01

 88	8.800000000000006e-01
	-4.585776823639125e-15
	-4.075769836665944e-17
	-2.724788509285021e-14
	3.286106842741479e-06
	4.574574997732780e-04
	7.947015497968936e-05
	2.275443645165361e-01

 89	8.900000000000006e-01
	-4.586541580188437e-15
	-4.208712218581186e-17
	-2.730715250340607e-14
	3.439383929042479e-06
	4.754653170727059e-04
	8.413390749417710e-05
	2.275449165068656e-01

 90	9.000000000000006e-01
	-4.587781972147080e-15
	-4.346422634582462e-17
	-2.736479248519912e-14
	3.599794567023817e-06
	4.935919332994943e-04
	8.897829354358439e-05
	2.275454898754385e-01

 91	9.100000000000006e-01
	-4.589482487790974e-15
	-4.489093294914999e-17
	-2.742083537333619e-14
	3.767810192504775e-06
	5.118104919642064e-04
	9.400436349718164e-05
	2.275460847465642e-01

 92	9.200000000000006e-01
	-4.591627879210754e-15
	-4.636925088594306e-17
	-2.747531133094739e-14
	3.943951085463648e-06
	5.300945531511830e-04
	9.921290111443245e-05
	2.275467012129954e-01

 93	9.300000000000006e-01
	-4.594203162187240e-15
	-4.790128012436123e-17
	-2.752825032565827e-14
	4.128792205873527e-06
	5.484182440670933e-04
	1.046044284832465e-04
	2.275473393365033e-01

 94	9.400000000000006e-01
	-4.597193615466878e-15
	-4.948921622620332e-17
	-2.757968210749076e-14
	4.322969776049310e-06
	5.667563961156697e-04
	1.101792123971546e-04
	2.275479991486423e-01

 95	9.500000000000006e-01
	-4.600584779459390e-15
	-5.113535509998370e-17
	-2.762963618815217e-14
	4.527188718485169e-06
	5.850846670946501e-04
	1.159372720293657e-04
	2.275486806516457e-01

 96	9.600000000000006e-01
	-4.604362454380017e-15
	-5.284209800412362e-17
	-2.767814182166899e-14
	4.742231075834463e-06
	6.033796473698710e-04
	1.218783877489016e-04
	2.275493838194771e-01

 97	9.700000000000006e-01
	-4.608512697857550e-15
	-5.461195681361365e-17
	-2.772522798632204e-14
	4.968965560330123e-06
	6.216189491370075e-04
	1.280021109138837e-04
	2.275501085989899e-01

 98	9.800000000000006e-01
	-4.613021822028310e-15
	-5.644755956413387e-17
	-2.777092336783883e-14
	5.208358404062030e-06
	6.397812781259447e-04
	1.343077744693862e-04
	2.275508549111790e-01

 99	9.900000000000007e-01
	-4.617876390136150e-15
	-5.835165628831719e-17
	-2.781525634379709e-14
	5.461485709701866e-06
	6.578464873298681e-04
	1.407945041719951e-04
	2.275516226525060e-01

 100	1.000000000000001e+00
	-4.623063212656536e-15
	-6.032712515954254e-17
	-2.785825496919485e-14
	5.729547534163418e-06
	6.757956125448964e-04
	1.474612302600840e-04
	2.275524116962893e-01

 101	1.010000000000001e+00
	-4.628569342962795e-15
	-6.237697895937018e-17
	-2.789994696314041e-14
