Title: ** sch_path: /home/andylithia/openmpw/project-yatsuhashi-chip1/xschem/gmid_test/nmos_test.sch
Date: Sun Jul 17 22:51:45  2022
Plotname: DC transfer characteristic
Flags: real
No. Variables: 8
No. Points: 181
Variables:
	0	v(v-sweep)	voltage
	1	@m.xm1.msky130_fd_pr__nfet_01v8[cgb]	capacitance
	2	@m.xm1.msky130_fd_pr__nfet_01v8[cgd]	capacitance
	3	@m.xm1.msky130_fd_pr__nfet_01v8[cgs]	capacitance
	4	@m.xm1.msky130_fd_pr__nfet_01v8[gds]	admittance
	5	@m.xm1.msky130_fd_pr__nfet_01v8[gm]	admittance
	6	i(@m.xm1.msky130_fd_pr__nfet_01v8[id])	current
	7	v(@m.xm1.msky130_fd_pr__nfet_01v8[vth])	voltage
Values:
 0	0.000000000000000e+00
	-4.157205861704848e-15
	-3.772411026692266e-19
	-3.121220138110340e-15
	1.195148594876118e-09
	6.191885377299133e-08
	4.742050412783544e-09
	3.687801563624623e-01

 1	1.000000000000000e-02
	-4.110494186478139e-15
	-3.923537071196535e-19
	-3.221880099842269e-15
	1.360639947290030e-09
	7.042944904452979e-08
	5.402893897785564e-09
	3.687801564354834e-01

 2	2.000000000000000e-02
	-4.063656707030104e-15
	-4.080512335043118e-19
	-3.324311179238448e-15
	1.548540057780485e-09
	8.008767181584303e-08
	6.154462847301976e-09
	3.687801565185312e-01

 3	3.000000000000000e-02
	-4.016715003544230e-15
	-4.243544291683299e-19
	-3.428459720606218e-15
	1.761777094243177e-09
	9.104494935096043e-08
	7.008975282139504e-09
	3.687801566129544e-01

 4	4.000000000000000e-02
	-3.969691868126182e-15
	-4.412846684909422e-19
	-3.534267522291414e-15
	2.003640016196753e-09
	1.034723596213984e-07
	7.980259740976520e-09
	3.687801567202802e-01

 5	5.000000000000000e-02
	-3.922611235476155e-15
	-4.588639686571913e-19
	-3.641671927477700e-15
	2.277818630325697e-09
	1.175632051950941e-07
	9.083964377210766e-09
	3.687801568422380e-01

 6	6.000000000000000e-02
	-3.875498106533766e-15
	-4.771150059748363e-19
	-3.750605939305697e-15
	2.588447223822013e-09
	1.335359487401874e-07
	1.033779355816325e-08
	3.687801569807854e-01

 7	7.000000000000001e-02
	-3.828378465440992e-15
	-4.960611327765836e-19
	-3.860998360159878e-15
	2.940151923736419e-09
	1.516375683032487e-07
	1.176177586562256e-08
	3.687801571381338e-01

 8	8.000000000000000e-02
	-3.781279190237946e-15
	-5.157263949499378e-19
	-3.972773954755349e-15
	3.338101899837775e-09
	1.721474008419617e-07
	1.337856802859719e-08
	3.687801573167867e-01

 9	9.000000000000000e-02
	-3.734227957773009e-15
	-5.361355501391200e-19
	-4.085853636438774e-15
	3.788064488390181e-09
	1.953815544508119e-07
	1.521380006231868e-08
	3.687801575195798e-01

 10	9.999999999999999e-02
	-3.687253143371602e-15
	-5.573140866655386e-19
	-4.200154675900251e-15
	4.296464263614267e-09
	2.216979834184770e-07
	1.729646775894358e-08
	3.687801577497123e-01

 11	1.100000000000000e-01
	-3.640383715866185e-15
	-5.792882432153463e-19
	-4.315590931277997e-15
	4.870446021265145e-09
	2.515023357356178e-07
	1.965937969269529e-08
	3.687801580108119e-01

 12	1.200000000000000e-01
	-3.593649128642587e-15
	-6.020850293449491e-19
	-4.432073098431138e-15
	5.517941563728839e-09
	2.852546998711207e-07
	2.233966708300786e-08
	3.687801583069828e-01

 13	1.300000000000000e-01
	-3.547079207403887e-15
	-6.257322468571273e-19
	-4.549508979956490e-15
	6.247740087452652e-09
	3.234773963491640e-07
	2.537936621983270e-08
	3.687801586428677e-01

 14	1.400000000000000e-01
	-3.500704035392180e-15
	-6.502585121028190e-19
	-4.667803771338971e-15
	7.069561870821176e-09
	3.667639794908800e-07
	2.882608470903343e-08
	3.687801590237275e-01

 15	1.500000000000000e-01
	-3.454553836839480e-15
	-6.756932792655918e-19
	-4.786860362454572e-15
	7.994134843557191e-09
	4.157896349793393e-07
	3.273376455086832e-08
	3.687801594555263e-01

 16	1.600000000000000e-01
	-3.408658859441942e-15
	-7.020668646879704e-19
	-4.906579652490545e-15
	9.033273487614962e-09
	4.713231786887439e-07
	3.716355702096217e-08
	3.687801599450171e-01

 17	1.700000000000000e-01
	-3.363049256665505e-15
	-7.294104723008503e-19
	-5.026860876213135e-15
	1.019995937518260e-08
	5.342408801191687e-07
	4.218482646929471e-08
	3.687801604998679e-01

 18	1.800000000000000e-01
	-3.317754970695845e-15
	-7.577562202196349e-19
	-5.147601939402497e-15
	1.150842249336653e-08
	6.055423479666224e-07
	4.787630246107870e-08
	3.687801611287754e-01

 19	1.900000000000000e-01
	-3.272805616841449e-15
	-7.871371685725366e-19
	-5.268699761184405e-15
	1.297422233969409e-08
	6.863687234809259e-07
	5.432740210539770e-08
	3.687801618416245e-01

 20	2.000000000000000e-01
	-3.228230370184944e-15
	-8.175873486288353e-19
	-5.390050620926785e-15
	1.461432760100583e-08
	7.780234264106210e-07
	6.163974687857158e-08
	3.687801626496428e-01

 21	2.100000000000000e-01
	-3.184057855255493e-15
	-8.491417932974089e-19
	-5.511550507330399e-15
	1.644719305476099e-08
	8.819956850235527e-07
	6.992890064249863e-08
	3.687801635656016e-01

 22	2.200000000000001e-01
	-3.140316039463947e-15
	-8.818365690673140e-19
	-5.633095467333171e-15
	1.849283216147644e-08
	9.999870519244671e-07
	7.932635773972714e-08
	3.687801646040288e-01

 23	2.300000000000001e-01
	-3.097032131003019e-15
	-9.157088094654633e-19
	-5.754581952463020e-15
	2.077288365608794e-08
	1.133941056748867e-06
	8.998181183015070e-08
	3.687801657814704e-01

 24	2.400000000000001e-01
	-3.054232481867838e-15
	-9.507967501082338e-19
	-5.875907160316727e-15
	2.331067030160328e-08
	1.286076070662089e-06
	1.020657372873536e-07
	3.687801671167615e-01

 25	2.500000000000001e-01
	-3.011942496598588e-15
	-9.871397654260939e-19
	-5.996969368908987e-15
	2.613124784832445e-08
	1.458921351369332e-06
	1.157723152173885e-07
	3.687801686313664e-01

 26	2.600000000000001e-01
	-2.970186547286663e-15
	-1.024778407143687e-18
	-6.117668261729450e-15
	2.926144215469440e-08
	1.655356096966645e-06
	1.313227351777564e-07
	3.687801703497213e-01

 27	2.700000000000001e-01
	-2.928987895321352e-15
	-1.063754444599398e-18
	-6.237905241457885e-15
	3.272987238010849e-08
	1.878651159342488e-06
	1.489689011010069e-07
	3.687801722996701e-01

 28	2.800000000000001e-01
	-2.888368620284269e-15
	-1.104110906992009e-18
	-6.357583730425801e-15
	3.656695816466859e-08
	2.132512851516120e-06
	1.689975653849871e-07
	3.687801745128982e-01

 29	2.900000000000001e-01
	-2.848349556327097e-15
	-1.145892127644274e-18
	-6.476609456064194e-15
	4.080490877386798e-08
	2.421128029117257e-06
	1.917349082144587e-07
	3.687801770254551e-01

 30	3.000000000000001e-01
	-2.808950236293470e-15
	-1.189143790376732e-18
	-6.594890719749215e-15
	4.547769231499579e-08
	2.749209338088677e-06
	2.175515695655523e-07
	3.687801798782974e-01

 31	3.100000000000001e-01
	-2.770188843770947e-15
	-1.233912978087704e-18
	-6.712338647639249e-15
	5.062098333223380e-08
	3.122039206278884e-06
	2.468681287100466e-07
	3.687801831179096e-01

 32	3.200000000000001e-01
	-2.732082173183591e-15
	-1.280248223639456e-18
	-6.828867422292155e-15
	5.627208736285282e-08
	3.545510827874615e-06
	2.801610101746474e-07
	3.687801867969387e-01

 33	3.300000000000001e-01
	-2.694645597961964e-15
	-1.328199563153152e-18
	-6.944394494050991e-15
	6.246984138872884e-08
	4.026164063238024e-06
	3.179687759567311e-07
	3.687801909749085e-01

 34	3.400000000000001e-01
	-2.657893046755180e-15
	-1.377818591819726e-18
	-7.058840771394091e-15
	6.925448954402742e-08
	4.571213873978798e-06
	3.608987414795661e-07
	3.687801957189364e-01

 35	3.500000000000001e-01
	-2.621836987580958e-15
	-1.429158522337356e-18
	-7.172130789651097e-15
	7.666753393625143e-08
	5.188568659497176e-06
	4.096338276465160e-07
	3.687802011044968e-01

 36	3.600000000000002e-01
	-2.586488419744442e-15
	-1.482274246090617e-18
	-7.284192857693783e-15
	8.475156099558569e-08
	5.886835685483729e-06
	4.649395340590846e-07
	3.687802072161908e-01

 37	3.700000000000002e-01
	-2.551856873296002e-15
	-1.537222397190502e-18
	-7.394959182411845e-15
	9.355004437457638e-08
	6.675310727211535e-06
	5.276708899264425e-07
	3.687802141485212e-01

 38	3.800000000000002e-01
	-2.517950415742745e-15
	-1.594061419500196e-18
	-7.504365970980252e-15
	1.031071260613913e-07
	7.563949120543164e-06
	5.987792106458063e-07
	3.687802220066246e-01

 39	3.900000000000002e-01
	-2.484775665678944e-15
	-1.652851636775255e-18
	-7.612353511110108e-15
	1.134673780267373e-07
	8.563315647656957e-06
	6.793184609855604e-07
	3.687802309069892e-01

 40	4.000000000000002e-01
	-2.452337812956381e-15
	-1.713655326053597e-18
	-7.718866229652808e-15
	1.246755473763458e-07
	9.684511102436946e-06
	7.704510020040640e-07
	3.687802409780832e-01

 41	4.100000000000002e-01
	-2.420640644978536e-15
	-1.776536794435449e-18
	-7.823852730088861e-15
	1.367762886048131e-07
	1.093907399250676e-05
	8.734524801837314e-07
	3.687802523608995e-01

 42	4.200000000000002e-01
	-2.389686578671182e-15
	-1.841562459400372e-18
	-7.927265809583335e-15
	1.498138871193635e-07
	1.233885663881658e-05
	9.897156056960209e-07
	3.687802652093655e-01

 43	4.300000000000002e-01
	-2.359476697657429e-15
	-1.908800932814343e-18
	-8.029062456423111e-15
	1.638319787000026e-07
	1.389587591248729e-05
	1.120752564083263e-06
	3.687802796906227e-01

 44	4.400000000000002e-01
	-2.330010794146976e-15
	-1.978323108787731e-18
	-8.129203828770152e-15
	1.788732699637082e-07
	1.562213996925381e-05
	1.268195813547420e-06
	3.687802959850984e-01

 45	4.500000000000002e-01
	-2.301287415037336e-15
	-2.050202255551301e-18
	-8.227655215765492e-15
	1.949792651844738e-07
	1.752945355527424e-05
	1.433797039656974e-06
	3.687803142864067e-01

 46	4.600000000000002e-01
	-2.273303911718610e-15
	-2.124514111526887e-18
	-8.324385982104730e-15
	2.121900049720526e-07
	1.962920570099901e-05
	1.619424071247279e-06
	3.687803348009959e-01

 47	4.700000000000003e-01
	-2.246056493073107e-15
	-2.201336985776339e-18
	-8.419369497272772e-15
	2.305438223175000e-07
	2.193214481786920e-05
	1.827055605522842e-06
	3.687803577475716e-01

 48	4.800000000000003e-01
	-2.219540281165711e-15
	-2.280751863022665e-18
	-8.512583050678318e-15
	2.500771213665059e-07
	2.444814728549226e-05
	2.058773646028965e-06
	3.687803833562551e-01

 49	4.900000000000003e-01
	-2.193749369130683e-15
	-2.362842513445946e-18
	-8.604007753963510e-15
	2.708241839804771e-07
	2.718598648420415e-05
	2.316753622583432e-06
	3.687804118675014e-01

 50	5.000000000000002e-01
	-2.168676880774327e-15
	-2.447695607468209e-18
	-8.693628431785852e-15
	2.928170086955708e-07
	3.015310981608992e-05
	2.603252235018050e-06
	3.687804435307403e-01

 51	5.100000000000002e-01
	-2.144315031430865e-15
	-2.535400835750669e-18
	-8.781433502374985e-15
	3.160851861022805e-07
	3.335543150672517e-05
	2.920593139564658e-06
	3.687804786028070e-01

 52	5.200000000000002e-01
	-2.120655189629725e-15
	-2.626051034640386e-18
	-8.867414849161110e-15
	3.406558139602924e-07
	3.679714885023556e-05
	3.271150674328621e-06
	3.687805173461350e-01

 53	5.300000000000002e-01
	-2.097687939156413e-15
	-2.719742317314515e-18
	-8.951567684752370e-15
	3.665534545572456e-07
	4.048058903631619e-05
	3.657331894629279e-06
	3.687805600267733e-01

 54	5.400000000000003e-01
	-2.075403141115116e-15
	-2.816574210884582e-18
	-9.033890408509205e-15
	3.938001359433106e-07
	4.440609279158443e-05
	4.081557256151026e-06
	3.687806069122493e-01

 55	5.500000000000003e-01
	-2.053789995629004e-15
	-2.916649799736148e-18
	-9.114384458924475e-15
	4.224153977562751e-07
	4.857193981844109e-05
	4.546240340187021e-06
	3.687806582693280e-01

 56	5.600000000000003e-01
	-2.032837102843342e-15
	-3.020075875396131e-18
	-9.193054161970364e-15
	4.524163814267381e-07
	5.297431948711992e-05
	5.053767057646730e-06
	3.687807143617121e-01

 57	5.700000000000003e-01
	-2.012532522926413e-15
	-3.126963093234356e-18
	-9.269906576518776e-15
	4.838179636528840e-07
	5.760734851588139e-05
	5.606474794565374e-06
	3.687807754477372e-01

 58	5.800000000000003e-01
	-1.992863834793598e-15
	-3.237426136323385e-18
	-9.344951337881242e-15
	5.166329311908630e-07
	6.246313555923790e-05
	6.206631970152300e-06
	3.687808417781153e-01

 59	5.900000000000003e-01
	-1.973818193310192e-15
	-3.351583886799429e-18
	-9.418200500449796e-15
	5.508721942491398e-07
	6.753189081948158e-05
	6.856418468526177e-06
	3.687809135937654e-01

 60	6.000000000000003e-01
	-1.955382384758685e-15
	-3.469559605084886e-18
	-9.489668380351369e-15
	5.865450351280989e-07
	7.280207710498928e-05
	7.557907377828317e-06
	3.687809911237989e-01

 61	6.100000000000003e-01
	-1.937542880385515e-15
	-3.591481117354096e-18
	-9.559371398957835e-15
	6.236593882296132e-07
	7.826059727194613e-05
	8.313048426986377e-06
	3.687810745836920e-01

 62	6.200000000000003e-01
	-1.920285887870712e-15
	-3.717481011645047e-18
	-9.627327928021566e-15
	6.622221471886697e-07
	8.389301177939184e-05
	9.123653453458821e-06
	3.687811641736736e-01

 63	6.300000000000003e-01
	-1.903597400591377e-15
	-3.847696843041582e-18
	-9.693558137133563e-15
	7.022394946575923e-07
	8.968377921422987e-05
	9.991384167913094e-06
	3.687812600773785e-01

 64	6.400000000000003e-01
	-1.887463244575702e-15
	-3.982271348375359e-18
	-9.758083844129313e-15
	7.437172502038756e-07
	9.561651213203291e-05
	1.091774240748611e-05
	3.687813624607670e-01

 65	6.500000000000004e-01
	-1.871869123068986e-15
	-4.121352670921104e-18
	-9.820928368996015e-15
	7.866612318589523e-07
	1.016742404151284e-04
	1.190406299169802e-05
	3.687814714713433e-01

 66	6.600000000000004e-01
	-1.856800658656063e-15
	-4.265094595585253e-18
	-9.882116391765533e-15
	8.310776270670418e-07
	1.078396745526286e-04
	1.295150921784253e-05
	3.687815872376464e-01

 67	6.700000000000004e-01
	-1.842243432905662e-15
	-4.413656795116189e-18
	-9.941673814810351e-15
	8.769733691141428e-07
	1.140954617589930e-04
	1.406107095903774e-05
	3.687817098690537e-01

 68	6.800000000000004e-01
	-1.828183023522105e-15
	-4.567205087893496e-18
	-9.999627629895322e-15
	9.243565155493196e-07
	1.204244286149074e-04
	1.523356526094346e-05
	3.687818394558358e-01

 69	6.900000000000004e-01
	-1.814605039007390e-15
	-4.725911707884378e-18
	-1.005600579027667e-14
	9.732366256215179e-07
	1.268098048733798e-04
	1.646963927464768e-05
	3.687819760694911e-01

 70	7.000000000000004e-01
	-1.801495150852800e-15
	-4.889955587388411e-18
	-1.011083708808213e-14
	1.023625134324694e-06
	1.332354241578932e-04
	1.776977531501241e-05
	3.687821197633010e-01

 71	7.100000000000004e-01
	-1.788839123293693e-15
	-5.059522653226937e-18
	-1.016415103715163e-14
	1.075535721249342e-06
	1.396858984216619e-04
	1.913429779672904e-05
	3.687822705730954e-01

 72	7.200000000000004e-01
	-1.776622840673708e-15
	-5.234806137068056e-18
	-1.021597776146783e-14
	1.128984673060460e-06
	1.461467641764915e-04
	2.056338177475990e-05
	3.687824285182010e-01

 73	7.300000000000004e-01
	-1.764832332475677e-15
	-5.416006900619005e-18
	-1.026634788925910e-14
	1.183991239042227e-06
	1.526045995836193e-04
	2.205706280142543e-05
	3.687825936025250e-01

 74	7.400000000000004e-01
	-1.753453796086095e-15
	-5.603333776456055e-18
	-1.031529245281539e-14
	1.240577979753019e-06
	1.590471124849581e-04
	2.361524780835343e-05
	3.687827658157646e-01

 75	7.500000000000004e-01
	-1.742473617367939e-15
	-5.797003925307287e-18
	-1.036284279401825e-14
	1.298771109409541e-06
	1.654632003107324e-04
	2.523772672671293e-05
	3.687829451346905e-01

 76	7.600000000000005e-01
	-1.731878389123252e-15
	-5.997243210647111e-18
	-1.040903047555248e-14
	1.358600833156452e-06
	1.718429835092267e-04
	2.692418457219879e-05
	3.687831315244743e-01

 77	7.700000000000005e-01
	-1.721654927532227e-15
	-6.204286591510273e-18
	-1.045388719773470e-14
	1.420101680873079e-06
	1.781778146977885e-04
	2.867421374059698e-05
	3.687833249400565e-01

 78	7.800000000000005e-01
	-1.711790286659621e-15
	-6.418378534483475e-18
	-1.049744472086805e-14
	1.483312839619391e-06
	1.844602661320836e-04
	3.048732628387853e-05
	3.687835253275017e-01

 79	7.900000000000005e-01
	-1.702271771122209e-15
	-6.639773445887072e-18
	-1.053973479300762e-14
	1.548278487229843e-06
	1.906840983411918e-04
	3.236296596411898e-05
	3.687837326253254e-01

 80	8.000000000000005e-01
	-1.693086947013147e-15
	-6.868736125214038e-18
	-1.058078908300076e-14
	1.615048129928362e-06
	1.968442128933828e-04
	3.430051991170208e-05
	3.687839467657873e-01

 81	8.100000000000005e-01
	-1.684223651179851e-15
	-7.105542240956178e-18
	-1.062063911864968e-14
	1.683676947166788e-06
	2.029365922592289e-04
	3.629932974402608e-05
	3.687841676761164e-01

 82	8.200000000000005e-01
	-1.675669998952636e-15
	-7.350478830006902e-18
	-1.065931622982815e-14
	1.754226147187462e-06
	2.089582296447572e-04
	3.835870203019155e-05
	3.687843952796712e-01

 83	8.300000000000005e-01
	-1.667414390420440e-15
	-7.603844821900983e-18
	-1.069685149637356e-14
	1.826763337087149e-06
	2.149070514981957e-04
	4.047791801509064e-05
	3.687846294970129e-01

 84	8.400000000000005e-01
	-1.659445515349010e-15
	-7.865951589219305e-18
	-1.073327570056548e-14
	1.901362911421855e-06
	2.207818351692598e-04
	4.265624254226702e-05
	3.687848702468822e-01

 85	8.500000000000005e-01
	-1.651752356835445e-15
	-8.137123525561142e-18
	-1.076861928399500e-14
	1.978106463649324e-06
	2.265821239382045e-04
	4.489293213841075e-05
	3.687851174471106e-01

 86	8.600000000000005e-01
	-1.644324193790244e-15
	-8.417698652568062e-18
	-1.080291230862488e-14
	2.057083224968142e-06
	2.323081413493861e-04
	4.718724224313703e-05
	3.687853710154054e-01

 87	8.700000000000006e-01
	-1.637150602336101e-15
	-8.708029257564290e-18
	-1.083618442183649e-14
	2.138390535387364e-06
	2.379607064944241e-04
	4.953843358557834e-05
	3.687856308700559e-01

 88	8.800000000000006e-01
	-1.630221456209323e-15
	-9.008482563466368e-18
	-1.086846482525897e-14
	2.222134352159230e-06
	2.435411516047116e-04
	5.194577772434114e-05
	3.687858969305550e-01

 89	8.900000000000006e-01
	-1.623526926246722e-15
	-9.319441432709358e-18
	-1.089978224717603e-14
	2.308429801038843e-06
	2.490512430405829e-04
	5.440856177959941e-05
	3.687861691181043e-01

 90	9.000000000000006e-01
	-1.617057479037566e-15
	-9.641305107033426e-18
	-1.093016491830673e-14
	2.397401776207443e-06
	2.544931065112560e-04
	5.692609239567117e-05
	3.687864473560744e-01

 91	9.100000000000006e-01
	-1.610803874816361e-15
	-9.974489985079362e-18
	-1.095964055076008e-14
	2.489185595121363e-06
	2.598691571301822e-04
	5.949769897961369e-05
	3.687867315703386e-01

 92	9.200000000000006e-01
	-1.604757164668945e-15
	-1.031943043984801e-17
	-1.098823631996600e-14
	2.583927715034049e-06
	2.651820347068044e-04
	6.212273626634833e-05
	3.687870216895832e-01

 93	9.300000000000006e-01
	-1.598908687120254e-15
	-1.067657967819821e-17
	-1.101597884939032e-14
	2.681786518497309e-06
	2.704345444993407e-04
	6.480058626396510e-05
	3.687873176454980e-01

 94	9.400000000000006e-01
	-1.593250064168705e-15
	-1.104641064467569e-17
	-1.104289419784603e-14
	2.782933175786191e-06
	2.756296035033614e-04
	6.753065963429034e-05
	3.687876193729382e-01

 95	9.500000000000006e-01
	-1.587773196828283e-15
	-1.142941697209217e-17
	-1.106900784921911e-14
	2.887552592925313e-06
	2.807701922269868e-04
	7.031239656393340e-05
	3.687879268100310e-01

 96	9.600000000000006e-01
	-1.582470260235476e-15
	-1.182611398141585e-17
	-1.109434470443335e-14
	2.995844454832059e-06
	2.858593118034216e-04
	7.314526718001442e-05
	3.687882398982039e-01

 97	9.700000000000006e-01
	-1.577333698374977e-15
	-1.223703973366676e-17
	-1.111892907548488e-14
	3.108024374046710e-06
	2.908999462131354e-04
	7.602877156284975e-05
	3.687885585821992e-01

 98	9.800000000000006e-01
	-1.572356218473971e-15
	-1.266275613666797e-17
	-1.114278468138433e-14
	3.224325156608104e-06
	2.958950293290789e-04
	7.896243940531189e-05
	3.687888828100253e-01

 99	9.900000000000007e-01
	-1.567530785111793e-15
	-1.310385010965618e-17
	-1.116593464585112e-14
	3.344998197867821e-06
	3.008474164561051e-04
	8.194582936546522e-05
	3.687892125328993e-01

 100	1.000000000000001e+00
	-1.562850614087915e-15
	-1.356093480892474e-17
	-1.118840149661181e-14
	3.470315022436872e-06
	3.057598600080466e-04
	8.497852815566486e-05
	3.687895477051323e-01

 101	1.010000000000001e+00
	-1.558309166088261e-15
	-1.403465091784076e-17
	-1.121020716616151e-14
