Title: ** sch_path: /home/andylithia/openmpw/project-yatsuhashi-chip1/xschem/gmid_test/nmos_test.sch
Date: Sun Jul 17 22:51:45  2022
Plotname: DC transfer characteristic
Flags: real
No. Variables: 8
No. Points: 181
Variables:
	0	v(v-sweep)	voltage
	1	@m.xm1.msky130_fd_pr__nfet_01v8[cgb]	capacitance
	2	@m.xm1.msky130_fd_pr__nfet_01v8[cgd]	capacitance
	3	@m.xm1.msky130_fd_pr__nfet_01v8[cgs]	capacitance
	4	@m.xm1.msky130_fd_pr__nfet_01v8[gds]	admittance
	5	@m.xm1.msky130_fd_pr__nfet_01v8[gm]	admittance
	6	i(@m.xm1.msky130_fd_pr__nfet_01v8[id])	current
	7	v(@m.xm1.msky130_fd_pr__nfet_01v8[vth])	voltage
Values:
 0	0.000000000000000e+00
	-1.101664810941145e-14
	-4.832009250759144e-18
	-2.012101043610069e-14
	6.684156124929991e-08
	2.136641927666996e-06
	2.711971214693539e-07
	2.069688681007225e-01

 1	1.000000000000000e-02
	-1.089806442051879e-14
	-4.962049965246911e-18
	-2.039961948767715e-14
	7.208707068280400e-08
	2.310727479549522e-06
	2.934224790321172e-07
	2.069688707081676e-01

 2	2.000000000000000e-02
	-1.078098081524870e-14
	-5.095660214425805e-18
	-2.067794096484738e-14
	7.772424182109732e-08
	2.499158762867959e-06
	3.174594326679801e-07
	2.069688735281653e-01

 3	3.000000000000000e-02
	-1.066542144076649e-14
	-5.232941498930196e-18
	-2.095587820232954e-14
	8.378021112493141e-08
	2.703171528467230e-06
	3.434575262884981e-07
	2.069688765782592e-01

 4	4.000000000000000e-02
	-1.055140974767260e-14
	-5.373998414882474e-18
	-2.123333498834773e-14
	9.028378789256267e-08
	2.924116900412719e-06
	3.715792288141003e-07
	2.069688798775135e-01

 5	5.000000000000000e-02
	-1.043896844612580e-14
	-5.518938758675624e-18
	-2.151021568389433e-14
	9.726553881096534e-08
	3.163473065311424e-06
	4.020011453750922e-07
	2.069688834466538e-01

 6	6.000000000000000e-02
	-1.032811946398253e-14
	-5.667873635723113e-18
	-2.178642534055095e-14
	1.047578753251434e-07
	3.422858167970137e-06
	4.349153513442531e-07
	2.069688873082213e-01

 7	7.000000000000001e-02
	-1.021888390703818e-14
	-5.820917573339886e-18
	-2.206186981657456e-14
	1.127951438268487e-07
	3.704044525214254e-06
	4.705308618169785e-07
	2.069688914867427e-01

 8	8.000000000000000e-02
	-1.011128202144936e-14
	-5.978188637929229e-18
	-2.233645589096217e-14
	1.214137186598606e-07
	4.008974276790351e-06
	5.090752503085727e-07
	2.069688960089273e-01

 9	9.000000000000000e-02
	-1.000533315840821e-14
	-6.139808556657749e-18
	-2.261009137521640e-14
	1.306520979352520e-07
	4.339776599228940e-06
	5.507964316625317e-07
	2.069689009038638e-01

 10	9.999999999999999e-02
	-9.901055741134016e-15
	-6.305902843806595e-18
	-2.288268522254017e-14
	1.405510021465232e-07
	4.698786615213717e-06
	5.959646254555324e-07
	2.069689062032700e-01

 11	1.100000000000000e-01
	-9.798467234237316e-15
	-6.476600932000337e-18
	-2.315414763420380e-14
	1.511534755716251e-07
	5.088566137247276e-06
	6.448745175422675e-07
	2.069689119417298e-01

 12	1.200000000000000e-01
	-9.697584115505770e-15
	-6.652036308519604e-18
	-2.342439016283351e-14
	1.625049904463011e-07
	5.511926390031155e-06
	6.978476387991822e-07
	2.069689181569792e-01

 13	1.300000000000000e-01
	-9.598421850151603e-15
	-6.832346656915467e-18
	-2.369332581238686e-14
	1.746535538913060e-07
	5.971952860800407e-06
	7.552349815952515e-07
	2.069689248902129e-01

 14	1.400000000000000e-01
	-9.500994867552836e-15
	-7.017674004154246e-18
	-2.396086913459117e-14
	1.876498175747615e-07
	6.472032430633432e-06
	8.174198760298116e-07
	2.069689321864260e-01

 15	1.500000000000000e-01
	-9.405316540511543e-15
	-7.208164873530293e-18
	-2.422693632163625e-14
	2.015471900902814e-07
	7.015882942243129e-06
	8.848211495209203e-07
	2.069689400947749e-01

 16	1.600000000000000e-01
	-9.311399167044876e-15
	-7.403970443597420e-18
	-2.449144529492607e-14
	2.164019520315776e-07
	7.607585360658571e-06
	9.578965948881762e-07
	2.069689486689952e-01

 17	1.700000000000000e-01
	-9.219253954715231e-15
	-7.605246713379262e-18
	-2.475431578971103e-14
	2.322733737452211e-07
	8.251618682214869e-06
	1.037146773634467e-06
	2.069689579678441e-01

 18	1.800000000000000e-01
	-9.128891007498422e-15
	-7.812154674132827e-18
	-2.501546943543663e-14
	2.492238357448717e-07
	8.952897744032544e-06
	1.123119182670279e-06
	2.069689680555893e-01

 19	1.900000000000000e-01
	-9.040319315179862e-15
	-8.024860487952673e-18
	-2.527482983166226e-14
	2.673189517729547e-07
	9.716814080316275e-06
	1.216412814218453e-06
	2.069689790025463e-01

 20	2.000000000000000e-01
	-8.953546745261416e-15
	-8.243535673515658e-18
	-2.553232261941918e-14
	2.866276944992509e-07
	1.054927996293062e-05
	1.317683140058038e-06
	2.069689908856594e-01

 21	2.100000000000000e-01
	-8.868580037353019e-15
	-8.468357299278942e-18
	-2.578787554789482e-14
	3.072225238503603e-07
	1.145677575138547e-05
	1.427647552580645e-06
	2.069690037891525e-01

 22	2.200000000000001e-01
	-8.785424800015850e-15
	-8.699508184465322e-18
	-2.604141853634778e-14
	3.291795179695913e-07
	1.244640066113927e-05
	1.547091296305569e-06
	2.069690178052110e-01

 23	2.300000000000001e-01
	-8.704085510016599e-15
	-8.937177108177035e-18
	-2.629288373117433e-14
	3.525785068133153e-07
	1.352592703851865e-05
	1.676873924487770e-06
	2.069690330347495e-01

 24	2.400000000000001e-01
	-8.624565513944934e-15
	-9.181559027003184e-18
	-2.654220555806565e-14
	3.775032083976818e-07
	1.470385820508379e-05
	1.817936316211474e-06
	2.069690495882342e-01

 25	2.500000000000001e-01
	-8.546867032139873e-15
	-9.432855301498859e-18
	-2.678932076921167e-14
	4.040413677184919e-07
	1.598948990343716e-05
	1.971308289838765e-06
	2.069690675865816e-01

 26	2.600000000000001e-01
	-8.470991164863951e-15
	-9.691273931935046e-18
	-2.703416848552542e-14
	4.322848983773148e-07
	1.739297533978717e-05
	2.138116848821961e-06
	2.069690871621196e-01

 27	2.700000000000001e-01
	-8.396937900658838e-15
	-9.957029803736170e-18
	-2.727669023387661e-14
	4.623300269585621e-07
	1.892539377555564e-05
	2.319595095629023e-06
	2.069691084596423e-01

 28	2.800000000000001e-01
	-8.324706126809234e-15
	-1.023034494304374e-17
	-2.751682997934316e-14
	4.942774402154412e-07
	2.059882257050904e-05
	2.517091848808294e-06
	2.069691316375347e-01

 29	2.900000000000001e-01
	-8.254293641838232e-15
	-1.051144878286530e-17
	-2.775453415250121e-14
	5.282324351375032e-07
	2.242641252286694e-05
	2.732081996960565e-06
	2.069691568689948e-01

 30	3.000000000000001e-01
	-8.185697169951208e-15
	-1.080057844028953e-17
	-2.798975167179391e-14
	5.643050719891935e-07
	2.442246628725203e-05
	2.966177621520710e-06
	2.069691843433375e-01

 31	3.100000000000001e-01
	-8.118912377341814e-15
	-1.109797900527493e-17
	-2.822243396103182e-14
	6.026103304274391e-07
	2.660251957889599e-05
	3.221139917699187e-06
	2.069692142673983e-01

 32	3.200000000000001e-01
	-8.053933890270035e-15
	-1.140390384154175e-17
	-2.845253496209253e-14
	6.432682688272862e-07
	2.898342479202367e-05
	3.498891939616691e-06
	2.069692468670301e-01

 33	3.300000000000001e-01
	-7.990755314818000e-15
	-1.171861490012482e-17
	-2.868001114290200e-14
	6.864041869679805e-07
	3.158343657173607e-05
	3.801532191502063e-06
	2.069692823887013e-01

 34	3.400000000000001e-01
	-7.929369258227361e-15
	-1.204238304616967e-17
	-2.890482150079242e-14
	7.321487922582996e-07
	3.442229878208002e-05
	4.131349081733249e-06
	2.069693211011976e-01

 35	3.500000000000001e-01
	-7.869767351719352e-15
	-1.237548839959034e-17
	-2.912692756134339e-14
	7.806383697093202e-07
	3.752133220858194e-05
	4.490836250404227e-06
	2.069693632974203e-01

 36	3.600000000000002e-01
	-7.811940274696448e-15
	-1.271822069022923e-17
	-2.934629337282543e-14
	8.320149558960782e-07
	4.090352222179886e-05
	4.882708773922154e-06
	2.069694092962957e-01

 37	3.700000000000002e-01
	-7.755877780223497e-15
	-1.307087962819831e-17
	-2.956288549637531e-14
	8.864265171867433e-07
	4.459360551008505e-05
	5.309920241808051e-06
	2.069694594447796e-01

 38	3.800000000000002e-01
	-7.701568721685167e-15
	-1.343377529011274e-17
	-2.977667299204203e-14
	9.440271325599573e-07
	4.861815486574759e-05
	5.775680691329814e-06
	2.069695141199649e-01

 39	3.900000000000002e-01
	-7.649001080515891e-15
	-1.380722852196197e-17
	-2.998762740085146e-14
	1.004977181378071e-06
	5.300566088030416e-05
	6.283475374786401e-06
	2.069695737313004e-01

 40	4.000000000000002e-01
	-7.598161994898377e-15
	-1.419157135940632e-17
	-3.019572272304630e-14
	1.069443536537358e-06
	5.778660927324402e-05
	6.837084322153031e-06
	2.069696387228780e-01

 41	4.100000000000002e-01
	-7.549037789327204e-15
	-1.458714746632130e-17
	-3.040093539266427e-14
	1.137599763476016e-06
	6.299355244639367e-05
	7.440602648364138e-06
	2.069697095758196e-01

 42	4.200000000000002e-01
	-7.501614004935208e-15
	-1.499431259245492e-17
	-3.060324424862263e-14
	1.209626325588150e-06
	6.866117372499615e-05
	8.098461539760149e-06
	2.069697868107618e-01

 43	4.300000000000002e-01
	-7.455875430479874e-15
	-1.541343505111317e-17
	-3.080263050248650e-14
	1.285710796668185e-06
	7.482634261956850e-05
	8.815449838182869e-06
	2.069698709903758e-01

 44	4.400000000000002e-01
	-7.411806133890932e-15
	-1.584489621782486e-17
	-3.099907770309687e-14
	1.366048081095023e-06
	8.152815932244190e-05
	9.596736123916920e-06
	2.069699627219729e-01

 45	4.500000000000002e-01
	-7.369389494279702e-15
	-1.628909105099632e-17
	-3.119257169824291e-14
	1.450840642561390e-06
	8.880798654309291e-05
	1.044789118024174e-05
	2.069700626601455e-01

 46	4.600000000000002e-01
	-7.328608234314399e-15
	-1.674642863560997e-17
	-3.138310059356330e-14
	1.540298742261180e-06
	9.670946669057593e-05
	1.137491070289004e-05
	2.069701715094332e-01

 47	4.700000000000003e-01
	-7.289444452867810e-15
	-1.721733275107974e-17
	-3.157065470886256e-14
	1.634640687567596e-06
	1.052785223336481e-04
	1.238423809736978e-05
	2.069702900270087e-01

 48	4.800000000000003e-01
	-7.251879657845469e-15
	-1.770224246443090e-17
	-3.175522653203222e-14
	1.734093092369277e-06
	1.145633378138746e-04
	1.348278718610328e-05
	2.069704190253402e-01

 49	4.900000000000003e-01
	-7.215894799107023e-15
	-1.820161275003401e-17
	-3.193681067076305e-14
	1.838891150380481e-06
	1.246143198585535e-04
	1.467796462590718e-05
	2.069705593748302e-01

 50	5.000000000000002e-01
	-7.181470301395026e-15
	-1.871591513718131e-17
	-3.211540380223732e-14
	1.949278922907267e-06
	1.354840350434572e-04
	1.597769181478510e-05
	2.069707120063862e-01

 51	5.100000000000002e-01
	-7.148586097189792e-15
	-1.924563838686496e-17
	-3.229100462098676e-14
	2.065509642734614e-06
	1.472271219946959e-04
	1.739042604565918e-05
	2.069708779139056e-01

 52	5.200000000000002e-01
	-7.117221659412037e-15
	-1.979128919918684e-17
	-3.246361378510086e-14
	2.187846036001053e-06
	1.599001762991158e-04
	1.892518064392217e-05
	2.069710581566420e-01

 53	5.300000000000002e-01
	-7.087356033898566e-15
	-2.035339295289522e-17
	-3.263323386096725e-14
	2.316560664149128e-06
	1.735616062178209e-04
	2.059154380597440e-05
	2.069712538614085e-01

 54	5.400000000000003e-01
	-7.058967871580494e-15
	-2.093249447863153e-17
	-3.279986926672282e-14
	2.451936288281427e-06
	1.882714574715391e-04
	2.239969583768763e-05
	2.069714662246097e-01

 55	5.500000000000003e-01
	-7.032035460296598e-15
	-2.152915886754534e-17
	-3.296352621459052e-14
	2.594266258515944e-06
	2.040912055930964e-04
	2.436042447553589e-05
	2.069716965140227e-01

 56	5.600000000000003e-01
	-7.006536756179135e-15
	-2.214397231701929e-17
	-3.312421265227249e-14
	2.743854931218529e-06
	2.210835146235635e-04
	2.648513795945588e-05
	2.069719460703438e-01

 57	5.700000000000003e-01
	-6.982449414552609e-15
	-2.277754301534350e-17
	-3.328193820356573e-14
	2.901018117298570e-06
	2.393119612666534e-04
	2.878587551595646e-05
	2.069722163083939e-01

 58	5.800000000000003e-01
	-6.959750820290793e-15
	-2.343050206726860e-17
	-3.343671410836075e-14
	3.066083565081857e-06
	2.588407240107486e-04
	3.127531490309508e-05
	2.069725087180064e-01

 59	5.900000000000003e-01
	-6.938418117580571e-15
	-2.410350446246098e-17
	-3.358855316217902e-14
	3.239391481626481e-06
	2.797342371790480e-04
	3.396677666630898e-05
	2.069728248645203e-01

 60	6.000000000000003e-01
	-6.918428239045235e-15
	-2.479723008900325e-17
	-3.373746965539909e-14
	3.421295096719053e-06
	3.020568103730854e-04
	3.687422475623617e-05
	2.069731663888278e-01

 61	6.100000000000003e-01
	-6.899757934184527e-15
	-2.551238479417673e-17
	-3.388347931231414e-14
	3.612161274180134e-06
	3.258722143293535e-04
	4.001226316712212e-05
	2.069735350069839e-01

 62	6.200000000000003e-01
	-6.882383797091449e-15
	-2.624970149489207e-17
	-3.402659923015921e-14
	3.812371175518966e-06
	3.512432348072076e-04
	4.339612826766556e-05
	2.069739325092754e-01

 63	6.300000000000003e-01
	-6.866282293410831e-15
	-2.700994134024793e-17
	-3.416684781823814e-14
	4.022320981403684e-06
	3.782311967607062e-04
	4.704167651557419e-05
	2.069743607587820e-01

 64	6.400000000000003e-01
	-6.851429786507227e-15
	-2.779389492883275e-17
	-3.430424473727485e-14
	4.242422676856438e-06
	4.068954617083313e-04
	5.096536727305205e-05
	2.069748216893337e-01

 65	6.500000000000004e-01
	-6.837802562814318e-15
	-2.860238358351546e-17
	-3.443881083910655e-14
	4.473104906535894e-06
	4.372929018907399e-04
	5.518424047306164e-05
	2.069753173028777e-01

 66	6.600000000000004e-01
	-6.825376856341096e-15
	-2.943626068661951e-17
	-3.457056810682875e-14
	4.714813906934579e-06
	4.694773554850734e-04
	5.971588892565347e-05
	2.069758496662105e-01

 67	6.700000000000004e-01
	-6.814128872313421e-15
	-3.029641307851746e-17
	-3.469953959549689e-14
	4.968014522789146e-06
	5.034990678097277e-04
	6.457842509981821e-05
	2.069764209070712e-01

 68	6.800000000000004e-01
	-6.804034809932781e-15
	-3.118376252285687e-17
	-3.482574937348131e-14
	5.233191315477951e-06
	5.394041240900954e-04
	6.979044226903008e-05
	2.069770332095554e-01

 69	6.900000000000004e-01
	-6.795070884238011e-15
	-3.209926724177498e-17
	-3.494922246456503e-14
	5.510849771657197e-06
	5.772338799461861e-04
	7.537096996748272e-05
	2.069776888088956e-01

 70	7.000000000000004e-01
	-6.787213347057152e-15
	-3.304392352466167e-17
	-3.506998479086954e-14
	5.801517620866020e-06
	6.170243962900422e-04
	8.133942376849718e-05
	2.069783899855348e-01

 71	7.100000000000004e-01
	-6.780438507041319e-15
	-3.401876741419592e-17
	-3.518806311668421e-14
	6.105746271305363e-06
	6.588058857661406e-04
	8.771554946586844e-05
	2.069791390585836e-01

 72	7.200000000000004e-01
	-6.774722748773728e-15
	-3.502487647359105e-17
	-3.530348499327043e-14
	6.424112373470881e-06
	7.026021782148858e-04
	9.451936181222759e-05
	2.069799383786152e-01

 73	7.300000000000004e-01
	-6.770042550950286e-15
	-3.606337163918769e-17
	-3.541627870470491e-14
	6.757219521790448e-06
	7.484302128710463e-04
	1.017710780446461e-04
	2.069807903198601e-01

 74	7.400000000000004e-01
	-6.766374503630431e-15
	-3.713541916275147e-17
	-3.552647321482001e-14
	7.105700104888275e-06
	7.962995651113716e-04
	1.094910465055481e-04
	2.069816972718340e-01

 75	7.500000000000004e-01
	-6.763695324559021e-15
	-3.824223264807248e-17
	-3.563409811529339e-14
	7.470217315570506e-06
	8.462120155262196e-04
	1.176996707451228e-04
	2.069826616304252e-01

 76	7.600000000000005e-01
	-6.761981874562127e-15
	-3.938507518669816e-17
	-3.573918357493387e-14
	7.851467332106232e-06
	8.981611688992913e-04
	1.264173295683738e-04
	2.069836857885169e-01

 77	7.700000000000005e-01
	-6.761211172021992e-15
	-4.056526159789490e-17
	-3.584176029020350e-14
	8.250181682870556e-06
	9.521321303316946e-04
	1.356642935641684e-04
	2.069847721261942e-01

 78	7.800000000000005e-01
	-6.761360406437284e-15
	-4.178416077821460e-17
	-3.594185943701292e-14
	8.667129806929544e-06
	1.008101245239201e-03
	1.454606387235554e-04
	2.069859230006081e-01

 79	7.900000000000005e-01
	-6.762406951077488e-15
	-4.304319816630396e-17
	-3.603951262381954e-14
	9.103121823692160e-06
	1.066035909286861e-03
	1.558261578186183e-04
	2.069871407355943e-01

 80	8.000000000000005e-01
	-6.764328374740697e-15
	-4.434385832893896e-17
	-3.613475184605509e-14
	9.559011525344150e-06
	1.125894453509720e-03
	1.667802702696885e-04
	2.069884276110874e-01

 81	8.100000000000005e-01
	-6.767102452626505e-15
	-4.568768767454204e-17
	-3.622760944190329e-14
	1.003569960642688e-05
	1.187626108913079e-03
	1.783419312763694e-04
	2.069897858524725e-01

 82	8.200000000000005e-01
	-6.770707176335692e-15
	-4.707629730081304e-17
	-3.631811804944535e-14
	1.053413714564968e-05
	1.251171053766328e-03
	1.905295410252427e-04
	2.069912176199331e-01

 83	8.300000000000005e-01
	-6.775120763010544e-15
	-4.851136598343409e-17
	-3.640631056518547e-14
	1.105532935584418e-05
	1.316460545620388e-03
	2.033608548131566e-04
	2.069927249979074e-01

 84	8.400000000000005e-01
	-6.780321663630015e-15
	-4.999464331320215e-17
	-3.649222010396548e-14
	1.160033961890614e-05
	1.383417138813832e-03
	2.168528949387324e-04
	2.069943099847527e-01

 85	8.500000000000005e-01
	-6.786288570474673e-15
	-5.152795298931314e-17
	-3.657587996027434e-14
	1.217029382364644e-05
	1.451954986913301e-03
	2.310218652154849e-04
	2.069959744827135e-01

 86	8.600000000000005e-01
	-6.793000423777395e-15
	-5.311319627696159e-17
	-3.665732357095417e-14
	1.276638502571290e-05
	1.521980228189206e-03
	2.458830689473477e-04
	2.069977202882886e-01

 87	8.700000000000006e-01
	-6.800436417576386e-15
	-5.475235563782127e-17
	-3.673658447930108e-14
	1.338987845017291e-05
	1.593391450888229e-03
	2.614508311813090e-04
	2.069995490831125e-01

 88	8.800000000000006e-01
	-6.808576004786678e-15
	-5.644749854245895e-17
	-3.681369630055739e-14
	1.404211685899334e-05
	1.666080233761606e-03
	2.777384260125900e-04
	2.070014624254015e-01

 89	8.900000000000006e-01
	-6.817398901508252e-15
	-5.820078147417403e-17
	-3.688869268878707e-14
	1.472452630753954e-05
	1.739931756072736e-03
	2.947580096657279e-04
	2.070034617421119e-01

 90	9.000000000000006e-01
	-6.826885090587264e-15
	-6.001445413429778e-17
	-3.696160730512515e-14
	1.543862231637613e-05
	1.814825470169870e-03
	3.125205600110967e-04
	2.070055483218151e-01

 91	9.100000000000006e-01
	-6.837014824448535e-15
	-6.189086385946016e-17
	-3.703247378738865e-14
	1.618601648710478e-05
	1.890635828695429e-03
	3.310358231016809e-04
	2.070077233084162e-01

 92	9.200000000000006e-01
	-6.847768627216567e-15
	-6.383246026191521e-17
	-3.710132572103410e-14
	1.696842359375667e-05
	1.967233057637996e-03
	3.503122672309362e-04
	2.070099876957449e-01

 93	9.300000000000006e-01
	-6.859127296143068e-15
	-6.584180010455699e-17
	-3.716819661144492e-14
	1.778766918438702e-05
	2.044483965735145e-03
	3.703570449207073e-04
	2.070123423230950e-01

 94	9.400000000000006e-01
	-6.871071902357614e-15
	-6.792155242287680e-17
	-3.723311985752994e-14
	1.864569773103006e-05
	2.122252780220983e-03
	3.911759631503793e-04
	2.070147878716971e-01

 95	9.500000000000006e-01
	-6.883583790959512e-15
	-7.007450390669419e-17
	-3.729612872661197e-14
	1.954458137008103e-05
	2.200401998590757e-03
	4.127734620364060e-04
	2.070173248622133e-01

 96	9.600000000000006e-01
	-6.896644580467324e-15
	-7.230356455516528e-17
	-3.735725633058372e-14
	2.048652927950902e-05
	2.278793245931667e-03
	4.351526020672274e-04
	2.070199536532357e-01

 97	9.700000000000006e-01
	-6.910236161642176e-15
	-7.461177361922939e-17
	-3.741653560330738e-14
	2.147389774409423e-05
	2.357288127443210e-03
	4.583150598943351e-04
	2.070226744407618e-01

 98	9.800000000000006e-01
	-6.924340695701946e-15
	-7.700230584631361e-17
	-3.747399927923144e-14
	2.250920096513304e-05
	2.435749066034598e-03
	4.822611325775421e-04
	2.070254872587108e-01

 99	9.900000000000007e-01
	-6.938940611940705e-15
	-7.947847804288387e-17
	-3.752967987319809e-14
	2.359512267681056e-05
	2.514040115332558e-03
	5.069897500837207e-04
	2.070283919803661e-01

 100	1.000000000000001e+00
	-6.954018604768955e-15
	-8.204375597110914e-17
	-3.758360966141263e-14
	2.473452863769268e-05
	2.592027739041462e-03
	5.324984957445513e-04
	2.070313883207773e-01

 101	1.010000000000001e+00
	-6.969557630189087e-15
	-8.470176159668650e-17
	-3.763582066354511e-14
