Title: ** sch_path: /home/andylithia/openmpw/project-yatsuhashi-chip1/xschem/gmid_test/nmos_test.sch
Date: Tue Jul 19 23:15:45  2022
Plotname: DC transfer characteristic
Flags: real
No. Variables: 8
No. Points: 181
Variables:
	0	v(v-sweep)	voltage
	1	@m.xm1.msky130_fd_pr__nfet_01v8[cgb]	capacitance
	2	@m.xm1.msky130_fd_pr__nfet_01v8[cgd]	capacitance
	3	@m.xm1.msky130_fd_pr__nfet_01v8[cgs]	capacitance
	4	@m.xm1.msky130_fd_pr__nfet_01v8[gds]	admittance
	5	@m.xm1.msky130_fd_pr__nfet_01v8[gm]	admittance
	6	i(@m.xm1.msky130_fd_pr__nfet_01v8[id])	current
	7	v(@m.xm1.msky130_fd_pr__nfet_01v8[vth])	voltage
Values:
 0	0.000000000000000e+00
	-3.261580936042781e-15
	-1.608151033346596e-20
	-3.228823226371032e-15
	1.176010452361010e-08
	5.656776602023181e-07
	5.378171535026771e-08
	3.500910656186666e-01

 1	1.000000000000000e-02
	-3.226221545829530e-15
	-1.771557159646940e-20
	-3.305750845055465e-15
	1.305194793533821e-08
	6.273465719273484e-07
	5.974161964973911e-08
	3.500910661163135e-01

 2	2.000000000000000e-02
	-3.191002487138444e-15
	-1.943477658933601e-20
	-3.383406374230164e-15
	1.448191522948853e-08
	6.955966419320982e-07
	6.635057368655366e-08
	3.500910666682253e-01

 3	3.000000000000000e-02
	-3.155937140482675e-15
	-2.124159052400228e-20
	-3.461752154609184e-15
	1.606416072268668e-08
	7.711149652924579e-07
	7.367776823596630e-08
	3.500910672802108e-01

 4	4.000000000000000e-02
	-3.121039119846105e-15
	-2.313847690112961e-20
	-3.540749212469358e-15
	1.781419212884329e-08
	8.546595998176751e-07
	8.179961388562212e-08
	3.500910679586726e-01

 5	5.000000000000000e-02
	-3.086322235233238e-15
	-2.512789470895348e-20
	-3.620357329538748e-15
	1.974898506297489e-08
	9.470670950423621e-07
	9.080048761668631e-08
	3.500910687107010e-01

 6	6.000000000000000e-02
	-3.051800454395612e-15
	-2.721229568061812e-20
	-3.700535117730699e-15
	2.188710500995249e-08
	1.049260900432196e-06
	1.007735589785218e-07
	3.500910695441191e-01

 7	7.000000000000001e-02
	-3.017487863887897e-15
	-2.939412162464177e-20
	-3.781240098462340e-15
	2.424883691626947e-08
	1.162260770606896e-06
	1.118217052247210e-07
	3.500910704675780e-01

 8	8.000000000000000e-02
	-2.983398629613026e-15
	-3.167580184323780e-20
	-3.862428786268148e-15
	2.685632251218191e-08
	1.287193302041530e-06
	1.240585260381517e-07
	3.500910714906362e-01

 9	9.000000000000000e-02
	-2.949546957021037e-15
	-3.405975065278352e-20
	-3.944056776390163e-15
	2.973370541128750e-08
	1.425303754312411e-06
	1.376094699085086e-07
	3.500910726238592e-01

 10	9.999999999999999e-02
	-2.915947051130484e-15
	-3.654836502031979e-20
	-4.026078836000117e-15
	3.290728396419387e-08
	1.577969329564533e-06
	1.526130858578987e-07
	3.500910738789260e-01

 11	1.100000000000000e-01
	-2.882613076544101e-15
	-3.914402232947010e-20
	-4.108448998684451e-15
	3.640567176170142e-08
	1.746714106487011e-06
	1.692224160580619e-07
	3.500910752687516e-01

 12	1.200000000000000e-01
	-2.849559117632252e-15
	-4.184907828850905e-20
	-4.191120661800959e-15
	4.025996559040236e-08
	1.933225849609847e-06
	1.876065469667175e-07
	3.500910768076256e-01

 13	1.300000000000000e-01
	-2.816799139058100e-15
	-4.466586499271756e-20
	-4.274046686296510e-15
	4.450392053934568e-08
	2.139374940995067e-06
	2.079523389485336e-07
	3.500910785113562e-01

 14	1.400000000000000e-01
	-2.784346946817546e-15
	-4.759668915208797e-20
	-4.357179498558279e-15
	4.917413184015855e-08
	2.367235709073537e-06
	2.304663569541595e-07
	3.500910803974379e-01

 15	1.500000000000000e-01
	-2.752216149965089e-15
	-5.064383049486065e-20
	-4.440471193856965e-15
	5.431022289466459e-08
	2.619110458004315e-06
	2.553770277206723e-07
	3.500910824852549e-01

 16	1.600000000000000e-01
	-2.720420123193104e-15
	-5.380954035618088e-20
	-4.523873640930519e-15
	5.995503880371625e-08
	2.897556529842513e-06
	2.829370521351485e-07
	3.500910847962800e-01

 17	1.700000000000000e-01
	-2.688971970427621e-15
	-5.709604046018973e-20
	-4.607338587248357e-15
	6.615484455890350e-08
	3.205416760098007e-06
	3.134261048678998e-07
	3.500910873543188e-01

 18	1.800000000000000e-01
	-2.657884489597749e-15
	-6.050552190277055e-20
	-4.690817764492506e-15
	7.295952689571159e-08
	3.545853713801252e-06
	3.471538571222791e-07
	3.500910901857801e-01

 19	1.900000000000000e-01
	-2.627170138728888e-15
	-6.404014434099079e-20
	-4.774262993791187e-15
	8.042279863336011e-08
	3.922388112504965e-06
	3.844633623386333e-07
	3.500910933199785e-01

 20	2.000000000000000e-01
	-2.596841003501755e-15
	-6.770203539418021e-20
	-4.857626290242660e-15
	8.860240414414973e-08
	4.338941880956670e-06
	4.257348488903504e-07
	3.500910967894685e-01

 21	2.100000000000000e-01
	-2.566908766410150e-15
	-7.149329026015805e-20
	-4.940859966273175e-15
	9.756032440515635e-08
	4.799886253330098e-06
	4.713899681593513e-07
	3.500911006304388e-01

 22	2.200000000000001e-01
	-2.537384677640240e-15
	-7.541597154913176e-20
	-5.023916733382148e-15
	1.073629798894360e-07
	5.310095380381055e-06
	5.218965507933473e-07
	3.500911048831339e-01

 23	2.300000000000001e-01
	-2.508279527783245e-15
	-7.947210933642969e-20
	-5.106749801839885e-15
	1.180814293545693e-07
	5.875005867779522e-06
	5.777739283159290e-07
	3.500911095923396e-01

 24	2.400000000000001e-01
	-2.479603622481769e-15
	-8.366370143389806e-20
	-5.189312977918624e-15
	1.297915623860960e-07
	6.500682648884539e-06
	6.395988814419056e-07
	3.500911148079349e-01

 25	2.500000000000001e-01
	-2.451366759097687e-15
	-8.799271387883126e-20
	-5.271560758256320e-15
	1.425742833549332e-07
	7.193891548736410e-06
	7.080122802670492e-07
	3.500911205854978e-01

 26	2.600000000000001e-01
	-2.423578205476706e-15
	-9.246108163784655e-20
	-5.353448420973356e-15
	1.565156842544826e-07
	7.962178826123115e-06
	7.837264847390356e-07
	3.500911269869906e-01

 27	2.700000000000001e-01
	-2.396246680871562e-15
	-9.707070952214957e-20
	-5.434932113186109e-15
	1.717072036984153e-07
	8.813957883119530e-06
	8.675335762203741e-07
	3.500911340815282e-01

 28	2.800000000000001e-01
	-2.369380339072328e-15
	-1.018234733094586e-19
	-5.515968934587134e-15
	1.882457691879445e-07
	9.758603202311165e-06
	9.603144922279586e-07
	3.500911419462339e-01

 29	2.900000000000001e-01
	-2.342986753778809e-15
	-1.067212210668074e-19
	-5.596517016789467e-15
	2.062339196018645e-07
	1.080655140690467e-05
	1.063049136239344e-06
	3.500911506672053e-01

 30	3.000000000000001e-01
	-2.317072906236294e-15
	-1.117657746675971e-19
	-5.676535598162531e-15
	2.257799047283320e-07
	1.196940913432261e-05
	1.176827532416212e-06
	3.500911603405607e-01

 31	3.100000000000001e-01
	-2.291645175142591e-15
	-1.169589314951164e-19
	-5.755985093917211e-15
	2.469977585485392e-07
	1.326006716645286e-05
	1.302862090796087e-06
	3.500911710736285e-01

 32	3.200000000000001e-01
	-2.266709328821003e-15
	-1.223024663242685e-19
	-5.834827161230587e-15
	2.700073429044366e-07
	1.469281996716905e-05
	1.442501041506336e-06
	3.500911829862496e-01

 33	3.300000000000001e-01
	-2.242270519640984e-15
	-1.277981333722565e-19
	-5.913024759233214e-15
	2.949343581398324e-07
	1.628348943893467e-05
	1.597243086398970e-06
	3.500911962122059e-01

 34	3.400000000000001e-01
	-2.218333280655842e-15
	-1.334476685083884e-19
	-5.990542203715133e-15
	3.219103173017602e-07
	1.804955132577969e-05
	1.768753302730473e-06
	3.500912109007994e-01

 35	3.500000000000001e-01
	-2.194901524414979e-15
	-1.392527916128290e-19
	-6.067345216440478e-15
	3.510724805318518e-07
	2.001026226225697e-05
	1.958880315672011e-06
	3.500912272185659e-01

 36	3.600000000000002e-01
	-2.171978543896948e-15
	-1.452152090733387e-19
	-6.143400968993648e-15
	3.825637463702060e-07
	2.218678500214549e-05
	2.169674734121582e-06
	3.500912453511451e-01

 37	3.700000000000002e-01
	-2.149567015499065e-15
	-1.513366164090213e-19
	-6.218678121113146e-15
	4.165324968415646e-07
	2.460230886456282e-05
	2.403408817157664e-06
	3.500912655052982e-01

 38	3.800000000000002e-01
	-2.127669004009774e-15
	-1.576187010096512e-19
	-6.293146853501143e-15
	4.531323933997145e-07
	2.728216191989105e-05
	2.662597306272848e-06
	3.500912879110822e-01

 39	3.900000000000002e-01
	-2.106285969480842e-15
	-1.640631449791192e-19
	-6.366778895128378e-15
	4.925221210746165e-07
	3.025391091815890e-05
	2.950019321135266e-06
	3.500913128241594e-01

 40	4.000000000000002e-01
	-2.085418775908956e-15
	-1.706716280713910e-19
	-6.439547545083511e-15
	5.348650785009677e-07
	3.354744445660168e-05
	3.268741174087697e-06
	3.500913405282698e-01

 41	4.100000000000002e-01
	-2.065067701628796e-15
	-1.774458307075175e-19
	-6.511427689045297e-15
	5.803290119094126e-07
	3.719503441313627e-05
	3.622139911158297e-06
	3.500913713378129e-01

 42	4.200000000000002e-01
	-2.045232451314075e-15
	-1.843874370622723e-19
	-6.582395810482363e-15
	6.290855916334030e-07
	4.123137026402340e-05
	4.013927335503307e-06
	3.500914056005484e-01

 43	4.300000000000002e-01
	-2.025912169477721e-15
	-1.914981382092483e-19
	-6.652429996710696e-15
	6.813099302266510e-07
	4.569356058578911e-05
	4.448174213692026e-06
	3.500914437003941e-01

 44	4.400000000000002e-01
	-2.007105455358396e-15
	-1.987796353134951e-19
	-6.721509939962338e-15
	7.371800418970843e-07
	5.062109584465401e-05
	4.929334307133968e-06
	3.500914860602763e-01

 45	4.500000000000002e-01
	-1.988810379077363e-15
	-2.062336428613121e-19
	-6.789616933639790e-15
	7.968762436408152e-07
	5.605576653372804e-05
	5.462267811613030e-06
	3.500915331450065e-01

 46	4.600000000000002e-01
	-1.971024498947753e-15
	-2.138618919168166e-19
	-6.856733863949563e-15
	8.605804991996051e-07
	6.204153086155327e-05
	6.052263729036454e-06
	3.500915854641472e-01

 47	4.700000000000003e-01
	-1.953744879816732e-15
	-2.216661333959894e-19
	-6.922845197125419e-15
	9.284757077623945e-07
	6.862432655605998e-05
	6.705060639152304e-06
	3.500916435748037e-01

 48	4.800000000000003e-01
	-1.936968112321082e-15
	-2.296481413488018e-19
	-6.987936962466084e-15
	1.000744940176515e-06
	7.585182195273271e-05
	7.426865287442631e-06
	3.500917080842916e-01

 49	4.900000000000003e-01
	-1.920690332936899e-15
	-2.378097162411829e-19
	-7.051996731424794e-15
	1.077570626318541e-06
	8.377310240621855e-05
	8.224368361228801e-06
	3.500917796526063e-01

 50	5.000000000000002e-01
	-1.904907244705639e-15
	-2.461526882286320e-19
	-7.115013592997833e-15
	1.159133698184609e-06
	9.243828921383734e-05
	9.104756791951182e-06
	3.500918589946326e-01

 51	5.100000000000002e-01
	-1.889614138520642e-15
	-2.546789204143683e-19
	-7.176978125667286e-15
	1.245612694182182e-06
	1.018980896703284e-04
	1.007572190043222e-05
	3.500919468820084e-01

 52	5.200000000000002e-01
	-1.874805914861002e-15
	-2.633903120853904e-19
	-7.237882366158884e-15
	1.337182831021940e-06
	1.122032785757205e-04
	1.114546269647124e-05
	3.500920441445496e-01

 53	5.300000000000002e-01
	-1.860477105863097e-15
	-2.722888019202853e-19
	-7.297719775279243e-15
	1.434015050501627e-06
	1.234041134681777e-04
	1.232268365696495e-05
	3.500921516711673e-01

 54	5.400000000000003e-01
	-1.846621897623764e-15
	-2.813763711635710e-19
	-7.356485201098739e-15
	1.536275049322563e-06
	1.355496880109767e-04
	1.361658634018594e-05
	3.500922704101780e-01

 55	5.500000000000003e-01
	-1.833234152633699e-15
	-2.906550467620345e-19
	-7.414174839745857e-15
	1.644122300862653e-06
	1.486872302711442e-04
	1.503685424969094e-05
	3.500924013689009e-01

 56	5.600000000000003e-01
	-1.820307432244349e-15
	-3.001269044587282e-19
	-7.470786194076712e-15
	1.757709078523385e-06
	1.628613550144388e-04
	1.659363044072009e-05
	3.500925456125106e-01

 57	5.700000000000003e-01
	-1.807835019076617e-15
	-3.097940718414895e-19
	-7.526318030480343e-15
	1.877179490851987e-06
	1.781132815209112e-04
	1.829748746528089e-05
	3.500927042619953e-01

 58	5.800000000000003e-01
	-1.795809939285350e-15
	-3.196587313431194e-19
	-7.580770334074580e-15
	2.002668539087423e-06
	1.944800306983920e-04
	2.015938937877425e-05
	3.500928784912260e-01

 59	5.900000000000003e-01
	-1.784224984599007e-15
	-3.297231231909316e-19
	-7.634144262541590e-15
	2.134301208073486e-06
	2.119936173318572e-04
	2.219064567947448e-05
	3.500930695230394e-01

 60	6.000000000000003e-01
	-1.773072734059797e-15
	-3.399895483042005e-19
	-7.686442098844156e-15
	2.272191601601330e-06
	2.306802550445768e-04
	2.440285721969263e-05
	3.500932786243045e-01

 61	6.100000000000003e-01
	-1.762345575395562e-15
	-3.504603711381405e-19
	-7.737667203055248e-15
	2.416442133173113e-06
	2.505595928551728e-04
	2.680785431027758e-05
	3.500935071000001e-01

 62	6.200000000000003e-01
	-1.752035725960423e-15
	-3.611380224741602e-19
	-7.787823963524196e-15
	2.567142782907012e-06
	2.716440029948863e-04
	2.941762743345124e-05
	3.500937562862437e-01

 63	6.300000000000003e-01
	-1.742135253187398e-15
	-3.720250021557715e-19
	-7.836917747592151e-15
	2.724370430821521e-06
	2.939379398181333e-04
	3.224425117706205e-05
	3.500940275423873e-01

 64	6.400000000000003e-01
	-1.732636094501923e-15
	-3.831238817709027e-19
	-7.884954852059119e-15
	2.888188276046181e-06
	3.174373891360156e-04
	3.529980219979519e-05
	3.500943222421770e-01

 65	6.500000000000004e-01
	-1.723530076651019e-15
	-3.944373072809855e-19
	-7.931942453593515e-15
	3.058645350607011e-06
	3.421294260924103e-04
	3.859627222470356e-05
	3.500946417641052e-01

 66	6.600000000000004e-01
	-1.714808934408655e-15
	-4.059680015980614e-19
	-7.977888559263311e-15
	3.235776135341163e-06
	3.679918977837313e-04
	4.214547723055723e-05
	3.500949874810737e-01

 67	6.700000000000004e-01
	-1.706464328623154e-15
	-4.177187671113233e-19
	-8.022801957356720e-15
	3.419600284223504e-06
	3.949932442285832e-04
	4.595896415998640e-05
	3.500953607494877e-01

 68	6.800000000000004e-01
	-1.698487863577993e-15
	-4.296924881648231e-19
	-8.066692168647812e-15
	3.610122461958832e-06
	4.230924680894305e-04
	5.004791658371900e-05
	3.500957628979831e-01

 69	6.900000000000004e-01
	-1.690871103642276e-15
	-4.418921334885831e-19
	-8.109569398251127e-15
	3.807332298139686e-06
	4.522392598364948e-04
	5.442306084584944e-05
	3.500961952159294e-01

 70	7.000000000000004e-01
	-1.683605589192227e-15
	-4.543207585854002e-19
	-8.151444488197111e-15
	4.011204459620430e-06
	4.823742809544618e-04
	5.909457426148285e-05
	3.500966589419586e-01

 71	7.100000000000004e-01
	-1.676682851789393e-15
	-4.669815080761036e-19
	-8.192328870848999e-15
	4.221698841054718e-06
	5.134296034803275e-04
	6.407199694237146e-05
	3.500971552526905e-01

 72	7.200000000000004e-01
	-1.670094428605883e-15
	-4.798776180064574e-19
	-8.232234523269920e-15
	4.438760871822353e-06
	5.453292997957600e-04
	6.936414878683837e-05
	3.500976852518640e-01

 73	7.300000000000004e-01
	-1.663831876090778e-15
	-4.930124181186649e-19
	-8.271173922638127e-15
	4.662321935874117e-06
	5.779901723571327e-04
	7.497905308777077e-05
	3.500982499601149e-01

 74	7.400000000000004e-01
	-1.657886782875962e-15
	-5.063893340913009e-19
	-8.309160002797094e-15
	4.892299899392019e-06
	6.113226091054865e-04
	8.092386808894564e-05
	3.500988503055539e-01

 75	7.500000000000004e-01
	-1.652250781922806e-15
	-5.200118897513858e-19
	-8.346206112017069e-15
	5.128599739632130e-06
	6.452315468181493e-04
	8.720482765917163e-05
	3.500994871153426e-01

 76	7.600000000000005e-01
	-1.646915561914737e-15
	-5.338837092626580e-19
	-8.382325972034052e-15
	5.371114266926303e-06
	6.796175217837280e-04
	9.382719206110511e-05
	3.501001611084331e-01

 77	7.700000000000005e-01
	-1.641872877903410e-15
	-5.480085192943031e-19
	-8.417533638422854e-15
	5.619724930597197e-06
	7.143777850128630e-04
	1.007952095737120e-04
	3.501008728895659e-01

 78	7.800000000000005e-01
	-1.637114561219174e-15
	-5.623901511746524e-19
	-8.451843462351079e-15
	5.874302698511891e-06
	7.494074578132498e-04
	1.081120894916617e-04
	3.501016229446577e-01

 79	7.900000000000005e-01
	-1.632632528658739e-15
	-5.770325430346279e-19
	-8.485270053752412e-15
	6.134708999185996e-06
	7.846007029961502e-04
	1.157799867796613e-04
	3.501024116376213e-01

 80	8.000000000000005e-01
	-1.628418790965393e-15
	-5.919397419454301e-19
	-8.517828245948609e-15
	6.400796714760054e-06
	8.198518872391793e-04
	1.237999984129581e-04
	3.501032392086723e-01

 81	8.100000000000005e-01
	-1.624465460618735e-15
	-6.071159060561241e-19
	-8.549533061742093e-15
	6.672411212814046e-06
	8.550567111668163e-04
	1.321721711951382e-04
	3.501041057740695e-01

 82	8.200000000000005e-01
	-1.620764758953030e-15
	-6.225653067354144e-19
	-8.580399680992910e-15
	6.949391404857825e-06
	8.901132854503595e-04
	1.408955206181913e-04
	3.501050113273223e-01

 83	8.300000000000005e-01
	-1.617309022624295e-15
	-6.382923307234993e-19
	-8.610443409687281e-15
	7.231570819433662e-06
	9.249231335713723e-04
	1.499680601243354e-04
	3.501059557417374e-01

 84	8.400000000000005e-01
	-1.614090709447872e-15
	-6.543014822989214e-19
	-8.639679650497840e-15
	7.518778678073310e-06
	9.593921047125780e-04
	1.593868399494976e-04
	3.501069387742485e-01

 85	8.500000000000005e-01
	-1.611102403629009e-15
	-6.705973854656099e-19
	-8.668123874830002e-15
	7.810840962852474e-06
	9.934311834018791e-04
	1.691479945788837e-04
	3.501079600704025e-01

 86	8.600000000000005e-01
	-1.608336820410003e-15
	-6.871847861658738e-19
	-8.695791596342729e-15
	8.107581464956676e-06
	1.026957185896982e-03
	1.792467977283567e-04
	3.501090191703591e-01

 87	8.700000000000006e-01
	-1.605786810157968e-15
	-7.040685545240279e-19
	-8.722698345927378e-15
	8.408822804488591e-06
	1.059893336721134e-03
	1.896777236826555e-04
	3.501101155157800e-01

 88	8.800000000000006e-01
	-1.603445361917915e-15
	-7.212536871263146e-19
	-8.748859648123018e-15
	8.714387412683017e-06
	1.092169722115918e-03
	2.004345137728207e-04
	3.501112484574329e-01

 89	8.900000000000006e-01
	-1.601305606455990e-15
	-7.387453093420726e-19
	-8.774290998942918e-15
	9.024098468722522e-06
	1.123723620350436e-03
	2.115102467592568e-04
	3.501124172633626e-01

 90	9.000000000000006e-01
	-1.599360818817978e-15
	-7.565486776913189e-19
	-8.799007845082833e-15
	9.337780784435790e-06
	1.154499711722500e-03
	2.228974119012663e-04
	3.501136211274588e-01

 91	9.100000000000006e-01
	-1.597604420428214e-15
	-7.746691822636640e-19
	-8.823025564478471e-15
	9.655261631285631e-06
	1.184450173633384e-03
	2.345879835355700e-04
	3.501148591782912e-01

 92	9.200000000000006e-01
	-1.596029980753901e-15
	-7.931123491934062e-19
	-8.846359448176746e-15
	9.976371505188485e-06
	1.213534668262417e-03
	2.465734960514483e-04
	3.501161304880429e-01

 93	9.300000000000006e-01
	-1.594631218559480e-15
	-8.118838431957869e-19
	-8.869024683483051e-15
	1.030094482582692e-05
	1.241720232082508e-03
	2.588451182345015e-04
	3.501174340814079e-01

 94	9.400000000000006e-01
	-1.593402002775754e-15
	-8.309894701686215e-19
	-8.891036338344339e-15
	1.062882056820029e-05
	1.268981077734732e-03
	2.713937260502940e-04
	3.501187689443654e-01

 95	9.500000000000006e-01
	-1.592336353007485e-15
	-8.504351798642758e-19
	-8.912409346926888e-15
	1.095984282519077e-05
	1.295298319630213e-03
	2.842099730490719e-04
	3.501201340326630e-01

 96	9.600000000000006e-01
	-1.591428439703320e-15
	-8.702270686360708e-19
	-8.933158496345358e-15
	1.129386130087987e-05
	1.320659635095112e-03
	2.972843576889145e-04
	3.501215282799926e-01

 97	9.700000000000006e-01
	-1.590672584010629e-15
	-8.903713822636733e-19
	-8.953298414499899e-15
	1.163073173523348e-05
	1.345058872958700e-03
	3.106072869936722e-04
	3.501229506056900e-01

 98	9.800000000000006e-01
	-1.590063257337947e-15
	-9.108745188614178e-19
	-8.972843558976247e-15
	1.197031626155809e-05
	1.368495621248950e-03
	3.241691360799207e-04
	3.501243999219965e-01

 99	9.900000000000007e-01
	-1.589595080646339e-15
	-9.317430318738737e-19
	-8.991808206964395e-15
	1.231248369882721e-05
	1.390974745157890e-03
	3.379603032015658e-04
	3.501258751407565e-01

 100	1.000000000000001e+00
	-1.589262823490771e-15
	-9.529836331626683e-19
	-9.010206446150619e-15
	1.265710978156788e-05
	1.412505905721116e-03
	3.519712600687366e-04
	3.501273751795554e-01

 101	1.010000000000001e+00
	-1.589061402831570e-15
	-9.746031961884012e-19
	-9.028052166538007e-15
