Title: ** sch_path: /home/andylithia/openmpw/project-yatsuhashi-chip1/xschem/gmid_test/nmos_test.sch
Date: Tue Jul 19 23:15:45  2022
Plotname: DC transfer characteristic
Flags: real
No. Variables: 8
No. Points: 181
Variables:
	0	v(v-sweep)	voltage
	1	@m.xm1.msky130_fd_pr__nfet_01v8[cgb]	capacitance
	2	@m.xm1.msky130_fd_pr__nfet_01v8[cgd]	capacitance
	3	@m.xm1.msky130_fd_pr__nfet_01v8[cgs]	capacitance
	4	@m.xm1.msky130_fd_pr__nfet_01v8[gds]	admittance
	5	@m.xm1.msky130_fd_pr__nfet_01v8[gm]	admittance
	6	i(@m.xm1.msky130_fd_pr__nfet_01v8[id])	current
	7	v(@m.xm1.msky130_fd_pr__nfet_01v8[vth])	voltage
Values:
 0	0.000000000000000e+00
	-4.076773245315073e-15
	7.413553340150674e-19
	-2.950438017888503e-15
	2.144611990558037e-08
	8.804313977950870e-07
	7.756449930041538e-08
	4.119641384509548e-01

 1	1.000000000000000e-02
	-4.036681012930833e-15
	7.524570761310335e-19
	-3.033405132920227e-15
	2.400704360297764e-08
	9.847538627761657e-07
	8.688086284606735e-08
	4.119641391703499e-01

 2	2.000000000000000e-02
	-3.996627735360670e-15
	7.633222796556071e-19
	-3.117622424971898e-15
	2.686826087925796e-08
	1.101187009819346e-06
	9.729992267191889e-08
	4.119641399749424e-01

 3	3.000000000000000e-02
	-3.956627051923389e-15
	7.739313842190095e-19
	-3.203056226456361e-15
	3.006399224845088e-08
	1.231097747732916e-06
	1.089495020007059e-07
	4.119641408746232e-01

 4	4.000000000000000e-02
	-3.916693246853896e-15
	7.842648125996752e-19
	-3.289670424486353e-15
	3.363218207316074e-08
	1.376001833208394e-06
	1.219718249482725e-07
	4.119641418803971e-01

 5	5.000000000000000e-02
	-3.876841211648262e-15
	7.943030249902458e-19
	-3.377426499480787e-15
	3.761487315439143e-08
	1.537579487364773e-06
	1.365250817937410e-07
	4.119641430045094e-01

 6	6.000000000000000e-02
	-3.837086404685114e-15
	8.040265742940000e-19
	-3.466283573396862e-15
	4.205861374871172e-08
	1.717692630861696e-06
	1.527851583634956e-07
	4.119641442605800e-01

 7	7.000000000000001e-02
	-3.797444808252424e-15
	8.134161621719109e-19
	-3.556198467583213e-15
	4.701489892334657e-08
	1.918403918868934e-06
	1.709475466011846e-07
	4.119641456637507e-01

 8	8.000000000000000e-02
	-3.757932883129650e-15
	8.224526955483419e-19
	-3.647125770188149e-15
	5.254064811218480e-08
	2.141997782202935e-06
	1.912294553305204e-07
	4.119641472308581e-01

 9	9.000000000000000e-02
	-3.718567520895462e-15
	8.311173432725106e-19
	-3.739017912994671e-15
	5.869872065123654e-08
	2.391003710099782e-06
	2.138721424228164e-07
	4.119641489806075e-01

 10	9.999999999999999e-02
	-3.679365994150460e-15
	8.393915926254518e-19
	-3.831825257490226e-15
	6.555847094424990e-08
	2.668222044006199e-06
	2.391434921008316e-07
	4.119641509337811e-01

 11	1.100000000000000e-01
	-3.640345904862716e-15
	8.472573053560824e-19
	-3.925496189915938e-15
	7.319634473131056e-08
	2.976752591106881e-06
	2.673408639960562e-07
	4.119641531134605e-01

 12	1.200000000000000e-01
	-3.601525131060577e-15
	8.546967729273165e-19
	-4.019977224977021e-15
	8.169651769784419e-08
	3.320026411748977e-06
	2.987942438851806e-07
	4.119641555452776e-01

 13	1.300000000000000e-01
	-3.562921772112888e-15
	8.616927706527137e-19
	-4.115213117834020e-15
	9.115157736090665e-08
	3.701841187157184e-06
	3.338697298279400e-07
	4.119641582576928e-01

 14	1.400000000000000e-01
	-3.524554092850101e-15
	8.682286104064534e-19
	-4.211146983934655e-15
	1.016632487960081e-07
	4.126400633492109e-06
	3.729733917838825e-07
	4.119641612822926e-01

 15	1.500000000000000e-01
	-3.486440466791848e-15
	8.742881915952199e-19
	-4.307720426187561e-15
	1.133431643128224e-07
	4.598358495925985e-06
	4.165555477766075e-07
	4.119641646541436e-01

 16	1.600000000000000e-01
	-3.448599318756142e-15
	8.798560500876502e-19
	-4.404873668925362e-15
	1.263136766441734e-07
	5.122867732373679e-06
	4.651155053830953e-07
	4.119641684121611e-01

 17	1.700000000000000e-01
	-3.411049067133008e-15
	8.849174048086410e-19
	-4.502545698052303e-15
	1.407087145716521e-07
	5.705635580927080e-06
	5.192068238359064e-07
	4.119641725995377e-01

 18	1.800000000000000e-01
	-3.373808066110705e-15
	8.894582017187013e-19
	-4.600674406725421e-15
	1.566746791662752e-07
	6.352985297660615e-06
	5.794431594220895e-07
	4.119641772642075e-01

 19	1.900000000000000e-01
	-3.336894548145625e-15
	8.934651549149015e-19
	-4.699196745875267e-15
	1.743713779672601e-07
	7.071925451546382e-06
	6.465047652222924e-07
	4.119641824593810e-01

 20	2.000000000000000e-01
	-3.300326566967520e-15
	8.969257846080185e-19
	-4.798048878835847e-15
	1.939729934515156e-07
	7.870227769344686e-06
	7.211457256258181e-07
	4.119641882441257e-01

 21	2.100000000000000e-01
	-3.264121941409732e-15
	8.998284517516797e-19
	-4.897166339321373e-15
	2.156690810573619e-07
	8.756514633271569e-06
	8.042020165313052e-07
	4.119641946840214e-01

 22	2.200000000000001e-01
	-3.228298200349840e-15
	9.021623891219389e-19
	-4.996484191962420e-15
	2.396655908174343e-07
	9.740357444720451e-06
	8.966004937217181e-07
	4.119642018519019e-01

 23	2.300000000000001e-01
	-3.192872529039203e-15
	9.039177286702148e-19
	-5.095937194595127e-15
	2.661859053292334e-07
	1.083238717379362e-05
	9.993689245697902e-07
	4.119642098286787e-01

 24	2.400000000000001e-01
	-3.157861717090800e-15
	9.050855249990016e-19
	-5.195459961484618e-15
	2.954718853523148e-07
	1.204441851086478e-05
	1.113647191917086e-06
	4.119642187042653e-01

 25	2.500000000000001e-01
	-3.123282108383316e-15
	9.056577748373622e-19
	-5.294987126658254e-15
	3.277849127773985e-07
	1.338958911511962e-05
	1.240699813538924e-06
	4.119642285786210e-01

 26	2.600000000000001e-01
	-3.089149553125776e-15
	9.056274324215627e-19
	-5.394453506525504e-15
	3.634069190781307e-07
	1.488251550636660e-05
	1.381929935834866e-06
	4.119642395629164e-01

 27	2.700000000000001e-01
	-3.055479362311414e-15
	9.049884207157743e-19
	-5.493794260969497e-15
	4.026413856489511e-07
	1.653946715863776e-05
	1.538894975938526e-06
	4.119642517808492e-01

 28	2.800000000000001e-01
	-3.022286264772035e-15
	9.037356384375377e-19
	-5.592945052109764e-15
	4.458143006767076e-07
	1.837856031328767e-05
	1.713324101862586e-06
	4.119642653701265e-01

 29	2.900000000000001e-01
	-2.989584367024925e-15
	9.018649628818231e-19
	-5.691842199957659e-15
	4.932750554194689e-07
	2.041997291931789e-05
	1.907137754975595e-06
	4.119642804841108e-01

 30	3.000000000000001e-01
	-2.957387116083830e-15
	8.993732485685454e-19
	-5.790422834212710e-15
	5.453972610096207e-07
	2.268618191125995e-05
	2.122469432262423e-06
	4.119642972937045e-01

 31	3.100000000000001e-01
	-2.925707265383736e-15
	8.962583217651754e-19
	-5.888625041482999e-15
	6.025794652048064e-07
	2.520222373016877e-05
	2.361689956482284e-06
	4.119643159894196e-01

 32	3.200000000000001e-01
	-2.894556843946379e-15
	8.925189709668313e-19
	-5.986388007250639e-15
	6.652457469281815e-07
	2.799597855970518e-05
	2.627434469317824e-06
	4.119643367837363e-01

 33	3.300000000000001e-01
	-2.863947128889921e-15
	8.881549334407552e-19
	-6.083652151948801e-15
	7.338461650289361e-07
	3.109847816513679e-05
	2.922632384518653e-06
	4.119643599137085e-01

 34	3.400000000000001e-01
	-2.833888621362313e-15
	8.831668779696297e-19
	-6.180359260564785e-15
	8.088570365169543e-07
	3.454423646688611e-05
	3.250540533257785e-06
	4.119643856438909e-01

 35	3.500000000000001e-01
	-2.804391025953545e-15
	8.775563839507257e-19
	-6.276452605237158e-15
	8.907810186538354e-07
	3.837160103256097e-05
	3.614779720627503e-06
	4.119644142695814e-01

 36	3.600000000000002e-01
	-2.775463233617986e-15
	8.713259170307600e-19
	-6.371877060370721e-15
	9.801469687899322e-07
	4.262312251621592e-05
	4.019374888396602e-06
	4.119644461204249e-01

 37	3.700000000000002e-01
	-2.747113308114081e-15
	8.644788014756607e-19
	-6.466579209852357e-15
	1.077509555802193e-06
	4.734593770061002e-05
	4.468799042703746e-06
	4.119644815643906e-01

 38	3.800000000000002e-01
	-2.719348475945253e-15
	8.570191894923561e-19
	-6.560507446011835e-15
	1.183448597489708e-06
	5.259216020510441e-05
	4.968021054073477e-06
	4.119645210121357e-01

 39	3.900000000000002e-01
	-2.692175119763486e-15
	8.489520277353001e-19
	-6.653612060033723e-15
	1.298568099399898e-06
	5.841927111678695e-05
	5.522557368838239e-06
	4.119645649218012e-01

 40	4.000000000000002e-01
	-2.665598775175194e-15
	8.402830212422364e-19
	-6.745845323590399e-15
	1.423494972362849e-06
	6.489049980705797e-05
	6.138527583714549e-06
	4.119646138042044e-01

 41	4.100000000000002e-01
	-2.639624130868710e-15
	8.310185950553231e-19
	-6.837161561528515e-15
	1.558877408566654e-06
	7.207518304780817e-05
	6.822713727173724e-06
	4.119646682284786e-01

 42	4.200000000000002e-01
	-2.614255031963472e-15
	8.211658537900858e-19
	-6.927517215504592e-15
	1.705382899367446e-06
	8.004908829683247e-05
	7.582622961119088e-06
	4.119647288281157e-01

 43	4.300000000000002e-01
	-2.589494486463325e-15
	8.107325394204716e-19
	-7.016870898526607e-15
	1.863695882226691e-06
	8.889468475807731e-05
	8.426553263625525e-06
	4.119647963074041e-01

 44	4.400000000000002e-01
	-2.565344674680420e-15
	7.997269875507810e-19
	-7.105183440417656e-15
	2.034515009218215e-06
	9.870134363760463e-05
	9.363661478400476e-06
	4.119648714482348e-01

 45	4.500000000000002e-01
	-2.541806961481581e-15
	7.881580824445780e-19
	-7.192417924275922e-15
	2.218550035435316e-06
	1.095654470318799e-04
	1.040403292057978e-05
	4.119649551171958e-01

 46	4.600000000000002e-01
	-2.518881911196768e-15
	7.760352110798350e-19
	-7.278539714058510e-15
	2.416518332304199e-06
	1.215903832428809e-04
	1.155875151416328e-05
	4.119650482729303e-01

 47	4.700000000000003e-01
	-2.496569305018171e-15
	7.633682164929862e-19
	-7.363516473469138e-15
	2.629141038196615e-06
	1.348864051745591e-04
	1.283996920806784e-05
	4.119651519736076e-01

 48	4.800000000000003e-01
	-2.474868160709893e-15
	7.501673506696086e-19
	-7.447318176376136e-15
	2.857138866704597e-06
	1.495703279993875e-04
	1.426097318128186e-05
	4.119652673844257e-01

 49	4.900000000000003e-01
	-2.453776754440921e-15
	7.364432272300089e-19
	-7.529917109031548e-15
	3.101227601336937e-06
	1.657650426699081e-04
	1.583624911062004e-05
	4.119653957849909e-01

 50	5.000000000000002e-01
	-2.433292644549150e-15
	7.222067741478423e-19
	-7.611287864400856e-15
	3.362113314013889e-06
	1.835988232609141e-04
	1.758153854648542e-05
	4.119655385763997e-01

 51	5.100000000000002e-01
	-2.413412697040535e-15
	7.074691867277009e-19
	-7.691407328948646e-15
	3.640487353335827e-06
	2.032044087193613e-04
	1.951388823392980e-05
	4.119656972878136e-01

 52	5.200000000000002e-01
	-2.394133112626303e-15
	6.922418810556096e-19
	-7.770254662254435e-15
	3.937021156905237e-06
	2.247178434962600e-04
	2.165168904062172e-05
	4.119658735823391e-01

 53	5.300000000000002e-01
	-2.375449455100650e-15
	6.765364481204097e-19
	-7.847811269860473e-15
	4.252360949697591e-06
	2.482770668172883e-04
	2.401470202364698e-05
	4.119660692619098e-01

 54	5.400000000000003e-01
	-2.357356680863373e-15
	6.603646087908293e-19
	-7.924060769772699e-15
	4.587122397283102e-06
	2.740202470338228e-04
	2.662406909733714e-05
	4.119662862709515e-01

 55	5.500000000000003e-01
	-2.339849169394888e-15
	6.437381698164391e-19
	-7.998988953053483e-15
	4.941885288292747e-06
	3.020838655255353e-04
	2.950230576841974e-05
	4.119665266985306e-01

 56	5.600000000000003e-01
	-2.322920754495263e-15
	6.266689810049713e-19
	-8.072583738956724e-15
	5.317188324594161e-06
	3.326005638524180e-04
	3.267327349547321e-05
	4.119667927786866e-01

 57	5.700000000000003e-01
	-2.306564756104887e-15
	6.091688937131546e-19
	-8.144835125063251e-15
	5.713524099930615e-06
	3.656967780344991e-04
	3.616212941778943e-05
	4.119670868886934e-01

 58	5.800000000000003e-01
	-2.290774012530764e-15
	5.912497207715890e-19
	-8.215735132878451e-15
	6.131334348065235e-06
	4.014901946285705e-04
	3.999525149220950e-05
	4.119674115449540e-01

 59	5.900000000000003e-01
	-2.275540912910268e-15
	5.729231979492453e-19
	-8.285277749353811e-15
	6.571005539609817e-06
	4.400870742344125e-04
	4.420013747923467e-05
	4.119677693962905e-01

 60	6.000000000000003e-01
	-2.260857429752493e-15
	5.542009470484790e-19
	-8.353458864790136e-15
	7.032864902640187e-06
	4.815794986773126e-04
	4.880527673088282e-05
	4.119681632144453e-01

 61	6.100000000000003e-01
	-2.246715151406438e-15
	5.350944407061415e-19
	-8.420276207573747e-15
	7.517176935934119e-06
	5.260426077964563e-04
	5.383999434594416e-05
	4.119685958816112e-01

 62	6.200000000000003e-01
	-2.233105314314711e-15
	5.156149689638937e-19
	-8.485729276186881e-15
	8.024140475338288e-06
	5.735318999049233e-04
	5.933426796099366e-05
	4.119690703749281e-01

 63	6.300000000000003e-01
	-2.220018834921666e-15
	4.957736076575533e-19
	-8.549819268921275e-15
	8.553886363610209e-06
	6.240806759674821e-04
	6.531851821917413e-05
	4.119695897479387e-01

 64	6.400000000000003e-01
	-2.207446341114512e-15
	4.755811886631470e-19
	-8.612549011710251e-15
	9.106475762409514e-06
	6.776977108050051e-04
	7.182337477881683e-05
	4.119701571090690e-01

 65	6.500000000000004e-01
	-2.195378203086855e-15
	4.550482720268740e-19
	-8.673922884477486e-15
	9.681899132331803e-06
	7.343652347100472e-04
	7.887942056068024e-05
	4.119707755973283e-01

 66	6.600000000000004e-01
	-2.183804563523909e-15
	4.341851199958038e-19
	-8.733946746384233e-15
	1.028007589345663e-05
	7.940373054152534e-04
	8.651691775225779e-05
	4.119714483555125e-01

 67	6.700000000000004e-01
	-2.172715367019092e-15
	4.130016729556187e-19
	-8.792627860337670e-15
	1.090085476531499e-05
	8.566386432380004e-04
	9.476551985399498e-05
	4.119721785012510e-01

 68	6.800000000000004e-01
	-2.162100388641770e-15
	3.915075272748488e-19
	-8.849974817103637e-15
	1.154401477197463e-05
	9.220639914792740e-04
	1.036539747285920e-04
	4.119729690964180e-01

 69	6.900000000000004e-01
	-2.151949261585595e-15
	3.697119150444919e-19
	-8.905997459347664e-15
	1.220926688558076e-05
	9.901780500521434e-04
	1.132098241658045e-04
	4.119738231154218e-01

 70	7.000000000000004e-01
	-2.142251503836569e-15
	3.476236856956450e-19
	-8.960706805907372e-15
	1.289625627059413e-05
	1.060816013344907e-03
	1.234591058699248e-04
	4.119747434130147e-01

 71	7.100000000000004e-01
	-2.132996543808996e-15
	3.252512894695751e-19
	-9.014114976579614e-15
	1.360456508149097e-05
	1.133784724179773e-03
	1.344260639901908e-04
	4.119757326922893e-01

 72	7.200000000000004e-01
	-2.124173744906405e-15
	3.026027627071751e-19
	-9.066235117684853e-15
	1.433371575907331e-05
	1.208864435270670e-03
	1.461328743282677e-04
	4.119767934735531e-01

 73	7.300000000000004e-01
	-2.115772428972840e-15
	2.796857149184568e-19
	-9.117081328651589e-15
	1.508317476491978e-05
	1.285811148791315e-03
	1.585993901634947e-04
	4.119779280647921e-01

 74	7.400000000000004e-01
	-2.107781898607967e-15
	2.565073175853052e-19
	-9.166668589843039e-15
	1.585235668991177e-05
	1.364359484569048e-03
	1.718429142378115e-04
	4.119791385343992e-01

 75	7.500000000000004e-01
	-2.100191458326888e-15
	2.330742946438608e-19
	-9.215012691829117e-15
	1.664062867110709e-05
	1.444226009037156e-03
	1.858780018504089e-04
	4.119804266867803e-01

 76	7.600000000000005e-01
	-2.092990434552777e-15
	2.093929145874434e-19
	-9.262130166286584e-15
	1.744731505133004e-05
	1.525112941338879e-03
	2.007162992492958e-04
	4.119817940414178e-01

 77	7.700000000000005e-01
	-2.086168194436891e-15
	1.854689841233966e-19
	-9.308038218691800e-15
	1.827170221745355e-05
	1.606712140659982e-03
	2.163664206038336e-04
	4.119832418158206e-01

 78	7.800000000000005e-01
	-2.079714163507033e-15
	1.613078433132770e-19
	-9.352754662950695e-15
	1.911304355616583e-05
	1.688709270549409e-03
	2.328338658361959e-04
	4.119847709127556e-01

 79	7.900000000000005e-01
	-2.073617842150911e-15
	1.369143621184181e-19
	-9.396297858093021e-15
	1.997056446974165e-05
	1.770788032006553e-03
	2.501209805229081e-04
	4.119863819119480e-01

 80	8.000000000000005e-01
	-2.067868820946456e-15
	1.122929382703895e-19
	-9.438686647139202e-15
	2.084346739865240e-05
	1.852634357545911e-03
	2.682269579937896e-04
	4.119880750663955e-01

 81	8.100000000000005e-01
	-2.062456794855793e-15
	8.744749638059916e-20
	-9.479940298230792e-15
	2.173093680249107e-05
	1.933940463121953e-03
	2.871478826985700e-04
	4.119898503032516e-01

 82	8.200000000000005e-01
	-2.057371576304136e-15
	6.238148820035525e-20
	-9.520078448098211e-15
	2.263214405541640e-05
	2.014408663300320e-03
	3.068768129214385e-04
	4.119917072291545e-01

 83	8.300000000000005e-01
	-2.052603107168735e-15
	3.709789394136925e-20
	-9.559121047923158e-15
	2.354625221696237e-05
	2.093754866797188e-03
	3.274039000362360e-04
	4.119936451397526e-01

 84	8.400000000000005e-01
	-2.048141469706457e-15
	1.159922456356749e-20
	-9.597088311637311e-15
	2.447242064350287e-05
	2.171711683736035e-03
	3.487165407385514e-04
	4.119956630330576e-01

 85	8.500000000000005e-01
	-2.043976896451974e-15
	-1.411247506104913e-20
	-9.634000666683190e-15
	2.540980940983512e-05
	2.248031091864953e-03
	3.707995580860827e-04
	4.119977596262441e-01

 86	8.600000000000005e-01
	-2.040099779120743e-15
	-4.003562220150922e-20
	-9.669878707249917e-15
	2.635758351425384e-05
	2.322486625691751e-03
	3.936354067378926e-04
	4.119999333753551e-01

 87	8.700000000000006e-01
	-2.036500676553652e-15
	-6.616909162733670e-20
	-9.704743149982281e-15
	2.731491684413066e-05
	2.394875069209100e-03
	4.172043975099635e-04
	4.120021824974512e-01

 88	8.800000000000006e-01
	-2.033170321741689e-15
	-9.251221036358875e-20
	-9.738614792149673e-15
	2.828099588246350e-05
	2.465017648863163e-03
	4.414849362554467e-04
	4.120045049945968e-01

 89	8.900000000000006e-01
	-2.030099627970682e-15
	-1.190647519261999e-19
	-9.771514472250003e-15
	2.925502313914789e-05
	2.532760738041572e-03
	4.664537721218586e-04
	4.120068986791811e-01

 90	9.000000000000006e-01
	-2.027279694127061e-15
	-1.458269301195662e-19
	-9.803463033013647e-15
	3.023622029392511e-05
	2.597976097140021e-03
	4.920862504185114e-04
	4.120093612000112e-01

 91	9.100000000000006e-01
	-2.024701809206454e-15
	-1.727993924739124e-19
	-9.834481286762950e-15
	3.122383104110755e-05
	2.660560683877473e-03
	5.183565656250111e-04
	4.120118900686881e-01

 92	9.200000000000006e-01
	-2.022357456067209e-15
	-1.999832133957941e-19
	-9.864589983075177e-15
	3.221712362931066e-05
	2.720436076787238e-03
	5.452380104631818e-04
	4.120144826857905e-01

 93	9.300000000000006e-01
	-2.020238314471120e-15
	-2.273798871000503e-19
	-9.893809778689623e-15
	3.321539309253428e-05
	2.777547560671727e-03
	5.727032174162710e-04
	4.120171363664585e-01

 94	9.400000000000006e-01
	-2.018336263453338e-15
	-2.549913203867454e-19
	-9.922161209593777e-15
	3.421796317202772e-05
	2.831862926351590e-03
	6.007243895871555e-04
	4.120198483650123e-01

 95	9.500000000000006e-01
	-2.016643383063198e-15
	-2.828198253220227e-19
	-9.949664665218468e-15
	3.522418793141439e-05
	2.883371038441595e-03
	6.292735183192458e-04
	4.120226158983003e-01

 96	9.600000000000006e-01
	-2.015151955516825e-15
	-3.108681118762698e-19
	-9.976340364668195e-15
	3.623345307049847e-05
	2.932080224395316e-03
	6.583225855395525e-04
	4.120254361675436e-01

 97	9.700000000000006e-01
	-2.013854465801719e-15
	-3.391392805690184e-19
	-1.000220833490958e-14
	3.724517694598621e-05
	2.978016535975075e-03
	6.878437493058270e-04
	4.120283063784770e-01

 98	9.800000000000006e-01
	-2.012743601772416e-15
	-3.676368151643343e-19
	-1.002728839083894e-14
	3.825881130996591e-05
	3.021221930941508e-03
	7.178095115341955e-04
	4.120312237596786e-01

 99	9.900000000000007e-01
	-2.011812253775232e-15
	-3.963645754575774e-19
	-1.005160011714830e-14
	3.927384177936299e-05
	3.061752418441817e-03
	7.481928673395629e-04
	4.120341855789775e-01

 100	1.000000000000001e+00
	-2.011053513838844e-15
	-4.253267901881837e-19
	-1.007516285190858e-14
	4.028978805166182e-05
	3.099676206613463e-03
	7.789674358299549e-04
	4.120371891579588e-01

 101	1.010000000000001e+00
	-2.010460674466002e-15
	-4.545280501122266e-19
	-1.009799567178851e-14
	4.130620388394759e-05
	3.135071885593796e-03
	8.101075725535116e-04
