Title: ** sch_path: /home/andylithia/openmpw/project-yatsuhashi-chip1/xschem/gmid_test/nmos_test.sch
Date: Sun Jul 17 22:51:45  2022
Plotname: DC transfer characteristic
Flags: real
No. Variables: 8
No. Points: 181
Variables:
	0	v(v-sweep)	voltage
	1	@m.xm1.msky130_fd_pr__nfet_01v8[cgb]	capacitance
	2	@m.xm1.msky130_fd_pr__nfet_01v8[cgd]	capacitance
	3	@m.xm1.msky130_fd_pr__nfet_01v8[cgs]	capacitance
	4	@m.xm1.msky130_fd_pr__nfet_01v8[gds]	admittance
	5	@m.xm1.msky130_fd_pr__nfet_01v8[gm]	admittance
	6	i(@m.xm1.msky130_fd_pr__nfet_01v8[id])	current
	7	v(@m.xm1.msky130_fd_pr__nfet_01v8[vth])	voltage
Values:
 0	0.000000000000000e+00
	-2.417937730890795e-15
	-3.974755130183668e-25
	-3.404174563830575e-18
	1.078428808132857e-25
	3.845018730249446e-23
	4.258586309969765e-25
	6.295497934250454e-01

 1	1.000000000000000e-02
	-2.407672869150423e-15
	-5.182206347163348e-25
	-3.395989138249479e-18
	2.660446027672444e-25
	9.485090605227172e-23
	1.050578443222019e-24
	6.295497934250454e-01

 2	2.000000000000000e-02
	-2.397535913899978e-15
	-6.756418653774351e-25
	-3.390192920222464e-18
	6.561297768039585e-25
	2.339481952354353e-22
	2.590978677277193e-24
	6.295497934250454e-01

 3	3.000000000000000e-02
	-2.387524122404057e-15
	-8.808768075175086e-25
	-3.387460954000954e-18
	1.618659440085225e-24
	5.771140651351569e-22
	6.391895045766522e-24
	6.295497934250454e-01

 4	4.000000000000000e-02
	-2.377634778100906e-15
	-1.148443383499943e-24
	-3.388677200264098e-18
	3.992707845320097e-24
	1.423555816206734e-21
	1.576673409336038e-23
	6.295497934250454e-01

 5	5.000000000000000e-02
	-2.367865174194564e-15
	-1.497264462241795e-24
	-3.394998472697573e-18
	9.848807275859714e-24
	3.511444770766042e-21
	3.889178789987731e-23
	6.295497934250454e-01

 6	6.000000000000000e-02
	-2.358212592986546e-15
	-1.952002148070476e-24
	-3.407937764348637e-18
	2.429358027951735e-23
	8.661389671102473e-21
	9.593251996339624e-23
	6.295497934250454e-01

 7	7.000000000000001e-02
	-2.348674279623384e-15
	-2.544794678804398e-24
	-3.429472715901601e-18
	5.992354592137380e-23
	2.136386253701316e-20
	2.366311381401233e-22
	6.295497934250454e-01

 8	8.000000000000000e-02
	-2.339247408555367e-15
	-3.317516338179457e-24
	-3.462186596564406e-18
	1.478036371748840e-22
	5.269256642716621e-20
	5.836595135946984e-22
	6.295497934250454e-01

 9	9.000000000000000e-02
	-2.329929040524538e-15
	-4.324716051264158e-24
	-3.509451181327915e-18
	3.645463440355123e-22
	1.299534685244377e-19
	1.439551657837165e-21
	6.295497934250454e-01

 10	9.999999999999999e-02
	-2.320716067311516e-15
	-5.637435413973915e-24
	-3.575663368415894e-18
	8.990540495723220e-22
	3.204616745576658e-19
	3.550261703934917e-21
	6.295497934250454e-01

 11	1.100000000000000e-01
	-2.311605140761622e-15
	-7.348164194871686e-24
	-3.666550313197647e-18
	2.217017292269876e-21
	7.901101671633745e-19
	8.754749139599705e-21
	6.295497934250454e-01

 12	1.200000000000000e-01
	-2.302592581784755e-15
	-9.577263569669642e-24
	-3.789561224806039e-18
	5.466006177790873e-21
	1.947497324007891e-18
	2.158463968860610e-20
	6.295497934250454e-01

 13	1.300000000000000e-01
	-2.293674264108826e-15
	-1.248127746115706e-23
	-3.954367629484810e-18
	1.347235797491198e-20
	4.798162842758919e-18
	5.320082397841261e-20
	6.295497934250454e-01

 14	1.400000000000000e-01
	-2.284845466636994e-15
	-1.626366326562343e-23
	-4.173497503151488e-18
	3.319076252840913e-20
	1.181336535885865e-17
	1.310666002863018e-19
	6.295497934250454e-01

 15	1.500000000000000e-01
	-2.276100687459628e-15
	-2.118860732972355e-23
	-4.463131555224982e-18
	8.171058890336368e-20
	2.905385450353711e-17
	3.226659996438372e-19
	6.295497934250454e-01

 16	1.600000000000000e-01
	-2.267433412154361e-15
	-2.759874886954360e-23
	-4.844090998580710e-18
	2.009323049854937e-19
	7.133475585295712e-17
	7.934593652881639e-19
	6.295497934250454e-01

 17	1.700000000000000e-01
	-2.258835829357777e-15
	-3.593781732089821e-23
	-5.343043703358844e-18
	4.932393177101092e-19
	1.746855261622259e-16
	1.947747577491124e-18
	6.295497934250454e-01

 18	1.800000000000000e-01
	-2.250298488227886e-15
	-4.677938767064802e-23
	-5.993947538654977e-18
	1.207477169856039e-18
	4.260308390429197e-16
	4.768194618775653e-18
	6.295497934250454e-01

 19	1.900000000000000e-01
	-2.241809895884752e-15
	-6.086316761373058e-23
	-6.839733775543097e-18
	2.943512181755511e-18
	1.032509595863941e-15
	1.162360768716742e-17
	6.295497934250454e-01

 20	2.000000000000000e-01
	-2.233356058482514e-15
	-7.914043909238964e-23
	-7.934208880162389e-18
	7.129223868182433e-18
	2.478451574305539e-15
	2.815252933219202e-17
	6.295497934250454e-01

 21	2.100000000000000e-01
	-2.224919976522594e-15
	-1.028304804297898e-22
	-9.344123515041050e-18
	1.709898880442455e-17
	5.864213468246937e-15
	6.752205580361842e-17
	6.295497934250454e-01

 22	2.200000000000001e-01
	-2.216481110482314e-15
	-1.334900133235553e-22
	-1.115133630969286e-17
	4.042087146290899e-17
	1.358517877248001e-14
	1.596176682519383e-16
	6.295497934250454e-01

 23	2.300000000000001e-01
	-2.208014830143086e-15
	-1.730980280569836e-22
	-1.345501635329575e-17
	9.358212539014841e-17
	3.054495410839744e-14
	3.695457858822215e-16
	6.295497934250454e-01

 24	2.400000000000001e-01
	-2.199491838539406e-15
	-2.241589220284593e-22
	-1.637393227581637e-17
	2.105287274221305e-16
	6.597179915220953e-14
	8.313554973313158e-16
	6.295497934250454e-01

 25	2.500000000000001e-01
	-2.190877503891016e-15
	-2.898280730333360e-22
	-2.004913087669441e-17
	4.562596986452763e-16
	1.354903365615671e-13
	1.801721127195472e-15
	6.295497934250454e-01

 26	2.600000000000001e-01
	-2.182130927707903e-15
	-3.740662401988234e-22
	-2.464776254172219e-17
	9.452102202127290e-16
	2.627204337407287e-13
	3.732535269704941e-15
	6.295497934250454e-01

 27	2.700000000000001e-01
	-2.173203427683689e-15
	-4.818330542701097e-22
	-3.036944077947528e-17
	1.862951271092730e-15
	4.804825568169504e-13
	7.356598445176761e-15
	6.295497934250466e-01

 28	2.800000000000001e-01
	-2.164035953061013e-15
	-6.193355919318422e-22
	-3.745717685156318e-17
	3.492808690228441e-15
	8.341022350407372e-13
	1.379273510178682e-14
	6.295497934250466e-01

 29	2.900000000000001e-01
	-2.154554842297092e-15
	-7.943552768641161e-22
	-4.621532695528626e-17
	6.257694622209155e-15
	1.390694861603878e-12
	2.471098186967036e-14
	6.295497934250477e-01

 30	3.000000000000001e-01
	-2.144665350211511e-15
	-1.016683907487922e-21
	-5.703682910264076e-17
	1.079546430249867e-14
	2.256467148666788e-12
	4.263016421151066e-14
	6.295497934250501e-01

 31	3.100000000000001e-01
	-2.134242553896315e-15
	-1.298705550269223e-21
	-7.044114548018142e-17
	1.808861632043329e-14
	3.602492264763567e-12
	7.143007053885589e-14
	6.295497934250526e-01

 32	3.200000000000001e-01
	-2.123119579742222e-15
	-1.656163183715540e-21
	-8.712285467797633e-17
	2.967263455678142e-14
	5.701930300191714e-12
	1.171741758100282e-13
	6.295497934250572e-01

 33	3.300000000000001e-01
	-2.111073539450867e-15
	-2.109145284701372e-21
	-1.080089478823890e-16
	4.796084790309212e-14
	8.986557556122296e-12
	1.893924857612614e-13
	6.295497934250643e-01

 34	3.400000000000001e-01
	-2.097810113088287e-15
	-2.683315907587374e-21
	-1.343206233181545e-16
	7.674990709016623e-14
	1.413547766060217e-11
	3.030776290406801e-13
	6.295497934250751e-01

 35	3.500000000000001e-01
	-2.082948417331449e-15
	-3.411389406420743e-21
	-1.676325643896199e-16
	1.220099847113901e-13
	2.221516051854935e-11
	4.818053152073836e-13
	6.295497934250918e-01

 36	3.600000000000002e-01
	-2.066008709890264e-15
	-4.334813870012807e-21
	-2.099190813173707e-16
	1.931239852853329e-13
	3.490003958520386e-11
	7.626279441212563e-13
	6.295497934251190e-01

 37	3.700000000000002e-01
	-2.046406637363611e-15
	-5.505570999324571e-21
	-2.635719882065012e-16
	3.048332461038291e-13
	5.481934368595850e-11
	1.203758214414685e-12
	6.295497934251616e-01

 38	3.800000000000002e-01
	-2.023459106057038e-15
	-6.987920799881897e-21
	-3.313698140973721e-16
	4.802934210691947e-13
	8.610196040379832e-11
	1.896637073431610e-12
	6.295497934252292e-01

 39	3.900000000000002e-01
	-1.996408290416446e-15
	-8.859816985645396e-21
	-4.163725539491304e-16
	7.558740785869970e-13
	1.352321910520966e-10
	2.984888258288790e-12
	6.295497934253346e-01

 40	4.000000000000002e-01
	-1.964471265558768e-15
	-1.121360237675782e-20
	-5.217128113107885e-16
	1.188696649634440e-12
	2.123937009240294e-10
	4.694088376825578e-12
	6.295497934254994e-01

 41	4.100000000000002e-01
	-1.926921944885691e-15
	-1.415549007383953e-20
	-6.502581852147555e-16
	1.868472376815308e-12
	3.335801128367979e-10
	7.378522365040927e-12
	6.295497934257590e-01

 42	4.200000000000002e-01
	-1.883207174267452e-15
	-1.780330126315075e-20
	-8.041400523050745e-16
	2.936091875455563e-12
	5.239094440423352e-10
	1.159461296894908e-11
	6.295497934261666e-01

 43	4.300000000000002e-01
	-1.833087761600321e-15
	-2.228204673471460e-20
	-9.841890042479912e-16
	4.612814115564288e-12
	8.228287078208879e-10
	1.821623731028058e-11
	6.295497934268079e-01

 44	4.400000000000002e-01
	-1.776778318315992e-15
	-2.771728577164708e-20
	-1.189384660110179e-15
	7.246091594677463e-12
	1.292285765176212e-09
	2.861581462111299e-11
	6.295497934278135e-01

 45	4.500000000000002e-01
	-1.715043247356766e-15
	-3.422678054486244e-20
	-1.416491706014515e-15
	1.138149684549898e-11
	2.029558012463903e-09
	4.494865418307620e-11
	6.295497934293939e-01

 46	4.600000000000002e-01
	-1.649202043402681e-15
	-4.191164652757272e-20
	-1.660066654062399e-15
	1.787557639641560e-11
	3.187386452566892e-09
	7.059938667787358e-11
	6.295497934318744e-01

 47	4.700000000000003e-01
	-1.581016204488399e-15
	-5.084868609526870e-20
	-1.912938831148275e-15
	2.807282014723436e-11
	5.005562381123251e-09
	1.108827266712792e-10
	6.295497934357713e-01

 48	4.800000000000003e-01
	-1.512470726954752e-15
	-6.108556881397627e-20
	-2.167104447586012e-15
	4.408292442429694e-11
	7.860449375359315e-09
	1.741431064574576e-10
	6.295497934418907e-01

 49	4.900000000000003e-01
	-1.445505956190365e-15
	-7.263987820374285e-20
	-2.414803946644910e-15
	6.921457896299816e-11
	1.234254607058956e-08
	2.734793497612922e-10
	6.295497934514998e-01

 50	5.000000000000002e-01
	-1.381774942651512e-15
	-8.550201092970728e-20
	-2.649481437926718e-15
	1.086526429838243e-10
	1.937777366680239e-08
	4.294475220125551e-10
	6.295497934665868e-01

 51	5.100000000000002e-01
	-1.322486142003096e-15
	-9.964094655771034e-20
	-2.866392325005083e-15
	1.705115951178292e-10
	3.041665908182641e-08
	6.742914634301156e-10
	6.295497934902713e-01

 52	5.200000000000002e-01
	-1.268353129401857e-15
	-1.150113944356607e-19
	-3.062780588139665e-15
	2.674653366772876e-10
	4.772823895078520e-08
	1.058551428979226e-09
	6.295497935274420e-01

 53	5.300000000000002e-01
	-1.219635397517158e-15
	-1.315608715268169e-19
	-3.237696230992484e-15
	4.192467487661488e-10
	7.485372621107403e-08
	1.661355436253117e-09
	6.295497935857516e-01

 54	5.400000000000003e-01
	-1.176233998980807e-15
	-1.492356972814444e-19
	-3.391601099905632e-15
	6.564280668907336e-10
	1.172995344086163e-07
	2.606365984024368e-09
	6.295497936771649e-01

 55	5.500000000000003e-01
	-1.137804860197193e-15
	-1.679854345776937e-19
	-3.525911641847972e-15
	1.026011188422994e-09
	1.835779588285819e-07
	4.086293393272260e-09
	6.295497938203206e-01

 56	5.600000000000003e-01
	-1.103863270992030e-15
	-1.877657512912322e-19
	-3.642582522320884e-15
	1.599394361533326e-09
	2.867252700469308e-07
	6.400092718475938e-09
	6.295497940441398e-01

 57	5.700000000000003e-01
	-1.073866280114151e-15
	-2.085399430282983e-19
	-3.743781672940462e-15
	2.483033282846411e-09
	4.464056728020397e-07
	1.000821383302073e-08
	6.295497943931615e-01

 58	5.800000000000003e-01
	-1.047270038192773e-15
	-2.302794587931383e-19
	-3.831666544482817e-15
	3.831160227791190e-09
	6.915556337664214e-07
	1.561175958549278e-08
	6.295497949352039e-01

 59	5.900000000000003e-01
	-1.023565033574360e-15
	-2.529637638156948e-19
	-3.908248473141756e-15
	5.857619403834276e-09
	1.063050403214779e-06
	2.425896152505636e-08
	6.295497957716661e-01

 60	6.000000000000003e-01
	-1.002294444482435e-15
	-2.765798134939163e-19
	-3.975323628188866e-15
	8.839791265899740e-09
	1.614819627727148e-06
	3.747250437783584e-08
	6.295497970498414e-01

 61	6.100000000000003e-01
	-9.830609071929052e-16
	-3.011213383631831e-19
	-4.034449167505387e-15
	1.310303142347708e-08
	2.410212300951733e-06
	5.736759790179035e-08
	6.295497989743386e-01

 62	6.200000000000003e-01
	-9.655260773720176e-16
	-3.265880729225197e-19
	-4.086947176053179e-15
	1.897443545482705e-08
	3.509571524431801e-06
	8.669265009506146e-08
	6.295498018110195e-01

 63	6.300000000000003e-01
	-9.494061897954165e-16
	-3.529850087762322e-19
	-4.133923760133380e-15
	2.670824820813910e-08
	4.948492873870407e-06
	1.286962080060452e-07
	6.295498058741257e-01

 64	6.400000000000003e-01
	-9.344657654561607e-16
	-3.803217154296735e-19
	-4.176294916642783e-15
	3.641092970668741e-08
	6.716105047894518e-06
	1.867640150652091e-07
	6.295498114911723e-01

 65	6.500000000000004e-01
	-9.205107986815652e-16
	-4.086117476876310e-19
	-4.214814039870825e-15
	4.800871665358886e-08
	8.750336812328757e-06
	2.639103226798584e-07
	6.295498189537395e-01

 66	6.600000000000004e-01
	-9.073821828404481e-16
	-4.378721437233861e-19
	-4.250098186342886e-15
	6.127893326401965e-08
	1.095786784537799e-05
	3.623476255329193e-07
	6.295498284758524e-01

 67	6.700000000000004e-01
	-8.949497570276921e-16
	-4.681230096031593e-19
	-4.282651683540645e-15
	7.592324205764186e-08
	1.324570145004991e-05
	4.833315825987682e-07
	6.295498401789786e-01

 68	6.800000000000004e-01
	-8.831071244847239e-16
	-4.993871820231167e-19
	-4.312886560639172e-15
	9.164057950868959e-08
	1.554405967524889e-05
	6.272919589037592e-07
	6.295498541046961e-01

 69	6.900000000000004e-01
	-8.717672601705368e-16
	-5.316899595166004e-19
	-4.341139785846241e-15
	1.081726992308258e-07
	1.781248113832595e-05
	7.941084389183296e-07
	6.295498702413667e-01

 70	7.000000000000004e-01
	-8.608588547307497e-16
	-5.650588923003806e-19
	-4.367687555717226e-15
	1.253201861253763e-07
	2.003429147124358e-05
	9.833821422554166e-07
	6.295498885504093e-01

 71	7.100000000000004e-01
	-8.503233105292967e-16
	-5.995236215934066e-19
	-4.392756994143184e-15
	1.429396393503819e-07
	2.220765109630139e-05
	1.194628904071741e-06
	6.295499089849876e-01

 72	7.200000000000004e-01
	-8.401122961498757e-16
	-6.351157602697921e-19
	-4.416535646233242e-15
	1.609330428783977e-07
	2.433802640893697e-05
	1.427387848090492e-06
	6.295499315005219e-01

 73	7.300000000000004e-01
	-8.301857685805231e-16
	-6.718688078543588e-19
	-4.439179134868247e-15
	1.792360431257888e-07
	2.643337201139465e-05
	1.681268147332479e-06
	6.295499560592043e-01

 74	7.400000000000004e-01
	-8.205103809430922e-16
	-7.098180939902166e-19
	-4.460817309213127e-15
	1.978079975625848e-07
	2.850158924060383e-05
	1.955959644214429e-06
	6.295499826310310e-01

 75	7.500000000000004e-01
	-8.110582045011138e-16
	-7.490007455283392e-19
	-4.481559168688932e-15
	2.166244686910458e-07
	3.054944385336203e-05
	2.251226005648598e-06
	6.295500111931391e-01

 76	7.600000000000005e-01
	-8.018057047795926e-16
	-7.894556732805806e-19
	-4.501496800271016e-15
	2.356719151119489e-07
	3.258227660965589e-05
	2.566891470116316e-06
	6.295500417285271e-01

 77	7.700000000000005e-01
	-7.927329219458580e-16
	-8.312235752371256e-19
	-4.520708525172222e-15
	2.549440764089957e-07
	3.460408421250840e-05
	2.902826813802019e-06
	6.295500742246916e-01

 78	7.800000000000005e-01
	-7.838228146936361e-16
	-8.743469536838260e-19
	-4.539261414480146e-15
	2.744395689059656e-07
	3.661773808554316e-05
	3.258936949914976e-06
	6.295501086724343e-01

 79	7.900000000000005e-01
	-7.750607346261552e-16
	-9.188701441811334e-19
	-4.557213302437738e-15
	2.941603115163388e-07
	3.862522700223070e-05
	3.635150896397527e-06
	6.295501450648865e-01

 80	8.000000000000005e-01
	-7.664340046006196e-16
	-9.648393547977428e-19
	-4.574614400461826e-15
	3.141105068714293e-07
	4.062787508881360e-05
	4.031414069793001e-06
	6.295501833967667e-01

 81	8.100000000000005e-01
	-7.579315798056221e-16
	-1.012302714344387e-18
	-4.591508594090009e-15
	3.342959885259149e-07
	4.262651976497357e-05
	4.447682563479794e-06
	6.295502236638264e-01

 82	8.200000000000005e-01
	-7.495437746542116e-16
	-1.061310328640726e-18
	-4.607934488151514e-15
	3.547238074756707e-07
	4.462164928460421e-05
	4.883919000188946e-06
	6.295502658624476e-01

 83	8.300000000000005e-01
	-7.412620420469246e-16
	-1.111914344081410e-18
	-4.623926251909061e-15
	3.754019744352039e-07
	4.661350542159384e-05
	5.340089579978042e-06
	6.295503099893606e-01

 84	8.400000000000005e-01
	-7.330787943378884e-16
	-1.164169017957633e-18
	-4.639514305115725e-15
	3.963393033629911e-07
	4.860215832611475e-05
	5.816162010058224e-06
	6.295503560414403e-01

 85	8.500000000000005e-01
	-7.249872575514220e-16
	-1.218130795144758e-18
	-4.654725877352880e-15
	4.175453209044908e-07
	5.058756015763606e-05
	6.312104071962605e-06
	6.295504040155678e-01

 86	8.600000000000005e-01
	-7.169813521548034e-16
	-1.273858390893698e-18
	-4.669585466226116e-15
	4.390302189603969e-07
	5.256958301297570e-05
	6.827882642419322e-06
	6.295504539085391e-01

 87	8.700000000000006e-01
	-7.090555950859588e-16
	-1.331412879567112e-18
	-4.684115214633881e-15
	4.608048357314226e-07
	5.454804547639701e-05
	7.363463033475438e-06
	6.295505057169966e-01

 88	8.800000000000006e-01
	-7.012050188363808e-16
	-1.390857789247863e-18
	-4.698335223095385e-15
	4.828806558611209e-07
	5.652273105455246e-05
	7.918808555214799e-06
	6.295505594373904e-01

 89	8.900000000000006e-01
	-6.934251042597314e-16
	-1.452259202218722e-18
	-4.712263809793413e-15
	5.052698237024662e-07
	5.849340089243659e-05
	8.493880232537446e-06
	6.295506150659492e-01

 90	9.000000000000006e-01
	-6.857117244634708e-16
	-1.515685861373289e-18
	-4.725917728364947e-15
	5.279851659316539e-07
	6.045980249688087e-05
	9.088636627926396e-06
	6.295506725986639e-01

 91	9.100000000000006e-01
	-6.780610976828919e-16
	-1.581209282669349e-18
	-4.739312351407238e-15
	5.510402211525396e-07
	6.242167569388430e-05
	9.703033736764640e-06
	6.295507320312764e-01

 92	9.200000000000006e-01
	-6.704697474647392e-16
	-1.648903873781891e-18
	-4.752461826040740e-15
	5.744492750547161e-07
	6.437875668102338e-05
	1.033702493210390e-05
	6.295507933592753e-01

 93	9.300000000000006e-01
	-6.629344688253686e-16
	-1.718847059152132e-18
	-4.765379206588316e-15
	5.982274002864739e-07
	6.633078077433434e-05
	1.099056094301620e-05
	6.295508565778947e-01

 94	9.400000000000006e-01
	-6.554522993153007e-16
	-1.791119411665504e-18
	-4.778076568419053e-15
	6.223905005961520e-07
	6.827748426369227e-05
	1.166358985567206e-05
	6.295509216821097e-01

 95	9.500000000000006e-01
	-6.480204941331875e-16
	-1.865804791224294e-18
	-4.790565106206103e-15
	6.469553590559286e-07
	7.021860566084725e-05
	1.235605712973986e-05
	6.295509886666464e-01

 96	9.600000000000006e-01
	-6.406365045992957e-16
	-1.942990490512202e-18
	-4.802855219216336e-15
	6.719396903589620e-07
	7.215388653407717e-05
	1.306790562506684e-05
	6.295510575259744e-01

 97	9.700000000000006e-01
	-6.332979594314062e-16
	-2.022767388277307e-18
	-4.814956585748375e-15
	6.973621973044837e-07
	7.408307206118147e-05
	1.379907563520708e-05
	6.295511282543179e-01

 98	9.800000000000006e-01
	-6.260026483713184e-16
	-2.105230110489513e-18
	-4.826878228438018e-15
	7.232426316763420e-07
	7.600591138988141e-05
	1.454950492545593e-05
	6.295512008456553e-01

 99	9.900000000000007e-01
	-6.187485077942040e-16
	-2.190477199756430e-18
	-4.838628571832931e-15
	7.496018597911202e-07
	7.792215786556473e-05
	1.531912877378390e-05
	6.295512752937249e-01

 100	1.000000000000001e+00
	-6.115336080000783e-16
	-2.278611293411374e-18
	-4.850215493385713e-15
	7.764619330510068e-07
	7.983156916659465e-05
	1.610788001355817e-05
	6.295513515920301e-01

 101	1.010000000000001e+00
	-6.043561419402919e-16
	-2.369739310715051e-18
	-4.861646368811566e-15
