Title: ** sch_path: /home/andylithia/openmpw/project-yatsuhashi-chip1/xschem/gmid_test/nmos_test.sch
Date: Sun Jul 17 22:51:45  2022
Plotname: DC transfer characteristic
Flags: real
No. Variables: 8
No. Points: 181
Variables:
	0	v(v-sweep)	voltage
	1	@m.xm1.msky130_fd_pr__nfet_01v8[cgb]	capacitance
	2	@m.xm1.msky130_fd_pr__nfet_01v8[cgd]	capacitance
	3	@m.xm1.msky130_fd_pr__nfet_01v8[cgs]	capacitance
	4	@m.xm1.msky130_fd_pr__nfet_01v8[gds]	admittance
	5	@m.xm1.msky130_fd_pr__nfet_01v8[gm]	admittance
	6	i(@m.xm1.msky130_fd_pr__nfet_01v8[id])	current
	7	v(@m.xm1.msky130_fd_pr__nfet_01v8[vth])	voltage
Values:
 0	0.000000000000000e+00
	-9.987916466662883e-15
	-4.221284837461831e-18
	-1.792980314422272e-14
	5.794116867261393e-08
	1.870788420634853e-06
	2.347474884762831e-07
	2.120524124543423e-01

 1	1.000000000000000e-02
	-9.879760426115300e-15
	-4.335748524679537e-18
	-1.818322327783816e-14
	6.254947923224928e-08
	2.024941449965871e-06
	2.542158687115435e-07
	2.120524147334620e-01

 2	2.000000000000000e-02
	-9.772941064182379e-15
	-4.453370745184136e-18
	-1.843644826745941e-14
	6.750674504691954e-08
	2.191923979971847e-06
	2.752890366976601e-07
	2.120524172004638e-01

 3	3.000000000000000e-02
	-9.667481269014639e-15
	-4.574241489037367e-18
	-1.868938823368793e-14
	7.283750584215783e-08
	2.372850008503455e-06
	2.981007738739672e-07
	2.120524198710106e-01

 4	4.000000000000000e-02
	-9.563403304405733e-15
	-4.698453487931212e-18
	-1.894195364757701e-14
	7.856783806767104e-08
	2.568938271490696e-06
	3.227965167878375e-07
	2.120524227621319e-01

 5	5.000000000000000e-02
	-9.460728767484952e-15
	-4.826102307837123e-18
	-1.919405544446730e-14
	8.472543381291176e-08
	2.781522949519242e-06
	3.495344571037958e-07
	2.120524258923503e-01

 6	6.000000000000000e-02
	-9.359478548266196e-15
	-4.957286445159358e-18
	-1.944560513661355e-14
	9.133968237749006e-08
	3.012065493975942e-06
	3.784867541885015e-07
	2.120524292818301e-01

 7	7.000000000000001e-02
	-9.259672791139740e-15
	-5.092107426539610e-18
	-1.969651492431606e-14
	9.844175449228289e-08
	3.262167678453724e-06
	4.098408719896228e-07
	2.120524329525185e-01

 8	8.000000000000000e-02
	-9.161330858387410e-15
	-5.230669912464692e-18
	-1.994669780527365e-14
	1.060646891821676e-07
	3.533585988000343e-06
	4.438010530176624e-07
	2.120524369283324e-01

 9	9.000000000000000e-02
	-9.064471295794293e-15
	-5.373081804839971e-18
	-2.019606768188442e-14
	1.142434832567476e-07
	3.828247465565805e-06
	4.805899433998718e-07
	2.120524412353460e-01

 10	9.999999999999999e-02
	-8.969111800423291e-15
	-5.519454358694353e-18
	-2.044453946622793e-14
	1.230151834110952e-07
	4.148267141513818e-06
	5.204503842014109e-07
	2.120524459019971e-01

 11	1.100000000000000e-01
	-8.875269190611238e-15
	-5.669902298193849e-18
	-2.069202918247082e-14
	1.324189809146215e-07
	4.495967178168233e-06
	5.636473854984446e-07
	2.120524509593183e-01

 12	1.200000000000000e-01
	-8.782959378237977e-15
	-5.824543937146139e-18
	-2.093845406644970e-14
	1.424963088626612e-07
	4.873897866888940e-06
	6.104703010354237e-07
	2.120524564412030e-01

 13	1.300000000000000e-01
	-8.692197343310998e-15
	-5.983501304189831e-18
	-2.118373266219682e-14
	1.532909419624807e-07
	5.284860619919149e-06
	6.612352226983973e-07
	2.120524623846604e-01

 14	1.400000000000000e-01
	-8.602997110901764e-15
	-6.146900272867281e-18
	-2.142778491518342e-14
	1.648490988228251e-07
	5.731933102979408e-06
	7.162876154771904e-07
	2.120524688301583e-01

 15	1.500000000000000e-01
	-8.515371730459963e-15
	-6.314870696794599e-18
	-2.167053226207392e-14
	1.772195467145753e-07
	6.218496657069504e-06
	7.760052150633667e-07
	2.120524758219348e-01

 16	1.600000000000000e-01
	-8.429333257525228e-15
	-6.487546550146073e-18
	-2.191189771679328e-14
	1.904537087687414e-07
	6.748266158867249e-06
	8.408012117201486e-07
	2.120524834083815e-01

 17	1.700000000000000e-01
	-8.344892737846992e-15
	-6.665066073686242e-18
	-2.215180595272706e-14
	2.046057735778267e-07
	7.325322468195230e-06
	9.111277455516391e-07
	2.120524916424592e-01

 18	1.800000000000000e-01
	-8.262060193915057e-15
	-6.847571926589990e-18
	-2.239018338088928e-14
	2.197328071669447e-07
	7.954147607902943e-06
	9.874797397691372e-07
	2.120525005821352e-01

 19	1.900000000000000e-01
	-8.180844613895626e-15
	-7.035211344303319e-18
	-2.262695822390727e-14
	2.358948673023226e-07
	8.639662815812816e-06
	1.070399099978681e-06
	2.120525102908873e-01

 20	2.000000000000000e-01
	-8.101253942959437e-15
	-7.228136302711814e-18
	-2.286206058569100e-14
	2.531551201070271e-07
	9.387269599709604e-06
	1.160479308869494e-06
	2.120525208382344e-01

 21	2.100000000000000e-01
	-8.023295076981105e-15
	-7.426503688892664e-18
	-2.309542251666924e-14
	2.715799589567616e-07
	1.020289391427296e-05
	1.258370446934023e-06
	2.120525323003261e-01

 22	2.200000000000001e-01
	-7.946973858580933e-15
	-7.630475478741300e-18
	-2.332697807449294e-14
	2.912391256326963e-07
	1.109303356292420e-05
	1.364784670962346e-06
	2.120525447605873e-01

 23	2.300000000000001e-01
	-7.872295075473528e-15
	-7.840218921778527e-18
	-2.355666338012232e-14
	3.122058337134104e-07
	1.206480890729993e-05
	1.480502182984529e-06
	2.120525583104190e-01

 24	2.400000000000001e-01
	-7.799262461080253e-15
	-8.055906733457708e-18
	-2.378441666923235e-14
	3.345568941942243e-07
	1.312601694199994e-05
	1.606377723039186e-06
	2.120525730499552e-01

 25	2.500000000000001e-01
	-7.727878697355883e-15
	-8.277717295305468e-18
	-2.401017833888681e-14
	3.583728433295910e-07
	1.428518876189016e-05
	1.743347619573930e-06
	2.120525890888920e-01

 26	2.600000000000001e-01
	-7.658145419773788e-15
	-8.505834863249111e-18
	-2.423389098944908e-14
	3.837380727028627e-07
	1.555165041309150e-05
	1.892437431378558e-06
	2.120526065473849e-01

 27	2.700000000000001e-01
	-7.590063224407492e-15
	-8.740449784497086e-18
	-2.445549946171406e-14
	4.107409615377603e-07
	1.693558707637744e-05
	2.054770214654285e-06
	2.120526255570190e-01

 28	2.800000000000001e-01
	-7.523631677041177e-15
	-8.981758723361585e-18
	-2.467495086926227e-14
	4.394740112773168e-07
	1.844811048259202e-05
	2.231575448067004e-06
	2.120526462618468e-01

 29	2.900000000000001e-01
	-7.458849324236678e-15
	-9.229964896423278e-18
	-2.489219462605182e-14
	4.700339824690507e-07
	2.010132940348212e-05
	2.424198647350260e-06
	2.120526688195320e-01

 30	3.000000000000001e-01
	-7.395713706279166e-15
	-9.485278317470244e-18
	-2.510718246928207e-14
	5.025220340100897e-07
	2.190842299768233e-05
	2.634111699142948e-06
	2.120526934025433e-01

 31	3.100000000000001e-01
	-7.334221371920297e-15
	-9.747916052649882e-18
	-2.531986847757426e-14
	5.370438648224596e-07
	2.388371672021168e-05
	2.862923941188232e-06
	2.120527201994687e-01

 32	3.200000000000001e-01
	-7.274367894832784e-15
	-1.001810248630658e-17
	-2.553020908453236e-14
	5.737098580479442e-07
	2.604276042461767e-05
	3.112394012711162e-06
	2.120527494164005e-01

 33	3.300000000000001e-01
	-7.216147891687829e-15
	-1.029606959799472e-17
	-2.573816308775812e-14
	6.126352278730114e-07
	2.840240819976212e-05
	3.384442494648097e-06
	2.120527812784120e-01

 34	3.400000000000001e-01
	-7.159555041763466e-15
	-1.058205725118096e-17
	-2.594369165340915e-14
	6.539401691184671e-07
	3.098089938834230e-05
	3.681165354347363e-06
	2.120528160311434e-01

 35	3.500000000000001e-01
	-7.104582107989446e-15
	-1.087631349417998e-17
	-2.614675831640029e-14
	6.977500097556485e-07
	3.379794013186733e-05
	4.004848203319025e-06
	2.120528539424731e-01

 36	3.600000000000002e-01
	-7.051220959332605e-15
	-1.117909487388942e-17
	-2.634732897636040e-14
	7.441953665415437e-07
	3.687478467748378e-05
	4.357981369510049e-06
	2.120528953042832e-01

 37	3.700000000000002e-01
	-6.999462594424676e-15
	-1.149066676292161e-17
	-2.654537188946719e-14
	7.934123039998196e-07
	4.023431556652586e-05
	4.743275777353934e-06
	2.120529404343217e-01

 38	3.800000000000002e-01
	-6.949297166334129e-15
	-1.181130370075872e-17
	-2.674085765629205e-14
	8.455424970137012e-07
	4.390112170397646e-05
	5.163679619433368e-06
	2.120529896781597e-01

 39	3.900000000000002e-01
	-6.900714008382018e-15
	-1.214128974958950e-17
	-2.693375920579694e-14
	9.007333973408032e-07
	4.790157318350877e-05
	5.622395792956935e-06
	2.120530434112419e-01

 40	4.000000000000002e-01
	-6.853701660902886e-15
	-1.248091886551886e-17
	-2.712405177563192e-14
	9.591384044097336e-07
	5.226389161605884e-05
	6.122900062353598e-06
	2.120531020410130e-01

 41	4.100000000000002e-01
	-6.808247898850644e-15
	-1.283049528587758e-17
	-2.731171288889051e-14
	1.020917040814510e-06
	5.701821458298173e-05
	6.668959896121549e-06
	2.120531660091242e-01

 42	4.200000000000002e-01
	-6.764339760151233e-15
	-1.319033393339346e-17
	-2.749672232748492e-14
	1.086235132986094e-06
	6.219665271009393e-05
	7.264653911638279e-06
	2.120532357937266e-01

 43	4.300000000000002e-01
	-6.721963574703874e-15
	-1.356076083802794e-17
	-2.767906210230970e-14
	1.155264997592081e-06
	6.783333773908365e-05
	7.914391845987065e-06
	2.120533119118011e-01

 44	4.400000000000002e-01
	-6.681104993934688e-15
	-1.394211357732004e-17
	-2.785871642036627e-14
	1.228185634295648e-06
	7.396445986089167e-05
	8.622934954035467e-06
	2.120533949215605e-01

 45	4.500000000000002e-01
	-6.641749020808009e-15
	-1.433474173612358e-17
	-2.803567164902396e-14
	1.305182925595523e-06
	8.062829247528545e-05
	9.395416717123774e-06
	2.120534854248758e-01

 46	4.600000000000002e-01
	-6.603880040202491e-15
	-1.473900738666749e-17
	-2.820991627759707e-14
	1.386449844569976e-06
	8.786520245567908e-05
	1.023736372690886e-05
	2.120535840697251e-01

 47	4.700000000000003e-01
	-6.567481849561937e-15
	-1.515528558992129e-17
	-2.838144087641788e-14
	1.472186671461149e-06
	9.571764393241448e-05
	1.115471658933905e-05
	2.120536915526468e-01

 48	4.800000000000003e-01
	-6.532537689732552e-15
	-1.558396491928842e-17
	-2.855023805358820e-14
	1.562601220162738e-06
	1.042301335655502e-04
	1.215385067362510e-05
	2.120538086211683e-01

 49	4.900000000000003e-01
	-6.499030275902235e-15
	-1.602544800771458e-17
	-2.871630240959036e-14
	1.657909075814371e-06
	1.134492052641456e-04
	1.324159651067438e-05
	2.120539360762097e-01

 50	5.000000000000002e-01
	-6.466941828559294e-15
	-1.648015211934517e-17
	-2.887963048994065e-14
	1.758333844862452e-06
	1.234233423277306e-04
	1.442525962508549e-05
	2.120540747743919e-01

 51	5.100000000000002e-01
	-6.436254104392212e-15
	-1.694850974692515e-17
	-2.904022073606421e-14
	1.864107419118863e-06
	1.342028850415221e-04
	1.571263956479378e-05
	2.120542256302819e-01

 52	5.200000000000002e-01
	-6.406948427054788e-15
	-1.743096923620185e-17
	-2.919807343457135e-14
	1.975470255538896e-06
	1.458399118544773e-04
	1.711204787322969e-05
	2.120543896184802e-01

 53	5.300000000000002e-01
	-6.379005717725231e-15
	-1.792799543864624e-17
	-2.935319066510993e-14
	2.092671673646469e-06
	1.583880924123399e-04
	1.863232473081436e-05
	2.120545677755911e-01

 54	5.400000000000003e-01
	-6.352406525390288e-15
	-1.844007039388920e-17
	-2.950557624696828e-14
	2.215970172761626e-06
	1.719025109101719e-04
	2.028285397627661e-05
	2.120547612019565e-01

 55	5.500000000000003e-01
	-6.327131056790496e-15
	-1.896769404332410e-17
	-2.965523568459707e-14
	2.345633771429427e-06
	1.864394584730871e-04
	2.207357620410044e-05
	2.120549710632060e-01

 56	5.600000000000003e-01
	-6.303159205965443e-15
	-1.951138497641790e-17
	-2.980217611221636e-14
	2.481940371714994e-06
	2.020561935723514e-04
	2.401499962298155e-05
	2.120551985915084e-01

 57	5.700000000000003e-01
	-6.280470583342372e-15
	-2.007168121134319e-17
	-2.994640623766765e-14
	2.625178151312361e-06
	2.188106698372856e-04
	2.611820835198250e-05
	2.120554450865486e-01

 58	5.800000000000003e-01
	-6.259044544315020e-15
	-2.064914101162830e-17
	-3.008793628566772e-14
	2.775645986718599e-06
	2.367612310315812e-04
	2.839486782672706e-05
	2.120557119161477e-01

 59	5.900000000000003e-01
	-6.238860217263347e-15
	-2.124434374061340e-17
	-3.022677794061439e-14
	2.933653911045216e-06
	2.559662734236810e-04
	3.085722698796515e-05
	2.120560005165101e-01

 60	6.000000000000003e-01
	-6.219896530969260e-15
	-2.185789075558924e-17
	-3.036294428908875e-14
	3.099523610378042e-06
	2.764838762917582e-04
	3.351811692971766e-05
	2.120563123920550e-01

 61	6.100000000000003e-01
	-6.202132241386504e-15
	-2.249040634359096e-17
	-3.049644976219343e-14
	3.273588962950944e-06
	2.983714018593166e-04
	3.639094569442442e-05
	2.120566491148030e-01

 62	6.200000000000003e-01
	-6.185545957726872e-15
	-2.314253870093250e-17
	-3.062731007785941e-14
	3.456196625768037e-06
	3.216850665509070e-04
	3.948968891850814e-05
	2.120570123232516e-01

 63	6.300000000000003e-01
	-6.170116167829292e-15
	-2.381496095865549e-17
	-3.075554218324764e-14
	3.647706673689425e-06
	3.464794860799904e-04
	4.282887605383644e-05
	2.120574037207729e-01

 64	6.400000000000003e-01
	-6.155821262780552e-15
	-2.450837225620400e-17
	-3.088116419736622e-14
	3.848493296387316e-06
	3.728071975223422e-04
	4.642357191899907e-05
	2.120578250734123e-01

 65	6.500000000000004e-01
	-6.142639560761532e-15
	-2.522349886573210e-17
	-3.100419535401574e-14
	4.058945558976080e-06
	4.007181621758732e-04
	5.028935336917804e-05
	2.120582782071682e-01

 66	6.600000000000004e-01
	-6.130549330094993e-15
	-2.596109536960030e-17
	-3.112465594517020e-14
	4.279468232523902e-06
	4.302592536479643e-04
	5.444228091475457e-05
	2.120587650046382e-01

 67	6.700000000000004e-01
	-6.119528811474821e-15
	-2.672194589372926e-17
	-3.124256726489374e-14
	4.510482701056440e-06
	4.614737362284638e-04
	5.889886516641573e-05
	2.120592874010840e-01

 68	6.800000000000004e-01
	-6.109556239360028e-15
	-2.750686539963659e-17
	-3.135795155388620e-14
	4.752427952067273e-06
	4.944007391845851e-04
	6.367602803817732e-05
	2.120598473798801e-01

 69	6.900000000000004e-01
	-6.100609862519080e-15
	-2.831670103812157e-17
	-3.147083194474534e-14
	5.005761657949391e-06
	5.290747331356515e-04
	6.879105869888283e-05
	2.120604469673313e-01

 70	7.000000000000004e-01
	-6.092667963714053e-15
	-2.915233356771833e-17
	-3.158123240802525e-14
	5.270961356156116e-06
	5.655250151137466e-04
	7.426156432673242e-05
	2.120610882269130e-01

 71	7.100000000000004e-01
	-6.085708878515893e-15
	-3.001467884120837e-17
	-3.168917769916593e-14
	5.548525736288507e-06
	6.037752092741954e-04
	8.010541578945950e-05
	2.120617732528942e-01

 72	7.200000000000004e-01
	-6.079711013245447e-15
	-3.090468936365757e-17
	-3.179469330636100e-14
	5.838976042685815e-06
	6.438427904708175e-04
	8.634068844383260e-05
	2.120625041634056e-01

 73	7.300000000000004e-01
	-6.074652862036869e-15
	-3.182335592562126e-17
	-3.189780539942595e-14
	6.142857601470198e-06
	6.857386380410495e-04
	9.298559832116306e-05
	2.120632830929550e-01

 74	7.400000000000004e-01
	-6.070513023022775e-15
	-3.277170931535457e-17
	-3.199854077972205e-14
	6.460741481365277e-06
	7.294666271423638e-04
	1.000584340390925e-04
	2.120641121844612e-01

 75	7.500000000000004e-01
	-6.067270213642225e-15
	-3.375082211408613e-17
	-3.209692683118606e-14
	6.793226297975482e-06
	7.750232648343915e-04
	1.075774848527659e-04
	2.120649935808266e-01

 76	7.600000000000005e-01
	-6.064903285075110e-15
	-3.476181057860226e-17
	-3.219299147251027e-14
	7.140940171583881e-06
	8.223973778041646e-04
	1.155609653290900e-04
	2.120659294161208e-01

 77	7.700000000000005e-01
	-6.063391235807826e-15
	-3.580583661564848e-17
	-3.228676311051166e-14
	7.504542848906187e-06
	8.715698581819035e-04
	1.240269371945815e-04
	2.120669218064290e-01

 78	7.800000000000005e-01
	-6.062713224337513e-15
	-3.688410985286807e-17
	-3.237827059472412e-14
	7.884727999638030e-06
	9.225134732932937e-04
	1.329932289688440e-04
	2.120679728404468e-01

 79	7.900000000000005e-01
	-6.062848581023073e-15
	-3.799788981126901e-17
	-3.246754317324275e-14
	8.282225699060186e-06
	9.751927444464481e-04
	1.424773540504330e-04
	2.120690845699032e-01

 80	8.000000000000005e-01
	-6.063776819092974e-15
	-3.914848818447926e-17
	-3.255461044984456e-14
	8.697805108437551e-06
	1.029563898968127e-03
	1.524964279684237e-04
	2.120702589998618e-01

 81	8.100000000000005e-01
	-6.065477644821126e-15
	-4.033727123032072e-17
	-3.263950234240529e-14
	9.132277365471797e-06
	1.085574898698004e-03
	1.630670855499850e-04
	2.120714980790347e-01

 82	8.200000000000005e-01
	-6.067930966883070e-15
	-4.156566228053793e-17
	-3.272224904262798e-14
	9.586498697668867e-06
	1.143165547041259e-03
	1.742053987807223e-04
	2.120728036901718e-01

 83	8.300000000000005e-01
	-6.071116904905854e-15
	-4.283514437483996e-17
	-3.280288097709544e-14
	1.006137377217069e-05
	1.202267675489741e-03
	1.859267961493853e-04
	2.120741776406066e-01

 84	8.400000000000005e-01
	-6.075015797226137e-15
	-4.414726302572177e-17
	-3.288142876965340e-14
	1.055785929640198e-05
	1.262805409276702e-03
	1.982459842711938e-04
	2.120756216530954e-01

 85	8.500000000000005e-01
	-6.079608207871121e-15
	-4.550362912090082e-17
	-3.295792320513003e-14
	1.107696788481468e-05
	1.324695510556884e-03
	2.111768725740409e-04
	2.120771373569867e-01

 86	8.600000000000005e-01
	-6.084874932778503e-15
	-4.690592197055758e-17
	-3.303239519439163e-14
	1.161977220809934e-05
	1.387847796232550e-03
	2.247325018090841e-04
	2.120787262798524e-01

 87	8.700000000000006e-01
	-6.090797005271368e-15
	-4.835589250695086e-17
	-3.310487574073299e-14
	1.218740944249427e-05
	1.452165626306605e-03
	2.389249771118873e-04
	2.120803898396425e-01

 88	8.800000000000006e-01
	-6.097355700804739e-15
	-4.985536664438960e-17
	-3.317539590759728e-14
	1.278108603828677e-05
	1.517546457466755e-03
	2.537654062928562e-04
	2.120821293374513e-01

 89	8.900000000000006e-01
	-6.104532541000984e-15
	-5.140624880794854e-17
	-3.324398678761718e-14
	1.340208282828520e-05
	1.583882455517728e-03
	2.692638439769161e-04
	2.120839459509702e-01

 90	9.000000000000006e-01
	-6.112309296991129e-15
	-5.301052563977183e-17
	-3.331067947296730e-14
	1.405176049897284e-05
	1.651061159308849e-03
	2.854292421433399e-04
	2.120858407286905e-01

 91	9.100000000000006e-01
	-6.120667992079398e-15
	-5.467026989226774e-17
	-3.337550502701457e-14
	1.473156544925564e-05
	1.718966187974865e-03
	3.022694075385975e-04
	2.120878145848899e-01

 92	9.200000000000006e-01
	-6.129590903748701e-15
	-5.638764451795169e-17
	-3.343849445725169e-14
	1.544303606420622e-05
	1.787477982637741e-03
	3.197909663495377e-04
	2.120898682955080e-01

 93	9.300000000000006e-01
	-6.139060565023730e-15
	-5.816490696625804e-17
	-3.349967868949649e-14
	1.618780943401333e-05
	1.856474573222223e-03
	3.379993364329661e-04
	2.120920024948566e-01

 94	9.400000000000006e-01
	-6.149059765209811e-15
	-6.000441369808499e-17
	-3.355908854333758e-14
	1.696762855148020e-05
	1.925832360726526e-03
	3.568987073022993e-04
	2.120942176732850e-01

 95	9.500000000000006e-01
	-6.159571550023570e-15
	-6.190862492945939e-17
	-3.361675470880566e-14
	1.778435002490694e-05
	1.995426905167757e-03
	3.764920279746061e-04
	2.120965141757389e-01

 96	9.600000000000006e-01
	-6.170579221132710e-15
	-6.388010961622952e-17
	-3.367270772424756e-14
	1.863995234705098e-05
	2.065133709487843e-03
	3.967810026836756e-04
	2.120988922012458e-01

 97	9.700000000000006e-01
	-6.182066335120986e-15
	-6.592155069228684e-17
	-3.372697795537863e-14
	1.953654476510614e-05
	2.134828989954212e-03
	4.177660943687055e-04
	2.121013518033285e-01

 98	9.800000000000006e-01
	-6.194016701894184e-15
	-6.803575057446219e-17
	-3.377959557548810e-14
	2.047637680129553e-05
	2.204390424010170e-03
	4.394465357556477e-04
	2.121038928912828e-01

 99	9.900000000000007e-01
	-6.206414382542642e-15
	-7.022563694782165e-17
	-3.383059054677001e-14
	2.146184847874116e-05
	2.273697867106643e-03
	4.618203477606183e-04
	2.121065152323383e-01

 100	1.000000000000001e+00
	-6.219243686675134e-15
	-7.249426884579760e-17
	-3.387999260275175e-14
	2.249552131277967e-05
	2.342634030762194e-03
	4.848843648637773e-04
	2.121092184546272e-01

 101	1.010000000000001e+00
	-6.232489169238138e-15
	-7.484484304020977e-17
	-3.392783123179065e-14
