Title: ** sch_path: /home/andylithia/openmpw/project-yatsuhashi-chip1/xschem/gmid_test/nmos_test.sch
Date: Tue Jul 19 23:15:45  2022
Plotname: DC transfer characteristic
Flags: real
No. Variables: 8
No. Points: 181
Variables:
	0	v(v-sweep)	voltage
	1	@m.xm1.msky130_fd_pr__nfet_01v8[cgb]	capacitance
	2	@m.xm1.msky130_fd_pr__nfet_01v8[cgd]	capacitance
	3	@m.xm1.msky130_fd_pr__nfet_01v8[cgs]	capacitance
	4	@m.xm1.msky130_fd_pr__nfet_01v8[gds]	admittance
	5	@m.xm1.msky130_fd_pr__nfet_01v8[gm]	admittance
	6	i(@m.xm1.msky130_fd_pr__nfet_01v8[id])	current
	7	v(@m.xm1.msky130_fd_pr__nfet_01v8[vth])	voltage
Values:
 0	0.000000000000000e+00
	-1.865399900404288e-14
	-1.710160140585956e-18
	-3.974676218692819e-14
	4.925288635486191e-08
	1.806585130421298e-06
	2.483447588923455e-07
	1.522205726591916e-01

 1	1.000000000000000e-02
	-1.845994474268168e-14
	-1.747948937860851e-18
	-4.021638549045557e-14
	5.277131157485307e-08
	1.942279516787891e-06
	2.670807617302301e-07
	1.522205740069657e-01

 2	2.000000000000000e-02
	-1.826879005634910e-14
	-1.786512826208546e-18
	-4.068452459289924e-14
	5.652678680414092e-08
	2.088337928010496e-06
	2.872248602534618e-07
	1.522205754576975e-01

 3	3.000000000000000e-02
	-1.808056352524074e-14
	-1.825866084307565e-18
	-4.115104086813638e-14
	6.053394237148047e-08
	2.245594294364236e-06
	3.088848060442952e-07
	1.522205770195018e-01

 4	4.000000000000000e-02
	-1.789529241380485e-14
	-1.866023232185313e-18
	-4.161579729033941e-14
	6.480819518174050e-08
	2.414955360035945e-06
	3.321770485973459e-07
	1.522205787011748e-01

 5	5.000000000000000e-02
	-1.771300262618027e-14
	-1.906999035825072e-18
	-4.207865857401130e-14
	6.936578186855092e-08
	2.597407473224803e-06
	3.572274969002109e-07
	1.522205805122726e-01

 6	6.000000000000000e-02
	-1.753371866478005e-14
	-1.948808511898320e-18
	-4.253949131037257e-14
	7.422379271292612e-08
	2.794024001293876e-06
	3.841723519988931e-07
	1.522205824631598e-01

 7	7.000000000000001e-02
	-1.735746359207261e-14
	-1.991466932626504e-18
	-4.299816409981941e-14
	7.940020630686081e-08
	3.005973420415285e-06
	4.131590170433230e-07
	1.522205845651061e-01

 8	8.000000000000000e-02
	-1.718425899560170e-14
	-2.034989830775548e-18
	-4.345454768019528e-14
	8.491392493836777e-08
	3.234528131524317e-06
	4.443470918149146e-07
	1.522205868303635e-01

 9	9.000000000000000e-02
	-1.701412495627784e-14
	-2.079393004787579e-18
	-4.390851505062630e-14
	9.078481067176475e-08
	3.481074056639606e-06
	4.779094592673640e-07
	1.522205892722584e-01

 10	9.999999999999999e-02
	-1.684708001996534e-14
	-2.124692524052368e-18
	-4.435994159068620e-14
	9.703372209426798e-08
	3.747121071673379e-06
	5.140334721628845e-07
	1.522205919053023e-01

 11	1.100000000000000e-01
	-1.668314117237794e-14
	-2.170904734324336e-18
	-4.480870517467724e-14
	1.036825516971921e-07
	4.034314333694232e-06
	5.529222484568632e-07
	1.522205947452943e-01

 12	1.200000000000000e-01
	-1.652232381728924e-14
	-2.218046263287157e-18
	-4.525468628082197e-14
	1.107542638570317e-07
	4.344446562149682e-06
	5.947960846711111e-07
	1.522205978094581e-01

 13	1.300000000000000e-01
	-1.636464175805259e-14
	-2.266134026271762e-18
	-4.569776809518559e-14
	1.182729333787862e-07
	4.679471334747235e-06
	6.398939970975589e-07
	1.522206011165709e-01

 14	1.400000000000000e-01
	-1.621010718241761e-14
	-2.315185232130580e-18
	-4.613783661016046e-14
	1.262637845606018e-07
	5.041517459447370e-06
	6.884754012849236e-07
	1.522206046871162e-01

 15	1.500000000000000e-01
	-1.605873065062101e-14
	-2.365217389273075e-18
	-4.657478071736429e-14
	1.347532307355483e-07
	5.432904484265507e-06
	7.408219408771534e-07
	1.522206085434572e-01

 16	1.600000000000000e-01
	-1.591052108672048e-14
	-2.416248311866780e-18
	-4.700849229482217e-14
	1.437689142428384e-07
	5.856159406219188e-06
	7.972394774880416e-07
	1.522206127100109e-01

 17	1.700000000000000e-01
	-1.576548577313188e-14
	-2.468296126208283e-18
	-4.743886628832019e-14
	1.533397467770912e-07
	6.314034639694083e-06
	8.580602539047375e-07
	1.522206172134506e-01

 18	1.800000000000000e-01
	-1.562363034832246e-14
	-2.521379277268186e-18
	-4.786580078683554e-14
	1.634959500603528e-07
	6.809527302636278e-06
	9.236452435068918e-07
	1.522206220829317e-01

 19	1.900000000000000e-01
	-1.548495880760364e-14
	-2.575516535415765e-18
	-4.828919709196979e-14
	1.742690967774459e-07
	7.345899876195534e-06
	9.943866993589648e-07
	1.522206273503276e-01

 20	2.000000000000000e-01
	-1.534947350695993e-14
	-2.630727003327175e-18
	-4.870895978132742e-14
	1.856921517108198e-07
	7.926702289624406e-06
	1.070710916970878e-06
	1.522206330504955e-01

 21	2.100000000000000e-01
	-1.521717516984370e-14
	-2.687030123082280e-18
	-4.912499676580092e-14
	1.977995130063354e-07
	8.555795477259835e-06
	1.153081225216034e-06
	1.522206392215704e-01

 22	2.200000000000001e-01
	-1.508806289685753e-14
	-2.744445683455130e-18
	-4.953721934074332e-14
	2.106270534964915e-07
	9.237376448145573e-06
	1.242001220333558e-06
	1.522206459052801e-01

 23	2.300000000000001e-01
	-1.496213417824038e-14
	-2.802993827403315e-18
	-4.994554223102424e-14
	2.242121620021604e-07
	9.976004901159100e-06
	1.338018258309284e-06
	1.522206531472998e-01

 24	2.400000000000001e-01
	-1.483938490906699e-14
	-2.862695059761196e-18
	-5.034988362998602e-14
	2.385937845282793e-07
	1.077663140925283e-05
	1.441727221213488e-06
	1.522206609976215e-01

 25	2.500000000000001e-01
	-1.471980940706511e-14
	-2.923570255142487e-18
	-5.075016523233035e-14
	2.538124652627927e-07
	1.164462718546151e-05
	1.553774573255198e-06
	1.522206695109812e-01

 26	2.600000000000001e-01
	-1.460340043294925e-14
	-2.985640666057413e-18
	-5.114631226098539e-14
	2.699103872816774e-07
	1.258581543053771e-05
	1.674862722376800e-06
	1.522206787472999e-01

 27	2.700000000000001e-01
	-1.449014921316564e-14
	-3.048927931249785e-18
	-5.153825348801662e-14
	2.869314128559361e-07
	1.360650424730868e-05
	1.805754703137723e-06
	1.522206887721992e-01

 28	2.800000000000001e-01
	-1.438004546493805e-14
	-3.113454084261213e-18
	-5.192592124966339e-14
	3.049211232492171e-07
	1.471352108999273e-05
	1.947279196404535e-06
	1.522206996575148e-01

 29	2.900000000000001e-01
	-1.427307742350184e-14
	-3.179241562225880e-18
	-5.230925145559284e-14
	3.239268578867376e-07
	1.591424869762668e-05
	2.100335900951115e-06
	1.522207114819105e-01

 30	3.000000000000001e-01
	-1.416923187140853e-14
	-3.246313214904213e-18
	-5.268818359248354e-14
	3.439977527681874e-07
	1.721666243937196e-05
	2.265901271459586e-06
	1.522207243314851e-01

 31	3.100000000000001e-01
	-1.406849416978284e-14
	-3.314692313960021e-18
	-5.306266072205656e-14
	3.651847779884659e-07
	1.862936897565956e-05
	2.445034636570350e-06
	1.522207383004919e-01

 32	3.200000000000001e-01
	-1.397084829140921e-14
	-3.384402562488243e-18
	-5.343262947369188e-14
	3.875407742211774e-07
	2.016164611288414e-05
	2.638884709539985e-06
	1.522207534920736e-01

 33	3.300000000000001e-01
	-1.387627685552603e-14
	-3.455468104799444e-18
	-5.379804003177337e-14
	4.111204880102098e-07
	2.182348370059420e-05
	2.848696502698044e-06
	1.522207700190812e-01

 34	3.400000000000001e-01
	-1.378476116420181e-14
	-3.527913536468532e-18
	-5.415884611792105e-14
	4.359806057050762e-07
	2.362562538888453e-05
	3.075818655228390e-06
	1.522207880049374e-01

 35	3.500000000000001e-01
	-1.369628124016950e-14
	-3.601763914652639e-18
	-5.451500496827406e-14
	4.621797858653599e-07
	2.557961102999007e-05
	3.321711181807500e-06
	1.522208075846048e-01

 36	3.600000000000002e-01
	-1.361081586599220e-14
	-3.677044768687888e-18
	-5.486647730600334e-14
	4.897786899495140e-07
	2.769781947203521e-05
	3.587953647293495e-06
	1.522208289055861e-01

 37	3.700000000000002e-01
	-1.352834262443597e-14
	-3.753782110969414e-18
	-5.521322730923440e-14
	5.188400110925131e-07
	2.999351145460500e-05
	3.876253769944474e-06
	1.522208521290342e-01

 38	3.800000000000002e-01
	-1.344883793992458e-14
	-3.832002448124852e-18
	-5.555522257457274e-14
	5.494285007664116e-07
	3.248087227553413e-05
	4.188456452540536e-06
	1.522208774309168e-01

 39	3.900000000000002e-01
	-1.337227712095296e-14
	-3.911732792486667e-18
	-5.589243407642716e-14
	5.816109931073777e-07
	3.517505385627811e-05
	4.526553237264297e-06
	1.522209050032870e-01

 40	4.000000000000002e-01
	-1.329863440333658e-14
	-3.993000673872429e-18
	-5.622483612233465e-14
	6.154564266824605e-07
	3.809221578982446e-05
	4.892692176249614e-06
	1.522209350556249e-01

 41	4.100000000000002e-01
	-1.322788299417687e-14
	-4.075834151680390e-18
	-5.655240630449260e-14
	6.510358634595019e-07
	4.124956491072285e-05
	5.289188105322269e-06
	1.522209678162710e-01

 42	4.200000000000002e-01
	-1.315999511642423e-14
	-4.160261827310428e-18
	-5.687512544770888e-14
	6.884225047342730e-07
	4.466539288197667e-05
	5.718533303623332e-06
	1.522210035339529e-01

 43	4.300000000000002e-01
	-1.309494205392281e-14
	-4.246312856915053e-18
	-5.719297755398225e-14
	7.276917037605588e-07
	4.835911124886354e-05
	6.183408516525929e-06
	1.522210424794133e-01

 44	4.400000000000002e-01
	-1.303269419682369e-14
	-4.334016964494562e-18
	-5.750594974392947e-14
	7.689209748215349e-07
	5.235128336591049e-05
	6.686694313531730e-06
	1.522210849471069e-01

 45	4.500000000000002e-01
	-1.297322108725722e-14
	-4.423404455340585e-18
	-5.781403219527315e-14
	8.121899984746697e-07
	5.666365256103051e-05
	7.231482746676285e-06
	1.522211312570189e-01

 46	4.600000000000002e-01
	-1.291649146515711e-14
	-4.514506229840867e-18
	-5.811721807860857e-14
	8.575806226984437e-07
	6.131916586115048e-05
	7.821089268409295e-06
	1.522211817565464e-01

 47	4.700000000000003e-01
	-1.286247331413373e-14
	-4.607353797651826e-18
	-5.841550349066348e-14
	9.051768596666458e-07
	6.634199256742341e-05
	8.459064860965719e-06
	1.522212368224892e-01

 48	4.800000000000003e-01
	-1.281113390729668e-14
	-4.701979292251868e-18
	-5.870888738526751e-14
	9.550648778765117e-07
	7.175753693646835e-05
	9.149208321959255e-06
	1.522212968631248e-01

 49	4.900000000000003e-01
	-1.276243985293193e-14
	-4.798415485883958e-18
	-5.899737150224272e-14
	1.007332989360239e-06
	7.759244419808044e-05
	9.895578643352944e-06
	1.522213623203469e-01

 50	5.000000000000002e-01
	-1.271635713994124e-14
	-4.896695804897413e-18
	-5.928096029442652e-14
	1.062071631715627e-06
	8.387459912072874e-05
	1.070250741315789e-05
	1.522214336718839e-01

 51	5.100000000000002e-01
	-1.267285118295756e-14
	-4.996854345501326e-18
	-5.955966085303392e-14
	1.119373344702272e-06
	9.063311632516562e-05
	1.157461116125807e-05
	1.522215114335806e-01

 52	5.200000000000002e-01
	-1.263188686705337e-14
	-5.098925889940290e-18
	-5.983348283156297e-14
	1.179332741164090e-06
	9.789832154486009e-05
	1.251680356274045e-05
	1.522215961617325e-01

 53	5.300000000000002e-01
	-1.259342859196309e-14
	-5.202945923103213e-18
	-6.010243836844315e-14
	1.242046472058722e-06
	1.057017230410487e-04
	1.353430740413040e-05
	1.522216884554553e-01

 54	5.400000000000003e-01
	-1.255744031574610e-14
	-5.308950649578202e-18
	-6.036654200862179e-14
	1.307613185398753e-06
	1.140759724011959e-04
	1.463266621010027e-05
	1.522217889590565e-01

 55	5.500000000000003e-01
	-1.252388559782127e-14
	-5.416977011165133e-18
	-6.062581062427687e-14
	1.376133478940473e-06
	1.230548139837894e-04
	1.581775542066262e-05
	1.522218983644497e-01

 56	5.600000000000003e-01
	-1.249272764130678e-14
	-5.527062704859534e-18
	-6.088026333484363e-14
	1.447709846492737e-06
	1.326730223208283e-04
	1.709579300172331e-05
	1.522220174134969e-01

 57	5.700000000000003e-01
	-1.246392933460666e-14
	-5.639246201319653e-18
	-6.112992142652984e-14
	1.522446617761762e-06
	1.429663268529497e-04
	1.847334936528018e-05
	1.522221469003551e-01

 58	5.800000000000003e-01
	-1.243745329218647e-14
	-5.753566763831673e-18
	-6.137480827149475e-14
	1.600449891698701e-06
	1.539713234518840e-04
	1.995735646969898e-05
	1.522222876737097e-01

 59	5.900000000000003e-01
	-1.241326189448814e-14
	-5.870064467786369e-18
	-6.161494924685624e-14
	1.681827463374553e-06
	1.657253722812470e-04
	2.155511596550952e-05
	1.522224406389420e-01

 60	6.000000000000003e-01
	-1.239131732693543e-14
	-5.988780220681954e-18
	-6.185037165368653e-14
	1.766688744472969e-06
	1.782664816600632e-04
	2.327430624823911e-05
	1.522226067601290e-01

 61	6.100000000000003e-01
	-1.237158161798932e-14
	-6.109755782668862e-18
	-6.208110463614665e-14
	1.855144677565017e-06
	1.916331777238266e-04
	2.512298827708911e-05
	1.522227870619045e-01

 62	6.200000000000003e-01
	-1.235401667621277e-14
	-6.233033787650679e-18
	-6.230717910090788e-14
	1.947307644411446e-06
	2.058643598250847e-04
	2.710961001694312e-05
	1.522229826310935e-01

 63	6.300000000000003e-01
	-1.233858432631234e-14
	-6.358657764959609e-18
	-6.252862763699575e-14
	2.043291368627299e-06
	2.209991417787936e-04
	2.924300936143402e-05
	1.522231946181094e-01

 64	6.400000000000003e-01
	-1.232524634412572e-14
	-6.486672161619739e-18
	-6.274548443618865e-14
	2.143210813140475e-06
	2.370766792359229e-04
	3.153241539674360e-05
	1.522234242380708e-01

 65	6.500000000000004e-01
	-1.231396449052886e-14
	-6.617122365220879e-18
	-6.295778521409433e-14
	2.247182072979981e-06
	2.541359836605125e-04
	3.398744786961771e-05
	1.522236727715815e-01

 66	6.600000000000004e-01
	-1.230470054424031e-14
	-6.750054727415020e-18
	-6.316556713202158e-14
	2.355322264040088e-06
	2.722157235885130e-04
	3.661811472885762e-05
	1.522239415651433e-01

 67	6.700000000000004e-01
	-1.229741633350495e-14
	-6.885516588058518e-18
	-6.336886871975352e-14
	2.467749408583010e-06
	2.913540140589094e-04
	3.943480761741629e-05
	1.522242320311735e-01

 68	6.800000000000004e-01
	-1.229207376664045e-14
	-7.023556300016911e-18
	-6.356772979932687e-14
	2.584582318364353e-06
	3.115881953258564e-04
	4.244829520225098e-05
	1.522245456475555e-01

 69	6.900000000000004e-01
	-1.228863486143606e-14
	-7.164223254653132e-18
	-6.376219140990987e-14
	2.705940476390482e-06
	3.329546021814962e-04
	4.566971424130575e-05
	1.522248839567125e-01

 70	7.000000000000004e-01
	-1.228706177339431e-14
	-7.307567908019223e-18
	-6.395229573386767e-14
	2.831943918445041e-06
	3.554883254390538e-04
	4.911055830143617e-05
	1.522252485641558e-01

 71	7.100000000000004e-01
	-1.228731682281110e-14
	-7.453641807775234e-18
	-6.413808602409351e-14
	2.962713115650444e-06
	3.792229673404841e-04
	5.278266405769433e-05
	1.522256411364712e-01

 72	7.200000000000004e-01
	-1.228936252069143e-14
	-7.602497620852298e-18
	-6.431960653268134e-14
	3.098368859458790e-06
	4.041903928581626e-04
	5.669819512311772e-05
	1.522260633987440e-01

 73	7.300000000000004e-01
	-1.229316159350132e-14
	-7.754189161888364e-18
	-6.449690244100483e-14
	3.239032150592690e-06
	4.304204790510284e-04
	6.086962337886323e-05
	1.522265171313640e-01

 74	7.400000000000004e-01
	-1.229867700675916e-14
	-7.908771422456218e-18
	-6.467001979126472e-14
	3.384824093578806e-06
	4.579408648076880e-04
	6.530970779705298e-05
	1.522270041662208e-01

 75	7.500000000000004e-01
	-1.230587198747271e-14
	-8.066300601108389e-18
	-6.483900541955680e-14
	3.535865798633115e-06
	4.867767034574169e-04
	7.003147077282263e-05
	1.522275263822900e-01

 76	7.600000000000005e-01
	-1.231471004542947e-14
	-8.226834134266151e-18
	-6.500390689050901e-14
	3.692278292765737e-06
	5.169504208503210e-04
	7.504817200754305e-05
	1.522280857005860e-01

 77	7.700000000000005e-01
	-1.232515499335102e-14
	-8.390430727975053e-18
	-6.516477243353024e-14
	3.854182442072096e-06
	5.484814815956793e-04
	8.037328001169808e-05
	1.522286840785082e-01

 78	7.800000000000005e-01
	-1.233717096592439e-14
	-8.557150390555146e-18
	-6.532165088070523e-14
	4.021698887264906e-06
	5.813861661988624e-04
	8.602044132310804e-05
	1.522293235036146e-01

 79	7.900000000000005e-01
	-1.235072243772496e-14
	-8.727054466171805e-18
	-6.547459160636777e-14
	4.194947994576622e-06
	6.156773618488782e-04
	9.200344756372194e-05
	1.522300059868334e-01

 80	8.000000000000005e-01
	-1.236577424004703e-14
	-8.900205669356738e-18
	-6.562364446837718e-14
	4.374049824222379e-06
	6.513643695776495e-04
	9.833620048561921e-05
	1.522307335551542e-01

 81	8.100000000000005e-01
	-1.238229157666125e-14
	-9.076668120503852e-18
	-6.576885975111809e-14
	4.559124118658530e-06
	6.884527304368148e-04
	1.050326751837473e-04
	1.522315082438869e-01

 82	8.200000000000005e-01
	-1.240024003851816e-14
	-9.256507382373468e-18
	-6.591028811023942e-14
	4.750290312901066e-06
	7.269440732170778e-04
	1.121068816788331e-04
	1.522323320884935e-01

 83	8.300000000000005e-01
	-1.241958561741917e-14
	-9.439790497631452e-18
	-6.604798051914473e-14
	4.947667569179931e-06
	7.668359860687432e-04
	1.195728250983516e-04
	1.522332071161048e-01

 84	8.400000000000005e-01
	-1.244029471867871e-14
	-9.626586027454766e-18
	-6.618198821723906e-14
	5.151374838200469e-06
	8.081219141711823e-04
	1.274444647060023e-04
	1.522341353368108e-01

 85	8.500000000000005e-01
	-1.246233417280055e-14
	-9.816964091235446e-18
	-6.631236265993655e-14
	5.361530949262095e-06
	8.507910853454865e-04
	1.357356720503689e-04
	1.522351187347743e-01

 86	8.600000000000005e-01
	-1.248567124619390e-14
	-1.001099640741350e-17
	-6.643915547042743e-14
	5.578254731447182e-06
	8.948284652116963e-04
	1.444601885209354e-04
	1.522361592592898e-01

 87	8.700000000000006e-01
	-1.251027365095495e-14
	-1.020875633547557e-17
	-6.656241839320049e-14
	5.801665168041095e-06
	9.402147431636043e-04
	1.536315826139678e-04
	1.522372588158838e-01

 88	8.800000000000006e-01
	-1.253610955374181e-14
	-1.041031891914503e-17
	-6.668220324931224e-14
	6.031881586280782e-06
	9.869263500757812e-04
	1.632632072217190e-04
	1.522384192575645e-01

 89	8.900000000000006e-01
	-1.256314758376933e-14
	-1.061576093081012e-17
	-6.679856189339273e-14
	6.269023884454249e-06
	1.034935508274619e-03
	1.733681572655996e-04
	1.522396423763130e-01

 90	9.000000000000006e-01
	-1.259135683995252e-14
	-1.082516091721582e-17
	-6.691154617237424e-14
	6.513212798290679e-06
	1.084210313904802e-03
	1.839592279972147e-04
	1.522409298949141e-01

 91	9.100000000000006e-01
	-1.262070689722750e-14
	-1.103859924645988e-17
	-6.702120788592602e-14
	6.764570208494332e-06
	1.134714851411980e-03
	1.950488742903840e-04
	1.522422834592652e-01

 92	9.200000000000006e-01
	-1.265116781207875e-14
	-1.125615815633623e-17
	-6.712759874857647e-14
	7.023219491186791e-06
	1.186409339449045e-03
	2.066491712423154e-04
	1.522437046312084e-01

 93	9.300000000000006e-01
	-1.268271012730210e-14
	-1.147792180405540e-17
	-6.723077035350131e-14
	7.289285912937100e-06
	1.239250307105219e-03
	2.187717763930453e-04
	1.522451948820264e-01

 94	9.400000000000006e-01
	-1.271530487603259e-14
	-1.170397631739369e-17
	-6.733077413795496e-14
	7.562897071981114e-06
	1.293190798962231e-03
	2.314278938591983e-04
	1.522467555866340e-01

 95	9.500000000000006e-01
	-1.274892358506691e-14
	-1.193440984730720e-17
	-6.742766135031897e-14
	7.844183387163978e-06
	1.348180607107223e-03
	2.446282406611446e-04
	1.522483880185830e-01

 96	9.600000000000006e-01
	-1.278353827750934e-14
	-1.216931262205562e-17
	-6.752148301874170e-14
	8.133278636089673e-06
	1.404166527885816e-03
	2.583830155021331e-04
	1.522500933459011e-01

 97	9.700000000000006e-01
	-1.281912147477078e-14
	-1.240877700288722e-17
	-6.761228992133939e-14
	8.430320543930251e-06
	1.461092640866476e-03
	2.727018702340813e-04
	1.522518726278455e-01

 98	9.800000000000006e-01
	-1.285564619794855e-14
	-1.265289754132653e-17
	-6.770013255793014e-14
	8.735451424343941e-06
	1.518900607215858e-03
	2.875938842179874e-04
	1.522537268125659e-01

 99	9.900000000000007e-01
	-1.289308596861637e-14
	-1.290177103812130e-17
	-6.778506112326811e-14
	9.048818873975337e-06
	1.577529984457922e-03
	3.030675417576154e-04
	1.522556567357314e-01

 100	1.000000000000001e+00
	-1.293141480905179e-14
	-1.315549660389867e-17
	-6.786712548174622e-14
	9.370576522073035e-06
	1.636918554412264e-03
	3.191307127538953e-04
	1.522576631200928e-01

 101	1.010000000000001e+00
	-1.297060724192854e-14
	-1.341417572158489e-17
	-6.794637514353406e-14
