Title: ** sch_path: /home/andylithia/openmpw/project-yatsuhashi-chip1/xschem/gmid_test/nmos_test.sch
Date: Tue Jul 19 23:15:45  2022
Plotname: DC transfer characteristic
Flags: real
No. Variables: 8
No. Points: 181
Variables:
	0	v(v-sweep)	voltage
	1	@m.xm1.msky130_fd_pr__nfet_01v8[cgb]	capacitance
	2	@m.xm1.msky130_fd_pr__nfet_01v8[cgd]	capacitance
	3	@m.xm1.msky130_fd_pr__nfet_01v8[cgs]	capacitance
	4	@m.xm1.msky130_fd_pr__nfet_01v8[gds]	admittance
	5	@m.xm1.msky130_fd_pr__nfet_01v8[gm]	admittance
	6	i(@m.xm1.msky130_fd_pr__nfet_01v8[id])	current
	7	v(@m.xm1.msky130_fd_pr__nfet_01v8[vth])	voltage
Values:
 0	0.000000000000000e+00
	-5.260060048324112e-15
	-9.055806450277746e-20
	-4.258988907764888e-15
	1.119343289163685e-09
	6.887773658980143e-08
	5.388620145537151e-09
	3.553030827421998e-01

 1	1.000000000000000e-02
	-5.199590417829069e-15
	-9.393595656135332e-20
	-4.390775451013969e-15
	1.270785518794339e-09
	7.811369709663879e-08
	6.122627582097692e-09
	3.553030828138384e-01

 2	2.000000000000000e-02
	-5.139020129481638e-15
	-9.742892871101806e-20
	-4.524651174550052e-15
	1.442214604403229e-09
	8.856108065890880e-08
	6.954930206580762e-09
	3.553030828950773e-01

 3	3.000000000000000e-02
	-5.078378444169191e-15
	-1.010401090050461e-19
	-4.660540512108474e-15
	1.636165701036443e-09
	1.003746847414870e-07
	7.898401054564346e-09
	3.553030829871726e-01

 4	4.000000000000000e-02
	-5.017695951471694e-15
	-1.047726670860256e-19
	-4.798362629198138e-15
	1.855474968642146e-09
	1.137286408041856e-07
	8.967555912428096e-09
	3.553030830915431e-01

 5	5.000000000000000e-02
	-4.957004471816366e-15
	-1.086298130525579e-19
	-4.938031580205287e-15
	2.103311283260048e-09
	1.288188339471646e-07
	1.017875850465857e-08
	3.553030832097940e-01

 6	6.000000000000000e-02
	-4.896336951135733e-15
	-1.126147963135140e-19
	-5.079456493280511e-15
	2.383210514767802e-09
	1.458656457967475e-07
	1.155045145573074e-08
	3.553030833437255e-01

 7	7.000000000000001e-02
	-4.835727348563645e-15
	-1.167309044374264e-19
	-5.222541782416506e-15
	2.699112429319716e-09
	1.651170700595649e-07
	1.310341649968684e-08
	3.553030834953761e-01

 8	8.000000000000000e-02
	-4.775210517776097e-15
	-1.209814620048604e-19
	-5.367187385882369e-15
	3.055400242995661e-09
	1.868522584223585e-07
	1.486106794513094e-08
	3.553030836670352e-01

 9	9.000000000000000e-02
	-4.714822082651761e-15
	-1.253698294718584e-19
	-5.513289029936853e-15
	3.456942814023672e-09
	2.113855638721322e-07
	1.684978402612838e-08
	3.553030838612909e-01

 10	9.999999999999999e-02
	-4.654598307988744e-15
	-1.298994020525974e-19
	-5.660738516509634e-15
	3.909139413524238e-09
	2.390711590665131e-07
	1.909928149208511e-08
	3.553030840810553e-01

 11	1.100000000000000e-01
	-4.594575966069271e-15
	-1.345736086295196e-19
	-5.809424033311695e-15
	4.417966958381828e-09
	2.703083190346891e-07
	2.164303962334643e-08
	3.553030843296131e-01

 12	1.200000000000000e-01
	-4.534792199911188e-15
	-1.393959106992384e-19
	-5.959230484622638e-15
	4.990029524077188e-09
	3.055474700746736e-07
	2.451878081431035e-08
	3.553030846106697e-01

 13	1.300000000000000e-01
	-4.475284384084249e-15
	-1.443698013624978e-19
	-6.110039840803371e-15
	5.632609879781075e-09
	3.452971199375584e-07
	2.776901595025821e-08
	3.553030849283983e-01

 14	1.400000000000000e-01
	-4.416089983998808e-15
	-1.494988043663192e-19
	-6.261731504400962e-15
	6.353722702639607e-09
	3.901317977859429e-07
	3.144166402207122e-08
	3.553030852875149e-01

 15	1.500000000000000e-01
	-4.357246414594831e-15
	-1.547864732064486e-19
	-6.414182690553205e-15
	7.162169033248957e-09
	4.407011452992438e-07
	3.559075677309422e-08
	3.553030856933356e-01

 16	1.600000000000000e-01
	-4.298790899369406e-15
	-1.602363902978673e-19
	-6.567268819261695e-15
	8.067591430441327e-09
	4.977403117284451e-07
	4.027724064491051e-08
	3.553030861518680e-01

 17	1.700000000000000e-01
	-4.240760330680971e-15
	-1.658521662211050e-19
	-6.720863916991134e-15
	9.080529171841350e-09
	5.620818144336484e-07
	4.556988986334341e-08
	3.553030866698927e-01

 18	1.800000000000000e-01
	-4.183191132258327e-15
	-1.716374390515349e-19
	-6.874841024966088e-15
	1.021247272881923e-08
	6.346690308858233e-07
	5.154634614781824e-08
	3.553030872550813e-01

 19	1.900000000000000e-01
	-4.126119124822059e-15
	-1.775958737787278e-19
	-7.029072611480338e-15
	1.147591662276059e-08
	7.165714863423494e-07
	5.829430218428481e-08
	3.553030879161032e-01

 20	2.000000000000000e-01
	-4.069579395696049e-15
	-1.837311618224149e-19
	-7.183430985503761e-15
	1.288440964682063e-08
	8.090020911154718e-07
	6.591284760056273e-08
	3.553030886627744e-01

 21	2.100000000000000e-01
	-4.013606173246772e-15
	-1.900470206512408e-19
	-7.337788708874463e-15
	1.445260131714953e-08
	9.133364599273595e-07
	7.451399762550148e-08
	3.553030895062021e-01

 22	2.200000000000001e-01
	-3.958232706939927e-15
	-1.965471935100128e-19
	-7.492019004391837e-15
	1.619628330408975e-08
	1.031134410412745e-06
	8.422442577387955e-08
	3.553030904589725e-01

 23	2.300000000000001e-01
	-3.903491153746918e-15
	-2.032354492606216e-19
	-7.645996157186686e-15
	1.813242449190513e-08
	1.164163685402977e-06
	9.518742262280449e-08
	3.553030915353501e-01

 24	2.400000000000001e-01
	-3.849412471569908e-15
	-2.101155823414219e-19
	-7.799595906829744e-15
	2.027919823050575e-08
	1.314425871278174e-06
	1.075651028475958e-07
	3.553030927514977e-01

 25	2.500000000000001e-01
	-3.796026320283787e-15
	-2.171914128490926e-19
	-7.952695827752359e-15
	2.265600028007143e-08
	1.484184389807746e-06
	1.215408819531837e-07
	3.553030941257475e-01

 26	2.600000000000001e-01
	-3.743360970917490e-15
	-2.244667867466672e-19
	-8.105175695690778e-15
	2.528345591541478e-08
	1.675994321563561e-06
	1.373222423354358e-07
	3.553030956788742e-01

 27	2.700000000000001e-01
	-3.691443223417486e-15
	-2.319455762008002e-19
	-8.256917838023083e-15
	2.818341465719379e-08
	1.892733674264075e-06
	1.551438051848835e-07
	3.553030974344327e-01

 28	2.800000000000001e-01
	-3.640298333352877e-15
	-2.396316800505729e-19
	-8.407807466047694e-15
	3.137893113737423e-08
	2.137635539845930e-06
	1.752707200509307e-07
	3.553030994191083e-01

 29	2.900000000000001e-01
	-3.589949947836912e-15
	-2.475290244098861e-19
	-8.557732987446703e-15
	3.489423069160618e-08
	2.414320392124088e-06
	1.980023773795227e-07
	3.553031016631071e-01

 30	3.000000000000001e-01
	-3.540420050854015e-15
	-2.556415634047250e-19
	-8.706586297386546e-15
	3.875465840558176e-08
	2.726827567407449e-06
	2.236764408199579e-07
	3.553031042005995e-01

 31	3.100000000000001e-01
	-3.491728918096091e-15
	-2.639732800460282e-19
	-8.854263046929109e-15
	4.298661052880282e-08
	3.079644750895052e-06
	2.526731854265723e-07
	3.553031070701823e-01

 32	3.200000000000001e-01
	-3.443895081328420e-15
	-2.725281872384540e-19
	-9.000662887652809e-15
	4.761744740882492e-08
	3.477734072514367e-06
	2.854201150074541e-07
	3.553031103153846e-01

 33	3.300000000000001e-01
	-3.396935302224254e-15
	-2.813103289248032e-19
	-9.145689691615185e-15
	5.267538739132133e-08
	3.926553210440402e-06
	3.223968168635304e-07
	3.553031139852083e-01

 34	3.400000000000001e-01
	-3.350864555529731e-15
	-2.903237813652585e-19
	-9.289251746021604e-15
	5.818938147363969e-08
	4.432069724890366e-06
	3.641399952329270e-07
	3.553031181346875e-01

 35	3.500000000000001e-01
	-3.305696021347724e-15
	-2.995726545503469e-19
	-9.431261922194593e-15
	6.418896888684176e-08
	5.000766717057347e-06
	4.112486062941936e-07
	3.553031228254749e-01

 36	3.600000000000002e-01
	-3.261441086261337e-15
	-3.090610937459133e-19
	-9.571637818665123e-15
	7.070411420634830e-08
	5.639637847534252e-06
	4.643889981634170e-07
	3.553031281264425e-01

 37	3.700000000000002e-01
	-3.218109352955651e-15
	-3.187932811681681e-19
	-9.710301878424999e-15
	7.776502704466855e-08
	6.356169774453910e-06
	5.242999397130697e-07
	3.553031341142778e-01

 38	3.800000000000002e-01
	-3.175708657940750e-15
	-3.287734377863104e-19
	-9.847181480588184e-15
	8.540196584951117e-08
	7.158310201257906e-06
	5.917974031976654e-07
	3.553031408740639e-01

 39	3.900000000000002e-01
	-3.134245096930258e-15
	-3.390058252502611e-19
	-9.982209006904370e-15
	9.364502780342970e-08
	8.054419971349183e-06
	6.677789487045505e-07
	3.553031484998508e-01

 40	4.000000000000002e-01
	-3.093723057387504e-15
	-3.494947479403605e-19
	-1.011532188375147e-14
	1.025239272820040e-07
	9.053208020204353e-06
	7.532275445810330e-07
	3.553031570951565e-01

 41	4.100000000000002e-01
	-3.054145257717021e-15
	-3.602445551360381e-19
	-1.024646260039888e-14
	1.120677657604118e-07
	1.016364849578263e-05
	8.492146484924504e-07
	3.553031667734196e-01

 42	4.200000000000002e-01
	-3.015512792551583e-15
	-3.712596432998477e-19
	-1.037557870448386e-14
	1.223047964469624e-07
	1.139487997736763e-05
	9.569023698784923e-07
	3.553031776583778e-01

 43	4.300000000000002e-01
	-2.977825183564544e-15
	-3.825444584737509e-19
	-1.050262277577544e-14
	1.332621872507439e-07
	1.275608744353671e-05
	1.077544537406863e-06
	3.553031898843158e-01

 44	4.400000000000002e-01
	-2.941080435223980e-15
	-3.941034987836911e-19
	-1.062755237941357e-14
	1.449657859439833e-07
	1.425636843387540e-05
	1.212486505454723e-06
	3.553032035962144e-01

 45	4.500000000000002e-01
	-2.905275094898513e-15
	-4.059413170488999e-19
	-1.075032999990674e-14
	1.574398915450274e-07
	1.590458567904154e-05
	1.363163552235511e-06
	3.553032189497386e-01

 46	4.600000000000002e-01
	-2.870404316724049e-15
	-4.180625234923184e-19
	-1.087092295724816e-14
	1.707070360141767e-07
	1.770920929471286e-05
	1.531097749070642e-06
	3.553032361110809e-01

 47	4.700000000000003e-01
	-2.836461928646313e-15
	-4.304717885484040e-19
	-1.098930330656918e-14
	1.847877803142756e-07
	1.967815239658386e-05
	1.717893215144354e-06
	3.553032552566122e-01

 48	4.800000000000003e-01
	-2.803440502064945e-15
	-4.431738457645386e-19
	-1.110544772278975e-14
	1.997005287369248e-07
	2.181860464394403e-05
	1.925229714021719e-06
	3.553032765723568e-01

 49	4.900000000000003e-01
	-2.771331423520453e-15
	-4.561734947927461e-19
	-1.121933737174988e-14
	2.154613651332825e-07
	2.413686870884891e-05
	2.154854595890580e-06
	3.553033002532696e-01

 50	5.000000000000002e-01
	-2.740124967885652e-15
	-4.694756044679415e-19
	-1.133095776931464e-14
	2.320839143197585e-07
	2.663820495340785e-05
	2.408573141075261e-06
	3.553033265023263e-01

 51	5.100000000000002e-01
	-2.709810372546660e-15
	-4.830851159696719e-19
	-1.144029862993930e-14
	2.495792314618812e-07
	2.932668964679955e-05
	2.688237413652071e-06
	3.553033555294201e-01

 52	5.200000000000002e-01
	-2.680375912085760e-15
	-4.970070460639775e-19
	-1.154735370616072e-14
	2.679557216866008e-07
	3.220509184778464e-05
	2.995733786502140e-06
	3.553033875500734e-01

 53	5.300000000000002e-01
	-2.651808973007882e-15
	-5.112464904225324e-19
	-1.165212062044975e-14
	2.872190915504546e-07
	3.527477361557519e-05
	3.332969348292426e-06
	3.553034227840046e-01

 54	5.400000000000003e-01
	-2.624096128083849e-15
	-5.258086270162233e-19
	-1.175460069081668e-14
	3.073723333177732e-07
	3.853561750713528e-05
	3.701857446172356e-06
	3.553034614535436e-01

 55	5.500000000000003e-01
	-2.597223209917027e-15
	-5.406987195807682e-19
	-1.185479875150893e-14
	3.284157423009210e-07
	4.198598440431530e-05
	4.104302653136391e-06
	3.553035037819440e-01

 56	5.600000000000003e-01
	-2.571175383373663e-15
	-5.559221211518766e-19
	-1.195272297008072e-14
	3.503469668066090e-07
	4.562270363648600e-05
	4.542185474158512e-06
	3.553035499916235e-01

 57	5.700000000000003e-01
	-2.545937216552001e-15
	-5.714842776681729e-19
	-1.204838466204717e-14
	3.731610895420758e-07
	4.944109618175012e-05
	5.017347119005297e-06
	3.553036003023439e-01

 58	5.800000000000003e-01
	-2.521492750000148e-15
	-5.873907316400094e-19
	-1.214179810426272e-14
	3.968507386849115e-07
	5.343503050757451e-05
	5.531574671350348e-06
	3.553036549294261e-01

 59	5.900000000000003e-01
	-2.497825563926565e-15
	-6.036471258827819e-19
	-1.223298034808830e-14
	4.214062262318786e-07
	5.759700941713797e-05
	6.086586973394005e-06
	3.553037140819563e-01

 60	6.000000000000003e-01
	-2.474918843181423e-15
	-6.202592073135679e-19
	-1.232195103333122e-14
	4.468157107327566e-07
	6.191828516494693e-05
	6.684021523227066e-06
	3.553037779611115e-01

 61	6.100000000000003e-01
	-2.452755439819333e-15
	-6.372328308102946e-19
	-1.240873220386199e-14
	4.730653811004265e-07
	6.638899915098947e-05
	7.325422649892314e-06
	3.553038467585671e-01

 62	6.200000000000003e-01
	-2.431317933085929e-15
	-6.545739631328841e-19
	-1.249334812572951e-14
	5.001396578776905e-07
	7.099834174176664e-05
	8.012231190197981e-06
	3.553039206550603e-01

 63	6.300000000000003e-01
	-2.410588686700749e-15
	-6.722886869061018e-19
	-1.257582510851504e-14
	5.280214081410636e-07
	7.573472722985490e-05
	8.745775843934443e-06
	3.553039998191277e-01

 64	6.400000000000003e-01
	-2.390549903337469e-15
	-6.903832046643492e-19
	-1.265619133058447e-14
	5.566921701328767e-07
	8.058597864649609e-05
	9.527266332567569e-06
	3.553040844060388e-01

 65	6.500000000000004e-01
	-2.371183676229357e-15
	-7.088638429585733e-19
	-1.273447666881970e-14
	5.861323837322558e-07
	8.553951708390577e-05
	1.035778843313797e-05
	3.553041745569331e-01

 66	6.600000000000004e-01
	-2.352472037852787e-15
	-7.277370565261422e-19
	-1.281071253333312e-14
	6.163216229952799e-07
	9.058255035112857e-05
	1.123830090631365e-05
	3.553042703981948e-01

 67	6.700000000000004e-01
	-2.334397005664703e-15
	-7.470094325247409e-19
	-1.288493170759575e-14
	6.472388272044716e-07
	9.570225615307335e-05
	1.216963428746072e-05
	3.553043720410399e-01

 68	6.800000000000004e-01
	-2.316940624890870e-15
	-7.666876948313626e-19
	-1.295716819433946e-14
	6.788625271536324e-07
	1.008859555114457e-04
	1.315249146401660e-05
	3.553044795813351e-01

 69	6.900000000000004e-01
	-2.300085008381225e-15
	-7.867787084081056e-19
	-1.302745706752621e-14
	7.111710637410322e-07
	1.061212727977596e-04
	1.418744992281203e-05
	3.553045930996399e-01

 70	7.000000000000004e-01
	-2.283812373565329e-15
	-8.072894837365723e-19
	-1.309583433061580e-14
	7.441427963356892e-07
	1.113962794791915e-04
	1.527496551830338e-05
	3.553047126614315e-01

 71	7.100000000000004e-01
	-2.268105076556641e-15
	-8.282271813231098e-19
	-1.316233678130392e-14
	7.777562988011899e-07
	1.166996194451326e-04
	1.641537758750283e-05
	3.553048383175402e-01

 72	7.200000000000004e-01
	-2.252945643467422e-15
	-8.495991162768746e-19
	-1.322700188284893e-14
	8.119905414942327e-07
	1.220206145469227e-04
	1.760891521992726e-05
	3.553049701047380e-01

 73	7.300000000000004e-01
	-2.238316799007829e-15
	-8.714127629637794e-19
	-1.328986764205532e-14
	8.468250579855454e-07
	1.273493497113905e-04
	1.885570448089595e-05
	3.553051080464649e-01

 74	7.400000000000004e-01
	-2.224201492452677e-15
	-8.936757597389164e-19
	-1.335097249393646e-14
	8.822400956669127e-07
	1.326767376533860e-04
	2.015577638350522e-05
	3.553052521536929e-01

 75	7.500000000000004e-01
	-2.210582921067420e-15
	-9.163959137605071e-19
	-1.341035519303856e-14
	9.182167497990960e-07
	1.379945637934373e-04
	2.150907540785129e-05
	3.553054024258626e-01

 76	7.600000000000005e-01
	-2.197444551092058e-15
	-9.395812058887918e-19
	-1.346805471136941e-14
	9.547370809128614e-07
	1.432955124711648e-04
	2.291546837464046e-05
	3.553055588519042e-01

 77	7.700000000000005e-01
	-2.184770136386594e-15
	-9.632397956731438e-19
	-1.352411014284429e-14
	9.917842157935451e-07
	1.485731759272461e-04
	2.437475349323897e-05
	3.553057214113043e-01

 78	7.800000000000005e-01
	-2.172543734845983e-15
	-9.873800264315136e-19
	-1.357856061413119e-14
	1.029342432554508e-06
	1.538220478063976e-04
	2.588666942042821e-05
	3.553058900751818e-01

 79	7.900000000000005e-01
	-2.160749722695357e-15
	-1.012010430425690e-18
	-1.363144520175289e-14
	1.067397230534793e-06
	1.590375031158564e-04
	2.745090418464546e-05
	3.553060648073851e-01

 80	8.000000000000005e-01
	-2.149372806777852e-15
	-1.037139734136507e-18
	-1.368280285528199e-14
	1.105935385941467e-06
	1.642157666667997e-04
	2.906710385037638e-05
	3.553062455655702e-01

 81	8.100000000000005e-01
	-2.138398034948419e-15
	-1.062776863643862e-18
	-1.373267232644613e-14
	1.144944994298848e-06
	1.693538720410420e-04
	3.073488081777486e-05
	3.553064323022384e-01

 82	8.200000000000005e-01
	-2.127810804686786e-15
	-1.088930950115069e-18
	-1.378109210394626e-14
	1.184415500867722e-06
	1.744496130748051e-04
	3.245382167280201e-05
	3.553066249657562e-01

 83	8.300000000000005e-01
	-2.117596870041666e-15
	-1.115611335407116e-18
	-1.382810035377850e-14
	1.224337720261908e-06
	1.795014897485592e-04
	3.422349452262988e-05
	3.553068235012901e-01

 84	8.400000000000005e-01
	-2.107742347017231e-15
	-1.142827577787076e-18
	-1.387373486483997e-14
	1.264703846520149e-06
	1.845086502295751e-04
	3.604345576924687e-05
	3.553070278517022e-01

 85	8.500000000000005e-01
	-2.098233717510187e-15
	-1.170589457775896e-18
	-1.391803299959307e-14
	1.305507454894110e-06
	1.894708306442000e-04
	3.791325629084627e-05
	3.553072379583834e-01

 86	8.600000000000005e-01
	-2.089057831903551e-15
	-1.198906984120937e-18
	-1.396103164955675e-14
	1.346743496591926e-06
	1.943882939706536e-04
	3.983244701542960e-05
	3.553074537619922e-01

 87	8.700000000000006e-01
	-2.080201910419902e-15
	-1.227790399902091e-18
	-1.400276719539157e-14
	1.388408287675782e-06
	1.992617692496700e-04
	4.180058388398543e-05
	3.553076752031439e-01

 88	8.800000000000006e-01
	-2.071653543333674e-15
	-1.257250188777832e-18
	-1.404327547134340e-14
	1.430499493256498e-06
	2.040923921174835e-04
	4.381723221162400e-05
	3.553079022230095e-01

 89	8.900000000000006e-01
	-2.063400690138191e-15
	-1.287297081376258e-18
	-1.408259173381195e-14
	1.473016108060823e-06
	2.088816474794087e-04
	4.588197046413875e-05
	3.553081347638612e-01

 90	9.000000000000006e-01
	-2.055431677759282e-15
	-1.317942061837344e-18
	-1.412075063381180e-14
	1.515958434372780e-06
	2.136313149674188e-04
	4.799439347477228e-05
	3.553083727695281e-01

 91	9.100000000000006e-01
	-2.047735197903352e-15
	-1.349196374512399e-18
	-1.415778619309749e-14
	1.559328058271170e-06
	2.183434176647576e-04
	5.015411513157406e-05
	3.553086161857987e-01

 92	9.200000000000006e-01
	-2.040300303623350e-15
	-1.381071530827094e-18
	-1.419373178372765e-14
	1.603127825004549e-06
	2.230201744368763e-04
	5.236077056983576e-05
	3.553088649607545e-01

 93	9.300000000000006e-01
	-2.033116405182124e-15
	-1.413579316314853e-18
	-1.422862011084919e-14
	1.647361814264544e-06
	2.276639560818272e-04
	5.461401790683797e-05
	3.553091190450408e-01

 94	9.400000000000006e-01
	-2.026173265288116e-15
	-1.446731797826133e-18
	-1.426248319848804e-14
	1.692035316040002e-06
	2.322772454048285e-04
	5.691353955770712e-05
	3.553093783920969e-01

 95	9.500000000000006e-01
	-2.019460993774202e-15
	-1.480541330922314e-18
	-1.429535237813969e-14
	1.737154807660234e-06
	2.368626012306912e-04
	5.925904317177308e-05
	3.553096429583155e-01

 96	9.600000000000006e-01
	-2.012970041786297e-15
	-1.515020567459485e-18
	-1.432725827995970e-14
	1.782727932565397e-06
	2.414226262930503e-04
	6.165026222854784e-05
	3.553099127031762e-01

 97	9.700000000000006e-01
	-2.006691195543938e-15
	-1.550182463370368e-18
	-1.435823082636230e-14
	1.828763481278192e-06
	2.459599388798174e-04
	6.408695633154214e-05
	3.553101875893245e-01

 98	9.800000000000006e-01
	-2.000615569731351e-15
	-1.586040286651991e-18
	-1.438829922784218e-14
	1.875271374992592e-06
	2.504771480683159e-04
	6.656891123667896e-05
	3.553104675826165e-01

 99	9.900000000000007e-01
	-1.994734600573214e-15
	-1.622607625566145e-18
	-1.441749198084329e-14
	1.922262652143440e-06
	2.549768323497022e-04
	6.909593865021742e-05
	3.553107526521497e-01

 100	1.000000000000001e+00
	-1.989040038645531e-15
	-1.659898397061191e-18
	-1.444583686750631e-14
	1.969749458275723e-06
	2.594615214189517e-04
	7.166787582898718e-05
	3.553110427702312e-01

 101	1.010000000000001e+00
	-1.983523941468535e-15
	-1.697926855423221e-18
	-1.447336095713429e-14
