Title: ** sch_path: /home/andylithia/openmpw/project-yatsuhashi-chip1/xschem/gmid_test/nmos_test.sch
Date: Tue Jul 19 23:15:45  2022
Plotname: DC transfer characteristic
Flags: real
No. Variables: 8
No. Points: 181
Variables:
	0	v(v-sweep)	voltage
	1	@m.xm1.msky130_fd_pr__nfet_01v8[cgb]	capacitance
	2	@m.xm1.msky130_fd_pr__nfet_01v8[cgd]	capacitance
	3	@m.xm1.msky130_fd_pr__nfet_01v8[cgs]	capacitance
	4	@m.xm1.msky130_fd_pr__nfet_01v8[gds]	admittance
	5	@m.xm1.msky130_fd_pr__nfet_01v8[gm]	admittance
	6	i(@m.xm1.msky130_fd_pr__nfet_01v8[id])	current
	7	v(@m.xm1.msky130_fd_pr__nfet_01v8[vth])	voltage
Values:
 0	0.000000000000000e+00
	-5.995062244902094e-15
	-8.515046317176463e-20
	-7.720410006058677e-15
	4.454038614426928e-08
	1.874296040105256e-06
	2.048256072073965e-07
	3.006196191730990e-01

 1	1.000000000000000e-02
	-5.930143173245034e-15
	-8.992606522616853e-20
	-7.865816808102963e-15
	4.873758588875200e-08
	2.050617099959916e-06
	2.244371750147144e-07
	3.006196206819707e-01

 2	2.000000000000000e-02
	-5.865749509498081e-15
	-9.488418809490824e-20
	-8.011842645175033e-15
	5.331638124039972e-08
	2.243221582382220e-06
	2.458921801652397e-07
	3.006196223331745e-01

 3	3.000000000000000e-02
	-5.801901328989989e-15
	-1.000287948590725e-19
	-8.158423617645133e-15
	5.830958614774006e-08
	2.453599973403959e-06
	2.693607980988623e-07
	3.006196241399526e-01

 4	4.000000000000000e-02
	-5.738618637258887e-15
	-1.053638423288263e-19
	-8.305494976038904e-15
	6.375259197509996e-08
	2.683382103247071e-06
	2.950287946414827e-07
	3.006196261167717e-01

 5	5.000000000000000e-02
	-5.675921322443840e-15
	-1.108932791066967e-19
	-8.452991226009980e-15
	6.968353959211516e-08
	2.934351189395972e-06
	3.230989883941497e-07
	3.006196282794474e-01

 6	6.000000000000000e-02
	-5.613829108148664e-15
	-1.166210437931011e-19
	-8.600846235629741e-15
	7.614349935403953e-08
	3.208459466317657e-06
	3.537928613311235e-07
	3.006196306452783e-01

 7	7.000000000000001e-02
	-5.552361506930856e-15
	-1.225510633439021e-19
	-8.748993344646399e-15
	8.317665891568975e-08
	3.507845593146123e-06
	3.873523344123989e-07
	3.006196332331872e-01

 8	8.000000000000000e-02
	-5.491537774567230e-15
	-1.286872515890968e-19
	-8.897365475354202e-15
	9.083051876340591e-08
	3.834854051529261e-06
	4.240417270323484e-07
	3.006196360638814e-01

 9	9.000000000000000e-02
	-5.431376865245379e-15
	-1.350335079211410e-19
	-9.045895244704896e-15
	9.915609528521859e-08
	4.192056768048991e-06
	4.641499213580324e-07
	3.006196391600398e-01

 10	9.999999999999999e-02
	-5.371897387826799e-15
	-1.415937161609288e-19
	-9.194515077286970e-15
	1.082081311293871e-07
	4.582277219006493e-06
	5.079927550707107e-07
	3.006196425464945e-01

 11	1.100000000000000e-01
	-5.313117563323627e-15
	-1.483717436083060e-19
	-9.343157318791721e-15
	1.180453125255173e-07
	5.008617299677169e-06
	5.559156687223219e-07
	3.006196462504706e-01

 12	1.200000000000000e-01
	-5.255055183725694e-15
	-1.553714402838249e-19
	-9.491754349584548e-15
	1.287304931608936e-07
	5.474487265072159e-06
	6.082966368642124e-07
	3.006196503018099e-01

 13	1.300000000000000e-01
	-5.197727572309289e-15
	-1.625966383670867e-19
	-9.640238697996487e-15
	1.403309241171866e-07
	5.983639074357580e-06
	6.655494153003484e-07
	3.006196547332676e-01

 14	1.400000000000000e-01
	-5.141151545552058e-15
	-1.700511518366669e-19
	-9.788543152955045e-15
	1.529184892799898e-07
	6.540203495859130e-06
	7.281271402634033e-07
	3.006196595807955e-01

 15	1.500000000000000e-01
	-5.085343376771611e-15
	-1.777387763154708e-19
	-9.936600875574799e-15
	1.665699455353967e-07
	7.148731353328054e-06
	7.965263190000334e-07
	3.006196648838896e-01

 16	1.600000000000000e-01
	-5.030318761597414e-15
	-1.856632891246933e-19
	-1.008434550933483e-14
	1.813671669648389e-07
	7.814239316065940e-06
	8.712912551696087e-07
	3.006196706859668e-01

 17	1.700000000000000e-01
	-4.976092785376937e-15
	-1.938284495485822e-19
	-1.023171128847803e-14
	1.973973921417122e-07
	8.542260654612668e-06
	9.530189565839928e-07
	3.006196770347863e-01

 18	1.800000000000000e-01
	-4.922679892608159e-15
	-2.022379993114763e-19
	-1.037863314427640e-14
	2.147534735214554e-07
	9.338901398844546e-06
	1.042364577111417e-06
	3.006196839829176e-01

 19	1.900000000000000e-01
	-4.870093858480844e-15
	-2.108956632675270e-19
	-1.052504680881872e-14
	2.335341278012277e-07
	1.021090234517322e-05
	1.140047448988973e-06
	3.006196915882652e-01

 20	2.000000000000000e-01
	-4.818347762599205e-15
	-2.198051503029003e-19
	-1.067088891599034e-14
	2.538441860066647e-07
	1.116570736254604e-05
	1.246857766275024e-06
	3.006196999146512e-01

 21	2.100000000000000e-01
	-4.767453964948101e-15
	-2.289701544491114e-19
	-1.081609709933017e-14
	2.757948419419706e-07
	1.221153844139546e-05
	1.363663984647997e-06
	3.006197090324674e-01

 22	2.200000000000001e-01
	-4.717424084154655e-15
	-2.383943562057373e-19
	-1.096061008646693e-14
	2.995038975165943e-07
	1.335747791364253e-05
	1.491421007126778e-06
	3.006197190194001e-01

 23	2.300000000000001e-01
	-4.668268978086056e-15
	-2.480814240695339e-19
	-1.110436778985551e-14
	3.250960033375278e-07
	1.461355824320292e-05
	1.631179229434129e-06
	3.006197299612382e-01

 24	2.400000000000001e-01
	-4.619998726813936e-15
	-2.580350162665152e-19
	-1.124731139355356e-14
	3.527028928318265e-07
	1.599085974288762e-05
	1.784094522511793e-06
	3.006197419527615e-01

 25	2.500000000000001e-01
	-4.572622617964407e-15
	-2.682587826826361e-19
	-1.138938343579972e-14
	3.824636080398813e-07
	1.750161651267281e-05
	1.951439232961002e-06
	3.006197550987529e-01

 26	2.600000000000001e-01
	-4.526149134462330e-15
	-2.787563669883611e-19
	-1.153052788717751e-14
	4.145247150976961e-07
	1.915933081350244e-05
	2.134614284742019e-06
	3.006197695150882e-01

 27	2.700000000000001e-01
	-4.480585944667664e-15
	-2.895314089512325e-19
	-1.167069022417056e-14
	4.490405073061998e-07
	2.097889598741985e-05
	2.335162467103858e-06
	3.006197853299733e-01

 28	2.800000000000001e-01
	-4.435939894890965e-15
	-3.005875469306044e-19
	-1.180981749794016e-14
	4.861731935694641e-07
	2.297672790632469e-05
	2.554782994197621e-06
	3.006198026852869e-01

 29	2.900000000000001e-01
	-4.392217004265435e-15
	-3.119284205475396e-19
	-1.194785839817831e-14
	5.260930698718332e-07
	2.517090477542614e-05
	2.795347420883197e-06
	3.006198217380931e-01

 30	3.000000000000001e-01
	-4.349422461942352e-15
	-3.235576735231034e-19
	-1.208476331191608e-14
	5.689786713587955e-07
	2.758131493121223e-05
	3.058916996587281e-06
	3.006198426622712e-01

 31	3.100000000000001e-01
	-4.307560626567912e-15
	-3.354789566770187e-19
	-1.222048437718971e-14
	6.150169024880124e-07
	3.022981205534572e-05
	3.347761534390676e-06
	3.006198656503412e-01

 32	3.200000000000001e-01
	-4.266635027989872e-15
	-3.476959310792279e-19
	-1.235497553149276e-14
	6.644031426283671e-07
	3.314037697378885e-05
	3.664379865494552e-06
	3.006198909154518e-01

 33	3.300000000000001e-01
	-4.226648371134285e-15
	-3.602122713458466e-19
	-1.248819255496694e-14
	7.173413244065287e-07
	3.633928492355925e-05
	4.011521939486905e-06
	3.006199186935516e-01

 34	3.400000000000001e-01
	-4.187602541984457e-15
	-3.730316690711524e-19
	-1.262009310830755e-14
	7.740439820350460e-07
	3.985527684761091e-05
	4.392212618056713e-06
	3.006199492457642e-01

 35	3.500000000000001e-01
	-4.149498615586862e-15
	-3.861578363870222e-19
	-1.275063676538398e-14
	8.347322668051130e-07
	4.371973292212937e-05
	4.809777193635680e-06
	3.006199828609799e-01

 36	3.600000000000002e-01
	-4.112336866002042e-15
	-3.995945096412856e-19
	-1.287978504059817e-14
	8.996359268932967e-07
	4.796684613190349e-05
	5.267868644551043e-06
	3.006200198586496e-01

 37	3.700000000000002e-01
	-4.076116778112450e-15
	-4.133454531857224e-19
	-1.300750141102597e-14
	9.689932486165369e-07
	5.263379329164756e-05
	5.770496614336494e-06
	3.006200605918227e-01

 38	3.800000000000002e-01
	-4.040837061193626e-15
	-4.274144632657642e-19
	-1.313375133340810e-14
	1.043050956277093e-06
	5.776090046908575e-05
	6.322058074607808e-06
	3.006201054504009e-01

 39	3.900000000000002e-01
	-4.006495664150516e-15
	-4.418053720024845e-19
	-1.325850225607690e-14
	1.122064067770543e-06
	6.339179930588408e-05
	6.927369598147752e-06
	3.006201548646384e-01

 40	4.000000000000002e-01
	-3.973089792316754e-15
	-4.565220514589292e-19
	-1.338172362592441e-14
	1.206295703189114e-06
	6.957357026380019e-05
	7.591701131432125e-06
	3.006202093088836e-01

 41	4.100000000000002e-01
	-3.940615925710906e-15
	-4.715684177821067e-19
	-1.350338689053578e-14
	1.296016843742315e-06
	7.635686835645343e-05
	8.320811113725476e-06
	3.006202693055400e-01

 42	4.200000000000002e-01
	-3.909069838641893e-15
	-4.869484354127763e-19
	-1.362346549562721e-14
	1.391506038439735e-06
	8.379602647484694e-05
	9.120982743158909e-06
	3.006203354292601e-01

 43	4.300000000000002e-01
	-3.878446620552962e-15
	-5.026661213550970e-19
	-1.374193487794406e-14
	1.493049056140907e-06
	9.194913099246447e-05
	9.999061139101630e-06
	3.006204083113558e-01

 44	4.400000000000002e-01
	-3.848740697992920e-15
	-5.187255494986698e-19
	-1.385877245378779e-14
	1.600938480776891e-06
	1.008780639608007e-04
	1.096249109503435e-05
	3.006204886443988e-01

 45	4.500000000000002e-01
	-3.819945857602450e-15
	-5.351308549860410e-19
	-1.397395760335291e-14
	1.715473247790774e-06
	1.106485058979938e-04
	1.201935505759627e-05
	3.006205771869920e-01

 46	4.600000000000002e-01
	-3.792055270003310e-15
	-5.518862386185335e-19
	-1.408747165106618e-14
	1.836958120132886e-06
	1.213298929530324e-04
	1.317841090628644e-05
	3.006206747686775e-01

 47	4.700000000000003e-01
	-3.765061514479029e-15
	-5.689959712947935e-19
	-1.419929784212907e-14
	1.965703102483091e-06
	1.329953221182541e-04
	1.444912904544300e-05
	3.006207822949305e-01

 48	4.800000000000003e-01
	-3.738956604336659e-15
	-5.864643984756062e-19
	-1.430942131547295e-14
	2.102022792759934e-06
	1.457213981868431e-04
	1.584172825682852e-05
	3.006209007522139e-01

 49	4.900000000000003e-01
	-3.713732012841066e-15
	-6.042959446699195e-19
	-1.441782907334255e-14
	2.246235670415704e-06
	1.595880163329790e-04
	1.736720969887076e-05
	3.006210312130012e-01

 50	5.000000000000002e-01
	-3.689378699615212e-15
	-6.224951179374297e-19
	-1.452450994772831e-14
	2.398663321508767e-06
	1.746780745525745e-04
	1.903738837903171e-05
	3.006211748407173e-01

 51	5.100000000000002e-01
	-3.665887137402910e-15
	-6.410665144030542e-19
	-1.462945456387155e-14
	2.559629601089870e-06
	1.910771107626001e-04
	2.086492137080569e-05
	3.006213328945191e-01

 52	5.200000000000002e-01
	-3.643247339093211e-15
	-6.600148227798032e-19
	-1.473265530106893e-14
	2.729459734036630e-06
	2.088728601341522e-04
	2.286333199857443e-05
	3.006215067338023e-01

 53	5.300000000000002e-01
	-3.621448884909469e-15
	-6.793448288964673e-19
	-1.483410625100305e-14
	2.908479356117524e-06
	2.281547292415794e-04
	2.504702917421069e-05
	3.006216978223635e-01

 54	5.400000000000003e-01
	-3.600480949669599e-15
	-6.990614202278103e-19
	-1.493380317382617e-14
	3.097013497760524e-06
	2.490131848543359e-04
	2.743132104127424e-05
	3.006219077320839e-01

 55	5.500000000000003e-01
	-3.580332330028296e-15
	-7.191695904244783e-19
	-1.503174345222184e-14
	3.295385513736630e-06
	2.715390566798989e-04
	3.003242206826682e-05
	3.006221381460161e-01

 56	5.600000000000003e-01
	-3.560991471616416e-15
	-7.396744438414227e-19
	-1.512792604366697e-14
	3.503915962738229e-06
	2.958227550767234e-04
	3.286745273403904e-05
	3.006223908607715e-01

 57	5.700000000000003e-01
	-3.542446495997012e-15
	-7.605812000631118e-19
	-1.522235143111306e-14
	3.722921441629097e-06
	3.219534066782237e-04
	3.595443096830461e-05
	3.006226677880391e-01

 58	5.800000000000003e-01
	-3.524685227362479e-15
	-7.818951984250776e-19
	-1.531502157230028e-14
	3.952713379955317e-06
	3.500179129738630e-04
	3.931225455026813e-05
	3.006229709551374e-01

 59	5.900000000000003e-01
	-3.507695218901985e-15
	-8.036219025312415e-19
	-1.540593984791300e-14
	4.193596801124727e-06
	3.800999391428169e-04
	4.296067373029004e-05
	3.006233025044507e-01

 60	6.000000000000003e-01
	-3.491463778773297e-15
	-8.257669047670570e-19
	-1.549511100877878e-14
	4.445869057471533e-06
	4.122788427791237e-04
	4.692025342446571e-05
	3.006236646916166e-01

 61	6.100000000000003e-01
	-3.475977995618007e-15
	-8.483359308090440e-19
	-1.558254112230588e-14
	4.709818547208571e-06
	4.466285545241861e-04
	5.121232444064035e-05
	3.006240598823495e-01

 62	6.200000000000003e-01
	-3.461224763564350e-15
	-8.713348441312228e-19
	-1.566823751834693e-14
	4.985723422016177e-06
	4.832164249626613e-04
	5.585892332669909e-05
	3.006244905478037e-01

 63	6.300000000000003e-01
	-3.447190806666520e-15
	-8.947696505098312e-19
	-1.575220873466807e-14
	5.273850294706185e-06
	5.221020543627238e-04
	6.088272058719156e-05
	3.006249592583579e-01

 64	6.400000000000003e-01
	-3.433862702734501e-15
	-9.186465025270653e-19
	-1.583446446219468e-14
	5.574452957014843e-06
	5.633361238673786e-04
	6.630693719089082e-05
	3.006254686757771e-01

 65	6.500000000000004e-01
	-3.421226906513078e-15
	-9.429717040761543e-19
	-1.591501549019619e-14
	5.887771118101964e-06
	6.069592484829056e-04
	7.215524948731464e-05
	3.006260215436858e-01

 66	6.600000000000004e-01
	-3.409269772173708e-15
	-9.677517148689338e-19
	-1.599387365156298e-14
	6.214029174746197e-06
	6.530008735769376e-04
	7.845168286120652e-05
	3.006266206763573e-01

 67	6.700000000000004e-01
	-3.397977575087099e-15
	-9.929931549481335e-19
	-1.607105176832019e-14
	6.553435024515047e-06
	7.014782375103568e-04
	8.522049467637315e-05
	3.006272689458055e-01

 68	6.800000000000004e-01
	-3.387336532849495e-15
	-1.018702809206037e-18
	-1.614656359751299e-14
	6.906178933332631e-06
	7.523954234099614e-04
	9.248604728908016e-05
	3.006279692672752e-01

 69	6.900000000000004e-01
	-3.377332825539108e-15
	-1.044887631912286e-18
	-1.622042377759016e-14
	7.272432468861882e-06
	8.057425228824473e-04
	1.002726721408836e-04
	3.006287245831856e-01

 70	7.000000000000004e-01
	-3.367952615184167e-15
	-1.071554751252708e-18
	-1.629264777540238e-14
	7.652347510944529e-06
	8.614949336300214e-04
	1.086045261650936e-04
	3.006295378456723e-01

 71	7.100000000000004e-01
	-3.359182064427368e-15
	-1.098711473881448e-18
	-1.636325183392397e-14
	8.046055349999014e-06
	9.196128114305924e-04
	1.175054419535914e-04
	3.006304119979024e-01

 72	7.200000000000004e-01
	-3.351007354375581e-15
	-1.126365289489486e-18
	-1.643225292079747e-14
	8.453665883758074e-06
	9.800406947905193e-04
	1.269987733248281e-04
	3.006313499543489e-01

 73	7.300000000000004e-01
	-3.343414701627185e-15
	-1.154523875391357e-18
	-1.649966867779202e-14
	8.875266922034365e-06
	1.042707317790361e-03
	1.371072381030354e-04
	3.006323545802888e-01

 74	7.400000000000004e-01
	-3.336390374472806e-15
	-1.183195101133446e-18
	-1.656551737125874e-14
	9.310923608339797e-06
	1.107525623275438e-03
	1.478527600569059e-04
	3.006334286707795e-01

 75	7.500000000000004e-01
	-3.329920708268233e-15
	-1.212387033126571e-18
	-1.662981784365798e-14
	9.760677966160581e-06
	1.174392984670508e-03
	1.592563120478208e-04
	3.006345749293987e-01

 76	7.600000000000005e-01
	-3.323992119981496e-15
	-1.242107939305678e-18
	-1.669258946622572e-14
	1.022454857651635e-05
	1.243191640422374e-03
	1.713377624985165e-04
	3.006357959470964e-01

 77	7.700000000000005e-01
	-3.318591121918661e-15
	-1.272366293820397e-18
	-1.675385209283946e-14
	1.070253039212870e-05
	1.313789340518611e-03
	1.841157273096066e-04
	3.006370941814295e-01

 78	7.800000000000005e-01
	-3.313704334635404e-15
	-1.303170781759940e-18
	-1.681362601513650e-14
	1.119459469210725e-05
	1.386040199832493e-03
	1.976074293213550e-04
	3.006384719365408e-01

 79	7.900000000000005e-01
	-3.309318499044027e-15
	-1.334530303915813e-18
	-1.687193191893080e-14
	1.170068917955690e-05
	1.459785748353663e-03
	2.118285673410230e-04
	3.006399313441996e-01

 80	8.000000000000005e-01
	-3.305420487727342e-15
	-1.366453981587216e-18
	-1.692879084196872e-14
	1.222073822294291e-05
	1.534856163834775e-03
	2.267931966328178e-04
	3.006414743461813e-01

 81	8.100000000000005e-01
	-3.301997315473181e-15
	-1.398951161433335e-18
	-1.698422413305691e-14
	1.275464324044584e-05
	1.611071668167351e-03
	2.425136226003102e-04
	3.006431026782996e-01

 82	8.200000000000005e-01
	-3.299036149044706e-15
	-1.432031420377511e-18
	-1.703825341259073e-14
	1.330228322492848e-05
	1.688244065038213e-03
	2.590003091841753e-04
	3.006448178563247e-01

 83	8.300000000000005e-01
	-3.296524316203724e-15
	-1.465704570568900e-18
	-1.709090053450471e-14
	1.386351540554719e-05
	1.766178393236732e-03
	2.762618032563588e-04
	3.006466211640150e-01

 84	8.400000000000005e-01
	-3.294449314004879e-15
	-1.499980664407801e-18
	-1.714218754966287e-14
	1.443817604050090e-05
	1.844674667487699e-03
	2.943046760217496e-04
	3.006485136434174e-01

 85	8.500000000000005e-01
	-3.292798816380894e-15
	-1.534869999639966e-18
	-1.719213667069943e-14
	1.502608133394719e-05
	1.923529676952461e-03
	3.131334821473674e-04
	3.006504960876065e-01

 86	8.600000000000005e-01
	-3.291560681038962e-15
	-1.570383124527905e-18
	-1.724077023831767e-14
	1.562702846875688e-05
	2.002538810620866e-03
	3.327507370349902e-04
	3.006525690358960e-01

 87	8.700000000000006e-01
	-3.290722955690302e-15
	-1.606530843105767e-18
	-1.728811068904836e-14
	1.624079674554329e-05
	2.081497878724417e-03
	3.531569123441634e-04
	3.006547327715948e-01

 88	8.800000000000006e-01
	-3.290273883635010e-15
	-1.643324220524980e-18
	-1.733418052446544e-14
	1.686714881731446e-05
	2.160204900021675e-03
	3.743504495669197e-04
	3.006569873222865e-01

 89	8.900000000000006e-01
	-3.290201908725331e-15
	-1.680774588499611e-18
	-1.737900228185236e-14
	1.750583200817380e-05
	2.238461826295685e-03
	3.963277911613305e-04
	3.006593324625447e-01

 90	9.000000000000006e-01
	-3.290495679730847e-15
	-1.718893550859067e-18
	-1.742259850630819e-14
	1.815657970374582e-05
	2.316076177585909e-03
	4.190834284752818e-04
	3.006617677190232e-01

 91	9.100000000000006e-01
	-3.291144054129553e-15
	-1.757692989216519e-18
	-1.746499172427907e-14
	1.881911280044531e-05
	2.392862564459646e-03
	4.426099654413671e-04
	3.006642923777450e-01

 92	9.200000000000006e-01
	-3.292136101349004e-15
	-1.797185068762575e-18
	-1.750620441849651e-14
	1.949314120033862e-05
	2.468644076895522e-03
	4.668981968036316e-04
	3.006669054934499e-01

 93	9.300000000000006e-01
	-3.293461105481860e-15
	-1.837382244192714e-18
	-1.754625900430169e-14
	2.017836533817652e-05
	2.543253522980459e-03
	4.919371994516358e-04
	3.006696059007436e-01

 94	9.400000000000006e-01
	-3.295108567500281e-15
	-1.878297265777190e-18
	-1.758517780733048e-14
	2.087447772719215e-05
	2.616534504478704e-03
	5.177144352893452e-04
	3.006723922268915e-01

 95	9.500000000000006e-01
	-3.297068206993612e-15
	-1.919943185583750e-18
	-1.762298304253242e-14
	2.158116451046875e-05
	2.688342320288511e-03
	5.442158639579586e-04
	3.006752629059677e-01

 96	9.600000000000006e-01
	-3.299329963453497e-15
	-1.962333363861204e-18
	-1.765969679449345e-14
	2.229810700506036e-05
	2.758544692731555e-03
	5.714260636625962e-04
	3.006782161941258e-01

 97	9.700000000000006e-01
	-3.301883997130472e-15
	-2.005481475593743e-18
	-1.769534099903036e-14
	2.302498322659665e-05
	2.827022315408732e-03
	5.993283583224173e-04
	3.006812501857452e-01

 98	9.800000000000006e-01
	-3.304720689485991e-15
	-2.049401517234849e-18
	-1.772993742602245e-14
	2.376146938279595e-05
	2.893669224902742e-03
	6.279049492699285e-04
	3.006843628302072e-01

 99	9.900000000000007e-01
	-3.307830643262858e-15
	-2.094107813630190e-18
	-1.776350766344508e-14
	2.450724132513662e-05
	2.958393001829881e-03
	6.571370497653880e-04
	3.006875519490347e-01

 100	1.000000000000001e+00
	-3.311204682197446e-15
	-2.139615025138438e-18
	-1.779607310256715e-14
	2.526197594886854e-05
	3.021114809575358e-03
	6.870050206623578e-04
	3.006908152532057e-01

 101	1.010000000000001e+00
	-3.314833850395866e-15
	-2.185938154958580e-18
	-1.782765492427413e-14
