Title: ** sch_path: /home/andylithia/openmpw/project-yatsuhashi-chip1/xschem/gmid_test/nmos_test.sch
Date: Sun Jul 17 22:51:45  2022
Plotname: DC transfer characteristic
Flags: real
No. Variables: 8
No. Points: 181
Variables:
	0	v(v-sweep)	voltage
	1	@m.xm1.msky130_fd_pr__nfet_01v8[cgb]	capacitance
	2	@m.xm1.msky130_fd_pr__nfet_01v8[cgd]	capacitance
	3	@m.xm1.msky130_fd_pr__nfet_01v8[cgs]	capacitance
	4	@m.xm1.msky130_fd_pr__nfet_01v8[gds]	admittance
	5	@m.xm1.msky130_fd_pr__nfet_01v8[gm]	admittance
	6	i(@m.xm1.msky130_fd_pr__nfet_01v8[id])	current
	7	v(@m.xm1.msky130_fd_pr__nfet_01v8[vth])	voltage
Values:
 0	0.000000000000000e+00
	-1.131371915287593e-15
	1.174292683442599e-19
	-8.744954326937678e-18
	3.455074950663069e-14
	7.909710549602932e-13
	2.561200535964771e-14
	7.535486707475627e-01

 1	1.000000000000000e-02
	-1.125939058440677e-15
	1.251557954630807e-19
	-9.317443407576177e-18
	4.672876015377861e-14
	1.077157513521080e-12
	3.487911767915861e-14
	7.535486707475635e-01

 2	2.000000000000000e-02
	-1.120573269025907e-15
	1.333476283426103e-19
	-9.935768910842913e-18
	6.319592317900351e-14
	1.466885543418700e-12
	4.749920105456467e-14
	7.535486707475642e-01

 3	3.000000000000000e-02
	-1.115272271813899e-15
	1.420390584385152e-19
	-1.060409877487660e-17
	8.546167666442699e-14
	1.997613071732108e-12
	6.468533837114783e-14
	7.535486707475649e-01

 4	4.000000000000000e-02
	-1.110033762867608e-15
	1.512681713946160e-19
	-1.132709083107626e-17
	1.155661868446051e-13
	2.720347219524658e-12
	8.808945774663130e-14
	7.535486707475663e-01

 5	5.000000000000000e-02
	-1.104855398520520e-15
	1.610771626365974e-19
	-1.210994977715737e-17
	1.562667686119840e-13
	3.704544200865624e-12
	1.199610658261983e-13
	7.535486707475683e-01

 6	6.000000000000000e-02
	-1.099734783796446e-15
	1.715126401710238e-19
	-1.295848843792445e-17
	2.112897111637952e-13
	5.044780573279934e-12
	1.633633821984155e-13
	7.535486707475706e-01

 7	7.000000000000001e-02
	-1.094669460267745e-15
	1.826259090858113e-19
	-1.387919339757391e-17
	2.856704242168634e-13
	6.869835823099779e-12
	2.224676242540891e-13
	7.535486707475741e-01

 8	8.000000000000000e-02
	-1.089656893347892e-15
	1.944732322227568e-19
	-1.487929509294545e-17
	3.862128349416983e-13
	9.355057272127707e-12
	3.029536874462467e-13
	7.535486707475787e-01

 9	9.000000000000000e-02
	-1.084694459012987e-15
	2.071160614992259e-19
	-1.596684246461438e-17
	5.221097774431716e-13
	1.273919254825101e-11
	4.125556666530569e-13
	7.535486707475855e-01

 10	9.999999999999999e-02
	-1.079779429945141e-15
	2.206212343841508e-19
	-1.715078227155214e-17
	7.057806980463166e-13
	1.734730229653542e-11
	5.618045445493700e-13
	7.535486707475940e-01

 11	1.100000000000000e-01
	-1.074908961088743e-15
	2.350611300738216e-19
	-1.844104318446342e-17
	9.540026608844788e-13
	2.362194706071208e-11
	7.650392573091893e-13
	7.535486707476053e-01

 12	1.200000000000000e-01
	-1.070080074608631e-15
	2.505137799564494e-19
	-1.984862478210436e-17
	1.289437142261419e-12
	3.216563250109393e-11
	1.041783036654537e-12
	7.535486707476217e-01

 13	1.300000000000000e-01
	-1.065289644237334e-15
	2.670629269885945e-19
	-2.138569158253162e-17
	1.742690819869851e-12
	4.379857116034430e-11
	1.418616864943605e-12
	7.535486707476436e-01

 14	1.400000000000000e-01
	-1.060534378997072e-15
	2.847980286123448e-19
	-2.306567224529712e-17
	2.355096682238331e-12
	5.963727829690307e-11
	1.931729386819944e-12
	7.535486707476734e-01

 15	1.500000000000000e-01
	-1.055810806281920e-15
	3.038141977907968e-19
	-2.490336407785637e-17
	3.182466586593638e-12
	8.120150129200972e-11
	2.630387201451654e-12
	7.535486707477135e-01

 16	1.600000000000000e-01
	-1.051115254286992e-15
	3.242120765903340e-19
	-2.691504296495379e-17
	4.300153628847365e-12
	1.105596727958119e-10
	3.581657224002616e-12
	7.535486707477683e-01

 17	1.700000000000000e-01
	-1.046443833776200e-15
	3.460976364380398e-19
	-2.911857880663492e-17
	5.809880068176366e-12
	1.505267285594931e-10
	4.876832034405896e-12
	7.535486707478435e-01

 18	1.800000000000000e-01
	-1.041792419189450e-15
	3.695818986671864e-19
	-3.153355648952844e-17
	7.848944403176657e-12
	2.049330813422492e-10
	6.640171040221220e-12
	7.535486707479453e-01

 19	1.900000000000000e-01
	-1.037156629106361e-15
	3.947805681619154e-19
	-3.418140231533776e-17
	1.060263335608741e-11
	2.789902501831803e-10
	9.040790040251527e-12
	7.535486707480842e-01

 20	2.000000000000000e-01
	-1.032531806109000e-15
	4.218135717532421e-19
	-3.708551565577060e-17
	1.432094947192462e-11
	3.797877258841629e-10
	1.230882989025689e-11
	7.535486707482737e-01

 21	2.100000000000000e-01
	-1.027912996123666e-15
	4.508044914409759e-19
	-4.027140537785422e-17
	1.934114745391221e-11
	5.169679364775248e-10
	1.675743911465334e-11
	7.535486707485310e-01

 22	2.200000000000001e-01
	-1.023294927374542e-15
	4.818798804796821e-19
	-4.376683026922708e-17
	2.611808510767052e-11
	7.036427698948709e-10
	2.281265276851805e-11
	7.535486707488818e-01

 23	2.300000000000001e-01
	-1.018671989153148e-15
	5.151684478646292e-19
	-4.760194227023782e-17
	3.526508156212649e-11
	9.576374970566724e-10
	3.105399079214756e-11
	7.535486707493585e-01

 24	2.400000000000001e-01
	-1.014038210700337e-15
	5.508000938252752e-19
	-5.180943076882172e-17
	4.760889425231827e-11
	1.303178090790245e-09
	4.226960084315302e-11
	7.535486707500078e-01

 25	2.500000000000001e-01
	-1.009387240614664e-15
	5.889047756776380e-19
	-5.642466551698392e-17
	6.426365367496588e-11
	1.773178471922383e-09
	5.753112327696683e-11
	7.535486707508906e-01

 26	2.600000000000001e-01
	-1.004712327344812e-15
	6.296111799704359e-19
	-6.148583486855339e-17
	8.673023226706294e-11
	2.412338588430633e-09
	7.829527989663150e-11
	7.535486707520926e-01

 27	2.700000000000001e-01
	-1.000006301495637e-15
	6.730451735297562e-19
	-6.703407500578933e-17
	1.170297036966634e-10
	3.281336980049583e-09
	1.065416433482056e-10
	7.535486707537274e-01

 28	2.800000000000001e-01
	-9.952615608773999e-16
	7.193280030943619e-19
	-7.311358461318172e-17
	1.578824449867317e-10
	4.462498505637483e-09
	1.449593425683137e-10
	7.535486707559509e-01

 29	2.900000000000001e-01
	-9.904700594543288e-16
	7.685742111584145e-19
	-7.977171807581206e-17
	2.129482719326251e-10
	6.067446842754134e-09
	1.971998808268751e-10
	7.535486707589746e-01

 30	3.000000000000001e-01
	-9.856233015978620e-16
	8.208892349093708e-19
	-8.705904874515605e-17
	2.871480698179771e-10
	8.247421956704288e-09
	2.682191525298953e-10
	7.535486707630845e-01

 31	3.100000000000001e-01
	-9.807123433150184e-16
	8.763666563588614e-19
	-9.502939216207664e-17
	3.870940602325084e-10
	1.120716726959694e-08
	3.647396187575235e-10
	7.535486707686705e-01

 32	3.200000000000001e-01
	-9.757278023929997e-16
	9.350850755786661e-19
	-1.037397774110157e-16
	5.216646054111185e-10
	1.522358496900538e-08
	4.958740525341272e-10
	7.535486707762605e-01

 33	3.300000000000001e-01
	-9.706598796626846e-16
	9.971045860895005e-19
	-1.132503530827771e-16
	7.027708894724578e-10
	2.067073923353673e-08
	6.739660743195267e-10
	7.535486707865675e-01

 34	3.400000000000001e-01
	-9.654983938164516e-16
	1.062462842638417e-18
	-1.236242127579759e-16
	9.463776678245158e-10
	2.805327780546991e-08
	9.157208483197274e-10
	7.535486708005588e-01

 35	3.500000000000001e-01
	-9.602328323947373e-16
	1.131170727534792e-18
	-1.349271236354648e-16
	1.273859436144251e-09
	3.805096670936558e-08
	1.243723014245994e-09
	7.535486708195425e-01

 36	3.600000000000002e-01
	-9.548524216498547e-16
	1.203207642972054e-18
	-1.472271411019688e-16
	1.713797898693008e-09
	5.157781667573511e-08
	1.688469652511619e-09
	7.535486708452821e-01

 37	3.700000000000002e-01
	-9.493462179691214e-16
	1.278516483701288e-18
	-1.605940918873079e-16
	2.304357728205950e-09
	6.986024699448584e-08
	2.291085540670081e-09
	7.535486708801588e-01

 38	3.800000000000002e-01
	-9.437032233520815e-16
	1.356998377056197e-18
	-1.750989092188005e-16
	3.096416637327874e-09
	9.453990021664119e-08
	3.106938083521212e-09
	7.535486709273767e-01

 39	3.900000000000002e-01
	-9.379125270470799e-16
	1.438507315175966e-18
	-1.908128053387839e-16
	4.157674079819029e-09
	1.278080910250915e-07
	4.210432119919329e-09
	7.535486709912419e-01

 40	4.000000000000002e-01
	-9.319634748211795e-16
	1.522844846205185e-18
	-2.078062701360156e-16
	5.578021679551761e-09
	1.725804178708027e-07
	5.701342244419248e-09
	7.535486710775290e-01

 41	4.100000000000002e-01
	-9.258458664320277e-16
	1.609755035351862e-18
	-2.261478896861636e-16
	7.476528532842114e-09
	2.327217125035917e-07
	7.713133763416851e-09
	7.535486711939630e-01

 42	4.200000000000002e-01
	-9.195501806717179e-16
	1.698919950153600e-18
	-2.459029853491155e-16
	1.001047577160433e-08
	3.133331037848982e-07
	1.042383328563092e-08
	7.535486713508457e-01

 43	4.300000000000002e-01
	-9.130678258624627e-16
	1.789955963428504e-18
	-2.671320827675762e-16
	1.338696564482663e-08
	4.211142783637014e-07
	1.407013462361284e-08
	7.535486715618768e-01

 44	4.400000000000002e-01
	-9.063914119312280e-16
	1.882411197650968e-18
	-2.898892305296458e-16
	1.787772694531690e-08
	5.648146457250497e-07
	1.896556040125253e-08
	7.535486718452024e-01

 45	4.500000000000002e-01
	-8.995150382384191e-16
	1.975764450805130e-18
	-3.142202000742618e-16
	2.383783347160703e-08
	7.557865088172498e-07
	2.552363510267960e-08
	7.535486722247536e-01

 46	4.600000000000002e-01
	-8.924345892854657e-16
	2.069425940892547e-18
	-3.401606110798528e-16
	3.172913317620647e-08
	1.008650783798077e-06
	3.428714548140182e-08
	7.535486727319460e-01

 47	4.700000000000003e-01
	-8.851480284169446e-16
	2.162740179394894e-18
	-3.677340392925037e-16
	4.214923437182722e-08
	1.342080451721111e-06
	4.596464557717727e-08
	7.535486734077870e-01

 48	4.800000000000003e-01
	-8.776556778369587e-16
	2.254991229457638e-18
	-3.969501755133270e-16
	5.586688628291707e-08
	1.779697894069548e-06
	6.147537363072432e-08
	7.535486743054776e-01

 49	4.900000000000003e-01
	-8.699604718713670e-16
	2.345410520620945e-18
	-4.278031141101401e-16
	7.386449128468854e-08
	2.351068909063641e-06
	8.200364666038974e-08
	7.535486754935614e-01

 50	5.000000000000002e-01
	-8.620681696263276e-16
	2.433187279481080e-18
	-4.602698557171403e-16
	9.738825615128241e-08
	3.092758449789856e-06
	1.090635410738686e-07
	7.535486770596658e-01

 51	5.100000000000002e-01
	-8.539875132011410e-16
	2.517481498800323e-18
	-4.943091105766179e-16
	1.280060880896813e-07
	4.049391949663447e-06
	1.445742142249853e-07
	7.535486791148633e-01

 52	5.200000000000002e-01
	-8.457303185482034e-16
	2.597439213767260e-18
	-5.298604853158885e-16
	1.676727320746887e-07
	5.274644047053059e-06
	1.909455493150278e-07
	7.535486817986269e-01

 53	5.300000000000002e-01
	-8.373114880055054e-16
	2.672209693978964e-18
	-5.668441262720567e-16
	2.188008096757633e-07
	6.832058005642722e-06
	2.511729261903775e-07
	7.535486852843164e-01

 54	5.400000000000003e-01
	-8.287489364394478e-16
	2.740964006328782e-18
	-6.051608767170981e-16
	2.843353687175972e-07
	8.795590248023328e-06
	3.289388981588158e-07
	7.535486897850608e-01

 55	5.500000000000003e-01
	-8.200634267088792e-16
	2.802914271606129e-18
	-6.446929840334718e-16
	3.678283479821169e-07
	1.124978189820748e-05
	4.287185201079331e-07
	7.535486955598574e-01

 56	5.600000000000003e-01
	-8.112783145759520e-16
	2.857332840125037e-18
	-6.853053672005891e-16
	4.735081208961693e-07
	1.428948828923063e-05
	5.558842180613603e-07
	7.535487029196393e-01

 57	5.700000000000003e-01
	-8.024192079395178e-16
	2.903570560841001e-18
	-7.268474265835672e-16
	6.063381836894294e-07
	1.801914882161822e-05
	7.168056396268382e-07
	7.535487122330532e-01

 58	5.800000000000003e-01
	-7.935135499873915e-16
	2.941073322137168e-18
	-7.691553490865406e-16
	7.720583100675389e-07
	2.255164685271782e-05
	9.189400767330200e-07
	7.535487239316961e-01

 59	5.900000000000003e-01
	-7.845901401684609e-16
	2.969396103644422e-18
	-8.120548345566806e-16
	9.772013098759802e-07
	2.800687742703623e-05
	1.170909897003616e-06
	7.535487385145957e-01

 60	6.000000000000003e-01
	-7.756786104105930e-16
	2.988213894267908e-18
	-8.553641461545491e-16
	1.229079034342128e-06
	3.451018805919791e-05
	1.482564862191390e-06
	7.535487565518166e-01

 61	6.100000000000003e-01
	-7.668088764565318e-16
	2.997328993575896e-18
	-8.988973701737259e-16
	1.535732461223431e-06
	4.219086222353675e-05
	1.865028930068704e-06
	7.535487786871702e-01

 62	6.200000000000003e-01
	-7.580105853591127e-16
	2.996674408685510e-18
	-9.424677608826231e-16
	1.905842401390497e-06
	5.118076230634033e-05
	2.330732618295698e-06
	7.535488056400884e-01

 63	6.300000000000003e-01
	-7.493125799930626e-16
	2.986313270388392e-18
	-9.858910440578462e-16
	2.348599294182948e-06
	6.161313993508704e-05
	2.893432673120587e-06
	7.535488382067651e-01

 64	6.400000000000003e-01
	-7.407423999561483e-16
	2.966434402881873e-18
	-1.028988558899974e-15
	2.873532373144721e-06
	7.362147738803190e-05
	3.568220160164394e-06
	7.535488772606200e-01

 65	6.500000000000004e-01
	-7.323258356184533e-16
	2.937344374309061e-18
	-1.071590131160573e-15
	3.490299972826140e-06
	8.733808039795886e-05
	4.371515996667935e-06
	7.535489237520479e-01

 66	6.600000000000004e-01
	-7.240865485988029e-16
	2.899456516205825e-18
	-1.113536589155777e-15
	4.208443939069440e-06
	1.028920421934206e-04
	5.321049593384493e-06
	7.535489787071785e-01

 67	6.700000000000004e-01
	-7.160457679239960e-16
	2.853277518780784e-18
	-1.154681857081681e-15
	5.037112305734691e-06
	1.204061770964119e-04
	6.435812288998401e-06
	7.535490432251833e-01

 68	6.800000000000004e-01
	-7.082220669003704e-16
	2.799392280340276e-18
	-1.194894584686538e-15
	5.984756099622518e-06
	1.399925998575425e-04
	7.735973548011809e-06
	7.535491184734291e-01

 69	6.900000000000004e-01
	-7.006312216213556e-16
	2.738447712575447e-18
	-1.234059296944551e-15
	7.058808790701819e-06
	1.617468047757932e-04
	9.242745468345569e-06
	7.535492056796330e-01

 70	7.000000000000004e-01
	-6.932861483231185e-16
	2.671136182611392e-18
	-1.272077070202864e-15
	8.265360679830242e-06
	1.857403579897908e-04
	1.097818092959429e-05
	7.535493061201805e-01

 71	7.100000000000004e-01
	-6.861969136882103e-16
	2.598179214755580e-18
	-1.308865760998193e-15
	9.608845068031672e-06
	2.120126225472624e-04
	1.296489336040442e-05
	7.535494211039099e-01

 72	7.200000000000004e-01
	-6.793708098103735e-16
	2.520311988967058e-18
	-1.344359829471082e-15
	1.109175747043663e-05
	2.405622416094112e-04
	1.522569185458792e-05
	7.535495519509861e-01

 73	7.300000000000004e-01
	-6.728124839207471e-16
	2.438269069257255e-18
	-1.378509810611213e-15
	1.271443209467266e-05
	2.713393539258026e-04
	1.778313393796217e-05
	7.535496999670188e-01

 74	7.400000000000004e-01
	-6.665241121162173e-16
	2.352771683315419e-18
	-1.411281493432897e-15
	1.447489989463726e-05
	3.042396480461654e-04
	2.065900881217002e-05
	7.535498664131481e-01

 75	7.500000000000004e-01
	-6.605056061506579e-16
	2.264516763306980e-18
	-1.442654870931002e-15
	1.636884872182196e-05
	3.391013262972817e-04
	2.387377494299414e-05
	7.535500524734923e-01

 76	7.600000000000005e-01
	-6.547548427385785e-16
	2.174167853992107e-18
	-1.472622922874354e-15
	1.838969823397810e-05
	3.757058189078572e-04
	2.744598557662504e-05
	7.535502592218934e-01

 77	7.700000000000005e-01
	-6.492679056486314e-16
	2.082347903077489e-18
	-1.501190289867696e-15
	2.052879114239901e-05
	4.137826748477937e-04
	3.139174222835333e-05
	7.535504875902821e-01

 78	7.800000000000005e-01
	-6.440393319977780e-16
	1.989633873108000e-18
	-1.528371891417951e-15
	2.277568989688461e-05
	4.530185180604345e-04
	3.572421782033340e-05
	7.535507383410757e-01

 79	7.900000000000005e-01
	-6.390623554698769e-16
	1.896553055517289e-18
	-1.554191533715505e-15
	2.511855635445186e-05
	4.930693946186104e-04
	4.045328717813009e-05
	7.535510120457880e-01

 80	8.000000000000005e-01
	-6.343291405654752e-16
	1.803580925534902e-18
	-1.578680545149333e-15
	2.754458356601659e-05
	5.335753629935652e-04
	4.558529335416429e-05
	7.535513090715047e-01

 81	8.100000000000005e-01
	-6.298310033536256e-16
	1.711140350245147e-18
	-1.601876469769131e-15
	3.004044501822782e-05
	5.741758947629503e-04
	5.112296515079289e-05
	7.535516295761082e-01

 82	8.200000000000005e-01
	-6.255586154748455e-16
	1.619601949258860e-18
	-1.623821841418603e-15
	3.259272785457987e-05
	6.145246096835636e-04
	5.706548646434375e-05
	7.535519735122911e-01

 83	8.300000000000005e-01
	-6.215021892914045e-16
	1.529285405842224e-18
	-1.644563054398590e-15
	3.518832203834134e-05
	6.543020603897178e-04
	6.340870409518325e-05
	7.535523406395870e-01

 84	8.400000000000005e-01
	-6.176516430704156e-16
	1.440461533485110e-18
	-1.664149340471978e-15
	3.781474560635486e-05
	6.932256479132966e-04
	7.014544955020519e-05
	7.535527305429961e-01

 85	8.500000000000005e-01
	-6.139967459059057e-16
	1.353354916406942e-18
	-1.682631856893466e-15
	4.046039532006516e-05
	7.310561987652918e-04
	7.726594340597739e-05
	7.535531426563942e-01

 86	8.600000000000005e-01
	-6.105272427395826e-16
	1.268146960233349e-18
	-1.700062885958975e-15
	4.311472056550922e-05
	7.676011741034704e-04
	8.475824836101003e-05
	7.535535762887545e-01

 87	8.700000000000006e-01
	-6.072329603366567e-16
	1.184979209192991e-18
	-1.716495143286670e-15
	4.576832520098803e-05
	8.027148393376304e-04
	9.260873869923261e-05
	7.535540306513250e-01

 88	8.800000000000006e-01
	-6.041038954287027e-16
	1.103956807174147e-18
	-1.731981189590551e-15
	4.841300670099320e-05
	8.362959594024660e-04
	1.008025584688971e-04
	7.535545048841489e-01

 89	8.900000000000006e-01
	-6.011302864694336e-16
	1.025152000697159e-18
	-1.746572938989615e-15
	5.104174440787880e-05
	8.682836949593873e-04
	1.093240469875528e-04
	7.535549980806923e-01

 90	9.000000000000006e-01
	-5.983026705816250e-16
	9.486076014670836e-19
	-1.760321255801619e-15
	5.364864932853998e-05
	8.986523766271688e-04
	1.181571171239288e-04
	7.535555093097435e-01

 91	9.100000000000006e-01
	-5.956119273241040e-16
	8.743403441160549e-19
	-1.773275631189394e-15
	5.622888720875437e-05
	9.274057594831498e-04
	1.272855782519060e-04
	7.535560376341039e-01

 92	9.200000000000006e-01
	-5.930493108952678e-16
	8.023440907138002e-19
	-1.785483930853459e-15
	5.877858510087335e-05
	9.545712422924867e-04
	1.366934012246173e-04
	7.535565821259272e-01

 93	9.300000000000006e-01
	-5.906064723303202e-16
	7.325928474755690e-19
	-1.796992205101435e-15
	6.129472975068631e-05
	9.801944041237872e-04
	1.463649269002097e-04
	7.535571418787878e-01

 94	9.400000000000006e-01
	-5.882754731573895e-16
	6.650435708334689e-19
	-1.807844552988652e-15
	6.377506418948692e-05
	1.004334085913085e-03
	1.562850226362676e-04
	7.535577160167392e-01

 95	9.500000000000006e-01
	-5.860487918645977e-16
	5.996387497568815e-19
	-1.818083032744036e-15
	6.621798713322616e-05
	1.027058138323461e-03
	1.664391928923372e-04
	7.535583037007154e-01

 96	9.600000000000006e-01
	-5.839193244052051e-16
	5.363087590678881e-19
	-1.827747611313484e-15
	6.862245826984280e-05
	1.048439874980162e-03
	1.768136508588992e-04
	7.535589041326778e-01

 97	9.700000000000006e-01
	-5.818803798385851e-16
	4.749739846953567e-19
	-1.836876146522778e-15
	7.098791129480966e-05
	1.068555211899338e-03
	1.873953581095227e-04
	7.535595165579065e-01

 98	9.800000000000006e-01
	-5.799256720761986e-16
	4.155467265566965e-19
	-1.845504396048684e-15
	7.331417562442685e-05
	1.087480436781336e-03
	1.981720388780848e-04
	7.535601402658322e-01

 99	9.900000000000007e-01
	-5.780493085780827e-16
	3.579328882561846e-19
	-1.853666048063763e-15
	7.560140704223393e-05
	1.105290531600616e-03
	2.091321748854524e-04
	7.535607745897303e-01

 100	1.000000000000001e+00
	-5.762457767290362e-16
	3.020334652525114e-19
	-1.861392769068874e-15
	7.785002707160273e-05
	1.122057964183959e-03
	2.202649858265570e-04
	7.535614189055952e-01

 101	1.010000000000001e+00
	-5.745099285165111e-16
	2.477458447496957e-19
	-1.868714265035156e-15
	8.006067057162317e-05
	1.137851865257802e-03
	2.315603997839828e-04
	7.535620726304258e-01

