Title: ** sch_path: /home/andylithia/openmpw/project-yatsuhashi-chip1/xschem/gmid_test/nmos_test.sch
Date: Tue Jul 19 23:15:45  2022
Plotname: DC transfer characteristic
Flags: real
No. Variables: 8
No. Points: 181
Variables:
	0	v(v-sweep)	voltage
	1	@m.xm1.msky130_fd_pr__nfet_01v8[cgb]	capacitance
	2	@m.xm1.msky130_fd_pr__nfet_01v8[cgd]	capacitance
	3	@m.xm1.msky130_fd_pr__nfet_01v8[cgs]	capacitance
	4	@m.xm1.msky130_fd_pr__nfet_01v8[gds]	admittance
	5	@m.xm1.msky130_fd_pr__nfet_01v8[gm]	admittance
	6	i(@m.xm1.msky130_fd_pr__nfet_01v8[id])	current
	7	v(@m.xm1.msky130_fd_pr__nfet_01v8[vth])	voltage
Values:
 0	0.000000000000000e+00
	-2.259626677812423e-15
	2.242049876520709e-19
	-1.618773245634600e-17
	6.741639132956834e-14
	1.990751010298604e-12
	6.305745894199782e-14
	7.498683268654797e-01

 1	1.000000000000000e-02
	-2.248846670658599e-15
	2.393806792453287e-19
	-1.726031170442722e-17
	9.160517697717325e-14
	2.729744276876857e-12
	8.646584974023094e-14
	7.498683268654807e-01

 2	2.000000000000000e-02
	-2.238201825580298e-15
	2.554786041368880e-19
	-1.842019868577861e-17
	1.244620732856919e-13
	3.743048140894976e-12
	1.185636870848549e-13
	7.498683268654829e-01

 3	3.000000000000000e-02
	-2.227687819223732e-15
	2.725651017343431e-19
	-1.967529617675842e-17
	1.690891250810508e-13
	5.132477233729966e-12
	1.625764143837248e-13
	7.498683268654851e-01

 4	4.000000000000000e-02
	-2.217300289498633e-15
	2.907141367691430e-19
	-2.103445211044614e-17
	2.296968506495886e-13
	7.037631408843614e-12
	2.229266269938533e-13
	7.498683268654883e-01

 5	5.000000000000000e-02
	-2.207034814367072e-15
	3.100080298253130e-19
	-2.250757688882339e-17
	3.119996816062929e-13
	9.649915584505426e-12
	3.056783437495229e-13
	7.498683268654921e-01

 6	6.000000000000000e-02
	-2.196886889334580e-15
	3.305381709706461e-19
	-2.410577038930353e-17
	4.237522063731763e-13
	1.323175974777039e-11
	4.191461133698042e-13
	7.498683268654982e-01

 7	7.000000000000001e-02
	-2.186851903620326e-15
	3.524057034762729e-19
	-2.584145886204465e-17
	5.754762425079130e-13
	1.814296686784397e-11
	5.747300907162777e-13
	7.498683268655068e-01

 8	8.000000000000000e-02
	-2.176925114982680e-15
	3.757221644174172e-19
	-2.772854191833896e-17
	7.814464891491204e-13
	2.487683045479840e-11
	7.880608782732549e-13
	7.498683268655175e-01

 9	9.000000000000000e-02
	-2.167101623174902e-15
	4.006100688699351e-19
	-2.978254982000067e-17
	1.061026497232157e-12
	3.410964154069216e-11
	1.080568979784881e-12
	7.498683268655333e-01

 10	9.999999999999999e-02
	-2.157376342003319e-15
	4.272034244195920e-19
	-3.202081129363912e-17
	1.440479143397974e-12
	4.676854437355653e-11
	1.481636258012726e-12
	7.498683268655544e-01

 11	1.100000000000000e-01
	-2.147743969957068e-15
	4.556481627571487e-19
	-3.446263210985749e-17
	1.955419674549565e-12
	6.412453431085265e-11
	2.031545072861516e-12
	7.498683268655836e-01

 12	1.200000000000000e-01
	-2.138198959375207e-15
	4.861024752189101e-19
	-3.712948468434990e-17
	2.654138711773712e-12
	8.791990236910612e-11
	2.785520610246580e-12
	7.498683268656232e-01

 13	1.300000000000000e-01
	-2.128735484113229e-15
	5.187370392267368e-19
	-4.004520897317290e-17
	3.602102766405506e-12
	1.205428673486664e-10
	3.819271241953008e-12
	7.498683268656775e-01

 14	1.400000000000000e-01
	-2.119347405668087e-15
	5.537351226515622e-19
	-4.323622494466158e-17
	4.888048105283768e-12
	1.652668379884077e-10
	5.236581448683303e-12
	7.498683268657521e-01

 15	1.500000000000000e-01
	-2.110028237718898e-15
	5.912925531217688e-19
	-4.673175691032051e-17
	6.632230000397236e-12
	2.265781773846425e-10
	7.179716737948691e-12
	7.498683268658547e-01

 16	1.600000000000000e-01
	-2.100771109041386e-15
	6.316175391481485e-19
	-5.056406997767428e-17
	8.997586682928967e-12
	3.106251312330096e-10
	9.843680373676932e-12
	7.498683268659951e-01

 17	1.700000000000000e-01
	-2.091568724759641e-15
	6.749303295359438e-19
	-5.476871883698960e-17
	1.220484338717712e-11
	4.258325897280312e-10
	1.349574527638736e-11
	7.498683268661872e-01

 18	1.800000000000000e-01
	-2.082413325911954e-15
	7.214626967649891e-19
	-5.938480899254033e-17
	1.655294045983808e-11
	5.837437487514657e-10
	1.850220888640292e-11
	7.498683268664508e-01

 19	1.900000000000000e-01
	-2.073296647332213e-15
	7.714572286789317e-19
	-6.445527037379930e-17
	2.244665244211183e-11
	8.001721058257228e-10
	2.536503551315093e-11
	7.498683268668128e-01

 20	2.000000000000000e-01
	-2.064209873889566e-15
	8.251664107571857e-19
	-7.002714298168103e-17
	3.043391487750167e-11
	1.096777720402617e-09
	3.477202967013993e-11
	7.498683268673084e-01

 21	2.100000000000000e-01
	-2.055143595192832e-15
	8.828514782784039e-19
	-7.615187380292085e-17
	4.125624921757173e-11
	1.503223194481748e-09
	4.766552017223863e-11
	7.498683268679874e-01

 22	2.200000000000001e-01
	-2.046087758959384e-15
	9.447810136840566e-19
	-8.288562361914637e-17
	5.591684938503011e-11
	2.060121311736291e-09
	6.533635731879740e-11
	7.498683268689184e-01

 23	2.300000000000001e-01
	-2.037031623378249e-15
	1.011229259340524e-18
	-9.028958149969105e-17
	7.577246709553340e-11
	2.823062988815235e-09
	8.955250894827536e-11
	7.498683268701937e-01

 24	2.400000000000001e-01
	-2.027963708972060e-15
	1.082474109701469e-18
	-9.843028364977330e-17
	1.026573406092490e-10
	3.868118215822267e-09
	1.227349215266639e-10
	7.498683268719420e-01

 25	2.500000000000001e-01
	-2.018871750689728e-15
	1.158794739742992e-18
	-1.073799318408832e-16
	1.390502298842094e-10
	5.299343437123919e-09
	1.681979077553687e-10
	7.498683268743366e-01

 26	2.600000000000001e-01
	-2.009742651247972e-15
	1.240468818799528e-18
	-1.172167048346561e-16
	1.882993828870802e-10
	7.259018890083043e-09
	2.304775597473920e-10
	7.498683268776175e-01

 27	2.700000000000001e-01
	-2.000562437090740e-15
	1.327769251074785e-18
	-1.280250539909644e-16
	2.549252682954031e-10
	9.941595332132740e-09
	3.157801385284368e-10
	7.498683268821115e-01

 28	2.800000000000001e-01
	-1.991316218753697e-15
	1.420960376855348e-18
	-1.398959716053900e-16
	3.450275672097208e-10
	1.361267303447317e-08
	4.325938185826337e-10
	7.498683268882647e-01

 29	2.900000000000001e-01
	-1.981988157906122e-15
	1.520293562754273e-18
	-1.529272174513719e-16
	4.668317371570000e-10
	1.863479505909452e-08
	5.925225805103199e-10
	7.498683268966900e-01

 30	3.000000000000001e-01
	-1.972561443889575e-15
	1.626002106324566e-18
	-1.672234855373438e-16
	6.314221103597670e-10
	2.550244779995844e-08
	8.114217758568943e-10
	7.498683269082217e-01

 31	3.100000000000001e-01
	-1.963018283170075e-15
	1.738295381493582e-18
	-1.828964892961350e-16
	8.537238133023984e-10
	3.488947027112032e-08
	1.110942674001576e-09
	7.498683269240001e-01

 32	3.200000000000001e-01
	-1.953339905749710e-15
	1.857352158061317e-18
	-2.000649394184113e-16
	1.153815867180962e-09
	4.771313642480805e-08
	1.520630391089879e-09
	7.498683269455820e-01

 33	3.300000000000001e-01
	-1.943506593215205e-15
	1.983313042708803e-18
	-2.188543844999762e-16
	1.558683983817489e-09
	6.522056064709085e-08
	2.080768872022649e-09
	7.498683269750895e-01

 34	3.400000000000001e-01
	-1.933497733695074e-15
	2.116272012378957e-18
	-2.393968808428885e-16
	2.104555445737670e-09
	8.910486604175734e-08
	2.846231672544939e-09
	7.498683270154136e-01

 35	3.500000000000001e-01
	-1.923291909499631e-15
	2.256267045266420e-18
	-2.618304544641557e-16
	2.840002017518384e-09
	1.216608379486735e-07
	3.891682648581120e-09
	7.498683270704869e-01

 36	3.600000000000002e-01
	-1.912867023561835e-15
	2.403269901497438e-18
	-2.862983160443866e-16
	3.830052373663095e-09
	1.659926538498564e-07
	5.318581702210077e-09
	7.498683271456549e-01

 37	3.700000000000002e-01
	-1.902200470899548e-15
	2.557175165927553e-18
	-3.129477887025554e-16
	5.161625627775047e-09
	2.262898176345913e-07
	7.264593744133299e-09
	7.498683272481692e-01

 38	3.800000000000002e-01
	-1.891269361088054e-15
	2.717788739573139e-18
	-3.419289096987133e-16
	6.950684955166483e-09
	3.081916802278992e-07
	9.916180978106164e-09
	7.498683273878531e-01

 39	3.900000000000002e-01
	-1.880050797064477e-15
	2.884816053105265e-18
	-3.733926710804869e-16
	9.351617685485017e-09
	4.192658786573713e-07
	1.352538663824707e-08
	7.498683275779834e-01

 40	4.000000000000002e-01
	-1.868522214382953e-15
	3.057850373098934e-18
	-4.074888715389158e-16
	1.256947777366422e-08
	5.696315238790580e-07
	1.843209877086941e-08
	7.498683278364657e-01

 41	4.100000000000002e-01
	-1.856661783212869e-15
	3.236361674952362e-18
	-4.443635628946878e-16
	1.687587923338149e-08
	7.727636593625137e-07
	2.509341946813655e-08
	7.498683281873803e-01

 42	4.200000000000002e-01
	-1.844448872860406e-15
	3.419686658977394e-18
	-4.841560901074897e-16
	2.262950374944079e-08
	1.046520730129707e-06
	3.412215703770961e-08
	7.498683286630103e-01

 43	4.300000000000002e-01
	-1.831864575379059e-15
	3.607020579234759e-18
	-5.269957436316104e-16
	3.030237747010960e-08
	1.414440439253299e-06
	4.633689607688794e-08
	7.498683293064795e-01

 44	4.400000000000002e-01
	-1.818892280963037e-15
	3.797411627293918e-18
	-5.729980670877188e-16
	4.051327058572597e-08
	1.907349752170532e-06
	6.282655965489887e-08
	7.498683301751536e-01

 45	4.500000000000002e-01
	-1.805518293413995e-15
	3.989758652791062e-18
	-6.222608908482797e-16
	5.406976047944223e-08
	2.565329608898598e-06
	8.503281515829077e-08
	7.498683313449842e-01

 46	4.600000000000002e-01
	-1.791732469253903e-15
	4.182812996545347e-18
	-6.748601919328197e-16
	7.202064609876794e-08
	3.440061158540519e-06
	1.148540206319157e-07
	7.498683329159831e-01

 47	4.700000000000003e-01
	-1.777528859337927e-15
	4.375185148198315e-18
	-7.308459106684776e-16
	9.572046548429456e-08
	4.597554693741000e-06
	1.547745595822842e-07
	7.498683350190418e-01

 48	4.800000000000003e-01
	-1.762906327500425e-15
	4.565356809848031e-18
	-7.902378824294224e-16
	1.269077924463750e-07
	6.121221819441358e-06
	2.080232341158142e-07
	7.498683378242775e-01

 49	4.900000000000003e-01
	-1.747869117305739e-15
	4.751698745791299e-18
	-8.530220655553695e-16
	1.677986989390479e-07
	8.115193966833371e-06
	2.787637182656839e-07
	7.498683415510790e-01

 50	5.000000000000002e-01
	-1.732427335856250e-15
	4.932494528799093e-18
	-9.191472612330275e-16
	2.211961811807294e-07
	1.070771737738538e-05
	3.723187503615426e-07
	7.498683464799255e-01

 51	5.100000000000002e-01
	-1.716597323282384e-15
	5.105969965944586e-18
	-9.885225248440032e-16
	2.906153711459578e-07
	1.405437233543137e-05
	4.954276356706556e-07
	7.498683529659828e-01

 52	5.200000000000002e-01
	-1.700401878355936e-15
	5.270327621026133e-18
	-1.061015458744708e-15
	3.804229155496318e-07
	1.834078565774774e-05
	6.565337032357310e-07
	7.498683614542778e-01

 53	5.300000000000002e-01
	-1.683870314821379e-15
	5.423785473093893e-18
	-1.136451552317571e-15
	4.959869670559851e-07
	2.378445035257282e-05
	8.660947445620267e-07
	7.498683724961218e-01

 54	5.400000000000003e-01
	-1.667038329508611e-15
	5.564618394302299e-18
	-1.214614696396821e-15
	6.438318380586794e-07
	3.063525987251860e-05
	1.136905515940584e-06
	7.498683867661899e-01

 55	5.500000000000003e-01
	-1.649947671807715e-15
	5.691200830618147e-18
	-1.295248947322764e-15
	8.317886708077380e-07
	3.917442998855775e-05
	1.484417719287883e-06
	7.498684050795287e-01

 56	5.600000000000003e-01
	-1.632645614137765e-15
	5.802048859453005e-18
	-1.378061553963438e-15
	1.069130775500829e-06
	4.971163083672855e-05
	1.927040283341655e-06
	7.498684284075881e-01

 57	5.700000000000003e-01
	-1.615184233899998e-15
	5.895859706495418e-18
	-1.462727193465235e-15
	1.366680015314392e-06
	6.258037366703248e-05
	2.486402053748161e-06
	7.498684578923749e-01

 58	5.800000000000003e-01
	-1.597619528198900e-15
	5.971546846956836e-18
	-1.548893293612297e-15
	1.736869290652056e-06
	7.813194869230041e-05
	3.187560705836253e-06
	7.498684948578987e-01

 59	5.900000000000003e-01
	-1.580010392420845e-15
	6.028268997846344e-18
	-1.636186257218115e-15
	2.193746269381274e-06
	9.672842128964430e-05
	4.059145780876579e-06
	7.498685408183059e-01

 60	6.000000000000003e-01
	-1.562417501716294e-15
	6.065451616901384e-18
	-1.724218352377797e-15
	2.752905290184947e-06
	1.187352821603942e-04
	5.133429395357901e-06
	7.498685974824062e-01

 61	6.100000000000003e-01
	-1.544902139839842e-15
	6.082799935797437e-18
	-1.812594996154328e-15
	3.431337730081330e-06
	1.445142513637699e-04
	6.446323819518782e-06
	7.498686667545678e-01

 62	6.200000000000003e-01
	-1.527525022214565e-15
	6.080303034685816e-18
	-1.900922141334537e-15
	4.247195551854434e-06
	1.744164472251984e-04
	8.037308825062709e-06
	7.498687507321847e-01

 63	6.300000000000003e-01
	-1.510345159356633e-15
	6.058228969820380e-18
	-1.988813477406291e-15
	5.219467414491578e-06
	2.087757104429212e-04
	9.949291777977328e-06
	7.498688516998663e-01

 64	6.400000000000003e-01
	-1.493418803087941e-15
	6.017111452597842e-18
	-2.075897177081345e-15
	6.367570832577011e-06
	2.479014449788783e-04
	1.222839916150545e-05
	7.498689721202970e-01

 65	6.500000000000004e-01
	-1.476798511722674e-15
	5.957729007172055e-18
	-2.161821955971365e-15
	7.710866993704344e-06
	2.920700509678058e-04
	1.492369022673187e-05
	7.498691146212391e-01

 66	6.600000000000004e-01
	-1.460532362293740e-15
	5.881077873636999e-18
	-2.246262261510239e-15
	9.268107232851891e-06
	3.415140090463121e-04
	1.808677388826156e-05
	7.498692819776268e-01

 67	6.700000000000004e-01
	-1.444663328663938e-15
	5.788340154502755e-18
	-2.328922463187286e-15
	1.105682271334467e-05
	3.964079936321373e-04
	2.177130189962394e-05
	7.498694770872151e-01

 68	6.800000000000004e-01
	-1.429228834846113e-15
	5.680848816083629e-18
	-2.409539974675943e-15
	1.309267276165998e-05
	4.568520230834808e-04
	2.603230806071032e-05
	7.498697029380352e-01

 69	6.900000000000004e-01
	-1.414260483773816e-15
	5.560051157490456e-18
	-2.487887294912892e-15
	1.538877343564814e-05
	5.228524950057653e-04
	3.092536739683467e-05
	7.498699625660558e-01

 70	7.000000000000004e-01
	-1.399783953722849e-15
	5.427472261975064e-18
	-2.563773005778692e-15
	1.795503626534241e-05
	5.943028441051153e-04
	3.650556223307575e-05
	7.498702590020916e-01

 71	7.100000000000004e-01
	-1.385819048012805e-15
	5.284679769055379e-18
	-2.637041805981276e-15
	2.079755644241161e-05
	6.709663072574051e-04
	4.282626340915278e-05
	7.498705952080968e-01

 72	7.200000000000004e-01
	-1.372379878753919e-15
	5.133251075402981e-18
	-2.707573692437341e-15
	2.391809763919412e-05
	7.524636975019288e-04
	4.993776215651167e-05
	7.498709740044203e-01

 73	7.300000000000004e-01
	-1.359475162305701e-15
	4.974743812666296e-18
	-2.775282421384807e-15
	2.731372410020850e-05
	8.382690243377829e-04
	5.788581728021988e-05
	7.498713979911960e-01

 74	7.400000000000004e-01
	-1.347108602685695e-15
	4.810670183964809e-18
	-2.840113392094394e-15
	3.097662696881632e-05
	9.277151765980906e-04
	6.671020798106181e-05
	7.498718694685101e-01

 75	7.500000000000004e-01
	-1.335279339202716e-15
	4.642475486671005e-18
	-2.902041097546534e-15
	3.489417960423642e-05
	1.020010742166377e-03
	7.644339942775483e-05
	7.498723903610448e-01

 76	7.600000000000005e-01
	-1.323982435812831e-15
	4.471520921484505e-18
	-2.961066280426269e-15
	3.904923657619683e-05
	1.114267540422153e-03
	8.710943156133900e-05
	7.498729621532505e-01

 77	7.700000000000005e-01
	-1.313209391802286e-15
	4.299070595930300e-18
	-3.017212921098061e-15
	4.342066596323782e-05
	1.209536864137313e-03
	9.872312933742464e-05
	7.498735858406584e-01

 78	7.800000000000005e-01
	-1.302948656086937e-15
	4.126282478868141e-18
	-3.070525168695558e-15
	4.798407900593384e-05
	1.304851094773808e-03
	1.112897055221844e-04
	7.498742619016325e-01

 79	7.900000000000005e-01
	-1.293186130407808e-15
	3.954202952089810e-18
	-3.121064308789700e-15
	5.271269998558353e-05
	1.399266559059645e-03
	1.248047892534347e-04
	7.498749902919414e-01

 80	8.000000000000005e-01
	-1.283905649764919e-15
	3.783764533276086e-18
	-3.168905842728296e-15
	5.757830636965706e-05
	1.491903402075047e-03
	1.392548711978005e-04
	7.498757704622355e-01

 81	8.100000000000005e-01
	-1.275089431384332e-15
	3.615786307109694e-18
	-3.214136735821397e-15
	6.255216673160881e-05
	1.581978856311514e-03
	1.546181164282161e-04
	7.498766013963297e-01

 82	8.200000000000005e-01
	-1.266718486224736e-15
	3.450976592569014e-18
	-3.256852874925534e-15
	6.760591127059510e-05
	1.668831415676967e-03
	1.708654653315182e-04
	7.498774816663523e-01

 83	8.300000000000005e-01
	-1.258772989415242e-15
	3.289937388269234e-18
	-3.297156761215724e-15
	7.271228447991050e-05
	1.751934802955227e-03
	1.879619248456889e-04
	7.498784094996893e-01

 84	8.400000000000005e-01
	-1.251232608031369e-15
	3.133170168148813e-18
	-3.335155451335047e-15
	7.784574810442137e-05
	1.830901957031746e-03
	2.058679481231470e-04
	7.498793828522383e-01

 85	8.500000000000005e-01
	-1.244076786250476e-15
	2.981082641291592e-18
	-3.370958749780961e-15
	8.298292140097158e-05
	1.905480332200303e-03
	2.245408086643645e-04
	7.498803994827475e-01

 86	8.600000000000005e-01
	-1.237284989195002e-15
	2.833996137464866e-18
	-3.404677647269588e-15
	8.810286205165641e-05
	1.975540471818662e-03
	2.439358916239835e-04
	7.498814570238336e-01

 87	8.700000000000006e-01
	-1.230836907702834e-15
	2.692153330144064e-18
	-3.436422993748510e-15
	9.318720322597540e-05
	2.041060077654006e-03
	2.640078462417138e-04
	7.498825530463474e-01

 88	8.800000000000006e-01
	-1.224712626900475e-15
	2.555726058409327e-18
	-3.466304390468708e-15
	9.822016975664564e-05
	2.102105712098802e-03
	2.847115653739263e-04
	7.498836851149383e-01

 89	8.900000000000006e-01
	-1.218892761842560e-15
	2.424823056003846e-18
	-3.494429282807440e-15
	1.031884995886766e-04
	2.158813953269880e-03
	3.060029780062346e-04
	7.498848508337916e-01

 90	9.000000000000006e-01
	-1.213358563667303e-15
	2.299497438636822e-18
	-3.520902234078930e-15
	1.080812965007658e-04
	2.211373388643145e-03
	3.278396566767839e-04
	7.498860478824040e-01

 91	9.100000000000006e-01
	-1.208091999745952e-15
	2.179753838519425e-18
	-3.545824360112515e-15
	1.128898376708064e-04
	2.260008377727028e-03
	3.501812532731573e-04
	7.498872740419602e-01

 92	9.200000000000006e-01
	-1.203075811214405e-15
	2.065555107820740e-18
	-3.569292904679440e-15
	1.176073559770536e-04
	2.304965104179949e-03
	3.729897838352059e-04
	7.498885272133113e-01

 93	9.300000000000006e-01
	-1.198293551101529e-15
	1.956828540258989e-18
	-3.591400936698889e-15
	1.222288128001957e-04
	2.346500107801768e-03
	3.962297864533197e-04
	7.498898054277884e-01

 94	9.400000000000006e-01
	-1.193729606039222e-15
	1.853471582675634e-18
	-3.612237151377267e-15
	1.267506730798173e-04
	2.384871247405412e-03
	4.198683769677075e-04
	7.498911068521621e-01

 95	9.500000000000006e-01
	-1.189369204277161e-15
	1.755357026592234e-18
	-3.631885758888779e-15
	1.311706908154919e-04
	2.420330890776800e-03
	4.438752258348675e-04
	7.498924297890086e-01

 96	9.600000000000006e-01
	-1.185198412448010e-15
	1.662337683927973e-18
	-3.650426445778730e-15
	1.354877102432168e-04
	2.453121043172284e-03
	4.682224770091915e-04
	7.498937726736344e-01

 97	9.700000000000006e-01
	-1.181204123250132e-15
	1.574250561784230e-18
	-3.667934395878154e-15
	1.397014855932219e-04
	2.483470093641451e-03
	4.928846266031383e-04
	7.498951340685446e-01

 98	9.800000000000006e-01
	-1.177374035944184e-15
	1.490920559010324e-18
	-3.684480359097527e-15
	1.438125206006744e-04
	2.511590862277190e-03
	5.178383758786023e-04
	7.498965126562838e-01

 99	9.900000000000007e-01
	-1.173696631304034e-15
	1.412163712639433e-18
	-3.700130757973968e-15
	1.478219277132943e-04
	2.537679657360059e-03
	5.430624700714468e-04
	7.498979072313032e-01

 100	1.000000000000001e+00
	-1.170161142425326e-15
	1.337790025683745e-18
	-3.714947823253193e-15
	1.517313061232909e-04
	2.561916088665311e-03
	5.685375318245976e-04
	7.498993166913701e-01

 101	1.010000000000001e+00
	-1.166757522579245e-15
	1.267605909592126e-18
	-3.728989751076313e-15
	1.555426372518448e-04
	2.584463424488340e-03
	5.942458956767593e-04
	7.499007400288947e-01

