Title: ** sch_path: /home/andylithia/openmpw/project-yatsuhashi-chip1/xschem/gmid_test/nmos_test.sch
Date: Sun Jul 17 22:51:45  2022
Plotname: DC transfer characteristic
Flags: real
No. Variables: 8
No. Points: 181
Variables:
	0	v(v-sweep)	voltage
	1	@m.xm1.msky130_fd_pr__nfet_01v8[cgb]	capacitance
	2	@m.xm1.msky130_fd_pr__nfet_01v8[cgd]	capacitance
	3	@m.xm1.msky130_fd_pr__nfet_01v8[cgs]	capacitance
	4	@m.xm1.msky130_fd_pr__nfet_01v8[gds]	admittance
	5	@m.xm1.msky130_fd_pr__nfet_01v8[gm]	admittance
	6	i(@m.xm1.msky130_fd_pr__nfet_01v8[id])	current
	7	v(@m.xm1.msky130_fd_pr__nfet_01v8[vth])	voltage
Values:
 0	0.000000000000000e+00
	-9.291801316634957e-15
	-4.071088341673643e-18
	-1.698135306013701e-14
	2.795594742315008e-08
	9.288110581369880e-07
	1.149943701151283e-07
	2.040436500851985e-01

 1	1.000000000000000e-02
	-9.189178578508058e-15
	-4.183052879156677e-18
	-1.722261755955546e-14
	3.020220701864659e-08
	1.006559363997279e-06
	1.246659528805123e-07
	2.040436512336210e-01

 2	2.000000000000000e-02
	-9.087818285356328e-15
	-4.298155079343766e-18
	-1.746365949609118e-14
	3.261999966819510e-08
	1.090902407107563e-06
	1.351475254990213e-07
	2.040436524782297e-01

 3	3.000000000000000e-02
	-8.987742695130750e-15
	-4.416485913385305e-18
	-1.770439152011367e-14
	3.522145246700204e-08
	1.182426125745151e-06
	1.465079201837906e-07
	2.040436538271976e-01

 4	4.000000000000000e-02
	-8.888973431295541e-15
	-4.538139178051564e-18
	-1.794472669297970e-14
	3.801945119102991e-08
	1.281772892717439e-06
	1.588221060300339e-07
	2.040436552894320e-01

 5	5.000000000000000e-02
	-8.791531441906745e-15
	-4.663211593124672e-18
	-1.818457860011584e-14
	4.102767858174924e-08
	1.389647390375696e-06
	1.721717822398142e-07
	2.040436568746319e-01

 6	6.000000000000000e-02
	-8.695436960592944e-15
	-4.791802902545151e-18
	-1.842386146268493e-14
	4.426065380326673e-08
	1.506823103627261e-06
	1.866460331397084e-07
	2.040436585933808e-01

 7	7.000000000000001e-02
	-8.600709469523281e-15
	-4.924015979473925e-18
	-1.866249024754632e-14
	4.773377305337144e-08
	1.634149488565470e-06
	2.023420514563913e-07
	2.040436604572203e-01

 8	8.000000000000000e-02
	-8.507367664441003e-15
	-5.059956935436950e-18
	-1.890038077522460e-14
	5.146335130638030e-08
	1.772559877854584e-06
	2.193659369089190e-07
	2.040436624787535e-01

 9	9.000000000000000e-02
	-8.415429421832940e-15
	-5.199735233727824e-18
	-1.913744982561188e-14
	5.546666516207386e-08
	1.923080187394325e-06
	2.378335778049781e-07
	2.040436646717430e-01

 10	9.999999999999999e-02
	-8.324911768298718e-15
	-5.343463807252319e-18
	-1.937361524113622e-14
	5.976199677151325e-08
	2.086838491965104e-06
	2.578716239896024e-07
	2.040436670512359e-01

 11	1.100000000000000e-01
	-8.235830852174548e-15
	-5.491259181007706e-18
	-1.960879602714110e-14
	6.436867880718471e-08
	2.265075540431083e-06
	2.796185601865936e-07
	2.040436696336772e-01

 12	1.200000000000000e-01
	-8.148201917459398e-15
	-5.643241599396053e-18
	-1.984291244923058e-14
	6.930714044168171e-08
	2.459156283547217e-06
	3.032258894911760e-07
	2.040436724370677e-01

 13	1.300000000000000e-01
	-8.062039280082131e-15
	-5.799535158585698e-18
	-2.007588612734989e-14
	7.459895429618545e-08
	2.670582489364259e-06
	3.288594375132669e-07
	2.040436754810997e-01

 14	1.400000000000000e-01
	-7.977356306540917e-15
	-5.960267944138108e-18
	-2.030764012638168e-14
	8.026688431713348e-08
	2.901006522513508e-06
	3.567007884273571e-07
	2.040436787873467e-01

 15	1.500000000000000e-01
	-7.894165394936743e-15
	-6.125572174134355e-18
	-2.053809904305590e-14
	8.633493453701818e-08
	3.152246364141206e-06
	3.869488649512307e-07
	2.040436823794389e-01

 16	1.600000000000000e-01
	-7.812477958415364e-15
	-6.295584348041512e-18
	-2.076718908898358e-14
	9.282839867291657e-08
	3.426301948779091e-06
	4.198216650415085e-07
	2.040436862832735e-01

 17	1.700000000000000e-01
	-7.732304411023000e-15
	-6.470445401574336e-18
	-2.099483816964229e-14
	9.977391051444164e-08
	3.725372892812830e-06
	4.555581688498516e-07
	2.040436905272362e-01

 18	1.800000000000000e-01
	-7.653654155973038e-15
	-6.650300867816503e-18
	-2.122097595915660e-14
	1.071994950511300e-07
	4.051877686244399e-06
	4.944204302162969e-07
	2.040436951424667e-01

 19	1.900000000000000e-01
	-7.576535576312684e-15
	-6.835301044882567e-18
	-2.144553397073491e-14
	1.151346202880692e-07
	4.408474414938036e-06
	5.366958676721491e-07
	2.040437001631063e-01

 20	2.000000000000000e-01
	-7.500956027970759e-15
	-7.025601170410394e-18
	-2.166844562263889e-14
	1.236102496975766e-07
	4.798083074263221e-06
	5.826997705662210e-07
	2.040437056266151e-01

 21	2.100000000000000e-01
	-7.426921835159434e-15
	-7.221361603191921e-18
	-2.188964629958203e-14
	1.326588952543672e-07
	5.223909526784752e-06
	6.327780364980467e-07
	2.040437115740871e-01

 22	2.200000000000001e-01
	-7.354438288095897e-15
	-7.422748012263536e-18
	-2.210907340946891e-14
	1.423146710015100e-07
	5.689471146148025e-06
	6.873101567169382e-07
	2.040437180506154e-01

 23	2.300000000000001e-01
	-7.283509643001863e-15
	-7.629931573791556e-18
	-2.232666643540664e-14
	1.526133470950161e-07
	6.198624176334761e-06
	7.467124665044983e-07
	2.040437251056662e-01

 24	2.400000000000001e-01
	-7.214139124332447e-15
	-7.843089176108094e-18
	-2.254236698293585e-14
	1.635924042757814e-07
	6.755592819767719e-06
	8.114416777731293e-07
	2.040437327935062e-01

 25	2.500000000000001e-01
	-7.146328929179184e-15
	-8.062403633265448e-18
	-2.275611882244671e-14
	1.752910887192197e-07
	7.365000049089799e-06
	8.819987111568519e-07
	2.040437411736566e-01

 26	2.600000000000001e-01
	-7.080080233785535e-15
	-8.288063907499870e-18
	-2.296786792676310e-14
	1.877504672151132e-07
	8.031900115599567e-06
	9.589328447119570e-07
	2.040437503113908e-01

 27	2.700000000000001e-01
	-7.015393202107531e-15
	-8.520265341011583e-18
	-2.317756250389498e-14
	2.010134826330731e-07
	8.761812702080205e-06
	1.042846195950798e-06
	2.040437602782579e-01

 28	2.800000000000001e-01
	-6.952266996346953e-15
	-8.759209897488854e-18
	-2.338515302497423e-14
	2.151250096327565e-07
	9.560758638926749e-06
	1.134398553267459e-06
	2.040437711526667e-01

 29	2.900000000000001e-01
	-6.890699789379310e-15
	-9.005106413825855e-18
	-2.359059224740743e-14
	2.301319105825979e-07
	1.043529706990721e-05
	1.234312571842727e-06
	2.040437830204994e-01

 30	3.000000000000001e-01
	-6.830688778994382e-15
	-9.258170862506086e-18
	-2.379383523329307e-14
	2.460830916564758e-07
	1.139256391747765e-05
	1.343379347799058e-06
	2.040437959757722e-01

 31	3.100000000000001e-01
	-6.772230203863388e-15
	-9.518626625145223e-18
	-2.399483936316537e-14
	2.630295590846107e-07
	1.244031145726470e-05
	1.462464382676056e-06
	2.040438101213500e-01

 32	3.200000000000001e-01
	-6.715319361142815e-15
	-9.786704777714871e-18
	-2.419356434514274e-14
	2.810244755432096e-07
	1.358694876715300e-05
	1.592513948174159e-06
	2.040438255697026e-01

 33	3.300000000000001e-01
	-6.659950625622388e-15
	-1.006264438799217e-17
	-2.438997221957056e-14
	3.001232166772184e-07
	1.484158276847125e-05
	1.734561858530322e-06
	2.040438424437079e-01

 34	3.400000000000001e-01
	-6.606117470321890e-15
	-1.034669282580854e-17
	-2.458402735926131e-14
	3.203834277621597e-07
	1.621405952526671e-05
	1.889736654808107e-06
	2.040438608775089e-01

 35	3.500000000000001e-01
	-6.553812488439293e-15
	-1.063910608670084e-17
	-2.477569646544793e-14
	3.418650805248718e-07
	1.771500541290501e-05
	2.059269201771489e-06
	2.040438810174122e-01

 36	3.600000000000002e-01
	-6.503027416551730e-15
	-1.094014912959714e-17
	-2.496494855957445e-14
	3.646305301590846e-07
	1.935586770966849e-05
	2.244500693835818e-06
	2.040439030228455e-01

 37	3.700000000000002e-01
	-6.453753158968719e-15
	-1.125009622920110e-17
	-2.515175497106201e-14
	3.887445725908890e-07
	2.114895410524100e-05
	2.446891061826904e-06
	2.040439270673652e-01

 38	3.800000000000002e-01
	-6.405979813137430e-15
	-1.156923134377764e-17
	-2.533608932119374e-14
	4.142745020714305e-07
	2.310747055868424e-05
	2.668027766910019e-06
	2.040439533396849e-01

 39	3.900000000000002e-01
	-6.359696695998789e-15
	-1.189784849906836e-17
	-2.551792750327257e-14
	4.412901692000701e-07
	2.524555687662221e-05
	2.909634962063673e-06
	2.040439820447800e-01

 40	4.000000000000002e-01
	-6.314892371193996e-15
	-1.223625218911545e-17
	-2.569724765921241e-14
	4.698640395116172e-07
	2.757831932094515e-05
	3.173582994870455e-06
	2.040440134050117e-01

 41	4.100000000000002e-01
	-6.271554677021257e-15
	-1.258475779480079e-17
	-2.587403015272955e-14
	5.000712527962944e-07
	3.012185949563819e-05
	3.461898218185828e-06
	2.040440476612963e-01

 42	4.200000000000002e-01
	-6.229670755043860e-15
	-1.294369202095679e-17
	-2.604825753930665e-14
	5.319896833616904e-07
	3.289329870577574e-05
	3.776773067452682e-06
	2.040440850743056e-01

 43	4.300000000000002e-01
	-6.189227079251917e-15
	-1.331339335294553e-17
	-2.621991453310650e-14
	5.657000014928565e-07
	3.591079692988564e-05
	4.120576355092670e-06
	2.040441259256855e-01

 44	4.400000000000002e-01
	-6.150209485682150e-15
	-1.369421253364965e-17
	-2.638898797101495e-14
	6.012857364204241e-07
	3.919356550153447e-05
	4.495863723580443e-06
	2.040441705193133e-01

 45	4.500000000000002e-01
	-6.112603202401460e-15
	-1.408651306187020e-17
	-2.655546677399760e-14
	6.388333411685131e-07
	4.276187255903281e-05
	4.905388189570680e-06
	2.040442191825348e-01

 46	4.600000000000002e-01
	-6.076392879763585e-15
	-1.449067171317404e-17
	-2.671934190595339e-14
	6.784322597243654e-07
	4.663704029559867e-05
	5.352110701889074e-06
	2.040442722674232e-01

 47	4.700000000000003e-01
	-6.041562620849608e-15
	-1.490707908428810e-17
	-2.688060633025203e-14
	7.201749970519522e-07
	5.084143302830122e-05
	5.839210626438511e-06
	2.040443301520444e-01

 48	4.800000000000003e-01
	-6.008096012006554e-15
	-1.533614016220372e-17
	-2.703925496414104e-14
	7.641571925627008e-07
	5.539843510477048e-05
	6.370096061243459e-06
	2.040443932416584e-01

 49	4.900000000000003e-01
	-5.975976153401446e-15
	-1.577827491919634e-17
	-2.719528463120759e-14
	8.104776977588280e-07
	6.033241768411796e-05
	6.948413875112468e-06
	2.040444619699296e-01

 50	5.000000000000002e-01
	-5.945185689511370e-15
	-1.623391893505567e-17
	-2.734869401207913e-14
	8.592386588804235e-07
	6.566869346492566e-05
	7.578059353930338e-06
	2.040445368000626e-01

 51	5.100000000000002e-01
	-5.915706839473430e-15
	-1.670352404785708e-17
	-2.749948359354515e-14
	9.105456055166005e-07
	7.143345849038291e-05
	8.263185329584927e-06
	2.040446182258931e-01

 52	5.200000000000002e-01
	-5.887521427222484e-15
	-1.718755903470777e-17
	-2.764765561627913e-14
	9.645075462854974e-07
	7.765372024048495e-05
	9.008210658216480e-06
	2.040447067728909e-01

 53	5.300000000000002e-01
	-5.860610911347875e-15
	-1.768651032395171e-17
	-2.779321402133679e-14
	1.021237072848277e-06
	8.435721132502548e-05
	9.817827907075183e-06
	2.040448029990747e-01

 54	5.400000000000003e-01
	-5.834956414604346e-15
	-1.820088274040723e-17
	-2.793616439560325e-14
	1.080850473700061e-06
	9.157228822001503e-05
	1.069701010303797e-05
	2.040449074958085e-01

 55	5.500000000000003e-01
	-5.810538753016303e-15
	-1.873120028529348e-17
	-2.807651391635651e-14
	1.143467859376596e-06
	9.932781464466505e-05
	1.165101639101692e-05
	2.040450208884718e-01

 56	5.600000000000003e-01
	-5.787338464518528e-15
	-1.927800695258564e-17
	-2.821427129511081e-14
	1.209213300930648e-06
	1.076530293562340e-04
	1.268539644735019e-05
	2.040451438369904e-01

 57	5.700000000000003e-01
	-5.765335837079868e-15
	-1.984186758363732e-17
	-2.834944672089807e-14
	1.278214983767755e-06
	1.165773983451858e-04
	1.380599349205578e-05
	2.040452770361670e-01

 58	5.800000000000003e-01
	-5.744510936261526e-15
	-2.042336876199646e-17
	-2.848205180313906e-14
	1.350605379187113e-06
	1.261304516418567e-04
	1.501894574478401e-05
	2.040454212158797e-01

 59	5.900000000000003e-01
	-5.724843632163978e-15
	-2.102311975045506e-17
	-2.861209951425199e-14
	1.426521436252550e-06
	1.363416051961351e-04
	1.633068617267395e-05
	2.040455771410258e-01

 60	6.000000000000003e-01
	-5.706313625721986e-15
	-2.164175347247308e-17
	-2.873960413213793e-14
	1.506104796919375e-06
	1.472399685603692e-04
	1.774794038427146e-05
	2.040457456112727e-01

 61	6.100000000000003e-01
	-5.688900474309714e-15
	-2.227992754023277e-17
	-2.886458118267809e-14
	1.589502037668274e-06
	1.588541393892024e-04
	1.927772253240113e-05
	2.040459274605702e-01

 62	6.200000000000003e-01
	-5.672583616622635e-15
	-2.293832533170532e-17
	-2.898704738236984e-14
	1.676864941246757e-06
	1.712119860634733e-04
	2.092732910050170e-05
	2.040461235563967e-01

 63	6.300000000000003e-01
	-5.657342396806120e-15
	-2.361765711922953e-17
	-2.910702058122290e-14
	1.768350802493336e-06
	1.843404200432959e-04
	2.270433046151697e-05
	2.040463347987680e-01

 64	6.400000000000003e-01
	-5.643156087804127e-15
	-2.431866125224924e-17
	-2.922451970602973e-14
	1.864122772620879e-06
	1.982651598517615e-04
	2.461656011600310e-05
	2.040465621189295e-01

 65	6.500000000000004e-01
	-5.630003913905478e-15
	-2.504210539698209e-17
	-2.933956470411739e-14
	1.964350246763591e-06
	2.130104888783871e-04
	2.667210153659270e-05
	2.040468064778079e-01

 66	6.600000000000004e-01
	-5.617865072467740e-15
	-2.578878783595812e-17
	-2.945217648768151e-14
	2.069209300049932e-06
	2.285990094633590e-04
	2.887927256926484e-05
	2.040470688641494e-01

 67	6.700000000000004e-01
	-5.606718754802591e-15
	-2.655953883051317e-17
	-2.956237687879607e-14
	2.178883177951538e-06
	2.450513959718403e-04
	3.124660736776433e-05
	2.040473502923608e-01

 68	6.800000000000004e-01
	-5.596544166209263e-15
	-2.735522204949115e-17
	-2.967018855518609e-14
	2.293562847179417e-06
	2.623861497845408e-04
	3.378283586575089e-05
	2.040476518000798e-01

 69	6.900000000000004e-01
	-5.587320545145782e-15
	-2.817673606759312e-17
	-2.977563499684312e-14
	2.413447613956361e-06
	2.806193593086760e-04
	3.649686082147849e-05
	2.040479744454329e-01

 70	7.000000000000004e-01
	-5.579027181530657e-15
	-2.902501593697696e-17
	-2.987874043355753e-14
	2.538745817091567e-06
	2.997644682449686e-04
	3.939773250156163e-05
	2.040483193040406e-01

 71	7.100000000000004e-01
	-5.571643434169746e-15
	-2.990103483593702e-17
	-2.997952979343469e-14
	2.669675603926648e-06
	3.198320554250524e-04
	4.249462110321672e-05
	2.040486874657314e-01

 72	7.200000000000004e-01
	-5.565148747306286e-15
	-3.080580579866927e-17
	-3.007802865245577e-14
	2.806465797915484e-06
	3.408296295535046e-04
	4.579678704766598e-05
	2.040490800310215e-01

 73	7.300000000000004e-01
	-5.559522666293745e-15
	-3.174038353036832e-17
	-3.017426318513815e-14
	2.949356867354068e-06
	3.627614421455260e-04
	4.931354931059902e-05
	2.040494981073438e-01

 74	7.400000000000004e-01
	-5.554744852393746e-15
	-3.270586631211856e-17
	-3.026826011634395e-14
	3.098602005597493e-06
	3.856283218415292e-04
	5.305425198799958e-05
	2.040499428050931e-01

 75	7.500000000000004e-01
	-5.550795096703228e-15
	-3.370339800029554e-17
	-3.036004667427981e-14
	3.254468334003322e-06
	4.094275331023833e-04
	5.702822932663893e-05
	2.040504152334656e-01

 76	7.600000000000005e-01
	-5.547653333216606e-15
	-3.473417012544120e-17
	-3.044965054472525e-14
	3.417238239835999e-06
	4.341526620438206e-04
	6.124476947739333e-05
	2.040509164961628e-01

 77	7.700000000000005e-01
	-5.545299651031020e-15
	-3.579942409584956e-17
	-3.053709982652172e-14
	3.587210862472711e-06
	4.597935318577889e-04
	6.571307725561365e-05
	2.040514476869671e-01

 78	7.800000000000005e-01
	-5.543714305703374e-15
	-3.690045351138752e-17
	-3.062242298834944e-14
	3.764703742486668e-06
	4.863361498964354e-04
	7.044223621542235e-05
	2.040520098852500e-01

 79	7.900000000000005e-01
	-5.542877729770371e-15
	-3.803860659337125e-17
	-3.070564882681407e-14
	3.950054649571336e-06
	5.137626880668507e-04
	7.544117036344565e-05
	2.040526041514205e-01

 80	8.000000000000005e-01
	-5.542770542443106e-15
	-3.921528873663081e-17
	-3.078680642586043e-14
	4.143623606835078e-06
	5.420514977094933e-04
	8.071860585159145e-05
	2.040532315223849e-01

 81	8.100000000000005e-01
	-5.543373558489280e-15
	-4.043196519024507e-17
	-3.086592511752665e-14
	4.345795130770260e-06
	5.711771596197786e-04
	8.628303299763074e-05
	2.040538930070310e-01

 82	8.200000000000005e-01
	-5.544667796317269e-15
	-4.169016387375170e-17
	-3.094303444404757e-14
	4.556980708218549e-06
	6.011105693313860e-04
	9.214266898619345e-05
	2.040545895818065e-01

 83	8.300000000000005e-01
	-5.546634485276513e-15
	-4.299147833603241e-17
	-3.101816412131199e-14
	4.777621533955131e-06
	6.318190572233397e-04
	9.830542160115025e-05
	2.040553221864114e-01

 84	8.400000000000005e-01
	-5.549255072190101e-15
	-4.433757086444021e-17
	-3.109134400367561e-14
	5.008191535143561e-06
	6.632665424533637e-04
	1.047788543331122e-04
	2.040560917196427e-01

 85	8.500000000000005e-01
	-5.552511227135725e-15
	-4.573017575215193e-17
	-3.116260405012651e-14
	5.249200711920653e-06
	6.954137191702028e-04
	1.115701531929621e-04
	2.040568990354683e-01

 86	8.600000000000005e-01
	-5.556384848491120e-15
	-4.717110273215769e-17
	-3.123197429179877e-14
	5.501198826818441e-06
	7.282182729306896e-04
	1.186860955441687e-04
	2.040577449393040e-01

 87	8.700000000000006e-01
	-5.560858067261658e-15
	-4.866224058672876e-17
	-3.129948480082478e-14
	5.764779479678718e-06
	7.616351247549595e-04
	1.261330212432966e-04
	2.040586301845886e-01

 88	8.800000000000006e-01
	-5.565913250706811e-15
	-5.020556094169597e-17
	-3.136516566051499e-14
	6.040584609245634e-06
	7.956166998074516e-04
	1.339168063501498e-04
	2.040595554696576e-01

 89	8.900000000000006e-01
	-5.571533005283093e-15
	-5.180312225534685e-17
	-3.142904693685161e-14
	6.329309467813407e-06
	8.301132173016707e-04
	1.420428396367990e-04
	2.040605214349466e-01

 90	9.000000000000006e-01
	-5.577700178920568e-15
	-5.345707401227254e-17
	-3.149115865127920e-14
	6.631708121258313e-06
	8.650729979018682e-04
	1.505160020889904e-04
	2.040615286605384e-01

 91	9.100000000000006e-01
	-5.584397862650667e-15
	-5.516966113300623e-17
	-3.155153075477377e-14
	6.948599533603537e-06
	9.004427846412237e-04
	1.593406495547828e-04
	2.040625776641092e-01

 92	9.200000000000006e-01
	-5.591609391602290e-15
	-5.694322861089153e-17
	-3.161019310316942e-14
	7.280874303078049e-06
	9.361680731984773e-04
	1.685205986544813e-04
	2.040636688992450e-01

 93	9.300000000000006e-01
	-5.599318345382792e-15
	-5.878022638817929e-17
	-3.166717543372040e-14
	7.629502125573814e-06
	9.721934472752511e-04
	1.780591160237538e-04
	2.040648027541448e-01

 94	9.400000000000006e-01
	-5.607508547861376e-15
	-6.068321448394314e-17
	-3.172250734287319e-14
	7.995540071639368e-06
	1.008462914794840e-03
	1.879589109190437e-04
	2.040659795507536e-01

 95	9.500000000000006e-01
	-5.616164066370120e-15
	-6.265486838707352e-17
	-3.177621826522403e-14
	8.380141774852898e-06
	1.044920240697962e-03
	1.982221311718198e-04
	2.040671995442625e-01

 96	9.600000000000006e-01
	-5.625269210339269e-15
	-6.469798472821750e-17
	-3.182833745363331e-14
	8.784567642795484e-06
	1.081509272237483e-03
	2.088503624365165e-04
	2.040684629230272e-01

 97	9.700000000000006e-01
	-5.634808529381382e-15
	-6.681548724525886e-17
	-3.187889396046927e-14
	9.210196217129050e-06
	1.118174252866890e-03
	2.198446306369918e-04
	2.040697698088411e-01

 98	9.800000000000006e-01
	-5.644766810839733e-15
	-6.901043305756564e-17
	-3.192791661995048e-14
	9.658536826727305e-06
	1.154860121068221e-03
	2.312054074784567e-04
	2.040711202576094e-01

 99	9.900000000000007e-01
	-5.655129076814136e-15
	-7.128601926503483e-17
	-3.197543403155717e-14
	1.013124369771187e-05
	1.191512790766215e-03
	2.429326188568657e-04
	2.040725142603239e-01

 100	1.000000000000001e+00
	-5.665880580678322e-15
	-7.364558988862388e-17
	-3.202147454447946e-14
	1.063013170692142e-05
	1.228079410315726e-03
	2.550256559658468e-04
	2.040739517443978e-01

 101	1.010000000000001e+00
	-5.677006803101173e-15
	-7.609264316988615e-17
	-3.206606624307020e-14
