Title: ** sch_path: /home/andylithia/openmpw/project-yatsuhashi-chip1/xschem/gmid_test/nmos_test.sch
Date: Sun Jul 17 22:51:45  2022
Plotname: DC transfer characteristic
Flags: real
No. Variables: 8
No. Points: 181
Variables:
	0	v(v-sweep)	voltage
	1	@m.xm1.msky130_fd_pr__nfet_01v8[cgb]	capacitance
	2	@m.xm1.msky130_fd_pr__nfet_01v8[cgd]	capacitance
	3	@m.xm1.msky130_fd_pr__nfet_01v8[cgs]	capacitance
	4	@m.xm1.msky130_fd_pr__nfet_01v8[gds]	admittance
	5	@m.xm1.msky130_fd_pr__nfet_01v8[gm]	admittance
	6	i(@m.xm1.msky130_fd_pr__nfet_01v8[id])	current
	7	v(@m.xm1.msky130_fd_pr__nfet_01v8[vth])	voltage
Values:
 0	0.000000000000000e+00
	-4.614322046691629e-15
	4.854615366059320e-19
	-3.474423247069810e-15
	2.726705573942024e-08
	8.539065447054922e-07
	7.638920121538543e-08
	4.064606033682825e-01

 1	1.000000000000000e-02
	-4.568588683416152e-15
	4.846824511228166e-19
	-3.569534361775084e-15
	3.046958084903354e-08
	9.535068303470623e-07
	8.541726160420579e-08
	4.064606042635595e-01

 2	2.000000000000000e-02
	-4.522924126054968e-15
	4.831707506415383e-19
	-3.665996192886920e-15
	3.404122163457561e-08
	1.064506711173577e-06
	9.549731458784302e-08
	4.064606052631577e-01

 3	3.000000000000000e-02
	-4.477344117808442e-15
	4.808903245460217e-19
	-3.763769064727064e-15
	3.802328581114265e-08
	1.188180042447882e-06
	1.067496153485177e-07
	4.064606063790046e-01

 4	4.000000000000000e-02
	-4.431865066188727e-15
	4.778046587626980e-19
	-3.862810704184415e-15
	4.246149019513280e-08
	1.325939464489273e-06
	1.193078397007640e-07
	4.064606076243549e-01

 5	5.000000000000000e-02
	-4.386503999263264e-15
	4.738768820383059e-19
	-3.963076291876281e-15
	4.740639514068305e-08
	1.479351328643060e-06
	1.333205452559411e-07
	4.064606090139400e-01

 6	6.000000000000000e-02
	-4.341278519164740e-15
	4.690698126312421e-19
	-4.064518523372272e-15
	5.291387578411632e-08
	1.650152284226235e-06
	1.489527899860150e-07
	4.064606105641312e-01

 7	7.000000000000001e-02
	-4.296206753023354e-15
	4.633460050994897e-19
	-4.167087680416379e-15
	5.904563223389876e-08
	1.840267735909030e-06
	1.663879258187467e-07
	4.064606122931081e-01

 8	8.000000000000000e-02
	-4.251307301497916e-15
	4.566677968571331e-19
	-4.270731712019147e-15
	6.586974080213428e-08
	2.051832412560410e-06
	1.858295871446249e-07
	4.064606142210659e-01

 9	9.000000000000000e-02
	-4.206599185102163e-15
	4.489973541615253e-19
	-4.375396325228286e-15
	7.346124829680394e-08
	2.287213325272325e-06
	2.075038967050233e-07
	4.064606163704288e-01

 10	9.999999999999999e-02
	-4.162101788541513e-15
	4.402967171866719e-19
	-4.481025085321415e-15
	8.190281127601338e-08
	2.549035434766168e-06
	2.316619143151865e-07
	4.064606187660942e-01

 11	1.100000000000000e-01
	-4.117834803292810e-15
	4.305278438338658e-19
	-4.587559525100606e-15
	9.128538200068252e-08
	2.840210397392365e-06
	2.585823573167994e-07
	4.064606214357019e-01

 12	1.200000000000000e-01
	-4.073818168675614e-15
	4.196526519289404e-19
	-4.694939262905783e-15
	1.017089426041185e-07
	3.163968815170152e-06
	2.885746256215058e-07
	4.064606244099356e-01

 13	1.300000000000000e-01
	-4.030072011677847e-15
	4.076330594559380e-19
	-4.803102128902437e-15
	1.132832887195257e-07
	3.523896479457866e-06
	3.219821687747290e-07
	4.064606277228524e-01

 14	1.400000000000000e-01
	-3.986616585810942e-15
	3.944310224817024e-19
	-4.911984299139917e-15
	1.261288634632743e-07
	3.923975170485201e-06
	3.591862377203327e-07
	4.064606314122642e-01

 15	1.500000000000000e-01
	-3.943472209279958e-15
	3.800085704304337e-19
	-5.021520436820953e-15
	1.403776422566829e-07
	4.368628656571049e-06
	4.006100699689773e-07
	4.064606355201415e-01

 16	1.600000000000000e-01
	-3.900659202762416e-15
	3.643278383785429e-19
	-5.131643840169300e-15
	1.561740684759396e-07
	4.862774627606136e-06
	4.467235637562569e-07
	4.064606400930876e-01

 17	1.700000000000000e-01
	-3.858197827095341e-15
	3.473510960497372e-19
	-5.242286596234880e-15
	1.736760393437370e-07
	5.411883397210896e-06
	4.980485046137103e-07
	4.064606451828450e-01

 18	1.800000000000000e-01
	-3.816108221173651e-15
	3.290407732062381e-19
	-5.353379739930460e-15
	1.930559408121340e-07
	6.022044316325067e-06
	5.551644166532819e-07
	4.064606508468872e-01

 19	1.900000000000000e-01
	-3.774410340364043e-15
	3.093594811474018e-19
	-5.464853417556024e-15
	2.145017294311978e-07
	6.700040956732243e-06
	6.187151208654827e-07
	4.064606571490639e-01

 20	2.000000000000000e-01
	-3.733123895737174e-15
	2.882700300468263e-19
	-5.576637054032766e-15
	2.382180583496027e-07
	7.453436244278088e-06
	6.894160939171670e-07
	4.064606641603332e-01

 21	2.100000000000000e-01
	-3.692268294416973e-15
	2.657354418795227e-19
	-5.688659523041459e-15
	2.644274436515942e-07
	8.290668845501436e-06
	7.680627333492431e-07
	4.064606719595762e-01

 22	2.200000000000001e-01
	-3.651862581339690e-15
	2.417189587142072e-19
	-5.800849319238608e-15
	2.933714662011852e-07
	9.221162234106856e-06
	8.555396487253373e-07
	4.064606806345244e-01

 23	2.300000000000001e-01
	-3.611925382706401e-15
	2.161840461696152e-19
	-5.913134731709192e-15
	3.253120030437359e-07
	1.025544797987239e-05
	9.528311131322853e-07
	4.064606902827932e-01

 24	2.400000000000001e-01
	-3.572474851401658e-15
	1.890943918600835e-19
	-6.025444017806790e-15
	3.605324812140640e-07
	1.140530490532294e-05
	1.061032825382660e-06
	4.064607010130517e-01

 25	2.500000000000001e-01
	-3.533528614637670e-15
	1.604138986822567e-19
	-6.137705576530644e-15
	3.993391455298921e-07
	1.268391583616328e-05
	1.181365150143314e-06
	4.064607129463322e-01

 26	2.600000000000001e-01
	-3.495103724067771e-15
	1.301066728228329e-19
	-6.249848120595234e-15
	4.420623306235897e-07
	1.410604371941905e-05
	1.315188020738659e-06
	4.064607262175108e-01

 27	2.700000000000001e-01
	-3.457216608595960e-15
	9.813700639501911e-20
	-6.361800846359790e-15
	4.890577261022914e-07
	1.568822888574344e-05
	1.464017707164508e-06
	4.064607409769723e-01

 28	2.800000000000001e-01
	-3.419883030089718e-15
	6.446935463976163e-20
	-6.473493600805248e-15
	5.407076223490404e-07
	1.744900917448539e-05
	1.629545669370048e-06
	4.064607573924753e-01

 29	2.900000000000001e-01
	-3.383118042183032e-15
	2.906830765627788e-20
	-6.584857044770669e-15
	5.974221231123276e-07
	1.940916450478006e-05
	1.813659732433117e-06
	4.064607756512617e-01

 30	3.000000000000001e-01
	-3.346935952334306e-15
	-8.101443346950893e-21
	-6.695822811693962e-15
	6.596403097105357e-07
	2.159198724404070e-05
	2.018467835000154e-06
	4.064607959624028e-01

 31	3.100000000000001e-01
	-3.311350287280996e-15
	-4.707514526160850e-20
	-6.806323661137999e-15
	7.278313404365397e-07
	2.402357937600651e-05
	2.246324614215167e-06
	4.064608185594443e-01

 32	3.200000000000001e-01
	-3.276373762008618e-15
	-8.788802770553379e-20
	-6.916293626427201e-15
	8.024954676279138e-07
	2.673317698206755e-05
	2.499861098042685e-06
	4.064608437033483e-01

 33	3.300000000000001e-01
	-3.242018252327522e-15
	-1.305753529970577e-19
	-7.025668155766410e-15
	8.841649539131793e-07
	2.975350189965949e-05
	2.782017777889482e-06
	4.064608716857734e-01

 34	3.400000000000001e-01
	-3.208294771125786e-15
	-1.751724713861901e-19
	-7.134384246266108e-15
	9.734048684031069e-07
	3.312113958860172e-05
	3.096081329026944e-06
	4.064609028327271e-01

 35	3.500000000000001e-01
	-3.175213448341765e-15
	-2.217148814319067e-19
	-7.242380570353978e-15
	1.070813743118758e-06
	3.687694120092342e-05
	3.445725231580026e-06
	4.064609375085842e-01

 36	3.600000000000002e-01
	-3.142783514674987e-15
	-2.702382953948147e-19
	-7.349597594110705e-15
	1.177024069785334e-06
	4.106644659634954e-05
	3.835054518668284e-06
	4.064609761205332e-01

 37	3.700000000000002e-01
	-3.111013289029846e-15
	-3.207787094989159e-19
	-7.455977687129893e-15
	1.292702617326266e-06
	4.574032356450299e-05
	4.268654838430302e-06
	4.064610191234446e-01

 38	3.800000000000002e-01
	-3.079910169662762e-15
	-3.733724789029965e-19
	-7.561465223564128e-15
	1.418550551012672e-06
	5.095481680436925e-05
	4.751645960833276e-06
	4.064610670251791e-01

 39	3.900000000000002e-01
	-3.049480628980660e-15
	-4.280563972094869e-19
	-7.666006674083803e-15
	1.555303335305452e-06
	5.677219828084911e-05
	5.289739786110850e-06
	4.064611203923468e-01

 40	4.000000000000002e-01
	-3.019730211916870e-15
	-4.848677803324498e-19
	-7.769550688539404e-15
	1.703730404007323e-06
	6.326120844980718e-05
	5.889302817278682e-06
	4.064611798565007e-01

 41	4.100000000000002e-01
	-2.990663537790146e-15
	-5.438445545375944e-19
	-7.872048169182023e-15
	1.864634583447630e-06
	7.049747555557052e-05
	6.557422942651156e-06
	4.064612461207702e-01

 42	4.200000000000002e-01
	-2.962284305533196e-15
	-6.050253484672553e-19
	-7.973452334360771e-15
	2.038851257067576e-06
	7.856389781557278e-05
	7.301980234306284e-06
	4.064613199668816e-01

 43	4.300000000000002e-01
	-2.934595302159837e-15
	-6.684495889605087e-19
	-8.073718772676982e-15
	2.227247262953150e-06
	8.755097089359855e-05
	8.131721304369002e-06
	4.064614022625456e-01

 44	4.400000000000002e-01
	-2.907598414323802e-15
	-7.341576004825239e-19
	-8.172805487635772e-15
	2.430719519555061e-06
	9.755704072572646e-05
	9.056336573057745e-06
	4.064614939691165e-01

 45	4.500000000000002e-01
	-2.881294642808349e-15
	-8.021907079808558e-19
	-8.270672932892131e-15
	2.650193378988969e-06
	1.086884596235533e-04
	1.008653959200925e-05
	4.064615961494727e-01

 46	4.600000000000002e-01
	-2.855684119773441e-15
	-8.725913429945754e-19
	-8.367284038243724e-15
	2.886620711854476e-06
	1.210596217809539e-04
	1.123414733616261e-05
	4.064617099759826e-01

 47	4.700000000000003e-01
	-2.830766128576879e-15
	-9.454031528513303e-19
	-8.462604226573342e-15
	3.140977732340672e-06
	1.347928530149194e-04
	1.251216013164540e-05
	4.064618367384339e-01

 48	4.800000000000003e-01
	-2.806539125977487e-15
	-1.020671112798489e-18
	-8.556601421990747e-15
	3.414262577371063e-06
	1.500181289531811e-04
	1.393483963158090e-05
	4.064619778517805e-01

 49	4.900000000000003e-01
	-2.783000766521626e-15
	-1.098441640929024e-18
	-8.649246049467563e-15
	3.707492658518993e-06
	1.668725961230170e-04
	1.551778299422285e-05
	4.064621348635010e-01

 50	5.000000000000002e-01
	-2.760147928909778e-15
	-1.178762715776891e-18
	-8.740511026296836e-15
	4.021701810211016e-06
	1.854998716757402e-04
	1.727799116783604e-05
	4.064623094603777e-01

 51	5.100000000000002e-01
	-2.737976744137056e-15
	-1.261683996473956e-18
	-8.830371745743549e-15
	4.357937262123719e-06
	2.060490999644856e-04
	1.923392895553008e-05
	4.064625034744570e-01

 52	5.200000000000002e-01
	-2.716482625200367e-15
	-1.347256945377186e-18
	-8.918806053281873e-15
	4.717256467450462e-06
	2.286737480156427e-04
	2.140557433357913e-05
	4.064627188879437e-01

 53	5.300000000000002e-01
	-2.695660298165410e-15
	-1.435534953094848e-18
	-9.005794215839968e-15
	5.100723821647187e-06
	2.535301271905414e-04
	2.381445434256273e-05
	4.064629578367643e-01

 54	5.400000000000003e-01
	-2.675503834389086e-15
	-1.526573465857751e-18
	-9.091318884493271e-15
	5.509407308149317e-06
	2.807756350592400e-04
	2.648366477652618e-05
	4.064632226125213e-01

 55	5.500000000000003e-01
	-2.656006683696180e-15
	-1.620430115203740e-18
	-9.175365051063061e-15
	5.944375108199764e-06
	3.105667196647567e-04
	2.943787087587626e-05
	4.064635156625529e-01

 56	5.600000000000003e-01
	-2.637161708314433e-15
	-1.717164849960863e-18
	-9.257919999088019e-15
	6.406692211195540e-06
	3.430565778195501e-04
	3.270328629867415e-05
	4.064638395878507e-01

 57	5.700000000000003e-01
	-2.618961217377948e-15
	-1.816840070537435e-18
	-9.338973249643774e-15
	6.897417059763432e-06
	3.783926096262372e-04
	3.630762781443089e-05
	4.064641971385536e-01

 58	5.800000000000003e-01
	-2.601397001816394e-15
	-1.919520765545171e-18
	-9.418516502487745e-15
	7.417598260097819e-06
	4.167136627299383e-04
	4.028004344376356e-05
	4.064645912068142e-01

 59	5.900000000000003e-01
	-2.584460369455312e-15
	-2.025274650803330e-18
	-9.496543573006263e-15
	7.968271383015715e-06
	4.581471114700257e-04
	4.465101216196760e-05
	4.064650248168363e-01

 60	6.000000000000003e-01
	-2.568142180161914e-15
	-2.134172310789860e-18
	-9.573050325435814e-15
	8.550455874871255e-06
	5.028058275937698e-04
	4.945221379558954e-05
	4.064655011119539e-01

 61	6.100000000000003e-01
	-2.552432880880212e-15
	-2.246287342627444e-18
	-9.648034602823129e-15
	9.165152090201684e-06
	5.507851099415635e-04
	5.471636836389260e-05
	4.064660233386801e-01

 62	6.200000000000003e-01
	-2.537322540409274e-15
	-2.361696502710452e-18
	-9.721496154178330e-15
	9.813338450113417e-06
	6.021596498853398e-04
	6.047704484100758e-05
	4.064665948277186e-01

 63	6.300000000000003e-01
	-2.522800883788802e-15
	-2.480479856099388e-18
	-9.793436559262328e-15
	1.049596872241415e-05
	6.569806166602648e-04
	6.676844012249771e-05
	4.064672189720179e-01

 64	6.400000000000003e-01
	-2.508857326166774e-15
	-2.602720928829533e-18
	-9.863859151435068e-15
	1.121396941187056e-05
	7.152729514666458e-04
	7.362512984871495e-05
	4.064678992020336e-01

 65	6.500000000000004e-01
	-2.495481006034486e-15
	-2.728506863300779e-18
	-9.932768938974497e-15
	1.196823724226971e-05
	7.770329608011768e-04
	8.108179363759231e-05
	4.064686389584500e-01

 66	6.600000000000004e-01
	-2.482660817725040e-15
	-2.857928576936738e-18
	-1.000017252525809e-14
	1.275963670673371e-05
	8.422262974915390e-04
	8.917291817756666e-05
	4.064694416627083e-01

 67	6.700000000000004e-01
	-2.470385443081797e-15
	-2.991080924322428e-18
	-1.006607802818016e-14
	1.358899765947954e-05
	9.107864121061672e-04
	9.793248248996764e-05
	4.064703106857717e-01

 68	6.800000000000004e-01
	-2.458643382213619e-15
	-3.128062863054417e-18
	-1.013049499915832e-14
	1.445711292134606e-05
	9.826135477395345e-04
	1.073936304507886e-04
	4.064712493156190e-01

 69	6.900000000000004e-01
	-2.447422983263948e-15
	-3.268977623558562e-18
	-1.019343434206198e-14
	1.536473587320213e-05
	1.057574337800547e-03
	1.175883363261248e-04
	4.064722607240509e-01

 70	7.000000000000004e-01
	-2.436712471130224e-15
	-3.413932883156874e-18
	-1.025490823237625e-14
	1.631257801592571e-05
	1.135502049755949e-03
	1.285470695885979e-04
	4.064733479334336e-01

 71	7.100000000000004e-01
	-2.426499975079931e-15
	-3.563040944690663e-18
	-1.031493003689293e-14
	1.730130648291804e-05
	1.216197498419492e-03
	1.402984656136564e-04
	4.064745137840237e-01

 72	7.200000000000004e-01
	-2.416773555218177e-15
	-3.716418920035523e-18
	-1.037351423420085e-14
	1.833154150081351e-05
	1.299430631143465e-03
	1.528690089819596e-04
	4.064757609025509e-01

 73	7.300000000000004e-01
	-2.407521227770579e-15
	-3.874188918869380e-18
	-1.043067633622683e-14
	1.940385380567648e-05
	1.384942765123572e-03
	1.662827360232149e-04
	4.064770916727121e-01

 74	7.400000000000004e-01
	-2.398730989153137e-15
	-4.036478243088357e-18
	-1.048643281105887e-14
	2.051876203488975e-05
	1.472449435025867e-03
	1.805609629242038e-04
	4.064785082081940e-01

 75	7.500000000000004e-01
	-2.390390838808824e-15
	-4.203419587289941e-18
	-1.054080100726268e-14
	2.167673012833176e-05
	1.561643788363385e-03
	1.957220451962744e-04
	4.064800123288391e-01

 76	7.600000000000005e-01
	-2.382488800797456e-15
	-4.375151245780371e-18
	-1.059379907988411e-14
	2.287816478544653e-05
	1.652200447522097e-03
	2.117811735731603e-04
	4.064816055403940e-01

 77	7.700000000000005e-01
	-2.375012944132650e-15
	-4.551817326587148e-18
	-1.064544591830958e-14
	2.412341303650892e-05
	1.743779741972003e-03
	2.287502105157564e-04
	4.064832890183093e-01

 78	7.800000000000005e-01
	-2.367951401865822e-15
	-4.733567972995350e-18
	-1.069576107613850e-14
	2.541275999595599e-05
	1.836032202734581e-03
	2.466375704724903e-04
	4.064850635958793e-01

 79	7.900000000000005e-01
	-2.361292388923220e-15
	-4.920559593152576e-18
	-1.074476470320265e-14
	2.674642687233104e-05
	1.928603204115961e-03
	2.654481459237629e-04
	4.064869297569182e-01

 80	8.000000000000005e-01
	-2.355024218707499e-15
	-5.112955098321900e-18
	-1.079247747984921e-14
	2.812456931262466e-05
	2.021137635304490e-03
	2.851832800723820e-04
	4.064888876330703e-01

 81	8.100000000000005e-01
	-2.349135318480384e-15
	-5.310924150388695e-18
	-1.083892055358628e-14
	2.954727615823598e-05
	2.113284486650696e-03
	3.058407858755374e-04
	4.064909370057195e-01

 82	8.200000000000005e-01
	-2.343614243547694e-15
	-5.514643419262902e-18
	-1.088411547817228e-14
	3.101456868532500e-05
	2.204701242020534e-03
	3.274150099928656e-04
	4.064930773123439e-01

 83	8.300000000000005e-01
	-2.338449690272128e-15
	-5.724296850840657e-18
	-1.092808415521363e-14
	3.252640039411601e-05
	2.295057979033962e-03
	3.498969391904943e-04
	4.064953076570904e-01

 84	8.400000000000005e-01
	-2.333630507943010e-15
	-5.940075946223837e-18
	-1.097084877831874e-14
	3.408265740013420e-05
	2.384041092584974e-03
	3.732743458278145e-04
	4.064976268252246e-01

 85	8.500000000000005e-01
	-2.329145709535585e-15
	-6.162180052921804e-18
	-1.101243177984075e-14
	3.568315946599014e-05
	2.471356572972129e-03
	3.975319682894673e-04
	4.065000333010482e-01

 86	8.600000000000005e-01
	-2.324984481395246e-15
	-6.390816668788913e-18
	-1.105285578022635e-14
	3.732766169590947e-05
	2.556732787372093e-03
	4.226517216285997e-04
	4.065025252887965e-01

 87	8.700000000000006e-01
	-2.321136191884636e-15
	-6.626201759479116e-18
	-1.109214353997429e-14
	3.901585689757491e-05
	2.639922731377005e-03
	4.486129332687739e-04
	4.065051007360463e-01

 88	8.800000000000006e-01
	-2.317590399033675e-15
	-6.868560090228958e-18
	-1.113031791419350e-14
	4.074737859789192e-05
	2.720705735055452e-03
	4.753925983726752e-04
	4.065077573590504e-01

 89	8.900000000000006e-01
	-2.314336857234017e-15
	-7.118125572809012e-18
	-1.116740180973926e-14
	4.252180468184424e-05
	2.798888624743572e-03
	5.029656494190341e-04
	4.065104926694965e-01

 90	9.000000000000006e-01
	-2.311365523020954e-15
	-7.375141628515972e-18
	-1.120341814489414e-14
	4.433866160747000e-05
	2.874306356917084e-03
	5.313052346221276e-04
	4.065133040021261e-01

 91	9.100000000000006e-01
	-2.308666559986454e-15
	-7.639861568106024e-18
	-1.123838981155097e-14
	4.619742913580967e-05
	2.946822153572730e-03
	5.603830000618773e-04
	4.065161885427365e-01

 92	9.200000000000006e-01
	-2.306230342867683e-15
	-7.912548989610250e-18
	-1.127233963984589e-14
	4.809754550298311e-05
	3.016327179255049e-03
	5.901693707449016e-04
	4.065191433560569e-01

 93	9.300000000000006e-01
	-2.304047460855550e-15
	-8.193478195001529e-18
	-1.130529036518178e-14
	5.003841295266844e-05
	3.082739808048722e-03
	6.206338262628039e-04
	4.065221654131133e-01

 94	9.400000000000006e-01
	-2.302108720167572e-15
	-8.482934626728568e-18
	-1.133726459757624e-14
	5.201940354138658e-05
	3.146004534509867e-03
	6.517451672286960e-04
	4.065252516176509e-01

 95	9.500000000000006e-01
	-2.300405145929274e-15
	-8.781215325166944e-18
	-1.136828479326170e-14
	5.403986512612502e-05
	3.206090585738979e-03
	6.834717692309917e-04
	4.065283988313299e-01

 96	9.600000000000006e-01
	-2.298927983407334e-15
	-9.088629408085594e-18
	-1.139837322846199e-14
	5.609912744385579e-05
	3.262990292811833e-03
	7.157818216221761e-04
	4.065316038974182e-01

 97	9.700000000000006e-01
	-2.297668698637297e-15
	-9.405498573274368e-18
	-1.142755197526490e-14
	5.819650819516757e-05
	3.316717278857011e-03
	7.486435490386559e-04
	4.065348636627622e-01

 98	9.800000000000006e-01
	-2.296618978487238e-15
	-9.732157625525655e-18
	-1.145584287950843e-14
	6.033131904917055e-05
	3.367304518517761e-03
	7.820254141078744e-04
	4.065381749979036e-01

 99	9.900000000000007e-01
	-2.295770730197854e-15
	-1.006895502922489e-17
	-1.148326754059636e-14
	6.250287149369473e-05
	3.414802319701368e-03
	8.158963003268521e-04
	4.065415348152060e-01

 100	1.000000000000001e+00
	-2.295116080438126e-15
	-1.041625348785205e-17
	-1.150984729315721e-14
	6.471048246309048e-05
	3.459276273735631e-03
	8.502256745802196e-04
	4.065449400849878e-01

 101	1.010000000000001e+00
	-2.294647373914138e-15
	-1.077443055177053e-17
	-1.153560319046110e-14
	6.695347968528847e-05
