Title: ** sch_path: /home/andylithia/openmpw/project-yatsuhashi-chip1/xschem/gmid_test/nmos_test.sch
Date: Sun Jul 17 22:51:45  2022
Plotname: DC transfer characteristic
Flags: real
No. Variables: 8
No. Points: 181
Variables:
	0	v(v-sweep)	voltage
	1	@m.xm1.msky130_fd_pr__nfet_01v8[cgb]	capacitance
	2	@m.xm1.msky130_fd_pr__nfet_01v8[cgd]	capacitance
	3	@m.xm1.msky130_fd_pr__nfet_01v8[cgs]	capacitance
	4	@m.xm1.msky130_fd_pr__nfet_01v8[gds]	admittance
	5	@m.xm1.msky130_fd_pr__nfet_01v8[gm]	admittance
	6	i(@m.xm1.msky130_fd_pr__nfet_01v8[id])	current
	7	v(@m.xm1.msky130_fd_pr__nfet_01v8[vth])	voltage
Values:
 0	0.000000000000000e+00
	-3.387758495734862e-15
	2.932567442410926e-19
	-2.149089065515068e-17
	3.902719944787383e-14
	9.035671690191123e-13
	2.747576878874102e-14
	7.488179534531303e-01

 1	1.000000000000000e-02
	-3.371614228168275e-15
	3.143180199241109e-19
	-2.294078137041527e-17
	5.382236447135166e-14
	1.255391932342018e-12
	3.817432479879323e-14
	7.488179534531306e-01

 2	2.000000000000000e-02
	-3.355672013454384e-15
	3.366845959038947e-19
	-2.451137603557343e-17
	7.422205939193629e-14
	1.744202302013952e-12
	5.303858679707765e-14
	7.488179534531317e-01

 3	3.000000000000000e-02
	-3.339925473982335e-15
	3.604424285485656e-19
	-2.621321362841139e-17
	1.023475702502487e-13
	2.423331201019264e-12
	7.369048849667102e-14
	7.488179534531327e-01

 4	4.000000000000000e-02
	-3.324368186757664e-15
	3.856877286120387e-19
	-2.805809554327968e-17
	1.411223538275017e-13
	3.366873605940702e-12
	1.023834252863028e-13
	7.488179534531347e-01

 5	5.000000000000000e-02
	-3.308993649530339e-15
	4.125282977843589e-19
	-3.005926446724010e-17
	1.945750765375351e-13
	4.677767658613120e-12
	1.422480708474275e-13
	7.488179534531371e-01

 6	6.000000000000000e-02
	-3.293795244256949e-15
	4.410848905879692e-19
	-3.223160144053322e-17
	2.682570027917546e-13
	6.499020273208651e-12
	1.976338679332560e-13
	7.488179534531400e-01

 7	7.000000000000001e-02
	-3.278766197853521e-15
	4.714925769036330e-19
	-3.459184152152188e-17
	3.698168240387161e-13
	9.029300257100531e-12
	2.745834192711209e-13
	7.488179534531446e-01

 8	8.000000000000000e-02
	-3.263899540205831e-15
	5.039020789334261e-19
	-3.715880842668892e-17
	5.097922316694953e-13
	1.254459728999151e-11
	3.814914816780467e-13
	7.488179534531508e-01

 9	9.000000000000000e-02
	-3.249188059409937e-15
	5.384810554058299e-19
	-3.995366848756660e-17
	7.026998355574065e-13
	1.742830493949682e-11
	5.300203690305703e-13
	7.488179534531597e-01

 10	9.999999999999999e-02
	-3.234624254218584e-15
	5.754153052129601e-19
	-4.300020425503770e-17
	9.685356943956480e-13
	2.421300171618919e-11
	7.363714810987278e-13
	7.488179534531716e-01

 11	1.100000000000000e-01
	-3.220200283668707e-15
	6.149098623498988e-19
	-4.632510808330762e-17
	1.334840882469470e-12
	3.363847505422661e-11
	1.023051423230783e-12
	7.488179534531886e-01

 12	1.200000000000000e-01
	-3.205907913863233e-15
	6.571899539163987e-19
	-4.995829603643547e-17
	1.839544464651887e-12
	4.673229632896787e-11
	1.421324966919024e-12
	7.488179534532118e-01

 13	1.300000000000000e-01
	-3.191738461876857e-15
	7.025017929731112e-19
	-5.393324247493856e-17
	2.534875876944535e-12
	6.492170068266192e-11
	1.974621745380356e-12
	7.488179534532441e-01

 14	1.400000000000000e-01
	-3.177682736751377e-15
	7.511131781631471e-19
	-5.828733569442133e-17
	3.492748088966974e-12
	9.018891661977542e-11
	2.743267150132694e-12
	7.488179534532893e-01

 15	1.500000000000000e-01
	-3.163730977542493e-15
	8.033138721648372e-19
	-6.306225499662592e-17
	4.812163122246290e-12
	1.252867909390147e-10
	3.811051571478172e-12
	7.488179534533519e-01

 16	1.600000000000000e-01
	-3.149872788377459e-15
	8.594157311689594e-19
	-6.830436956853129e-17
	6.629397661657160e-12
	1.740380674050709e-10
	5.294351380083752e-12
	7.488179534534388e-01

 17	1.700000000000000e-01
	-3.136097070484355e-15
	9.197525575749481e-19
	-7.406515951451027e-17
	9.132009350689933e-12
	2.417506968006654e-10
	7.354791286097437e-12
	7.488179534535597e-01

 18	1.800000000000000e-01
	-3.122391951161318e-15
	9.846796478215865e-19
	-8.040165931114731e-17
	1.257809222820325e-11
	3.357940388416535e-10
	1.021682053191045e-11
	7.488179534537275e-01

 19	1.900000000000000e-01
	-3.108744709673596e-15
	1.054573006483973e-18
	-8.737692380457519e-17
	1.732274130978716e-11
	4.663980808962460e-10
	1.419210564895513e-11
	7.488179534539606e-01

 20	2.000000000000000e-01
	-3.095141700104398e-15
	1.129828196182920e-18
	-9.506051660449448e-17
	2.385441426305358e-11
	6.477616565090531e-10
	1.971337663775612e-11
	7.488179534542844e-01

 21	2.100000000000000e-01
	-3.081568271251783e-15
	1.210858790107791e-18
	-1.035290202909131e-16
	3.284487424539545e-11
	8.995885844142259e-10
	2.738137912666593e-11
	7.488179534547338e-01

 22	2.200000000000001e-01
	-3.068008683770842e-15
	1.298094389662442e-18
	-1.128665671672471e-16
	4.521775980704875e-11
	1.249216068969606e-09
	3.802998925412057e-11
	7.488179534553582e-01

 23	2.300000000000001e-01
	-3.054446024922281e-15
	1.391978163542636e-18
	-1.231653882802635e-16
	6.224268760156754e-11
	1.734562250721379e-09
	5.281648755541510e-11
	7.488179534562250e-01

 24	2.400000000000001e-01
	-3.040862121522527e-15
	1.492963856167262e-18
	-1.345263769838255e-16
	8.566433047727356e-11
	2.408205790221614e-09
	7.334666428199104e-11
	7.488179534574289e-01

 25	2.500000000000001e-01
	-3.027237452014192e-15
	1.601512202711014e-18
	-1.470596613421625e-16
	1.178793688195022e-10
	3.343028371069431e-09
	1.018481164621781e-10
	7.488179534590997e-01

 26	2.600000000000001e-01
	-3.013551059007574e-15
	1.718086675173937e-18
	-1.608851770392723e-16
	1.621789114734199e-10
	4.640012563680128e-09
	1.414101715925967e-10
	7.488179534614191e-01

 27	2.700000000000001e-01
	-2.999780464200810e-15
	1.843148469464490e-18
	-1.761332290803485e-16
	2.230803590536310e-10
	6.439008072626144e-09
	1.963158432866574e-10
	7.488179534646378e-01

 28	2.800000000000001e-01
	-2.985901588282052e-15
	1.977150628274096e-18
	-1.929450263508362e-16
	3.067813165836981e-10
	8.933579587096741e-09
	2.725007788814856e-10
	7.488179534691042e-01

 29	2.900000000000001e-01
	-2.971888679260756e-15
	2.120531179963884e-18
	-2.114731679799450e-16
	4.217798224730075e-10
	1.239145641972040e-08
	3.781872236997174e-10
	7.488179534752998e-01

 30	3.000000000000001e-01
	-2.957714253667810e-15
	2.273705161666957e-18
	-2.318820544223603e-16
	5.797208581566866e-10
	1.718265326658595e-08
	5.247588384789031e-10
	7.488179534838929e-01

 31	3.100000000000001e-01
	-2.943349056196605e-15
	2.437055387763739e-18
	-2.543481892708663e-16
	7.965501576349057e-10
	2.381806828912866e-08
	7.279664057103540e-10
	7.488179534958063e-01

 32	3.200000000000001e-01
	-2.928762044605526e-15
	2.610921825765198e-18
	-2.790603301723363e-16
	1.094084454968023e-09
	3.300234681011808e-08
	1.009587201294893e-09
	7.488179535123163e-01

 33	3.300000000000001e-01
	-2.913920408025170e-15
	2.795589453859548e-18
	-3.062194390776754e-16
	1.502144668237076e-09
	4.570609712307268e-08
	1.399704885226956e-09
	7.488179535351869e-01

 34	3.400000000000001e-01
	-2.898789628146165e-15
	2.991274501722935e-18
	-3.360383737852754e-16
	2.061447856257702e-09
	6.326424380247239e-08
	1.939835751865358e-09
	7.488179535668523e-01

 35	3.500000000000001e-01
	-2.883333594013987e-15
	3.198109022623240e-18
	-3.687412548751445e-16
	2.827518467362859e-09
	8.750949966352280e-08
	2.687205556637380e-09
	7.488179536106674e-01

 36	3.600000000000002e-01
	-2.867514782202471e-15
	3.416123814205781e-18
	-4.045624354040100e-16
	3.875963464600036e-09
	1.209527316738576e-07
	3.720584377782011e-09
	7.488179536712497e-01

 37	3.700000000000002e-01
	-2.851294514820799e-15
	3.645229800957182e-18
	-4.437449960743606e-16
	5.309564023010557e-09
	1.670254821064094e-07
	5.148221544938227e-09
	7.488179537549458e-01

 38	3.800000000000002e-01
	-2.834633307939914e-15
	3.885198115402527e-18
	-4.865386871406948e-16
	7.267773760816296e-09
	2.304041448634200e-07
	7.118595834566152e-09
	7.488179538704596e-01

 39	3.900000000000002e-01
	-2.817491322385949e-15
	4.135639267955132e-18
	-5.331972413883875e-16
	9.939385021945729e-09
	3.174402755201018e-07
	9.834915441925123e-09
	7.488179540297051e-01

 40	4.000000000000002e-01
	-2.799828927208295e-15
	4.395981974634942e-18
	-5.839749915346064e-16
	1.357933495073329e-08
	4.367270829199365e-07
	1.357457449050451e-08
	7.488179542489447e-01

 41	4.100000000000002e-01
	-2.781607383260727e-15
	4.665452411574010e-18
	-6.391227417645453e-16
	1.853087430061285e-08
	5.998379335328725e-07
	1.871510229021627e-08
	7.488179545503106e-01

 42	4.200000000000002e-01
	-2.762789650043919e-15
	4.943054874792595e-18
	-6.988828680502268e-16
	2.525461230563980e-08
	8.222779740060507e-07
	2.576852707391007e-08
	7.488179549638209e-01

 43	4.300000000000002e-01
	-2.743341313128314e-15
	5.227555027513993e-18
	-7.634836562081319e-16
	3.436627168775643e-08
	1.124693532510986e-06
	3.542650684957268e-08
	7.488179555300246e-01

 44	4.400000000000002e-01
	-2.723231622107671e-15
	5.517467094478126e-18
	-8.331329304545393e-16
	4.668531916865108e-08
	1.534383965807172e-06
	4.861903052025310e-08
	7.488179563034428e-01

 45	4.500000000000002e-01
	-2.702434620291118e-15
	5.811046488027841e-18
	-9.080110776649533e-16
	6.329694309205594e-08
	2.087154558092710e-06
	6.658991502684319e-08
	7.488179573569945e-01

 46	4.600000000000002e-01
	-2.680930337594149e-15
	6.106289396146803e-18
	-9.882636315703682e-16
	8.563007432765221e-08
	2.829533840105495e-06
	9.099264311232920e-08
	7.488179587876165e-01

 47	4.700000000000003e-01
	-2.658706007934977e-15
	6.400940800169176e-18
	-1.073993643285734e-15
	1.155542075479076e-07
	3.821350991933009e-06
	1.240101930177706e-07
	7.488179607232862e-01

 48	4.800000000000003e-01
	-2.635757262704285e-15
	6.692512195585101e-18
	-1.165254125041934e-15
	1.554975685457427e-07
	5.138626243629811e-06
	1.685022672937846e-07
	7.488179633316556e-01

 49	4.900000000000003e-01
	-2.612089243561993e-15
	6.978309947844360e-18
	-1.262040906791172e-15
	2.085885589684782e-07
	6.876669035288203e-06
	2.281825780400519e-07
	7.488179668304429e-01

 50	5.000000000000002e-01
	-2.587717572035534e-15
	7.255474724251767e-18
	-1.364286283778750e-15
	2.788212556265609e-07
	9.153209055402279e-06
	3.078274512655286e-07
	7.488179714996623e-01

 51	5.100000000000002e-01
	-2.562669111242886e-15
	7.521031818176468e-18
	-1.471853850531709e-15
	3.712439334987096e-07
	1.211131447984167e-05
	4.135149043219884e-07
	7.488179776956412e-01

 52	5.200000000000002e-01
	-2.536982457461114e-15
	7.771951457610574e-18
	-1.584534907227596e-15
	4.921670746834531e-07
	1.592179777012605e-05
	5.528905995062813e-07
	7.488179858666104e-01

 53	5.300000000000002e-01
	-2.510708106792030e-15
	8.005217420443876e-18
	-1.702046784196446e-15
	6.493842012087783e-07
	2.078479660782667e-05
	7.354539702483647e-07
	7.488179965694792e-01

 54	5.400000000000003e-01
	-2.483908254943242e-15
	8.217901532896460e-18
	-1.824033358303327e-15
	8.523953905845024e-07
	2.693027118237224e-05
	9.728548946923326e-07
	7.488180104872283e-01

 55	5.500000000000003e-01
	-2.456656205664810e-15
	8.407240982999315e-18
	-1.950067933536316e-15
	1.112619969404189e-06
	3.461729496732301e-05
	1.279189311659663e-06
	7.488180284462403e-01

 56	5.600000000000003e-01
	-2.429035384571223e-15
	8.570714914252459e-18
	-2.079658533324409e-15
	1.443582271176018e-06
	4.413222764565445e-05
	1.671281949598286e-06
	7.488180514328752e-01

 57	5.700000000000003e-01
	-2.401137978307187e-15
	8.706116539925155e-18
	-2.212255513301873e-15
	1.861053164719243e-06
	5.578610624766458e-05
	2.168946457471340e-06
	7.488180806087218e-01

 58	5.800000000000003e-01
	-2.373063242275295e-15
	8.811617077775246e-18
	-2.347261262222340e-15
	2.383130792082380e-06
	6.991180098818606e-05
	2.795217705604355e-06
	7.488181173242163e-01

 59	5.900000000000003e-01
	-2.344915541280388e-15
	8.885818159957213e-18
	-2.484041628386876e-15
	3.030246626133680e-06
	8.686156634159530e-05
	3.576557049671649e-06
	7.488181631306763e-01

 60	6.000000000000003e-01
	-2.316802204435835e-15
	8.927790001561793e-18
	-2.621938601607309e-15
	3.825086952421353e-06
	1.070055017540720e-04
	4.543037260590915e-06
	7.488182197911442e-01

 61	6.100000000000003e-01
	-2.288831286897647e-15
	8.937093459509136e-18
	-2.760283706519571e-15
	4.792423981495021e-06
	1.307310978026806e-04
	5.728517448185873e-06
	7.488182892906442e-01

 62	6.200000000000003e-01
	-2.261109335436047e-15
	8.913785101950686e-18
	-2.898411528603618e-15
	5.958853542297802e-06
	1.584435333988995e-04
	7.170817613947064e-06
	7.488183738464159e-01

 63	6.300000000000003e-01
	-2.233739252255781e-15
	8.858405442748251e-18
	-3.035672801819740e-15
	7.352436589965310e-06
	1.905658244172245e-04
	8.911896281994525e-06
	7.488184759183301e-01

 64	6.400000000000003e-01
	-2.206818342325396e-15
	8.771951479786848e-18
	-3.171446534085391e-15
	9.002239479246044e-06
	2.275374506507277e-04
	1.099802315671923e-05
	7.488185982190118e-01

 65	6.500000000000004e-01
	-2.180436614919439e-15
	8.655835524065076e-18
	-3.305150727624347e-15
	1.093776437805385e-05
	2.698098362390261e-04
	1.347992354141620e-05
	7.488187437223099e-01

 66	6.600000000000004e-01
	-2.154675391735409e-15
	8.511832953475713e-18
	-3.436251356281043e-15
	1.318825884190451e-05
	3.178371072007333e-04
	1.641285498715673e-05
	7.488189156677928e-01

 67	6.700000000000004e-01
	-2.129606253674981e-15
	8.342021932525839e-18
	-3.564269380363109e-15
	1.578189554985934e-05
	3.720609171385015e-04
	1.985656246964863e-05
	7.488191175581187e-01

 68	6.800000000000004e-01
	-2.105290338025037e-15
	8.148718297151883e-18
	-3.688785700450529e-15
	1.874482221697145e-05
	4.328887916887301e-04
	2.387504939983607e-05
	7.488193531456128e-01

 69	6.900000000000004e-01
	-2.081777978967245e-15
	7.934408728632681e-18
	-3.809444065015264e-15
	2.210009897804640e-05
	5.006663407570534e-04
	2.853610063336808e-05
	7.488196264042978e-01

 70	7.000000000000004e-01
	-2.059108668342995e-15
	7.701685069344896e-18
	-3.925952044828332e-15
	2.586656501760609e-05
	5.756447522503917e-04
	3.391050239787592e-05
	7.488199414841612e-01

 71	7.100000000000004e-01
	-2.037311301209386e-15
	7.453182215771624e-18
	-4.038080264797080e-15
	3.005770418812134e-05
	6.579461071929854e-04
	4.007092387438882e-05
	7.488203026455752e-01

 72	7.200000000000004e-01
	-2.016404662288026e-15
	7.191521516102979e-18
	-4.145660138588547e-15
	3.468060476778175e-05
	7.475300865054017e-04
	4.709045592102180e-05
	7.488207141736186e-01

 73	7.300000000000004e-01
	-1.996398104867102e-15
	6.919261054558784e-18
	-4.248580383135292e-15
	3.973512409345642e-05
	8.441663574692193e-04
	5.504084210381334e-05
	7.488211802743562e-01

 74	7.400000000000004e-01
	-1.977292372682823e-15
	6.638853668807043e-18
	-4.346782600838648e-15
	4.521336793073283e-05
	9.474170853668875e-04
	6.399048142557046e-05
	7.488217049577278e-01

 75	7.500000000000004e-01
	-1.959080517178713e-15
	6.352613056809734e-18
	-4.440256210287046e-15
	5.109957333912073e-05
	1.056633406767865e-03
	7.400232420097634e-05
	7.488222919141753e-01

 76	7.600000000000005e-01
	-1.941748866612204e-15
	6.062687909749247e-18
	-4.529032985627702e-15
	5.737044341009293e-05
	1.170968258206410e-03
	8.513181425572255e-05
	7.488229443939817e-01

 77	7.700000000000005e-01
	-1.925278009025225e-15
	5.771043671811386e-18
	-4.613181434571494e-15
	6.399592889184407e-05
	1.289405829127962e-03
	9.742504425765498e-05
	7.488236650991134e-01

 78	7.800000000000005e-01
	-1.909643757451806e-15
	5.479451279251866e-18
	-4.692801209318196e-15
	7.094039578769191e-05
	1.410805482849085e-03
	1.109172814560129e-04
	7.488244560967723e-01

 79	7.900000000000005e-01
	-1.894818072335221e-15
	5.189482066605026e-18
	-4.768017706859594e-15
	7.816407120523097e-05
	1.533955791629588e-03
	1.256319880130995e-04
	7.488253187619599e-01

 80	8.000000000000005e-01
	-1.880769922526696e-15
	4.902507938135495e-18
	-4.838976977859544e-15
	8.562463147155001e-05
	1.657632874641154e-03
	1.415804084173898e-04
	7.488262537532877e-01

 81	8.100000000000005e-01
	-1.867466072119819e-15
	4.619705875726921e-18
	-4.905841028602889e-15
	9.327879125791016e-05
	1.780656836560740e-03
	1.587617354351439e-04
	7.488272610227104e-01

 82	8.200000000000005e-01
	-1.854871785538019e-15
	4.342065877121706e-18
	-4.968783569653724e-15
	1.010837687391855e-04
	1.901940813068170e-03
	1.771638067808745e-04
	7.488283398563859e-01

 83	8.300000000000005e-01
	-1.842951447633451e-15
	4.070401477618378e-18
	-5.027986238586129e-15
	1.089985334860518e-04
	2.020528684995828e-03
	1.967642370904674e-04
	7.488294889410502e-01

 84	8.400000000000005e-01
	-1.831669099049558e-15
	3.805362091938480e-18
	-5.083635302694302e-15
	1.169847824320441e-04
	2.135619494456926e-03
	2.175318602405809e-04
	7.488307064485994e-01

 85	8.500000000000005e-01
	-1.820988889778664e-15
	3.547446510466073e-18
	-5.135918830846128e-15
	1.250076268431719e-04
	2.246578527699637e-03
	2.394283473850097e-04
	7.488319901309652e-01

 86	8.600000000000005e-01
	-1.810875455782748e-15
	3.297016986911220e-18
	-5.185024311256726e-15
	1.330360039698355e-04
	2.352936569601003e-03
	2.624098739656447e-04
	7.488333374178689e-01

 87	8.700000000000006e-01
	-1.801294224835315e-15
	3.054313456031847e-18
	-5.231136683413542e-15
	1.410428481549717e-04
	2.454379803924693e-03
	2.864287294269238e-04
	7.488347455112064e-01

 88	8.800000000000006e-01
	-1.792211658491283e-15
	2.819467515699124e-18
	-5.274436747091723e-15
	1.490050674196128e-04
	2.550733220210135e-03
	3.114347905238288e-04
	7.488362114714434e-01

 89	8.900000000000006e-01
	-1.783595437406981e-15
	2.592515894238063e-18
	-5.315099908749166e-15
	1.569033745229036e-04
	2.641940299555539e-03
	3.373768076088871e-04
	7.488377322930332e-01

 90	9.000000000000006e-01
	-1.775414597213728e-15
	2.373413199998232e-18
	-5.353295225004231e-15
	1.647220185728945e-04
	2.728041349147077e-03
	3.642034791573981e-04
	7.488393049674243e-01

 91	9.100000000000006e-01
	-1.767639621886199e-15
	2.162043814885123e-18
	-5.389184703849950e-15
	1.724484568607853e-04
	2.809152300908736e-03
	3.918643107414047e-04
	7.488409265334244e-01

 92	9.200000000000006e-01
	-1.760242501116426e-15
	1.958232847337968e-18
	-5.422922826294230e-15
	1.800729987066582e-04
	2.885445212024365e-03
	4.203102698602488e-04
	7.488425941155935e-01

 93	9.300000000000006e-01
	-1.753196757669168e-15
	1.761756103661314e-18
	-5.454656253859399e-15
	1.875884451593197e-04
	2.957131188473997e-03
	4.494942577131452e-04
	7.488443049519068e-01

 94	9.400000000000006e-01
	-1.746477450103463e-15
	1.572349070738189e-18
	-5.484523690526927e-15
	1.949897412437223e-04
	3.024446039363964e-03
	4.793714240136490e-04
	7.488460564122100e-01

 95	9.500000000000006e-01
	-1.740061155636122e-15
	1.389714929146928e-18
	-5.512655871042845e-15
	2.022736515040570e-04
	3.087638670242090e-03
	5.098993524052433e-04
	7.488478460090883e-01

 96	9.600000000000006e-01
	-1.733925937323105e-15
	1.213531634768096e-18
	-5.539175650835388e-15
	2.094384649461990e-04
	3.146962028413842e-03
	5.410381430443865e-04
	7.488496714027073e-01

 97	9.700000000000006e-01
	-1.728051299163021e-15
	1.043458120269685e-18
	-5.564198176017604e-15
	2.164837320512186e-04
	3.202666303364883e-03
	5.727504164242358e-04
	7.488515304010351e-01

 98	9.800000000000006e-01
	-1.722418132195507e-15
	8.791396764696586e-19
	-5.587831114973929e-15
	2.234100341325835e-04
	3.254994038961459e-03
	6.050012592610253e-04
	7.488534209566663e-01

 99	9.900000000000007e-01
	-1.717008654183077e-15
	7.202125784514528e-19
	-5.610174935811604e-15
	2.302187837358265e-04
	3.304176810959163e-03
	6.377581297856781e-04
	7.488553411612686e-01

 100	1.000000000000001e+00
	-1.711806345031095e-15
	5.663080232691612e-19
	-5.631323216471349e-15
	2.369120538318049e-04
	3.350433146917735e-03
	6.709907364208904e-04
	7.488572892384666e-01

 101	1.010000000000001e+00
	-1.706795879717169e-15
	4.170554458454055e-19
	-5.651362976528259e-15
	2.434924330609611e-04
	3.393967403416364e-03
	7.046709007787498e-04
	7.488592635358069e-01

