Title: ** sch_path: /home/andylithia/openmpw/project-yatsuhashi-chip1/xschem/gmid_test/nmos_test.sch
Date: Sun Jul 17 22:51:45  2022
Plotname: DC transfer characteristic
Flags: real
No. Variables: 8
No. Points: 181
Variables:
	0	v(v-sweep)	voltage
	1	@m.xm1.msky130_fd_pr__nfet_01v8[cgb]	capacitance
	2	@m.xm1.msky130_fd_pr__nfet_01v8[cgd]	capacitance
	3	@m.xm1.msky130_fd_pr__nfet_01v8[cgs]	capacitance
	4	@m.xm1.msky130_fd_pr__nfet_01v8[gds]	admittance
	5	@m.xm1.msky130_fd_pr__nfet_01v8[gm]	admittance
	6	i(@m.xm1.msky130_fd_pr__nfet_01v8[id])	current
	7	v(@m.xm1.msky130_fd_pr__nfet_01v8[vth])	voltage
Values:
 0	0.000000000000000e+00
	-7.886394476381708e-16
	7.370426567578881e-22
	-1.570399983638207e-18
	2.447938450118334e-19
	2.937353767210227e-17
	5.647427381554617e-19
	6.872167274034461e-01

 1	1.000000000000000e-02
	-7.851172079780604e-16
	8.430292785678051e-22
	-1.644499098931955e-18
	4.102348901205862e-19
	4.941285395272802e-17
	9.500280754169591e-19
	6.872167274034461e-01

 2	2.000000000000000e-02
	-7.816389695009254e-16
	9.633609674831026e-22
	-1.731451028808299e-18
	6.874752936874658e-19
	8.312311557470635e-17
	1.598162691656433e-18
	6.872167274034461e-01

 3	3.000000000000000e-02
	-7.782034345132570e-16
	1.099751966957753e-21
	-1.833195515765039e-18
	1.152056027288797e-18
	1.398303257291608e-16
	2.688462366580393e-18
	6.872167274034461e-01

 4	4.000000000000000e-02
	-7.748092857016434e-16
	1.254063498487250e-21
	-1.951931399026287e-18
	1.930552461058059e-18
	2.352220044348865e-16
	4.522566069378625e-18
	6.872167274034461e-01

 5	5.000000000000000e-02
	-7.714551799312214e-16
	1.428302262593305e-21
	-2.090141783171537e-18
	3.235046119563985e-18
	3.956859994394179e-16
	7.607873578164718e-18
	6.872167274034461e-01

 6	6.000000000000000e-02
	-7.681397418576827e-16
	1.624615512321625e-21
	-2.250619752424262e-18
	5.420875082842591e-18
	6.656079039190723e-16
	1.279788857256913e-17
	6.872167274034461e-01

 7	7.000000000000001e-02
	-7.648615573658045e-16
	1.845282586901644e-21
	-2.436494598388681e-18
	9.083377007142338e-18
	1.119643753033102e-15
	2.152826680124032e-17
	6.872167274034461e-01

 8	8.000000000000000e-02
	-7.616191668007561e-16
	2.092703232547247e-21
	-2.651258848914208e-18
	1.521994118099135e-17
	1.883358452654054e-15
	3.621381412498007e-17
	6.872167274034461e-01

 9	9.000000000000000e-02
	-7.584110578744432e-16
	2.369383671319575e-21
	-2.898796917664484e-18
	2.550143393384615e-17
	3.167928827236020e-15
	6.091613065279886e-17
	6.872167274034461e-01

 10	9.999999999999999e-02
	-7.552356579968098e-16
	2.677922211299637e-21
	-3.183416987669612e-18
	4.272676730681244e-17
	5.328488158270705e-15
	1.024663088837378e-16
	6.872167274034461e-01

 11	1.100000000000000e-01
	-7.520913255923732e-16
	3.020997187687641e-21
	-3.509888828915724e-18
	7.158408261517490e-17
	8.962200856926956e-15
	1.723526223805063e-16
	6.872167274034461e-01

 12	1.200000000000000e-01
	-7.489763397118029e-16
	3.401361097333813e-21
	-3.883491624586300e-18
	1.199251470453184e-16
	1.507308436259592e-14
	2.898939769918226e-16
	6.872167274034461e-01

 13	1.300000000000000e-01
	-7.458888869424439e-16
	3.821845789061288e-21
	-4.310077483191791e-18
	2.008985253363885e-16
	2.534892345593313e-14
	4.875738552000678e-16
	6.872167274034461e-01

 14	1.400000000000000e-01
	-7.428270442778172e-16
	4.285384292064476e-21
	-4.796158017936193e-18
	3.365192404877652e-16
	4.262633154492021e-14
	8.200033407914865e-16
	6.872167274034461e-01

 15	1.500000000000000e-01
	-7.397887562546825e-16
	4.795055065114413e-21
	-5.349022988741887e-18
	5.636401592361213e-16
	7.167140763482664e-14
	1.378977399999863e-15
	6.872167274034461e-01

 16	1.600000000000000e-01
	-7.367718043479489e-16
	5.354153904595200e-21
	-5.976901292300710e-18
	9.439365206556007e-16
	1.204893157917024e-13
	2.318755956585094e-15
	6.872167274034461e-01

 17	1.700000000000000e-01
	-7.337737663731893e-16
	5.966297309147643e-21
	-6.689175318374269e-18
	1.580591033065482e-15
	2.025193241291718e-13
	3.898489969620389e-15
	6.872167274034461e-01

 18	1.800000000000000e-01
	-7.307919635221239e-16
	6.635558746914374e-21
	-7.496659692628467e-18
	2.646155558939237e-15
	3.403100332906081e-13
	6.553368813930749e-15
	6.872167274034461e-01

 19	1.900000000000000e-01
	-7.278233926703807e-16
	7.366636159710189e-21
	-8.411954635350344e-18
	4.429031626554775e-15
	5.716643363598012e-13
	1.101382166030715e-14
	6.872167274034461e-01

 20	2.000000000000000e-01
	-7.248646417484534e-16
	8.165045473004675e-21
	-9.449882656808890e-18
	7.410916634329175e-15
	9.598951398334056e-13
	1.850498899440537e-14
	6.872167274034472e-01

 21	2.100000000000000e-01
	-7.219117862334167e-16
	9.037331257230837e-21
	-1.062801527734219e-17
	1.239564100158617e-14
	1.610901596044995e-12
	3.107999818521748e-14
	6.872167274034481e-01

 22	2.200000000000001e-01
	-7.189602651647462e-16
	9.991282391164978e-21
	-1.196729415204382e-17
	2.072306054782559e-14
	2.701515225112085e-12
	5.217567536125791e-14
	6.872167274034502e-01

 23	2.300000000000001e-01
	-7.160047354783689e-16
	1.103613789205007e-20
	-1.349274861176982e-17
	3.462322266398191e-14
	4.526368109206002e-12
	8.753673727465976e-14
	6.872167274034533e-01

 24	2.400000000000001e-01
	-7.130389038703164e-16
	1.218276611741466e-20
	-1.523430930927720e-17
	5.780081648224865e-14
	7.574989741578005e-12
	1.467476156777941e-13
	6.872167274034584e-01

 25	2.500000000000001e-01
	-7.100553358514090e-16
	1.344379927269753e-20
	-1.722771533975766e-17
	9.639544471890055e-14
	1.265778915550882e-11
	2.457603754120261e-13
	6.872167274034667e-01

 26	2.600000000000001e-01
	-7.070452421677625e-16
	1.483370444722629e-20
	-1.951550971553044e-17
	1.605505628046959e-13
	2.111015341440395e-11
	4.110430665269719e-13
	6.872167274034801e-01

 27	2.700000000000001e-01
	-7.039982433867186e-16
	1.636877211125924e-20
	-2.214811516082430e-17
	2.669585033667197e-13
	3.511942695568780e-11
	6.863381316391113e-13
	6.872167274035038e-01

 28	2.800000000000001e-01
	-7.009021142425408e-16
	1.806700305422190e-20
	-2.518497856471475e-17
	4.429509374027814e-13
	5.824122402187201e-11
	1.143571114790892e-12
	6.872167274035419e-01

 29	2.900000000000001e-01
	-6.977425103704693e-16
	1.994787510460740e-20
	-2.869576776166903e-17
	7.329961829956521e-13
	9.619953983719146e-11
	1.900249720086014e-12
	6.872167274036060e-01

 30	3.000000000000001e-01
	-6.945026814268045e-16
	2.203197163305943e-20
	-3.276159816078714e-17
	1.208865796346733e-12
	1.580968123132289e-10
	3.146795654791823e-12
	6.872167274037100e-01

 31	3.100000000000001e-01
	-6.911631764449768e-16
	2.434045473197959e-20
	-3.747625842664074e-17
	1.985242767908577e-12
	2.581869705512728e-10
	5.188657413738597e-12
	6.872167274038824e-01

 32	3.200000000000001e-01
	-6.877015498473727e-16
	2.689436692506533e-20
	-4.294739283545138e-17
	3.243116227821393e-12
	4.183685475773300e-10
	8.509632400493240e-12
	6.872167274041618e-01

 33	3.300000000000001e-01
	-6.840920801594619e-16
	2.971374609182847e-20
	-4.929758152646062e-17
	5.263812282739406e-12
	6.715065472164834e-10
	1.386421417221292e-11
	6.872167274046127e-01

 34	3.400000000000001e-01
	-6.803055185864506e-16
	3.281653894951668e-20
	-5.666523671910823e-17
	8.476698699372944e-12
	1.065555948924470e-09
	2.240727387274175e-11
	6.872167274053321e-01

 35	3.500000000000001e-01
	-6.763088916603459e-16
	3.621729931769163e-20
	-6.520520119193994e-17
	1.352312078330759e-11
	1.668220431851941e-09
	3.586799701146963e-11
	6.872167274064652e-01

 36	3.600000000000002e-01
	-6.720653914658489e-16
	3.992565967301388e-20
	-7.508889381097284e-17
	2.133766262388161e-11
	2.571588551526681e-09
	5.677086854848748e-11
	6.872167274082249e-01

 37	3.700000000000002e-01
	-6.675343984749413e-16
	4.394457036976508e-20
	-8.650379636725582e-17
	3.324543614798026e-11
	3.896019437614537e-09
	8.869986109826158e-11
	6.872167274109130e-01

 38	3.800000000000002e-01
	-6.626716950931525e-16
	4.826831355621061e-20
	-9.965202024964350e-17
	5.107165251940467e-11
	5.792789051328488e-09
	1.365954269576102e-10
	6.872167274149450e-01

 39	3.900000000000002e-01
	-6.574299410201236e-16
	5.288032210749450e-20
	-1.147476387866101e-16
	7.725912189128056e-11
	8.445897834878597e-09
	2.070728792768090e-10
	6.872167274208781e-01

 40	4.000000000000002e-01
	-6.517594915814130e-16
	5.775087148784591e-20
	-1.320124352125867e-16
	1.149928585992769e-10
	1.207486909512227e-08
	3.087616438912504e-10
	6.872167274294391e-01

 41	4.100000000000002e-01
	-6.456096430250942e-16
	6.283476648430506e-20
	-1.516697168051598e-16
	1.683397052752621e-10
	1.694167404694590e-08
	4.526901827549659e-10
	6.872167274415549e-01

 42	4.200000000000002e-01
	-6.389303788778089e-16
	6.806921401257829e-20
	-1.739359071981029e-16
	2.424229967704268e-10
	2.336520187344782e-08
	6.527753110265490e-10
	6.872167274583992e-01

 43	4.300000000000002e-01
	-6.316746627573601e-16
	7.337215107508483e-20
	-1.990097767149310e-16
	3.436632600588178e-10
	3.174559777414870e-08
	9.265043471457625e-10
	6.872167274814431e-01

 44	4.400000000000002e-01
	-6.238012704086569e-16
	7.864136970497657e-20
	-2.270594244087206e-16
	4.801215270780833e-10
	4.259904474423671e-08
	1.295913025474641e-09
	6.872167275125418e-01

 45	4.500000000000002e-01
	-6.152780752814998e-16
	8.375482704086157e-20
	-2.582074886067066e-16
	6.619814584937984e-10
	5.660250703848761e-08
	1.788961486794243e-09
	6.872167275540493e-01

 46	4.600000000000002e-01
	-6.060856019107757e-16
	8.857252185071700e-20
	-2.925155098969642e-16
	9.022039163931501e-10
	7.464843801170127e-08
	2.441406912558551e-09
	6.872167276089752e-01

 47	4.700000000000003e-01
	-5.962205524579856e-16
	9.294023273002828e-20
	-3.299688383396603e-16
	1.217388156251166e-09
	9.791126489050698e-08
	3.299279664108755e-09
	6.872167276811945e-01

 48	4.800000000000003e-01
	-5.856989159646875e-16
	9.669523195251962e-20
	-3.704638634272018e-16
	1.628880692382901e-09
	1.279297501901898e-07
	4.422099307143558e-09
	6.872167277757194e-01

 49	4.900000000000003e-01
	-5.745582154625166e-16
	9.967381816879313e-20
	-4.137995258288227e-16
	2.164186130735551e-09
	1.667114252022823e-07
	5.887018668531176e-09
	6.872167278990436e-01

 50	5.000000000000002e-01
	-5.628584628183651e-16
	1.017201861987202e-19
	-4.596749287143050e-16
	2.858751738755085e-09
	2.168670832168357e-07
	7.794155156217165e-09
	6.872167280595952e-01

 51	5.100000000000002e-01
	-5.506814922755939e-16
	1.026958376946068e-19
	-5.076943418157145e-16
	3.758216613836027e-09
	2.817850953919067e-07
	1.027345717922777e-08
	6.872167282683148e-01

 52	5.200000000000002e-01
	-5.381285281761039e-16
	1.024885133481948e-19
	-5.573800152365380e-16
	4.921234519693564e-09
	3.658574312018964e-07
	1.349356131852246e-08
	6.872167285393983e-01

 53	5.300000000000002e-01
	-5.253160827446647e-16
	1.010195685367364e-19
	-6.081921323360740e-16
	6.422993822691046e-09
	4.747719540107682e-07
	1.767322764506107e-08
	6.872167288912633e-01

 54	5.400000000000003e-01
	-5.123705279885083e-16
	9.824885766911762e-20
	-6.595541550851796e-16
	8.359563738059582e-09
	6.158888316079585e-07
	2.309610220933295e-08
	6.872167293477873e-01

 55	5.500000000000003e-01
	-4.994218860090409e-16
	9.417652236541337e-20
	-7.108809958488012e-16
	1.085318511700115e-08
	7.987224773995432e-07
	3.012975196162739e-08
	6.872167299399137e-01

 56	5.600000000000003e-01
	-4.865974883904736e-16
	8.884152624748379e-20
	-7.616070755808879e-16
	1.405858284874815e-08
	1.035553574405283e-06
	3.925014806132159e-08
	6.872167307077128e-01

 57	5.700000000000003e-01
	-4.740161463376041e-16
	8.231724327109811e-20
	-8.112114724307902e-16
	1.817028520160114e-08
	1.342196805228761e-06
	5.107302715168231e-08
	6.872167317030202e-01

 58	5.800000000000003e-01
	-4.617833577249800e-16
	7.470478590728415e-20
	-8.592379642314215e-16
	2.343076476806527e-08
	1.738945683147380e-06
	6.639380163148125e-08
	6.872167329927981e-01

 59	5.900000000000003e-01
	-4.499878893675616e-16
	6.612498338918300e-20
	-9.053086550058876e-16
	3.013893170542655e-08
	2.251700416228200e-06
	8.623783936206179e-08
	6.872167346633664e-01

 60	6.000000000000003e-01
	-4.386998592609661e-16
	5.670996533592714e-20
	-9.491308366323924e-16
	3.865808030086784e-08
	2.913248129496415e-06
	1.119228324789640e-07
	6.872167368256558e-01

 61	6.100000000000003e-01
	-4.279702485642168e-16
	4.659519490100729e-20
	-9.904975801526062e-16
	4.942180407413237e-08
	3.764592588143946e-06
	1.451343438899439e-07
	6.872167396215657e-01

 62	6.200000000000003e-01
	-4.178316276212320e-16
	3.591258104050896e-20
	-1.029283151328018e-15
	6.293570123734557e-08
	4.856106374607060e-06
	1.880140197826312e-07
	6.872167432313923e-01

 63	6.300000000000003e-01
	-4.082997974400754e-16
	2.478504382665476e-20
	-1.065434657691985e-15
	7.977205267517364e-08
	6.248093836924281e-06
	2.432568109216498e-07
	6.872167478820098e-01

 64	6.400000000000003e-01
	-3.993760248695549e-16
	1.332266381158916e-20
	-1.098961384483850e-15
	1.005543931255677e-07
	8.010130136501697e-06
	3.142083221499237e-07
	6.872167538550715e-01

 65	6.500000000000004e-01
	-3.910495728611855e-16
	1.620351742742337e-21
	-1.129923131815491e-15
	1.259294929233628e-07
	1.021836689093408e-05
	4.049460892487136e-07
	6.872167614938489e-01

 66	6.600000000000004e-01
	-3.833002791841960e-16
	-1.024315631439056e-20
	-1.158418606314522e-15
	1.565262058989492e-07
	1.295004273522520e-05
	5.203204476223083e-07
	6.872167712066709e-01

 67	6.700000000000004e-01
	-3.761010012044908e-16
	-2.220524230422342e-20
	-1.184574620615597e-15
	1.929040509338592e-07
	1.627493058027625e-05
	6.659250550829420e-07
	6.872167834644478e-01

 68	6.800000000000004e-01
	-3.694198081167599e-16
	-3.421856963588507e-20
	-1.208536567429350e-15
	2.354986100721051e-07
	2.024450510024122e-05
	8.479692716146337e-07
	6.872167987899248e-01

 69	6.900000000000004e-01
	-3.632218573442965e-16
	-4.624973047376121e-20
	-1.230460393558773e-15
	2.845741996665030e-07
	2.488098489622251e-05
	1.073039251619421e-06
	6.872168177375680e-01

 70	7.000000000000004e-01
	-3.574709349795856e-16
	-5.827760180414855e-20
	-1.250506116321498e-15
	3.401947539384719e-07
	3.016939977210380e-05
	1.347761814224804e-06
	6.872168408652702e-01

 71	7.100000000000004e-01
	-3.521306705714770e-16
	-7.029158784737289e-20
	-1.268832800168537e-15
	4.022203127917214e-07
	3.605562370626807e-05
	1.678416873806576e-06
	6.872168687017213e-01

 72	7.200000000000004e-01
	-3.471654556406212e-16
	-8.228987898031428e-20
	-1.285594836920222e-15
	4.703298585608684e-07
	4.245161393150351e-05
	2.070566215745168e-06
	6.872169017151530e-01

 73	7.300000000000004e-01
	-3.425411052935111e-16
	-9.427781503310863e-20
	-1.300939337791399e-15
	5.440643073468674e-07
	4.924661502427786e-05
	2.528766522346941e-06
	6.872169402891841e-01

 74	7.400000000000004e-01
	-3.382253056601650e-16
	-1.062664060383115e-19
	-1.315004437862038e-15
	6.228792139147437e-07
	5.632114430329827e-05
	3.056411449482971e-06
	6.872169847095202e-01

 75	7.500000000000004e-01
	-3.341878888180130e-16
	-1.182710367690441e-19
	-1.327918323940843e-15
	7.061965079797081e-07
	6.356012911417266e-05
	3.655712095940052e-06
	6.872170351623084e-01

 76	7.600000000000005e-01
	-3.304009731752997e-16
	-1.303103621061154e-19
	-1.339798817079410e-15
	7.934475080088211e-07
	7.086257432057341e-05
	4.327793013923931e-06
	6.872170917422252e-01

 77	7.700000000000005e-01
	-3.268390022967003e-16
	-1.424053872713442e-19
	-1.350753365712597e-15
	8.841035781650168e-07
	7.814678541698345e-05
	5.072862804309750e-06
	6.872171544668314e-01

 78	7.800000000000005e-01
	-3.234787097686919e-16
	-1.545787189384172e-19
	-1.360879330805008e-15
	9.776943493920093e-07
	8.535158651587857e-05
	5.890416122841596e-06
	6.872172232935815e-01

 79	7.900000000000005e-01
	-3.202990324919991e-16
	-1.668539689269999e-19
	-1.370264468228974e-15
	1.073815592524529e-06
	9.243472025946834e-05
	6.779432653696112e-06
	6.872172981365758e-01

 80	8.000000000000005e-01
	-3.172809900724724e-16
	-1.792552905147347e-19
	-1.378987534709657e-15
	1.172129635073681e-06
	9.936973152592770e-05
	7.738551485401387e-06
	6.872173788812371e-01

 81	8.100000000000005e-01
	-3.144075439060250e-16
	-1.918070274907444e-19
	-1.387118961590857e-15
	1.272361095336167e-06
	1.061423775834362e-04
	8.766211239098957e-06
	6.872174653961137e-01

 82	8.200000000000005e-01
	-3.116634461513303e-16
	-2.045334572550328e-19
	-1.394721555395324e-15
	1.374290148273600e-06
	1.127472321881305e-04
	9.860754863140413e-06
	6.872175575416972e-01

 83	8.300000000000005e-01
	-3.090350860231002e-16
	-2.174586110536135e-19
	-1.401851195924141e-15
	1.477744878901767e-06
	1.191848178054492e-04
	1.102050294421088e-05
	6.872176551765953e-01

 84	8.400000000000005e-01
	-3.065103386506748e-16
	-2.306061564921976e-19
	-1.408557511833747e-15
	1.582593700408685e-06
	1.254593671994529e-04
	1.224380147298812e-05
	6.872177581615557e-01

 85	8.500000000000005e-01
	-3.040784200492499e-16
	-2.439993295675926e-19
	-1.414884520655417e-15
	1.688738378146511e-06
	1.315771813393632e-04
	1.352905026996434e-05
	6.872178663618568e-01

 86	8.600000000000005e-01
	-3.017297504607945e-16
	-2.576609054587752e-19
	-1.420871225477949e-15
	1.796107905016862e-06
	1.375454893590710e-04
	1.487471759161762e-05
	6.872179796485390e-01

 87	8.700000000000006e-01
	-2.994558273607813e-16
	-2.716131991503847e-19
	-1.426552164358461e-15
	1.904653290756763e-06
	1.433717002885255e-04
	1.627934538682783e-05
	6.872180978988459e-01

 88	8.800000000000006e-01
	-2.972491087270398e-16
	-2.858780885845851e-19
	-1.431957911266691e-15
	2.014343224874739e-06
	1.490629438652969e-04
	1.774154859573851e-05
	6.872182209961664e-01

 89	8.900000000000006e-01
	-2.951029066702925e-16
	-3.004770544429847e-19
	-1.437115529261997e-15
	2.125160522792693e-06
	1.546258150037587e-04
	1.926001093863353e-05
	6.872183488296814e-01

 90	9.000000000000006e-01
	-2.930112911847681e-16
	-3.154312318559404e-19
	-1.442048977857001e-15
	2.237099246553833e-06
	1.600662556647723e-04
	2.083347888444499e-05
	6.872184812938520e-01

 91	9.100000000000006e-01
	-2.909690035531219e-16
	-3.307614703380538e-19
	-1.446779477303113e-15
	2.350162391278679e-06
	1.653895252200312e-04
	2.246075491503604e-05
	6.872186182878580e-01

 92	9.200000000000006e-01
	-2.889713788025413e-16
	-3.464883990779652e-19
	-1.451325832969606e-15
	2.464360037495763e-06
	1.706002245999377e-04
	2.414069078614355e-05
	6.872187597150242e-01

 93	9.300000000000006e-01
	-2.870142765346130e-16
	-3.626324953884445e-19
	-1.455704723178754e-15
	2.579707882204920e-06
	1.757023504260113e-04
	2.587218119594063e-05
	6.872189054822945e-01

 94	9.400000000000006e-01
	-2.850940194222449e-16
	-3.792141546728853e-19
	-1.459930953879777e-15
	2.696226075047321e-06
	1.806993633625719e-04
	2.765415807654942e-05
	6.872190554997447e-01

 95	9.500000000000006e-01
	-2.832073386687816e-16
	-3.962537607052752e-19
	-1.464017683450124e-15
	2.813938298704217e-06
	1.855942606438020e-04
	2.948558559648432e-05
	6.872192096801657e-01

 96	9.600000000000006e-01
	-2.813513257472825e-16
	-4.137717553722161e-19
	-1.467976620745170e-15
	2.932871043933824e-06
	1.903896466937088e-04
	3.136545588264307e-05
	6.872193679387026e-01

 97	9.700000000000006e-01
	-2.795233897740188e-16
	-4.317887073020725e-19
	-1.471818199306869e-15
	3.053053039273401e-06
	1.950877984273511e-04
	3.329278542390727e-05
	6.872195301925514e-01

 98	9.800000000000006e-01
	-2.777212199141789e-16
	-4.503253790226972e-19
	-1.475551730409442e-15
	3.174514803425420e-06
	1.996907235723806e-04
	3.526661209369341e-05
	6.872196963607082e-01

 99	9.900000000000007e-01
	-2.759427522655150e-16
	-4.694027924562806e-19
	-1.479185537380893e-15
	3.297288294875497e-06
	2.042002114596238e-04
	3.728599271817860e-05
	6.872198663637650e-01

 100	1.000000000000001e+00
	-2.741861407145269e-16
	-4.890422926872983e-19
	-1.482727073402936e-15
	3.421406638560274e-06
	2.086178764038299e-04
	3.935000111507320e-05
	6.872200401237450e-01

 101	1.010000000000001e+00
	-2.724497313078272e-16
	-5.092656100358474e-19
	-1.486183024765516e-15
	3.546903913622720e-06
	2.129451941761102e-04
	4.145772653112529e-05
