Title: ** sch_path: /home/andylithia/openmpw/project-yatsuhashi-chip1/xschem/gmid_test/nmos_test.sch
Date: Sun Jul 17 22:51:45  2022
Plotname: DC transfer characteristic
Flags: real
No. Variables: 8
No. Points: 181
Variables:
	0	v(v-sweep)	voltage
	1	@m.xm1.msky130_fd_pr__nfet_01v8[cgb]	capacitance
	2	@m.xm1.msky130_fd_pr__nfet_01v8[cgd]	capacitance
	3	@m.xm1.msky130_fd_pr__nfet_01v8[cgs]	capacitance
	4	@m.xm1.msky130_fd_pr__nfet_01v8[gds]	admittance
	5	@m.xm1.msky130_fd_pr__nfet_01v8[gm]	admittance
	6	i(@m.xm1.msky130_fd_pr__nfet_01v8[id])	current
	7	v(@m.xm1.msky130_fd_pr__nfet_01v8[vth])	voltage
Values:
 0	0.000000000000000e+00
	-6.604373379545423e-15
	-2.022320425733883e-18
	-1.011006423959064e-14
	4.072315467008777e-08
	1.386982170605900e-06
	1.609859977938872e-07
	2.567640530008475e-01

 1	1.000000000000000e-02
	-6.531654538148514e-15
	-2.080219097654897e-18
	-1.027666302158244e-14
	4.428138201854151e-08
	1.510293328693028e-06
	1.754636410857108e-07
	2.567640546465845e-01

 2	2.000000000000000e-02
	-6.459672461506204e-15
	-2.139774893068200e-18
	-1.044353034482042e-14
	4.813765321072146e-08
	1.644542792315907e-06
	1.912282960667666e-07
	2.567640564386288e-01

 3	3.000000000000000e-02
	-6.388446670554123e-15
	-2.201035288579980e-18
	-1.061059842690840e-14
	5.231537359959312e-08
	1.790723351064848e-06
	2.083942333327020e-07
	2.567640583899679e-01

 4	4.000000000000000e-02
	-6.317996392061856e-15
	-2.264049169907568e-18
	-1.077779922507005e-14
	5.683960737088484e-08
	1.949923903359943e-06
	2.270861237867987e-07
	2.567640605147770e-01

 5	5.000000000000000e-02
	-6.248340517205644e-15
	-2.328866878087228e-18
	-1.094506453746181e-14
	6.173717590953731e-08
	2.123339695408858e-06
	2.474400499910471e-07
	2.567640628285295e-01

 6	6.000000000000000e-02
	-6.179497561243328e-15
	-2.395540257412372e-18
	-1.111232610487671e-14
	6.703676011917957e-08
	2.312283727001735e-06
	2.696046256369899e-07
	2.567640653481174e-01

 7	7.000000000000001e-02
	-6.111485624404648e-15
	-2.464122705171246e-18
	-1.127951571253396e-14
	7.276900668794965e-08
	2.518199451975026e-06
	2.937422354344843e-07
	2.567640680920054e-01

 8	8.000000000000000e-02
	-6.044322354105082e-15
	-2.534669223260841e-18
	-1.144656529164999e-14
	7.896663827942350e-08
	2.742674912079568e-06
	3.200304090491745e-07
	2.567640710803767e-01

 9	9.000000000000000e-02
	-5.978024908587145e-15
	-2.607236471753174e-18
	-1.161340702048545e-14
	8.566456761241823e-08
	2.987458454090832e-06
	3.486633441619829e-07
	2.567640743353117e-01

 10	9.999999999999999e-02
	-5.912609922087068e-15
	-2.681882824496079e-18
	-1.177997342456660e-14
	9.290001537822205e-08
	3.254476191139392e-06
	3.798535952780629e-07
	2.567640778809752e-01

 11	1.100000000000000e-01
	-5.848093471619177e-15
	-2.758668426832637e-18
	-1.194619747578166e-14
	1.007126319284309e-07
	3.545851380208399e-06
	4.138339465772882e-07
	2.567640817438343e-01

 12	1.200000000000000e-01
	-5.784491045463374e-15
	-2.837655255528248e-18
	-1.211201269005978e-14
	1.091446226512820e-07
	3.863925898296363e-06
	4.508594888709503e-07
	2.567640859528963e-01

 13	1.300000000000000e-01
	-5.721817513434763e-15
	-2.918907180998429e-18
	-1.227735322334542e-14
	1.182408769392618e-07
	4.211284009577863e-06
	4.912099226040195e-07
	2.567640905399605e-01

 14	1.400000000000000e-01
	-5.660087099006669e-15
	-3.002490031933259e-18
	-1.244215396558976e-14
	1.280491006360365e-07
	4.590778624661453e-06
	5.351921108101717e-07
	2.567640955399195e-01

 15	1.500000000000000e-01
	-5.599313353351048e-15
	-3.088471662420027e-18
	-1.260635063249047e-14
	1.386199518366043e-07
	5.005560260338431e-06
	5.831429079755244e-07
	2.567641009910780e-01

 16	1.600000000000000e-01
	-5.539509131352165e-15
	-3.176922021670559e-18
	-1.276987985472159e-14
	1.500071799011520e-07
	5.459108913566907e-06
	6.354322928791389e-07
	2.567641069355023e-01

 17	1.700000000000000e-01
	-5.480686569641457e-15
	-3.267913226462991e-18
	-1.293267926440693e-14
	1.622677675305448e-07
	5.955269066312034e-06
	6.924668356318873e-07
	2.567641134194273e-01

 18	1.800000000000000e-01
	-5.422857066692878e-15
	-3.361519636413918e-18
	-1.309468757860506e-14
	1.754620757400144e-07
	6.498288037674133e-06
	7.546935313031786e-07
	2.567641204936817e-01

 19	1.900000000000000e-01
	-5.366031265010010e-15
	-3.457817932203066e-18
	-1.325584467958587e-14
	1.896539915573680e-07
	7.092857895810321e-06
	8.226040346721217e-07
	2.567641282141734e-01

 20	2.000000000000000e-01
	-5.310219035427297e-15
	-3.556887196875335e-18
	-1.341609169169587e-14
	2.049110782633372e-07
	7.744161133775736e-06
	8.967393327263870e-07
	2.567641366424253e-01

 21	2.100000000000000e-01
	-5.255429463539420e-15
	-3.658809000354554e-18
	-1.357537105462443e-14
	2.213047279845033e-07
	8.457920299783263e-06
	9.776948935090013e-07
	2.567641458461526e-01

 22	2.200000000000001e-01
	-5.201670838264460e-15
	-3.763667487306911e-18
	-1.373362659289959e-14
	2.389103164437346e-07
	9.240451752660504e-06
	1.066126331723817e-06
	2.567641558999129e-01

 23	2.300000000000001e-01
	-5.148950642537766e-15
	-3.871549468498752e-18
	-1.389080358146017e-14
	2.578073596694759e-07
	1.009872368658192e-05
	1.162755633089775e-06
	2.567641668858199e-01

 24	2.400000000000001e-01
	-5.097275546125489e-15
	-3.982544515803276e-18
	-1.404684880716833e-14
	2.780796724636902e-07
	1.104041853454128e-05
	1.268377980707441e-06
	2.567641788943087e-01

 25	2.500000000000001e-01
	-5.046651400538531e-15
	-4.096745061011796e-18
	-1.420171062614478e-14
	2.998155284285763e-07
	1.207399981654788e-05
	1.383869227583982e-06
	2.567641920249925e-01

 26	2.600000000000001e-01
	-4.997083236019886e-15
	-4.214246498619954e-18
	-1.435533901682734e-14
	3.231078213550640e-07
	1.320878344524086e-05
	1.510194059863087e-06
	2.567642063875882e-01

 27	2.700000000000001e-01
	-4.948575260570894e-15
	-4.335147292761328e-18
	-1.450768562867239e-14
	3.480542277810391e-07
	1.445501343757559e-05
	1.648414895119520e-06
	2.567642221029361e-01

 28	2.800000000000001e-01
	-4.901130860974371e-15
	-4.459549088473220e-18
	-1.465870382643724e-14
	3.747573705348485e-07
	1.582394190557823e-05
	1.799701559193579e-06
	2.567642393040980e-01

 29	2.900000000000001e-01
	-4.854752605766285e-15
	-4.587556827485453e-18
	-1.480834872999996e-14
	4.033249830896938e-07
	1.732791311109021e-05
	1.965341783337392e-06
	2.567642581375425e-01

 30	3.000000000000001e-01
	-4.809442250100767e-15
	-4.719278868733720e-18
	-1.495657724969072e-14
	4.338700745672804e-07
	1.898045126827079e-05
	2.146752560794911e-06
	2.567642787644587e-01

 31	3.100000000000001e-01
	-4.765200742447306e-15
	-4.854827113809775e-18
	-1.510334811712874e-14
	4.665110952449668e-07
	2.079635166292378e-05
	2.345492398209987e-06
	2.567643013621234e-01

 32	3.200000000000001e-01
	-4.722028233053646e-15
	-4.994317137566976e-18
	-1.524862191157369e-14
	5.013721024389985e-07
	2.279177452915266e-05
	2.563274492308418e-06
	2.567643261254275e-01

 33	3.300000000000001e-01
	-4.679924084102471e-15
	-5.137868324115959e-18
	-1.539236108182007e-14
	5.385829266586817e-07
	2.498434098151795e-05
	2.801980856001182e-06
	2.567643532684667e-01

 34	3.400000000000001e-01
	-4.638886881485619e-15
	-5.285604008451994e-18
	-1.553452996367772e-14
	5.782793379512933e-07
	2.739323014506027e-05
	3.063677410260327e-06
	2.567643830262674e-01

 35	3.500000000000001e-01
	-4.598914448115407e-15
	-5.437651623970348e-18
	-1.567509479309821e-14
	6.206032123866140e-07
	3.003927645709803e-05
	3.350630048703759e-06
	2.567644156566132e-01

 36	3.600000000000002e-01
	-4.560003858689084e-15
	-5.594142856136118e-18
	-1.581402371502168e-14
	6.657026986627489e-07
	3.294506593482701e-05
	3.665321670664246e-06
	2.567644514419841e-01

 37	3.700000000000002e-01
	-4.522151455819261e-15
	-5.755213802590682e-18
	-1.595128678803284e-14
	7.137323848518046e-07
	3.613503001324312e-05
	4.010470165507579e-06
	2.567644906916053e-01

 38	3.800000000000002e-01
	-4.485352867440892e-15
	-5.921005139989555e-18
	-1.608685598492809e-14
	7.648534653456332e-07
	3.963553536119081e-05
	4.389047316020743e-06
	2.567645337436022e-01

 39	3.900000000000002e-01
	-4.449603025403086e-15
	-6.091662297880242e-18
	-1.622070518930822e-14
	8.192339081081361e-07
	4.347496788245318e-05
	4.804298571753917e-06
	2.567645809672451e-01

 40	4.000000000000002e-01
	-4.414896185152712e-15
	-6.267335639945351e-18
	-1.635281018832244e-14
	8.770486223922776e-07
	4.768380890754553e-05
	5.259763624248806e-06
	2.567646327652934e-01

 41	4.100000000000002e-01
	-4.381225946415894e-15
	-6.448180652951580e-18
	-1.648314866169922e-14
	9.384796271372055e-07
	5.229470138475678e-05
	5.759297695136792e-06
	2.567646895764311e-01

 42	4.200000000000002e-01
	-4.348585274782336e-15
	-6.634358143762855e-18
	-1.661170016721072e-14
	1.003716220324344e-06
	5.734250369132042e-05
	6.307093425214554e-06
	2.567647518777431e-01

 43	4.300000000000002e-01
	-4.316966524098421e-15
	-6.826034444792740e-18
	-1.673844612272299e-14
	1.072955149640812e-06
	6.286432851337693e-05
	6.907703227919231e-06
	2.567648201872723e-01

 44	4.400000000000002e-01
	-4.286361459574484e-15
	-7.023381628290441e-18
	-1.686336978499397e-14
	1.146400784875347e-06
	6.889956409344679e-05
	7.566061944328474e-06
	2.567648950665895e-01

 45	4.500000000000002e-01
	-4.256761281513037e-15
	-7.226577729873884e-18
	-1.698645622538582e-14
	1.224265292555343e-06
	7.548987502380445e-05
	8.287509609151451e-06
	2.567649771234006e-01

 46	4.600000000000002e-01
	-4.228156649565795e-15
	-7.435806981746193e-18
	-1.710769230266421e-14
	1.306768813424826e-06
	8.267917968145144e-05
	9.077814108501888e-06
	2.567650670141091e-01

 47	4.700000000000003e-01
	-4.200537707429083e-15
	-7.651260056048481e-18
	-1.722706663306075e-14
	1.394139643461493e-06
	9.051360136360103e-05
	9.943193480961080e-06
	2.567651654463656e-01

 48	4.800000000000003e-01
	-4.173894107889037e-15
	-7.873134318831726e-18
	-1.734456955777805e-14
	1.486614419236881e-06
	9.904139020031337e-05
	1.089033758406033e-05
	2.567652731815293e-01

 49	4.900000000000003e-01
	-4.148215038130614e-15
	-8.101634095146881e-18
	-1.746019310811884e-14
	1.584438308536911e-06
	1.083128130016074e-04
	1.192642881941994e-05
	2.567653910370352e-01

 50	5.000000000000002e-01
	-4.123489245226524e-15
	-8.336970945783966e-18
	-1.757393096842238e-14
	1.687865207280045e-06
	1.183800083482041e-04
	1.305916158205216e-05
	2.567655198885947e-01

 51	5.100000000000002e-01
	-4.099705061725907e-15
	-8.579363956212112e-18
	-1.768577843699042e-14
	1.797157943896043e-06
	1.292968044654716e-04
	1.429676007351363e-05
	2.567656606722288e-01

 52	5.200000000000002e-01
	-4.076850431264583e-15
	-8.829040038303061e-18
	-1.779573238518588e-14
	1.912588492459593e-06
	1.411184977356460e-04
	1.564799409550636e-05
	2.567658143860643e-01

 53	5.300000000000002e-01
	-4.054912934123215e-15
	-9.086234245449867e-18
	-1.790379121488443e-14
	2.034438196007770e-06
	1.539015901089424e-04
	1.712219242104922e-05
	2.567659820918514e-01

 54	5.400000000000003e-01
	-4.033879812662283e-15
	-9.351190101718930e-18
	-1.800995481445851e-14
	2.162998001606684e-06
	1.677034841728925e-04
	1.872925332539212e-05
	2.567661649161570e-01

 55	5.500000000000003e-01
	-4.013737996566936e-15
	-9.624159945712102e-18
	-1.811422451346875e-14
	2.298568708869090e-06
	1.825821352319909e-04
	2.047965184936542e-05
	2.567663640511892e-01

 56	5.600000000000003e-01
	-3.994474127838333e-15
	-9.905405289842458e-18
	-1.821660303623599e-14
	2.441461233757979e-06
	1.985956604346582e-04
	2.238444336478182e-05
	2.567665807551995e-01

 57	5.700000000000003e-01
	-3.976074585472091e-15
	-1.019519719576654e-17
	-1.831709445446109e-14
	2.591996889638389e-06
	2.158019057566559e-04
	2.445526301573335e-05
	2.567668163524093e-01

 58	5.800000000000003e-01
	-3.958525509768266e-15
	-1.049381666675252e-17
	-1.841570413905640e-14
	2.750507687657474e-06
	2.342579725011556e-04
	2.670432062199134e-05
	2.567670722324265e-01

 59	5.900000000000003e-01
	-3.941812826221164e-15
	-1.080155505780315e-17
	-1.851243871134689e-14
	2.917336658637432e-06
	2.540197058936971e-04
	2.914439065195367e-05
	2.567673498490882e-01

 60	6.000000000000003e-01
	-3.925922268941682e-15
	-1.111871450438700e-17
	-1.860730599379318e-14
	3.092838198752649e-06
	2.751411493196029e-04
	3.178879690327851e-05
	2.567676507187259e-01

 61	6.100000000000003e-01
	-3.910839403568052e-15
	-1.144560837068967e-17
	-1.870031496038323e-14
	3.277378441328491e-06
	2.976739687527855e-04
	3.465139156993660e-05
	2.567679764177530e-01

 62	6.200000000000003e-01
	-3.896549649625773e-15
	-1.178256171832240e-17
	-1.879147568683245e-14
	3.471335657137599e-06
	3.216668529351447e-04
	3.774652842506992e-05
	2.567683285796233e-01

 63	6.300000000000003e-01
	-3.883038302300401e-15
	-1.212991179649285e-17
	-1.888079930072608e-14
	3.675100685580226e-06
	3.471648958592257e-04
	4.108902990978435e-05
	2.567687088910658e-01

 64	6.400000000000003e-01
	-3.870290553591485e-15
	-1.248800855467688e-17
	-1.896829793173041e-14
	3.889077399109662e-06
	3.742089690543211e-04
	4.469414798844344e-05
	2.567691190876282e-01

 65	6.500000000000004e-01
	-3.858291512819047e-15
	-1.285721517890001e-17
	-1.905398466199260e-14
	4.113683203203147e-06
	4.028350920475387e-04
	4.857751871061865e-05
	2.567695609484844e-01

 66	6.600000000000004e-01
	-3.847026226458101e-15
	-1.323790865277324e-17
	-1.913787347684199e-14
	4.349349574077032e-06
	4.330738101345488e-04
	5.275511050760924e-05
	2.567700362905708e-01

 67	6.700000000000004e-01
	-3.836479697279694e-15
	-1.363048034451489e-17
	-1.921997921589871e-14
	4.596522636204937e-06
	4.649495892185629e-04
	5.724316634619166e-05
	2.567705469619662e-01

 68	6.800000000000004e-01
	-3.826636902780827e-15
	-1.403533662122335e-17
	-1.930031752468796e-14
	4.855663781513673e-06
	4.984802379297002e-04
	6.205813996234507e-05
	2.567710948346573e-01

 69	6.900000000000004e-01
	-3.817482812888474e-15
	-1.445289949175861e-17
	-1.937890480685192e-14
	5.127250331912699e-06
	5.336763674931957e-04
	6.721662650140311e-05
	2.567716817966286e-01

 70	7.000000000000004e-01
	-3.809002406926162e-15
	-1.488360727964266e-17
	-1.945575817704379e-14
	5.411776246554743e-06
	5.705408998492052e-04
	7.273528799616942e-05
	2.567723097433901e-01

 71	7.100000000000004e-01
	-3.801180689834441e-15
	-1.532791532747718e-17
	-1.953089541458181e-14
	5.709752874939342e-06
	6.090686343210660e-04
	7.863077421878828e-05
	2.567729805689683e-01

 72	7.200000000000004e-01
	-3.794002707639428e-15
	-1.578629673444557e-17
	-1.960433491793454e-14
	6.021709756660084e-06
	6.492458826698512e-04
	8.491963954302755e-05
	2.567736961564513e-01

 73	7.300000000000004e-01
	-3.787453562166202e-15
	-1.625924312855820e-17
	-1.967609566010191e-14
	6.348195468272909e-06
	6.910501816561815e-04
	9.161825654860567e-05
	2.567744583681644e-01

 74	7.400000000000004e-01
	-3.781518424996164e-15
	-1.674726547538559e-17
	-1.974619714495040e-14
	6.689778517435044e-06
	7.344500912581964e-04
	9.874272718564243e-05
	2.567752690355684e-01

 75	7.500000000000004e-01
	-3.776182550669943e-15
	-1.725089492511948e-17
	-1.981465936455451e-14
	7.047048284147060e-06
	7.794050854794378e-04
	1.063087923927973e-04
	2.567761299489790e-01

 76	7.600000000000005e-01
	-3.771431289139588e-15
	-1.777068369989644e-17
	-1.988150275759068e-14
	7.420616008635362e-06
	8.258655412422185e-04
	1.143317411247663e-04
	2.567770428472424e-01

 77	7.700000000000005e-01
	-3.767250097475351e-15
	-1.830720602343684e-17
	-1.994674816882477e-14
	7.811115825158387e-06
	8.737728292305564e-04
	1.228263197915640e-04
	2.567780094074169e-01

 78	7.800000000000005e-01
	-3.763624550834934e-15
	-1.886105909514462e-17
	-2.001041680972722e-14
	8.219205840814559e-06
	9.230595087579977e-04
	1.318066431414935e-04
	2.567790312346678e-01

 79	7.900000000000005e-01
	-3.760540352703925e-15
	-1.943286411094898e-17
	-2.007253022024715e-14
	8.645569258299014e-06
	9.736496268348654e-04
	1.412861076307867e-04
	2.567801098524051e-01

 80	8.000000000000005e-01
	-3.757983344418238e-15
	-2.002326733328174e-17
	-2.013311023176931e-14
	9.090915541502223e-06
	1.025459119644657e-03
	1.512773083144560e-04
	2.567812466928507e-01

 81	8.100000000000005e-01
	-3.755939513980487e-15
	-2.063294121271801e-17
	-2.019217893127496e-14
	9.555981622890448e-06
	1.078396312665178e-03
	1.617919602648159e-04
	2.567824430880966e-01

 82	8.200000000000005e-01
	-3.754395004183519e-15
	-2.126258556394960e-17
	-2.024975862672201e-14
	1.004153315175593e-05
	1.132362513740269e-03
	1.728408254763587e-04
	2.567837002618037e-01

 83	8.300000000000005e-01
	-3.753336120055396e-15
	-2.191292879889684e-17
	-2.030587181365639e-14
	1.054836578269237e-05
	1.187252691578959e-03
	1.844336461491815e-04
	2.567850193216193e-01

 84	8.400000000000005e-01
	-3.752749335640998e-15
	-2.258472921992924e-17
	-2.036054114306215e-14
	1.107730650403456e-05
	1.242956230481931e-03
	1.965790851590213e-04
	2.567864012524049e-01

 85	8.500000000000005e-01
	-3.752621300136629e-15
	-2.327877637631591e-17
	-2.041378939045379e-14
	1.162921500650734e-05
	1.299357750619166e-03
	2.092846744220886e-04
	2.567878469103697e-01

 86	8.600000000000005e-01
	-3.752938843393977e-15
	-2.399589248719978e-17
	-2.046563942621178e-14
	1.220498509295519e-05
	1.356337981949175e-03
	2.225567717494867e-04
	2.567893570181654e-01

 87	8.700000000000006e-01
	-3.753688980811190e-15
	-2.473693393456856e-17
	-2.051611418715741e-14
	1.280554613076263e-05
	1.413774678912862e-03
	2.364005266616424e-04
	2.567909321609896e-01

 88	8.800000000000006e-01
	-3.754858917628847e-15
	-2.550279282987831e-17
	-2.056523664936114e-14
	1.343186454941841e-05
	1.471543562378683e-03
	2.508198555007965e-04
	2.567925727837638e-01

 89	8.900000000000006e-01
	-3.756436052648999e-15
	-2.629439865818163e-17
	-2.061302980217512e-14
	1.408494538661371e-05
	1.529519274974753e-03
	2.658174260423169e-04
	2.567942791893762e-01

 90	9.000000000000006e-01
	-3.758407981395862e-15
	-2.711272000381924e-17
	-2.065951662347774e-14
	1.476583388727500e-05
	1.587576335921589e-03
	2.813946516665179e-04
	2.567960515380165e-01

 91	9.100000000000006e-01
	-3.760762498736913e-15
	-2.795876636194724e-17
	-2.070472005611590e-14
	1.547561716100369e-05
	1.645590081770085e-03
	2.975516950150446e-04
	2.567978898475879e-01

 92	9.200000000000006e-01
	-3.763487600983089e-15
	-2.883359004039163e-17
	-2.074866298552774e-14
	1.621542590450532e-05
	1.703437580036481e-03
	3.142874809227255e-04
	2.567997939951730e-01

 93	9.300000000000006e-01
	-3.766571487487036e-15
	-2.973828815656653e-17
	-2.079136821852655e-14
	1.698643619671975e-05
	1.760998503584090e-03
	3.315997182899267e-04
	2.568017637195225e-01

 94	9.400000000000006e-01
	-3.770002561757934e-15
	-3.067400473442783e-17
	-2.083285846322503e-14
	1.778987137549477e-05
	1.818155954697539e-03
	3.494849304444717e-04
	2.568037986245042e-01

 95	9.500000000000006e-01
	-3.773769432111699e-15
	-3.164193290670262e-17
	-2.087315631007599e-14
	1.862700400575357e-05
	1.874797229089820e-03
	3.679384934382136e-04
	2.568058981834535e-01

 96	9.600000000000006e-01
	-3.777860911874617e-15
	-3.264331722788881e-17
	-2.091228421400556e-14
	1.949915795017974e-05
	1.930814511532199e-03
	3.869546816331920e-04
	2.568080617443579e-01

 97	9.700000000000006e-01
	-3.782266019158777e-15
	-3.367945610381127e-17
	-2.095026447761147e-14
	2.040771055446073e-05
	1.986105496355884e-03
	4.065267198572358e-04
	2.568102885357920e-01

 98	9.800000000000006e-01
	-3.786973976226602e-15
	-3.475170434380803e-17
	-2.098711923539957e-14
	2.135409496008620e-05
	2.040573927695895e-03
	4.266468413498156e-04
	2.568125776735053e-01

 99	9.900000000000007e-01
	-3.791974208462158e-15
	-3.586147584192644e-17
	-2.102287043902873e-14
	2.233980255857371e-05
	2.094130055985635e-03
	4.473063506761604e-04
	2.568149281675780e-01

 100	1.000000000000001e+00
	-3.797256342965642e-15
	-3.701024639382414e-17
	-2.105753984353483e-14
	2.336638560179048e-05
	2.146691008822736e-03
	4.684956907611866e-04
	2.568173389300520e-01

 101	1.010000000000001e+00
	-3.802810206787658e-15
	-3.819955665640180e-17
	-2.109114899450222e-14
