Title: ** sch_path: /home/andylithia/openmpw/project-yatsuhashi-chip1/xschem/gmid_test/nmos_test.sch
Date: Sun Jul 17 22:51:45  2022
Plotname: DC transfer characteristic
Flags: real
No. Variables: 8
No. Points: 181
Variables:
	0	v(v-sweep)	voltage
	1	@m.xm1.msky130_fd_pr__nfet_01v8[cgb]	capacitance
	2	@m.xm1.msky130_fd_pr__nfet_01v8[cgd]	capacitance
	3	@m.xm1.msky130_fd_pr__nfet_01v8[cgs]	capacitance
	4	@m.xm1.msky130_fd_pr__nfet_01v8[gds]	admittance
	5	@m.xm1.msky130_fd_pr__nfet_01v8[gm]	admittance
	6	i(@m.xm1.msky130_fd_pr__nfet_01v8[id])	current
	7	v(@m.xm1.msky130_fd_pr__nfet_01v8[vth])	voltage
Values:
 0	0.000000000000000e+00
	-7.553156843030443e-16
	8.836256742513787e-20
	-6.699449455889690e-18
	4.499239491064763e-14
	1.019668543304583e-12
	3.455199094203493e-14
	7.571596619235438e-01

 1	1.000000000000000e-02
	-7.516668304422848e-16
	9.387748439538373e-20
	-7.129129538578827e-18
	6.004416310205551e-14
	1.369682400840441e-12
	4.641279952123862e-14
	7.571596619235446e-01

 2	2.000000000000000e-02
	-7.480624374299010e-16
	9.972401328521519e-20
	-7.592710526570173e-18
	8.012768004790718e-14
	1.839835237524034e-12
	6.234494376511805e-14
	7.571596619235457e-01

 3	3.000000000000000e-02
	-7.445009050978995e-16
	1.059276460913733e-19
	-8.093321251637175e-18
	1.069237016198029e-13
	2.471359440545114e-12
	8.374585290926100e-14
	7.571596619235467e-01

 4	4.000000000000000e-02
	-7.409806096871712e-16
	1.125163791171523e-19
	-8.634438890196650e-18
	1.426739109708676e-13
	3.319636270880102e-12
	1.124925516408160e-13
	7.571596619235486e-01

 5	5.000000000000000e-02
	-7.374998969875366e-16
	1.195208577627941e-19
	-9.219924113309687e-18
	1.903679317398304e-13
	4.459049757305269e-12
	1.511062273379489e-13
	7.571596619235504e-01

 6	6.000000000000000e-02
	-7.340570752238455e-16
	1.269745088859296e-19
	-9.854058481073187e-18
	2.539926181194470e-13
	5.989505047618669e-12
	2.029732503762427e-13
	7.571596619235537e-01

 7	7.000000000000001e-02
	-7.306504076849331e-16
	1.349136582413625e-19
	-1.054158413822515e-17
	3.388643307409149e-13
	8.045181582154235e-12
	2.726420041394001e-13
	7.571596619235579e-01

 8	8.000000000000000e-02
	-7.272781050910433e-16
	1.433776305309396e-19
	-1.128774587392481e-17
	4.520717811805442e-13
	1.080628668384209e-11
	3.662215134400300e-13
	7.571596619235628e-01

 9	9.000000000000000e-02
	-7.239383176941107e-16
	1.524088296189523e-19
	-1.209833561514855e-17
	6.030661777462620e-13
	1.451483708903226e-11
	4.919167615807119e-13
	7.571596619235705e-01

 10	9.999999999999999e-02
	-7.206291271039848e-16
	1.620527964920227e-19
	-1.297973942968770e-17
	8.044475822403399e-13
	1.949584729661515e-11
	6.607475324658413e-13
	7.571596619235796e-01

 11	1.100000000000000e-01
	-7.173485378323685e-16
	1.723582425584792e-19
	-1.393898712064593e-17
	1.073012589280852e-12
	2.618577481129467e-11
	8.875136438945372e-13
	7.571596619235931e-01

 12	1.200000000000000e-01
	-7.140944685452711e-16
	1.833770558811093e-19
	-1.498380449873264e-17
	1.431149991349197e-12
	3.517070411573075e-11
	1.192090943690229e-12
	7.571596619236102e-01

 13	1.300000000000000e-01
	-7.108647430141581e-16
	1.951642779050851e-19
	-1.612266841991493e-17
	1.908699751835930e-12
	4.723759797548933e-11
	1.601171286106422e-12
	7.571596619236337e-01

 14	1.400000000000000e-01
	-7.076570807563974e-16
	2.077780481606686e-19
	-1.736486467203134e-17
	2.545428707136924e-12
	6.344307924603053e-11
	2.150598388942693e-12
	7.571596619236654e-01

 15	1.500000000000000e-01
	-7.044690873573525e-16
	2.212795142640092e-19
	-1.872054878165032e-17
	3.394327047146653e-12
	8.520572589326764e-11
	2.888503331835560e-12
	7.571596619237074e-01

 16	1.600000000000000e-01
	-7.012982444704781e-16
	2.357327042805143e-19
	-2.020080978780654e-17
	4.525996875116869e-12
	1.144298961395869e-10
	3.879512961193425e-12
	7.571596619237643e-01

 17	1.700000000000000e-01
	-6.981418994988053e-16
	2.512043581229281e-19
	-2.181773698727033e-17
	6.034493438085797e-12
	1.536718222998443e-10
	5.210397585677384e-12
	7.571596619238409e-01

 18	1.800000000000000e-01
	-6.949972549723601e-16
	2.677637140996452e-19
	-2.358448959061773e-17
	8.045098108400975e-12
	2.063623509876405e-10
	6.997649048835815e-12
	7.571596619239429e-01

 19	1.900000000000000e-01
	-6.918613576525429e-16
	2.854822459806952e-19
	-2.551536913269074e-17
	1.072465933826839e-11
	2.771055695934759e-10
	9.397647182490976e-12
	7.571596619240809e-01

 20	2.000000000000000e-01
	-6.887310874176304e-16
	3.044333449902427e-19
	-2.762589434734546e-17
	1.429534606928920e-11
	3.720790497408792e-10
	1.262029593961692e-11
	7.571596619242656e-01

 21	2.100000000000000e-01
	-6.856031460146203e-16
	3.246919399587591e-19
	-2.993287803650563e-17
	1.905293387071495e-11
	4.995700945762376e-10
	1.694730902325479e-11
	7.571596619245131e-01

 22	2.200000000000001e-01
	-6.824740458030474e-16
	3.463340474862056e-19
	-3.245450522921492e-17
	2.539110897641799e-11
	6.706939070854261e-10
	2.275672360317950e-11
	7.571596619248464e-01

 23	2.300000000000001e-01
	-6.793400986673005e-16
	3.694362424126899e-19
	-3.521041162953159e-17
	3.383375768645315e-11
	9.003549345221634e-10
	3.055575294057477e-11
	7.571596619252932e-01

 24	2.400000000000001e-01
	-6.761974053363993e-16
	3.940750372243200e-19
	-3.822176098562750e-17
	4.507784531909093e-11
	1.208533014300921e-09
	4.102479834686691e-11
	7.571596619258931e-01

 25	2.500000000000001e-01
	-6.730418454248922e-16
	4.203261573287005e-19
	-4.151131957058694e-17
	6.005032835910861e-11
	1.622002950178265e-09
	5.507638586185001e-11
	7.571596619266984e-01

 26	2.600000000000001e-01
	-6.698690685956960e-16
	4.482636975387732e-19
	-4.510352544468320e-17
	7.998364848792051e-11
	2.176631866273495e-09
	7.393404963681990e-11
	7.571596619277789e-01

 27	2.700000000000001e-01
	-6.666744873450089e-16
	4.779591437624579e-19
	-4.902454956902618e-17
	1.065158092340967e-10
	2.920445812962110e-09
	9.923785229994786e-11
	7.571596619292289e-01

 28	2.800000000000001e-01
	-6.634532720197625e-16
	5.094802430020670e-19
	-5.330234516540399e-17
	1.418229400928755e-10
	3.917719090338563e-09
	1.331854432161954e-10
	7.571596619311745e-01

 29	2.900000000000001e-01
	-6.602003487972305e-16
	5.428897045508862e-19
	-5.796668097655067e-17
	1.887947439322089e-10
	5.254421014073876e-09
	1.787204783299255e-10
	7.571596619337836e-01

 30	3.000000000000001e-01
	-6.569104014810239e-16
	5.782437159977060e-19
	-6.304915329183231e-17
	2.512664732283960e-10
	7.045460921923950e-09
	2.397840795626723e-10
	7.571596619372829e-01

 31	3.100000000000001e-01
	-6.535778780927777e-16
	6.155902596058402e-19
	-6.858317079146784e-17
	3.343253067203124e-10
	9.444310005260112e-09
	3.216500789548146e-10
	7.571596619419737e-01

 32	3.200000000000001e-01
	-6.501970033576005e-16
	6.549672181339177e-19
	-7.460390546470648e-17
	4.447144733103493e-10
	1.265575648703000e-08
	4.313714308589199e-10
	7.571596619482613e-01

 33	3.300000000000001e-01
	-6.467617982849558e-16
	6.964002645295101e-19
	-8.114820212361935e-17
	5.913655329224816e-10
	1.695277885693360e-08
	5.783738351186880e-10
	7.571596619566854e-01

 34	3.400000000000001e-01
	-6.432661081239203e-16
	7.399005374559755e-19
	-8.825443842802770e-17
	7.860982886075611e-10
	2.269881206303337e-08
	7.752438552565313e-10
	7.571596619679666e-01

 35	3.500000000000001e-01
	-6.397036400093825e-16
	7.854621145617128e-19
	-9.596232693728083e-17
	1.044539368235731e-09
	3.037704685764873e-08
	1.038773322861984e-09
	7.571596619830683e-01

 36	3.600000000000002e-01
	-6.360680115981798e-16
	8.330593079365641e-19
	-1.043126506039162e-16
	1.387325162714935e-09
	4.062885665499149e-08
	1.391340412416423e-09
	7.571596620032718e-01

 37	3.700000000000002e-01
	-6.323528119044539e-16
	8.826438213495754e-19
	-1.133469234272181e-16
	1.841673207935978e-09
	5.430400223639059e-08
	1.862731404597156e-09
	7.571596620302845e-01

 38	3.800000000000002e-01
	-6.285516753641062e-16
	9.341418264564364e-19
	-1.231069688029403e-16
	2.443428978351141e-09
	7.252593210379956e-08
	2.492536901351499e-09
	7.571596620663751e-01

 39	3.900000000000002e-01
	-6.246583698722885e-16
	9.874510347755567e-19
	-1.336344095495640e-16
	3.239723166957709e-09
	9.677627758456980e-08
	3.333293247592656e-09
	7.571596621145542e-01

 40	4.000000000000002e-01
	-6.206668991315591e-16
	1.042437863113335e-18
	-1.449700657605176e-16
	4.292408540563500e-09
	1.290035258663956e-07
	4.454585249659433e-09
	7.571596621788091e-01

 41	4.100000000000002e-01
	-6.165716191127100e-16
	1.098934811166003e-18
	-1.571532595991536e-16
	5.682485862036851e-09
	1.717618077835003e-07
	5.948380844226166e-09
	7.571596622644101e-01

 42	4.200000000000002e-01
	-6.123673677644959e-16
	1.156738189751893e-18
	-1.702210299503377e-16
	7.515775236211493e-09
	2.283866932740361e-07
	7.935932557187496e-09
	7.571596623783053e-01

 43	4.300000000000002e-01
	-6.080496063222825e-16
	1.215606354691408e-18
	-1.842072644408479e-16
	9.930141923995428e-09
	3.032157302419536e-07
	1.057665389322668e-08
	7.571596625296305e-01

 44	4.400000000000002e-01
	-6.036145696819404e-16
	1.275258612627851e-18
	-1.991417616357349e-16
	1.310464240625813e-08
	4.018620110485161e-07
	1.407945923656826e-08
	7.571596627303565e-01

 45	4.500000000000002e-01
	-5.990594223621997e-16
	1.335374968798863e-18
	-2.150492420142928e-16
	1.727101380445410e-08
	5.315490428700957e-07
	1.871713924063642e-08
	7.571596629961156e-01

 46	4.600000000000002e-01
	-5.943824156296566e-16
	1.395596880712419e-18
	-2.319483323358638e-16
	2.272798185509929e-08
	7.015142808652157e-07
	2.484442278605055e-08
	7.571596633472353e-01

 47	4.700000000000003e-01
	-5.895830404737665e-16
	1.455529163953154e-18
	-2.498505538362128e-16
	2.985890054993022e-08
	9.234864188172619e-07
	3.292044017241438e-08
	7.571596638100265e-01

 48	4.800000000000003e-01
	-5.846621703734318e-16
	1.514743165660976e-18
	-2.687593498850749e-16
	3.915324751375550e-08
	1.212237432440162e-06
	4.353633438535433e-08
	7.571596644183635e-01

 49	4.900000000000003e-01
	-5.796221872767880e-16
	1.572781277213789e-18
	-2.886691927700079e-16
	5.123246608976940e-08
	1.586203975985289e-06
	5.744874732216748e-08
	7.571596652156050e-01

 50	5.000000000000002e-01
	-5.744670840036935e-16
	1.629162801121890e-18
	-3.095648116298853e-16
	6.688054656523996e-08
	2.068163750302857e-06
	7.561981113623723e-08
	7.571596662568866e-01

 51	5.100000000000002e-01
	-5.692025364467811e-16
	1.683391120267994e-18
	-3.314205837693677e-16
	8.707955042657563e-08
	2.685940968327508e-06
	9.926407547198550e-08
	7.571596676118055e-01

 52	5.200000000000002e-01
	-5.638359395407723e-16
	1.734962043961173e-18
	-3.542001292778089e-16
	1.130499778101709e-07
	3.473101743820340e-06
	1.299024770890150e-07
	7.571596693675198e-01

 53	5.300000000000002e-01
	-5.583764020092647e-16
	1.783373129625375e-18
	-3.778561438534470e-16
	1.462954382872059e-07
	4.469586690242086e-06
	1.694229981763691e-07
	7.571596716322184e-01

 54	5.400000000000003e-01
	-5.528346963636840e-16
	1.828133707051619e-18
	-4.023304970133370e-16
	1.886504986343256e-07
	5.722216801775243e-06
	2.201470731383194e-07
	7.571596745389301e-01

 55	5.500000000000003e-01
	-5.472231624596288e-16
	1.868775270164331e-18
	-4.275546127147876e-16
	2.423298579587167e-07
	7.285003207697787e-06
	2.849001305426125e-07
	7.571596782495642e-01

 56	5.600000000000003e-01
	-5.415555650103846e-16
	1.904861855133269e-18
	-4.534501373378712e-16
	3.099761792550018e-07
	9.219195320157290e-06
	3.670839731389813e-07
	7.571596829590601e-01

 57	5.700000000000003e-01
	-5.358469076812618e-16
	1.935999998446642e-18
	-4.799298867169613e-16
	3.947030620960025e-07
	1.159301808089069e-05
	4.707481139882632e-07
	7.571596888994733e-01

 58	5.800000000000003e-01
	-5.301132085845866e-16
	1.961847867745615e-18
	-5.068990503634919e-16
	5.001288854334675e-07
	1.448107799203413e-05
	6.006568286308027e-07
	7.571596963438186e-01

 59	5.900000000000003e-01
	-5.243712439991710e-16
	1.982123183247093e-18
	-5.342566181762164e-16
	6.303967210367737e-07
	1.796345618040215e-05
	7.623486673559648e-07
	7.571597056094811e-01

 60	6.000000000000003e-01
	-5.186382687950181e-16
	1.996609597563030e-18
	-5.618969837569819e-16
	7.901753594667123e-07
	2.212454725545199e-05
	9.621855593019925e-07
	7.571597170610312e-01

 61	6.100000000000003e-01
	-5.129317232251083e-16
	2.005161273440895e-18
	-5.897116697896937e-16
	9.846368140821565e-07
	2.705173395028246e-05
	1.207389396787564e-06
	7.571597311123187e-01

 62	6.200000000000003e-01
	-5.072689363625055e-16
	2.007705487152525e-18
	-6.175911154399741e-16
	1.219406520139693e-06
	3.283399740969022e-05
	1.506064959867749e-06
	7.571597482277902e-01

 63	6.300000000000003e-01
	-5.016668364732694e-16
	2.004243183209449e-18
	-6.454264637607721e-16
	1.500483779881998e-06
	3.956054281512715e-05
	1.867208965862238e-06
	7.571597689230050e-01

 64	6.400000000000003e-01
	-4.961416780366666e-16
	1.994847506301128e-18
	-6.731112887043211e-16
	1.834131685755433e-06
	4.731946881519195e-05
	2.300705593165819e-06
	7.571597937643819e-01

 65	6.500000000000004e-01
	-4.907087940167033e-16
	1.979660431397710e-18
	-7.005432062980722e-16
	2.226737595144106e-06
	5.619643616987842e-05
	2.817308759860866e-06
	7.571598233681844e-01

 66	6.600000000000004e-01
	-4.853823804567362e-16
	1.958887696214248e-18
	-7.276253223297711e-16
	2.684647054004345e-06
	6.627321472144395e-05
	3.428610603665767e-06
	7.571598583987136e-01

 67	6.700000000000004e-01
	-4.801753186439515e-16
	1.932792306510295e-18
	-7.542674787929995e-16
	3.213975769791612e-06
	7.762593192998238e-05
	4.146994094886815e-06
	7.571598995655933e-01

 68	6.800000000000004e-01
	-4.750990381182693e-16
	1.901686930652360e-18
	-7.803872725422383e-16
	3.820405816503729e-06
	9.032283292571507e-05
	4.985565837527839e-06
	7.571599476199212e-01

 69	6.900000000000004e-01
	-4.701634218243226e-16
	1.865925524150655e-18
	-8.059108312421707e-16
	4.508973794705385e-06
	1.044214055423830e-04
	5.958063381417033e-06
	7.571600033489569e-01

 70	7.000000000000004e-01
	-4.653767528543586e-16
	1.825894528058670e-18
	-8.307733429720787e-16
	5.283860240716093e-06
	1.199648259857262e-04
	7.078730368830047e-06
	7.571600675689697e-01

 71	7.100000000000004e-01
	-4.607457006077559e-16
	1.782003969382555e-18
	-8.549193460881332e-16
	6.148191144246126e-06
	1.369778298533632e-04
	8.362153111485913e-06
	7.571601411158676e-01

 72	7.200000000000004e-01
	-4.562753428721272e-16
	1.734678760375825e-18
	-8.783027946458036e-16
	7.103863764579593e-06
	1.554622851116461e-04
	9.823054095291368e-06
	7.571602248333702e-01

 73	7.300000000000004e-01
	-4.519692193515035e-16
	1.684350450887037e-18
	-9.008869215206699e-16
	8.151409610352844e-06
	1.753929056065427e-04
	1.147604151043491e-05
	7.571603195586476e-01

 74	7.400000000000004e-01
	-4.478294115377853e-16
	1.631449638119040e-18
	-9.226439262018667e-16
	9.289906948380281e-06
	1.967136594892851e-04
	1.333531892294613e-05
	7.571604261056860e-01

 75	7.500000000000004e-01
	-4.438566435249290e-16
	1.576399185379372e-18
	-9.435545170969056e-16
	1.051695309452111e-05
	2.193354635622932e-04
	1.541436500771294e-05
	7.571605452469297e-01

 76	7.600000000000005e-01
	-4.400503983635880e-16
	1.519608349291551e-18
	-9.636073392395075e-16
	1.182870285602950e-05
	2.431356901203769e-04
	1.772559893809715e-05
	7.571606776941049e-01

 77	7.700000000000005e-01
	-4.364090447963365e-16
	1.461467866407761e-18
	-9.827983177874805e-16
	1.321997410443103e-05
	2.679598442107232e-04
	2.028005152911263e-05
	7.571608240793708e-01

 78	7.800000000000005e-01
	-4.329299696428554e-16
	1.402346007332547e-18
	-1.001129945943737e-15
	1.468441526319085e-05
	2.936255164844278e-04
	2.308706459831737e-05
	7.571609849380891e-01

 79	7.900000000000005e-01
	-4.296097116627625e-16
	1.342585570640554e-18
	-1.018610543257320e-15
	1.621472349963227e-05
	3.199284220929731e-04
	2.615404059541816e-05
	7.571611606944758e-01

 80	8.000000000000005e-01
	-4.264440933569417e-16
	1.282501760634801e-18
	-1.035253506980569e-15
	1.780289766879771e-05
	3.466500551107845e-04
	2.948626121163009e-05
	7.571613516512006e-01

 81	8.100000000000005e-01
	-4.234283478293598e-16
	1.222380872323995e-18
	-1.051076575559301e-15
	1.944050738650245e-05
	3.735662761288497e-04
	3.308678783498787e-05
	7.571615579836878e-01

 82	8.200000000000005e-01
	-4.205572384819476e-16
	1.162479693409831e-18
	-1.066101119658278e-15
	2.111895938090463e-05
	4.004560481016583e-04
	3.695644927888249e-05
	7.571617797394082e-01

 83	8.300000000000005e-01
	-4.178251699261411e-16
	1.103025525774846e-18
	-1.080351472565782e-15
	2.282974434099675e-05
	4.271095566158783e-04
	4.109391436672115e-05
	7.571620168420409e-01

 84	8.400000000000005e-01
	-4.152262890459289e-16
	1.044216726953960e-18
	-1.093854308520892e-15
	2.456465126970824e-05
	4.533350817885030e-04
	4.549583989562677e-05
	7.571622690999543e-01

 85	8.500000000000005e-01
	-4.127545756266242e-16
	9.862236743070306e-19
	-1.106638074558658e-15
	2.631594104374175e-05
	4.789641944552257e-04
	5.015707916162054e-05
	7.571625362181559e-01

 86	8.600000000000005e-01
	-4.104039223657128e-16
	9.291900600400844e-19
	-1.118732478924731e-15
	2.807647565108604e-05
	5.038550835296677e-04
	5.507093312589733e-05
	7.571628178126895e-01

 87	8.700000000000006e-01
	-4.081682044070131e-16
	8.732344328835106e-19
	-1.130168036990790e-15
	2.983980375308892e-05
	5.278940412113953e-04
	6.022942550100708e-05
	7.571631134263986e-01

 88	8.800000000000006e-01
	-4.060413387909927e-16
	8.184519112830195e-19
	-1.140975673897833e-15
	3.160020639225673e-05
	5.509953066645211e-04
	6.562358422268116e-05
	7.571634225450613e-01

 89	8.900000000000006e-01
	-4.040173343990283e-16
	7.649160026822879e-19
	-1.151186381839553e-15
	3.335270869777863e-05
	5.730995812360249e-04
	7.124371439726618e-05
	7.571637446130306e-01

 90	9.000000000000006e-01
	-4.020903330959090e-16
	7.126804733144476e-19
	-1.160830928934030e-15
	3.509306439972051e-05
	5.941715784156308e-04
	7.707965124614771e-05
	7.571640790477320e-01

 91	9.100000000000006e-01
	-4.002546428518323e-16
	6.617812224461943e-19
	-1.169939615973154e-15
	3.681772005374714e-05
	6.141969693920260e-04
	8.312098522664222e-05
	7.571644252525681e-01

 92	9.200000000000006e-01
	-3.985047636614681e-16
	6.122381239318071e-19
	-1.178542076937723e-15
	3.852376535787530e-05
	6.331790454963105e-04
	8.935725494296969e-05
	7.571647826279702e-01

 93	9.300000000000006e-01
	-3.968354070817564e-16
	5.640568060437308e-19
	-1.186667118974887e-15
	4.020887506070817e-05
	6.511353581400695e-04
	9.577810638049254e-05
	7.571651505805264e-01

 94	9.400000000000006e-01
	-3.952415101896264e-16
	5.172303477405073e-19
	-1.194342597509556e-15
	4.187124692377494e-05
	6.680945288872607e-04
	1.023734192624992e-04
	7.571655285302229e-01

 95	9.500000000000006e-01
	-3.937182447224499e-16
	4.717408757768998e-19
	-1.201595322262962e-15
	4.350953915939180e-05
	6.840933571363034e-04
	1.091334029224868e-04
	7.571659159159394e-01

 96	9.600000000000006e-01
	-3.922610221134211e-16
	4.275610523644082e-19
	-1.208450990145595e-15
	4.512280981515883e-05
	6.991742966782972e-04
	1.160486650683093e-04
	7.571663121993858e-01

 97	9.700000000000006e-01
	-3.908654950758776e-16
	3.846554475047955e-19
	-1.214934141248928e-15
	4.671045976641483e-05
	7.133833279260685e-04
	1.231102572935911e-04
	7.571667168677156e-01

 98	9.800000000000006e-01
	-3.895275563285044e-16
	3.429817937090442e-19
	-1.221068134457401e-15
	4.827218032501771e-05
	7.267682202195666e-04
	1.303097012873050e-04
	7.571671294350237e-01

 99	9.900000000000007e-01
	-3.882433349903593e-16
	3.024921236728580e-19
	-1.226875139519604e-15
	4.980790597146040e-05
	7.393771571313926e-04
	1.376389995201513e-04
	7.571675494429616e-01

 100	1.000000000000001e+00
	-3.870091911127787e-16
	2.631337936876913e-19
	-1.232376142741200e-15
	5.131777235032176e-05
	7.512576851971091e-04
	1.450906338461951e-04
	7.571679764606539e-01

 101	1.010000000000001e+00
	-3.858217087560765e-16
	2.248503972215410e-19
	-1.237590963780671e-15
	5.280207941400028e-05
	7.624559408503361e-04
	1.526575550292114e-04
	7.571684100841002e-01

