Title: ** sch_path: /home/andylithia/openmpw/project-yatsuhashi-chip1/xschem/gmid_test/nmos_test.sch
Date: Tue Jul 19 23:15:45  2022
Plotname: DC transfer characteristic
Flags: real
No. Variables: 8
No. Points: 181
Variables:
	0	v(v-sweep)	voltage
	1	@m.xm1.msky130_fd_pr__nfet_01v8[cgb]	capacitance
	2	@m.xm1.msky130_fd_pr__nfet_01v8[cgd]	capacitance
	3	@m.xm1.msky130_fd_pr__nfet_01v8[cgs]	capacitance
	4	@m.xm1.msky130_fd_pr__nfet_01v8[gds]	admittance
	5	@m.xm1.msky130_fd_pr__nfet_01v8[gm]	admittance
	6	i(@m.xm1.msky130_fd_pr__nfet_01v8[id])	current
	7	v(@m.xm1.msky130_fd_pr__nfet_01v8[vth])	voltage
Values:
 0	0.000000000000000e+00
	-3.794985242890244e-16
	6.340177412911662e-20
	-5.094608250339110e-18
	2.064819104504212e-13
	6.003660922828648e-12
	2.360441523639812e-13
	7.692676641888118e-01

 1	1.000000000000000e-02
	-3.776284940034322e-16
	6.693958782446068e-20
	-5.407198458776155e-18
	2.643669691797424e-13
	7.742294972589985e-12
	3.044058721675385e-13
	7.692676641888149e-01

 2	2.000000000000000e-02
	-3.757802095635434e-16
	7.069215641846895e-20
	-5.743754688969880e-18
	3.384603079789674e-13
	9.984372280656791e-12
	3.925645885026651e-13
	7.692676641888199e-01

 3	3.000000000000000e-02
	-3.739527614640503e-16
	7.467458696974642e-20
	-6.106345067993481e-18
	4.332944189918895e-13
	1.287564457823374e-11
	5.062526497876723e-13
	7.692676641888258e-01

 4	4.000000000000000e-02
	-3.721452296402925e-16
	7.890286782910768e-20
	-6.497214697315713e-18
	5.546673835315241e-13
	1.660404785758617e-11
	6.528619197929464e-13
	7.692676641888329e-01

 5	5.000000000000000e-02
	-3.703566810992359e-16
	8.339387294094127e-20
	-6.918797965634854e-18
	7.099956511447815e-13
	2.141190588115133e-11
	8.419240579655120e-13
	7.692676641888424e-01

 6	6.000000000000000e-02
	-3.685861675088178e-16
	8.816536124885451e-20
	-7.373731491326778e-18
	9.087649537343941e-13
	2.761166141387413e-11
	1.085729728452307e-12
	7.692676641888547e-01

 7	7.000000000000001e-02
	-3.668327227415781e-16
	9.323597084830910e-20
	-7.864867723142131e-18
	1.163106584728886e-12
	3.560615373011967e-11
	1.400126893010094e-12
	7.692676641888705e-01

 8	8.000000000000000e-02
	-3.650953603687893e-16
	9.862520749095314e-20
	-8.395289226614385e-18
	1.488533804465918e-12
	4.591475446438171e-11
	1.805549934428526e-12
	7.692676641888911e-01

 9	9.000000000000000e-02
	-3.633730711019019e-16
	1.043534269896850e-19
	-8.968323680663004e-18
	1.904882737909490e-12
	5.920705171116361e-11
	2.328346287513052e-12
	7.692676641889176e-01

 10	9.999999999999999e-02
	-3.616648201792071e-16
	1.104418109963788e-19
	-9.587559603445263e-18
	2.437514377321348e-12
	7.634625853798135e-11
	3.002486483023480e-12
	7.692676641889515e-01

 11	1.100000000000000e-01
	-3.599695446972719e-16
	1.169123355220598e-19
	-1.025686281800237e-17
	3.118849911957458e-12
	9.844514768563604e-11
	3.871768268415782e-12
	7.692676641889953e-01

 12	1.200000000000000e-01
	-3.582861508890636e-16
	1.237877314390689e-19
	-1.098039365582116e-17
	3.990331496204297e-12
	1.269381188707172e-10
	4.992657341800256e-12
	7.692676641890519e-01

 13	1.300000000000000e-01
	-3.566135113538985e-16
	1.310914360439464e-19
	-1.176262487930743e-17
	5.104925900574838e-12
	1.636740396228196e-10
	6.437948255997737e-12
	7.692676641891246e-01

 14	1.400000000000000e-01
	-3.549504622485476e-16
	1.388475345672609e-19
	-1.260836028141688e-17
	6.530320743290043e-12
	2.110358300982816e-10
	8.301481828963306e-12
	7.692676641892185e-01

 15	1.500000000000000e-01
	-3.532958004541802e-16
	1.470806902925550e-19
	-1.352275389142325e-17
	8.353004045616643e-12
	2.720944701152556e-10
	1.070422328477134e-11
	7.692676641893397e-01

 16	1.600000000000000e-01
	-3.516482807404132e-16
	1.558160616931025e-19
	-1.451132967909224e-17
	1.068347006172201e-11
	3.508072991875140e-10
	1.380209263889977e-11
	7.692676641894959e-01

 17	1.700000000000000e-01
	-3.500066129557201e-16
	1.650792047163838e-19
	-1.558000160448678e-17
	1.366286070195966e-11
	4.522732934332688e-10
	1.779605103190506e-11
	7.692676641896973e-01

 18	1.800000000000000e-01
	-3.483694592829046e-16
	1.748959580487552e-19
	-1.673509380645734e-17
	1.747143618544949e-11
	5.830616099871810e-10
	2.294509084305311e-11
	7.692676641899567e-01

 19	1.900000000000000e-01
	-3.467354316093463e-16
	1.852923088859687e-19
	-1.798336065883117e-17
	2.233937560327831e-11
	7.516343101241197e-10
	2.958296247353730e-11
	7.692676641902912e-01

 20	2.000000000000000e-01
	-3.451030890742864e-16
	1.962942364313506e-19
	-1.933200634890575e-17
	2.856054386884530e-11
	9.688900862305027e-10
	3.813970815784468e-11
	7.692676641907227e-01

 21	2.100000000000000e-01
	-3.434709358695484e-16
	2.079275300579561e-19
	-2.078870354774260e-17
	3.651003364956124e-11
	1.248863379093956e-09
	4.916937767665530e-11
	7.692676641912783e-01

 22	2.200000000000001e-01
	-3.418374193856568e-16
	2.202175788228660e-19
	-2.236161064597639e-17
	4.666650881804942e-11
	1.609622927992875e-09
	6.338569102874006e-11
	7.692676641919950e-01

 23	2.300000000000001e-01
	-3.402009288122033e-16
	2.331891288333743e-19
	-2.405938692283189e-17
	5.964065163288473e-11
	2.074426110061967e-09
	8.170791262882885e-11
	7.692676641929188e-01

 24	2.400000000000001e-01
	-3.385597943192100e-16
	2.468660048623924e-19
	-2.589120490074329e-17
	7.621136412414815e-11
	2.673201104288151e-09
	1.053198404151123e-10
	7.692676641941087e-01

 25	2.500000000000001e-01
	-3.369122869647826e-16
	2.612707926237938e-19
	-2.786675901507298e-17
	9.737181353038666e-11
	3.444448842643532e-09
	1.357456292775189e-10
	7.692676641956424e-01

 26	2.600000000000001e-01
	-3.352566194930297e-16
	2.764244782809523e-19
	-2.999626960038976e-17
	1.243879650874794e-10
	4.437681984799919e-09
	1.749472092342602e-10
	7.692676641976181e-01

 27	2.700000000000001e-01
	-3.335909482042700e-16
	2.923460421099324e-19
	-3.229048106515016e-17
	1.588729414122602e-10
	5.716550131669992e-09
	2.254493848115428e-10
	7.692676642001641e-01

 28	2.800000000000001e-01
	-3.319133760961714e-16
	3.090520038109351e-19
	-3.476065300007927e-17
	2.028814211132763e-10
	7.362840844016437e-09
	2.905003882258673e-10
	7.692676642034428e-01

 29	2.900000000000001e-01
	-3.302219574884627e-16
	3.265559177971893e-19
	-3.741854284812125e-17
	2.590293828927028e-10
	9.481596785442917e-09
	3.742777987747135e-10
	7.692676642076660e-01

 30	3.000000000000001e-01
	-3.285147043539969e-16
	3.448678179272796e-19
	-4.027637866303351e-17
	3.306458673453569e-10
	1.220765291053224e-08
	4.821524501969000e-10
	7.692676642131032e-01

 31	3.100000000000001e-01
	-3.267895945836243e-16
	3.639936126188361e-19
	-4.334682040847556e-17
	4.219651297905861e-10
	1.571397697965744e-08
	6.210263692971326e-10
	7.692676642201033e-01

 32	3.200000000000001e-01
	-3.250445824099039e-16
	3.839344331148124e-19
	-4.664290821034669e-17
	5.383696690708874e-10
	2.022229521157345e-08
	7.997650970631373e-10
	7.692676642291132e-01

 33	3.300000000000001e-01
	-3.232776112032022e-16
	4.046859398821927e-19
	-5.017799598382046e-17
	6.866972284804595e-10
	2.601660649517668e-08
	1.029750148672211e-09
	7.692676642407051e-01

 34	3.400000000000001e-01
	-3.214866288313599e-16
	4.262375947040114e-19
	-5.396566892578287e-17
	8.756280800941827e-10
	3.346033763966947e-08
	1.325584123489087e-09
	7.692676642556169e-01

 35	3.500000000000001e-01
	-3.196696057388911e-16
	4.485719089529033e-19
	-5.801964350627691e-17
	1.116172842652330e-09
	4.301807333784648e-08
	1.705989378142170e-09
	7.692676642747914e-01

 36	3.600000000000002e-01
	-3.178245558519518e-16
	4.716636817542074e-19
	-6.235364882181716e-17
	1.422285880838304e-09
	5.528301260211679e-08
	2.194951570257905e-09
	7.692676642994382e-01

 37	3.700000000000002e-01
	-3.159495603497809e-16
	4.954792451706324e-19
	-6.698128850043569e-17
	1.811635138115167e-09
	7.101156276796860e-08
	2.823172158721583e-09
	7.692676643311041e-01

 38	3.800000000000002e-01
	-3.140427942611373e-16
	5.199757370438074e-19
	-7.191588278183771e-17
	2.306566221866227e-09
	9.116678598672029e-08
	3.629909538434909e-09
	7.692676643717685e-01

 39	3.900000000000002e-01
	-3.121025557455794e-16
	5.451004255450370e-19
	-7.717029094084376e-17
	2.935306842712371e-09
	1.169727624669478e-07
	4.665307345908820e-09
	7.692676644239587e-01

 40	4.000000000000002e-01
	-3.101272978052265e-16
	5.707901126151165e-19
	-8.275671487773365e-17
	3.733467447669343e-09
	1.499823267580276e-07
	5.993331041705881e-09
	7.692676644908991e-01

 41	4.100000000000002e-01
	-3.081156620452442e-16
	5.969706460725111e-19
	-8.868648545759100e-17
	4.745905178374080e-09
	1.921610592039730e-07
	7.695460545395852e-09
	7.692676645766965e-01

 42	4.200000000000002e-01
	-3.060665139643681e-16
	6.235565719779658e-19
	-9.496983402643897e-17
	6.029031157546086e-09
	2.459908563268820e-07
	9.875317725349145e-09
	7.692676646865755e-01

 43	4.300000000000002e-01
	-3.039789791154063e-16
	6.504509595871258e-19
	-1.016156524399755e-16
	7.653655465804305e-09
	3.145968303128984e-07
	1.266444294492973e-08
	7.692676648271657e-01

 44	4.400000000000002e-01
	-3.018524793364345e-16
	6.775454306346479e-19
	-1.086312458764995e-16
	9.708479738737062e-09
	4.019016501664750e-07
	1.622947425920782e-08
	7.692676650068675e-01

 45	4.500000000000002e-01
	-2.996867681240871e-16
	7.047204225373774e-19
	-1.160220836256491e-16
	1.230436354187956e-08
	5.128116634072110e-07
	2.078102526337062e-08
	7.692676652362981e-01

 46	4.600000000000002e-01
	-2.974819641097204e-16
	7.318457112012876e-19
	-1.237915538972129e-16
	1.557950663981600e-08
	6.534391264138238e-07
	2.658460117595361e-08
	7.692676655288428e-01

 47	4.700000000000003e-01
	-2.952385815165003e-16
	7.587812133705233e-19
	-1.319407294223650e-16
	1.970570352108936e-08
	8.313644888739070e-07
	3.397393448158322e-08
	7.692676659013256e-01

 48	4.800000000000003e-01
	-2.929575564297344e-16
	7.853780808790671e-19
	-1.404681511635594e-16
	2.489583695768757e-08
	1.055941752257520e-06
	4.336715681507456e-08
	7.692676663748272e-01

 49	4.900000000000003e-01
	-2.906402677122285e-16
	8.114800898957601e-19
	-1.493696377510449e-16
	3.141278100979669e-08
	1.338648249132804e-06
	5.528624631382673e-08
	7.692676669756664e-01

 50	5.000000000000002e-01
	-2.882885514476579e-16
	8.369253175712379e-19
	-1.586381282719757e-16
	3.957987676983702e-08
	1.693477542197599e-06
	7.038019079718573e-08
	7.692676677365666e-01

 51	5.100000000000002e-01
	-2.859047079020140e-16
	8.615480868207906e-19
	-1.682635657123059e-16
	4.979312117688372e-08
	2.137370292905512e-06
	8.945227595463569e-08
	7.692676686980369e-01

 52	5.200000000000002e-01
	-2.834915001571262e-16
	8.851811478574992e-19
	-1.782328276683446e-16
	6.253516415366824e-08
	2.690672715115045e-06
	1.134918312489997e-07
	7.692676699099728e-01

 53	5.300000000000002e-01
	-2.810521437884049e-16
	9.076580531758952e-19
	-1.885297099004887e-16
	7.839113480927424e-08
	3.377605527584002e-06
	1.437106300856978e-07
	7.692676714335013e-01

 54	5.400000000000003e-01
	-2.785902872248363e-16
	9.288156716879601e-19
	-1.991349669162186e-16
	9.806620554936604e-08
	4.226718252234429e-06
	1.815839306103415e-07
	7.692676733430531e-01

 55	5.500000000000003e-01
	-2.761099827325364e-16
	9.484967783544975e-19
	-2.100264120869945e-16
	1.224046458236496e-07
	5.271294652530356e-06
	2.288958472471431e-07
	7.692676757286662e-01

 56	5.600000000000003e-01
	-2.736156482901945e-16
	9.665526486109238e-19
	-2.211790778919275e-16
	1.524099085635060e-07
	6.549665816579626e-06
	2.877883543256695e-07
	7.692676786984736e-01

 57	5.700000000000003e-01
	-2.711120209591752e-16
	9.828455827293265e-19
	-2.325654348278022e-16
	1.892650291941773e-07
	8.105379039986685e-06
	3.608127450123412e-07
	7.692676823813254e-01

 58	5.800000000000003e-01
	-2.686041026751072e-16
	9.972512843991068e-19
	-2.441556654331289e-16
	2.343523025746157e-07
	9.987164849116745e-06
	4.509818183285929e-07
	7.692676869294587e-01

 59	5.900000000000003e-01
	-2.660970996833404e-16
	1.009661020456038e-18
	-2.559179878543966e-16
	2.892708496643254e-07
	1.224864311341574e-05
	5.618204789396228e-07
	7.692676925211019e-01

 60	6.000000000000003e-01
	-2.635963570907747e-16
	1.019983494822666e-18
	-2.678190215465417e-16
	3.558503179519816e-07
	1.494771413078555e-05
	6.974118625330354e-07
	7.692676993628785e-01

 61	6.100000000000003e-01
	-2.611072901966880e-16
	1.028146379084348e-18
	-2.798241861494732e-16
	4.361586175715113e-07
	1.814559333162850e-05
	8.624356153027111e-07
	7.692677076918356e-01

 62	6.200000000000003e-01
	-2.586353143844971e-16
	1.034097454235257e-18
	-2.918981234043411e-16
	5.325013342281702e-07
	2.190546940823785e-05
	1.062194641443399e-06
	7.692677177769280e-01

 63	6.300000000000003e-01
	-2.561857753983780e-16
	1.037805332319914e-18
	-3.040051312302787e-16
	6.474103494576721e-07
	2.629079439336369e-05
	1.302626568783276e-06
	7.692677299197657e-01

 64	6.400000000000003e-01
	-2.537638817919842e-16
	1.039259742167715e-18
	-3.161095988096590e-16
	7.836193133783169e-07
	3.136324794426425e-05
	1.590296434040753e-06
	7.692677444544570e-01

 65	6.500000000000004e-01
	-2.513746412245813e-16
	1.038471379296774e-18
	-3.281764317327958e-16
	9.440240238738976e-07
	3.718045271724316e-05
	1.932367686385692e-06
	7.692677617463998e-01

 66	6.600000000000004e-01
	-2.490228021009709e-16
	1.035471335475782e-18
	-3.401714569067575e-16
	1.131626515245007e-06
	4.379354817749811e-05
	2.336549535034922e-06
	7.692677821899236e-01

 67	6.700000000000004e-01
	-2.467128018174868e-16
	1.030310137566835e-18
	-3.520617979863838e-16
	1.349462754063091e-06
	5.124475156361596e-05
	2.811019856573022e-06
	7.692678062047241e-01

 68	6.800000000000004e-01
	-2.444487226019039e-16
	1.023056437441865e-18
	-3.638162134652406e-16
	1.600515229376603e-06
	5.956504353925422e-05
	3.364324220583918e-06
	7.692678342311156e-01

 69	6.900000000000004e-01
	-2.422342556365119e-16
	1.013795404446279e-18
	-3.754053911819453e-16
	1.887613294598856e-06
	6.877211133852462e-05
	4.005252955101535e-06
	7.692678667241659e-01

 70	7.000000000000004e-01
	-2.400726738474267e-16
	1.002626878747896e-18
	-3.868021947564251e-16
	2.213325698160616e-06
	7.886866583869758e-05
	4.742699428058161e-06
	7.692679041468548e-01

 71	7.100000000000004e-01
	-2.379668134450718e-16
	9.896633478254058e-19
	-3.979818592745118e-16
	2.579851121132534e-06
	8.984122516625112e-05
	5.585503770351201e-06
	7.692679469624241e-01

 72	7.200000000000004e-01
	-2.359190640243595e-16
	9.750278093816481e-19
	-4.089221352969745e-16
	2.988913509431529e-06
	1.016594312386226e-04
	6.542287061162974e-06
	7.692679956261431e-01

 73	7.300000000000004e-01
	-2.339313667895128e-16
	9.588515823391001e-19
	-4.196033819018487e-16
	3.441669365758309e-06
	1.142759412559757e-04
	7.621281535373910e-06
	7.692680505767421e-01

 74	7.400000000000004e-01
	-2.320052202656795e-16
	9.412721236469513e-19
	-4.300086109134705e-16
	3.938633839931708e-06
	1.276269154503643e-04
	8.830162686097536e-06
	7.692681122277668e-01

 75	7.500000000000004e-01
	-2.301416927022141e-16
	9.224309028527403e-19
	-4.401234856827881e-16
	4.479631406263289e-06
	1.416331044215635e-04
	1.017588925682198e-05
	7.692681809591625e-01

 76	7.600000000000005e-01
	-2.283414402623843e-16
	9.024713792604251e-19
	-4.499362787347453e-16
	5.063775224981973e-06
	1.562015210701480e-04
	1.166455706052048e-05
	7.692682571093685e-01

 77	7.700000000000005e-01
	-2.266047300301244e-16
	8.815371185204418e-19
	-4.594377932807765e-16
	5.689477126308892e-06
	1.712276599329572e-04
	1.330127230587362e-05
	7.692683409682410e-01

 78	7.800000000000005e-01
	-2.249314668428587e-16
	8.597700771513957e-19
	-4.686212540143939e-16
	6.354487774082929e-06
	1.865981985363355e-04
	1.509004960221692e-05
	7.692684327710901e-01

 79	7.900000000000005e-01
	-2.233212229752422e-16
	8.373090752064571e-19
	-4.774821727846897e-16
	7.055964237127446e-06
	2.021940819843082e-04
	1.703373899637628e-05
	7.692685326941053e-01

 80	8.000000000000005e-01
	-2.217732697456122e-16
	8.142884694245173e-19
	-4.860181947050144e-16
	7.790560188304621e-06
	2.178938573809782e-04
	1.913398523166760e-05
	7.692686408513840e-01

 81	8.100000000000005e-01
	-2.202866101882876e-16
	7.908370320228999e-19
	-4.942289300367818e-16
	8.554532481629263e-06
	2.335770951501298e-04
	2.139122093013888e-05
	7.692687572937090e-01

 82	8.200000000000005e-01
	-2.188600120237249e-16
	7.670770339886135e-19
	-5.021157768288523e-16
	9.343857063807330e-06
	2.491277166619237e-04
	2.380469366898143e-05
	7.692688820091356e-01

 83	8.300000000000005e-01
	-2.174920402585237e-16
	7.431235264223633e-19
	-5.096817388290564e-16
	1.015434709628620e-05
	2.644370470414918e-04
	2.637252509805191e-05
	7.692690149253302e-01

 84	8.400000000000005e-01
	-2.161810888525234e-16
	7.190838092319571e-19
	-5.169312426519615e-16
	1.098176673747667e-05
	2.794064306824540e-04
	2.909179851217844e-05
	7.692691559135253e-01

 85	8.500000000000005e-01
	-2.149254109958350e-16
	6.950570732429363e-19
	-5.238699576182207e-16
	1.182193512252222e-05
	2.939492830821587e-04
	3.195866983558830e-05
	7.692693047938395e-01

 86	8.600000000000005e-01
	-2.137231476405506e-16
	6.711341995385831e-19
	-5.305046211035099e-16
	1.267081649118662e-05
	3.079925010788159e-04
	3.496849594766926e-05
	7.692694613416646e-01

 87	8.700000000000006e-01
	-2.125723540270285e-16
	6.473976984646533e-19
	-5.368428716718567e-16
	1.352459395140003e-05
	3.214772073049333e-04
	3.811597376846421e-05
	7.692696252947716e-01

 88	8.800000000000006e-01
	-2.114710240309070e-16
	6.239217701241744e-19
	-5.428930917365440e-16
	1.437972584470439e-05
	3.343588562351485e-04
	4.139528354376762e-05
	7.692697963607718e-01

 89	8.900000000000006e-01
	-2.104171122330072e-16
	6.007724682210689e-19
	-5.486642610043755e-16
	1.523298496123890e-05
	3.466067723450752e-04
	4.480023026887307e-05
	7.692699742246073e-01

 90	9.000000000000006e-01
	-2.094085536794505e-16
	5.780079496611837e-19
	-5.541658215239989e-16
	1.608148185100283e-05
	3.582032215476992e-04
	4.832437806025548e-05
	7.692701585557639e-01

 91	9.100000000000006e-01
	-2.084432813535577e-16
	5.556787932663372e-19
	-5.594075547805048e-16
	1.692267416325010e-05
	3.691421336997738e-04
	5.196117339108273e-05
	7.692703490149693e-01

 92	9.200000000000006e-01
	-2.075192414248248e-16
	5.338283721889741e-19
	-5.643994709577154e-16
	1.775436432939270e-05
	3.794275973086704e-04
	5.570405431128025e-05
	7.692705452602046e-01

 93	9.300000000000006e-01
	-2.066344063742212e-16
	5.124932660336720e-19
	-5.691517102250732e-16
	1.857468802936556e-05
	3.890722399869152e-04
	5.954654395384838e-05
	7.692707469519126e-01

 94	9.400000000000006e-01
	-2.057867861201303e-16
	4.917037002134696e-19
	-5.736744556946327e-16
	1.938209580561453e-05
	3.980955929166348e-04
	6.348232769284554e-05
	7.692709537573514e-01

 95	9.500000000000006e-01
	-2.049744372865517e-16
	4.714840016242504e-19
	-5.779778575307753e-16
	2.017532997494022e-05
	4.065225179592829e-04
	6.750531420483177e-05
	7.692711653541011e-01

 96	9.600000000000006e-01
	-2.041954707657746e-16
	4.518530612537618e-19
	-5.820719675757836e-16
	2.095339869353747e-05
	4.143817550545584e-04
	7.160968136665437e-05
	7.692713814327459e-01

 97	9.700000000000006e-01
	-2.034480577327353e-16
	4.328247958130903e-19
	-5.859666837725996e-16
	2.171554870176008e-05
	4.217046274937821e-04
	7.578990839671274e-05
	7.692716016988177e-01

 98	9.800000000000006e-01
	-2.027304342687003e-16
	4.144086018555383e-19
	-5.896717036164652e-16
	2.246123794746975e-05
	4.285239250522658e-04
	8.004079593191493e-05
	7.692718258740745e-01

 99	9.900000000000007e-01
	-2.020409047487509e-16
	3.966097971126240e-19
	-5.931964858441306e-16
	2.319010898370967e-05
	4.348729706295044e-04
	8.435747585758256e-05
	7.692720536972055e-01

 100	1.000000000000001e+00
	-2.013778441416088e-16
	3.794300449178976e-19
	-5.965502195680293e-16
	2.390196377132654e-05
	4.407848652035072e-04
	8.873541270677969e-05
	7.692722849240730e-01

 101	1.010000000000001e+00
	-2.007396993624107e-16
	3.628677585998040e-19
	-5.997418000785116e-16
	2.459674029578398e-05
	4.462918983748650e-04
	9.317039835324384e-05
	7.692725193275657e-01

