Title: ** sch_path: /home/andylithia/openmpw/project-yatsuhashi-chip1/xschem/gmid_test/nmos_test.sch
Date: Tue Jul 19 23:15:45  2022
Plotname: DC transfer characteristic
Flags: real
No. Variables: 8
No. Points: 181
Variables:
	0	v(v-sweep)	voltage
	1	@m.xm1.msky130_fd_pr__nfet_01v8[cgb]	capacitance
	2	@m.xm1.msky130_fd_pr__nfet_01v8[cgd]	capacitance
	3	@m.xm1.msky130_fd_pr__nfet_01v8[cgs]	capacitance
	4	@m.xm1.msky130_fd_pr__nfet_01v8[gds]	admittance
	5	@m.xm1.msky130_fd_pr__nfet_01v8[gm]	admittance
	6	i(@m.xm1.msky130_fd_pr__nfet_01v8[id])	current
	7	v(@m.xm1.msky130_fd_pr__nfet_01v8[vth])	voltage
Values:
 0	0.000000000000000e+00
	-5.756529650490287e-15
	-2.635730755488569e-19
	-8.582944122499430e-15
	1.398300455936759e-08
	6.148129488735302e-07
	6.799386769533443e-08
	2.577569626610550e-01

 1	1.000000000000000e-02
	-5.690540288972346e-15
	-2.706179951207301e-19
	-8.734147658117357e-15
	1.527261550850287e-08
	6.720645199821002e-07
	7.442404936526198e-08
	2.577569632136856e-01

 2	2.000000000000000e-02
	-5.625154264926094e-15
	-2.778335773220875e-19
	-8.885704362165424e-15
	1.667614039396132e-08
	7.345922855673653e-07
	8.145273702000442e-08
	2.577569638179715e-01

 3	3.000000000000000e-02
	-5.560391691180211e-15
	-2.852232398459822e-19
	-9.037546910893264e-15
	1.820298719225775e-08
	8.028872104113974e-07
	8.913510935413866e-08
	2.577569644787182e-01

 4	4.000000000000000e-02
	-5.496272427756712e-15
	-2.927904492925604e-19
	-9.189607592169597e-15
	1.986325945526313e-08
	8.774882746126984e-07
	9.753149071917710e-08
	2.577569652011826e-01

 5	5.000000000000000e-02
	-5.432816036581367e-15
	-3.005387217383281e-19
	-9.341818417321182e-15
	2.166779814287173e-08
	9.589876193397766e-07
	1.067078565323451e-07
	2.577569659911290e-01

 6	6.000000000000000e-02
	-5.370041737261482e-15
	-3.084716233337557e-19
	-9.494111233725810e-15
	2.362822490187939e-08
	1.048036289611189e-06
	1.167363930738396e-07
	2.577569668548654e-01

 7	7.000000000000001e-02
	-5.307968364072126e-15
	-3.165927709307400e-19
	-9.646417837784314e-15
	2.575698672274311e-08
	1.145350641513177e-06
	1.276961179749359e-07
	2.577569677993178e-01

 8	8.000000000000000e-02
	-5.246614324286917e-15
	-3.249058327413061e-19
	-9.798670087896182e-15
	2.806740189019433e-08
	1.251719487088032e-06
	1.396735684025641e-07
	2.577569688320722e-01

 9	9.000000000000000e-02
	-5.185997557983734e-15
	-3.334145290289986e-19
	-9.950800017061126e-15
	3.057370712697970e-08
	1.368012055979265e-06
	1.527635647074184e-07
	2.577569699614708e-01

 10	9.999999999999999e-02
	-5.126135499449360e-15
	-3.421226328344720e-19
	-1.010273994473333e-14
	3.329110581247427e-08
	1.495186858686769e-06
	1.670700581226455e-07
	2.577569711966710e-01

 11	1.100000000000000e-01
	-5.067045040299965e-15
	-3.510339707366283e-19
	-1.025442258755658e-14
	3.623581713948395e-08
	1.634301541811713e-06
	1.827070719763722e-07
	2.577569725477362e-01

 12	1.200000000000000e-01
	-5.008742494426567e-15
	-3.601524236507917e-19
	-1.040578116861608e-14
	3.942512605343347e-08
	1.786523830781588e-06
	1.997997468112028e-07
	2.577569740257400e-01

 13	1.300000000000000e-01
	-4.951243564866087e-15
	-3.694819276652236e-19
	-1.055674952485059e-14
	4.287743379831006e-08
	1.953143660023105e-06
	2.184855007816386e-07
	2.577569756428726e-01

 14	1.400000000000000e-01
	-4.894563312689895e-15
	-3.790264749175584e-19
	-1.070726221227817e-14
	4.661230887335149e-08
	2.135586594146232e-06
	2.389153177188323e-07
	2.577569774125549e-01

 15	1.500000000000000e-01
	-4.838716127992258e-15
	-3.887901145123624e-19
	-1.085725460870044e-14
	5.065053818360254e-08
	2.335428646127642e-06
	2.612551763008167e-07
	2.577569793495880e-01

 16	1.600000000000000e-01
	-4.783715703051298e-15
	-3.987769534812701e-19
	-1.100666301356521e-14
	5.501417814628109e-08
	2.554412599411452e-06
	2.856876348323265e-07
	2.577569814702907e-01

 17	1.700000000000000e-01
	-4.729575007724930e-15
	-4.089911577871301e-19
	-1.115542474468074e-14
	5.972660549342353e-08
	2.794465939909064e-06
	3.124135872042573e-07
	2.577569837926773e-01

 18	1.800000000000000e-01
	-4.676306267134028e-15
	-4.194369533733022e-19
	-1.130347823149356e-14
	6.481256748976208e-08
	3.057720500678031e-06
	3.416542066487211e-07
	2.577569863366366e-01

 19	1.900000000000000e-01
	-4.623920941674175e-15
	-4.301186272596100e-19
	-1.145076310465890e-14
	7.029823126324620e-08
	3.346533916146218e-06
	3.736530949060601e-07
	2.577569891241492e-01

 20	2.000000000000000e-01
	-4.572429709387100e-15
	-4.410405286861209e-19
	-1.159722028165291e-14
	7.621123192428658e-08
	3.663512973651648e-06
	4.086786553461362e-07
	2.577569921795155e-01

 21	2.100000000000000e-01
	-4.521842450711840e-15
	-4.522070703061320e-19
	-1.174279204819663e-14
	8.258071912874366e-08
	4.011538937286629e-06
	4.470267094030028e-07
	2.577569955296087e-01

 22	2.200000000000001e-01
	-4.472168235625195e-15
	-4.636227294295562e-19
	-1.188742213528274e-14
	8.943740171911152e-08
	4.393794902049310e-06
	4.890233763504965e-07
	2.577569992041639e-01

 23	2.300000000000001e-01
	-4.423415313170513e-15
	-4.752920493178205e-19
	-1.203105579161939e-14
	9.681359005837779e-08
	4.813795214587956e-06
	5.350282369215717e-07
	2.577570032360944e-01

 24	2.400000000000001e-01
	-4.375591103363474e-15
	-4.872196405318844e-19
	-1.217363985132801e-14
	1.047432356518855e-07
	5.275416969850884e-06
	5.854378015064360e-07
	2.577570076618441e-01

 25	2.500000000000001e-01
	-4.328702191453335e-15
	-4.994101823340966e-19
	-1.231512279675600e-14
	1.132619676342832e-07
	5.782933560227114e-06
	6.406893035985789e-07
	2.577570125217611e-01

 26	2.600000000000001e-01
	-4.282754324508556e-15
	-5.118684241454098e-19
	-1.245545481628841e-14
	1.224071256815812e-07
	6.341050214818999e-06
	7.012648387336125e-07
	2.577570178605299e-01

 27	2.700000000000001e-01
	-4.237752410286253e-15
	-5.245991870589480e-19
	-1.259458785706741e-14
	1.322177888926319e-07
	6.954941420938071e-06
	7.676958683197053e-07
	2.577570237276396e-01

 28	2.800000000000001e-01
	-4.193700518335915e-15
	-5.376073654111029e-19
	-1.273247567255216e-14
	1.427348001701894e-07
	7.630290067451824e-06
	8.405681064220602e-07
	2.577570301778894e-01

 29	2.900000000000001e-01
	-4.150601883279406e-15
	-5.508979284114766e-19
	-1.286907386487504e-14
	1.540007856193464e-07
	8.373328090051669e-06
	9.205268056673004e-07
	2.577570372719515e-01

 30	3.000000000000001e-01
	-4.108458910201553e-15
	-5.644759218324179e-19
	-1.300433992197413e-14
	1.660601684709389e-07
	9.190878331839062e-06
	1.008282455906223e-06
	2.577570450769677e-01

 31	3.100000000000001e-01
	-4.067273182078084e-15
	-5.783464697595557e-19
	-1.313823324950389e-14
	1.789591770295261e-07
	1.009039725898751e-05
	1.104616906043030e-06
	2.577570536672396e-01

 32	3.200000000000001e-01
	-4.027045469160770e-15
	-5.925147764044510e-19
	-1.327071519754989e-14
	1.927458461405134e-07
	1.108001809104459e-05
	1.210389915440751e-06
	2.577570631249168e-01

 33	3.300000000000001e-01
	-3.987775740234234e-15
	-6.069861279801907e-19
	-1.340174908219217e-14
	2.074700116687066e-07
	1.216859381930906e-05
	1.326546136479291e-06
	2.577570735407984e-01

 34	3.400000000000001e-01
	-3.949463175652518e-15
	-6.217658946413980e-19
	-1.353130020198540e-14
	2.231832974820868e-07
	1.336573949564967e-05
	1.454122524124804e-06
	2.577570850151555e-01

 35	3.500000000000001e-01
	-3.912106182059590e-15
	-6.368595324892906e-19
	-1.365933584944085e-14
	2.399390944397829e-07
	1.468187307937208e-05
	1.594256161718499e-06
	2.577570976586454e-01

 36	3.600000000000002e-01
	-3.875702408693164e-15
	-6.522725856433982e-19
	-1.378582531761576e-14
	2.577925308929819e-07
	1.612825403297877e-05
	1.748192484584934e-06
	2.577571115932586e-01

 37	3.700000000000002e-01
	-3.840248765168565e-15
	-6.680106883805739e-19
	-1.391073990193105e-14
	2.768004342220508e-07
	1.771701876091250e-05
	1.917293874480303e-06
	2.577571269533554e-01

 38	3.800000000000002e-01
	-3.805741440635738e-15
	-6.840795673428383e-19
	-1.403405289735587e-14
	2.970212829534065e-07
	1.946121189110411e-05
	2.103048588366165e-06
	2.577571438867452e-01

 39	3.900000000000002e-01
	-3.772175924201440e-15
	-7.004850438146488e-19
	-1.415573959111103e-14
	3.185151490258077e-07
	2.137481231017319e-05
	2.307079974538344e-06
	2.577571625558345e-01

 40	4.000000000000002e-01
	-3.739547026506346e-15
	-7.172330360712980e-19
	-1.427577725105715e-14
	3.413436298088222e-07
	2.347275278271269e-05
	2.531155917836231e-06
	2.577571831388275e-01

 41	4.100000000000002e-01
	-3.707848902346811e-15
	-7.343295617993155e-19
	-1.439414510994512e-14
	3.655697695165561e-07
	2.577093191680080e-05
	2.777198443605920e-06
	2.577572058309849e-01

 42	4.200000000000002e-01
	-3.677075074230233e-15
	-7.517807405898213e-19
	-1.451082434571704e-14
	3.912579697082520e-07
	2.828621718562730e-05
	3.047293397433615e-06
	2.577572308459150e-01

 43	4.300000000000002e-01
	-3.647218456753892e-15
	-7.695927965066521e-19
	-1.462579805805489e-14
	4.184738886243359e-07
	3.103643768299249e-05
	3.343700104581844e-06
	2.577572584169055e-01

 44	4.400000000000002e-01
	-3.618271381698026e-15
	-7.877720607296401e-19
	-1.473905124138126e-14
	4.472843291729865e-07
	3.404036528270095e-05
	3.668860899776173e-06
	2.577572887983011e-01

 45	4.500000000000002e-01
	-3.590225623725251e-15
	-8.063249742752424e-19
	-1.485057075452385e-14
	4.777571154584369e-07
	3.731768289274856e-05
	4.025410404767646e-06
	2.577573222668637e-01

 46	4.600000000000002e-01
	-3.563072426580670e-15
	-8.252580907950137e-19
	-1.496034528725921e-14
	5.099609578285476e-07
	4.088893854875595e-05
	4.416184418241422e-06
	2.577573591231663e-01

 47	4.700000000000003e-01
	-3.536802529689463e-15
	-8.445780794537000e-19
	-1.506836532395553e-14
	5.439653065161945e-07
	4.477548418111509e-05
	4.844228270505809e-06
	2.577573996929401e-01

 48	4.800000000000003e-01
	-3.511406195051581e-15
	-8.642917278881855e-19
	-1.517462310453587e-14
	5.798401940565085e-07
	4.899939801996459e-05
	5.312804484354194e-06
	2.577574443284048e-01

 49	4.900000000000003e-01
	-3.486873234336538e-15
	-8.844059452485722e-19
	-1.527911258298481e-14
	6.176560667800887e-07
	5.358338977388764e-05
	5.825399573957835e-06
	2.577574934095461e-01

 50	5.000000000000002e-01
	-3.463193036084818e-15
	-9.049277653233304e-19
	-1.538182938362093e-14
	6.574836058107638e-07
	5.855068793366553e-05
	6.385729806051785e-06
	2.577575473452956e-01

 51	5.100000000000002e-01
	-3.440354592926286e-15
	-9.258643497493465e-19
	-1.548277075535660e-14
	6.993935381341954e-07
	6.392490881180799e-05
	6.997745742452529e-06
	2.577576065746155e-01

 52	5.200000000000002e-01
	-3.418346528730409e-15
	-9.472229913088461e-19
	-1.558193552416360e-14
	7.434564384502793e-07
	6.972990723094581e-05
	7.665635380538746e-06
	2.577576715674506e-01

 53	5.300000000000002e-01
	-3.397157125607028e-15
	-9.690111173149492e-19
	-1.567932404396057e-14
	7.897425226759530e-07
	7.598960911685257e-05
	8.393825709146901e-06
	2.577577428255065e-01

 54	5.400000000000003e-01
	-3.376774350681442e-15
	-9.912362930870940e-19
	-1.577493814613318e-14
	8.383214341242539e-07
	8.272782663058033e-05
	9.186982501767194e-06
	2.577578208828473e-01

 55	5.500000000000003e-01
	-3.357185882571771e-15
	-1.013906225518379e-18
	-1.586878108789388e-14
	8.892620235481217e-07
	8.996805688288056e-05
	1.005000817730738e-05
	2.577579063062557e-01

 56	5.600000000000003e-01
	-3.338379137501851e-15
	-1.037028766736534e-18
	-1.596085749968109e-14
	9.426321244006676e-07
	9.773326570476458e-05
	1.098803757127575e-05
	2.577579996953384e-01

 57	5.700000000000003e-01
	-3.320341294987200e-15
	-1.060611917860428e-18
	-1.605117333179232e-14
	9.984983248247057e-07
	1.060456583911433e-04
	1.200643147720220e-05
	2.577581016823527e-01

 58	5.800000000000003e-01
	-3.303059323037024e-15
	-1.084663832854208e-18
	-1.613973580043806e-14
	1.056925738039888e-06
	1.149264397786415e-04
	1.311076783953098e-05
	2.577582129317025e-01

 59	5.900000000000003e-01
	-3.286520002819521e-15
	-1.109192822480406e-18
	-1.622655333339601e-14
	1.117977772941711e-06
	1.243955664512273e-04
	1.430683050502776e-05
	2.577583341390973e-01

 60	6.000000000000003e-01
	-3.270709952743218e-15
	-1.134207358355258e-18
	-1.631163551543672e-14
	1.181715906859672e-06
	1.344714942745356e-04
	1.560059546976691e-05
	2.577584660303462e-01

 61	6.100000000000003e-01
	-3.255615651911261e-15
	-1.159716077107294e-18
	-1.639499303368450e-14
	1.248199462537302e-06
	1.451709248273005e-04
	1.699821459267429e-05
	2.577586093597589e-01

 62	6.200000000000003e-01
	-3.241223462910538e-15
	-1.185727784642321e-18
	-1.647663762306769e-14
	1.317485391490756e-06
	1.565085546116203e-04
	1.850599678392525e-05
	2.577587649081431e-01

 63	6.300000000000003e-01
	-3.227519653902418e-15
	-1.212251460516381e-18
	-1.655658201200411e-14
	1.389628065970998e-06
	1.684968311687833e-04
	2.013038671662164e-05
	2.577589334804121e-01

 64	6.400000000000003e-01
	-3.214490419985522e-15
	-1.239296262419786e-18
	-1.663483986845911e-14
	1.464679081793959e-06
	1.811457203911090e-04
	2.187794115235748e-05
	2.577591159027469e-01

 65	6.500000000000004e-01
	-3.202121903806353e-15
	-1.266871530774405e-18
	-1.671142574650335e-14
	1.542687074309042e-06
	1.944624893911256e-04
	2.375530301462968e-05
	2.577593130193879e-01

 66	6.600000000000004e-01
	-3.190400215396814e-15
	-1.294986793446868e-18
	-1.678635503348983e-14
	1.623697549747393e-06
	2.084515092585809e-04
	2.576917338761976e-05
	2.577595256890199e-01

 67	6.700000000000004e-01
	-3.179311451222278e-15
	-1.323651770580484e-18
	-1.685964389795992e-14
	1.707752734124356e-06
	2.231140818967366e-04
	2.792628166057632e-05
	2.577597547807850e-01

 68	6.800000000000004e-01
	-3.168841712427387e-15
	-1.352876379548659e-18
	-1.693130923837934e-14
	1.794891441764522e-06
	2.384482948793352e-04
	3.023335407878660e-05
	2.577600011699792e-01

 69	6.900000000000004e-01
	-3.158977122270572e-15
	-1.382670740032820e-18
	-1.700136863279654e-14
	1.885148965372980e-06
	2.544489079092603e-04
	3.269708099982895e-05
	2.577602657334310e-01

 70	7.000000000000004e-01
	-3.149703842741576e-15
	-1.413045179227889e-18
	-1.706984028950726e-14
	1.978556989392494e-06
	2.711072739937722e-04
	3.532408318734338e-05
	2.577605493446476e-01

 71	7.100000000000004e-01
	-3.141008090359591e-15
	-1.444010237178356e-18
	-1.713674299880067e-14
	2.075143528166434e-06
	2.884112978880023e-04
	3.812087750295349e-05
	2.577608528687631e-01

 72	7.200000000000004e-01
	-3.132876151152661e-15
	-1.475576672248572e-18
	-1.720209608585426e-14
	2.174932890173544e-06
	3.063454337104013e-04
	4.109384237928508e-05
	2.577611771573594e-01

 73	7.300000000000004e-01
	-3.125294394821743e-15
	-1.507755466730426e-18
	-1.726591936483725e-14
	2.277945669317558e-06
	3.248907229170061e-04
	4.424918347249927e-05
	2.577615230432084e-01

 74	7.400000000000004e-01
	-3.118249288095603e-15
	-1.540557832592290e-18
	-1.732823309427397e-14
	2.384198763947129e-06
	3.440248730544998e-04
	4.759289990077974e-05
	2.577618913350434e-01

 75	7.500000000000004e-01
	-3.111727407284995e-15
	-1.573995217372573e-18
	-1.738905793371223e-14
	2.493705423955925e-06
	3.637223769164063e-04
	5.113075147541361e-05
	2.577622828123909e-01

 76	7.600000000000005e-01
	-3.105715450046832e-15
	-1.608079310222279e-18
	-1.744841490173408e-14
	2.606475325975045e-06
	3.839546709249308e-04
	5.486822732327827e-05
	2.577626982205671e-01

 77	7.700000000000005e-01
	-3.100200246371127e-15
	-1.642822048100525e-18
	-1.750632533534016e-14
	2.722514676328161e-06
	4.046903307764669e-04
	5.881051628378083e-05
	2.577631382658881e-01

 78	7.800000000000005e-01
	-3.095168768805297e-15
	-1.678235622126997e-18
	-1.756281085073235e-14
	2.841826341080392e-06
	4.258953016445333e-04
	6.296247943985080e-05
	2.577636036111862e-01

 79	7.900000000000005e-01
	-3.090608141931959e-15
	-1.714332484096102e-18
	-1.761789330551340e-14
	2.964410002183702e-06
	4.475331595519230e-04
	6.732862511201553e-05
	2.577640948716758e-01

 80	8.000000000000005e-01
	-3.086505651117906e-15
	-1.751125353157788e-18
	-1.767159476231697e-14
	3.090262338410087e-06
	4.695653999236326e-04
	7.191308660756440e-05
	2.577646126112428e-01

 81	8.100000000000005e-01
	-3.082848750553314e-15
	-1.788627222668966e-18
	-1.772393745387562e-14
	3.219377229477347e-06
	4.919517488307555e-04
	7.671960297429347e-05
	2.577651573391995e-01

 82	8.200000000000005e-01
	-3.079625070600980e-15
	-1.826851367221625e-18
	-1.777494374952996e-14
	3.351745981516033e-06
	5.146504920461259e-04
	8.175150296133925e-05
	2.577657295075509e-01

 83	8.300000000000005e-01
	-3.076822424476860e-15
	-1.865811349852480e-18
	-1.782463612317701e-14
	3.487357571805023e-06
	5.376188167643384e-04
	8.701169233933117e-05
	2.577663295088080e-01

 84	8.400000000000005e-01
	-3.074428814283416e-15
	-1.905521029439660e-18
	-1.787303712265201e-14
	3.626198910522630e-06
	5.608131606969868e-04
	9.250264467979437e-05
	2.577669576743636e-01

 85	8.500000000000005e-01
	-3.072432436418446e-15
	-1.945994568292265e-18
	-1.792016934053333e-14
	3.768255117121211e-06
	5.841895632389283e-04
	9.822639564063149e-05
	2.577676142734485e-01

 86	8.600000000000005e-01
	-3.070821686382150e-15
	-1.987246439939179e-18
	-1.796605538635704e-14
	3.913509808839559e-06
	6.077040135096588e-04
	1.041845407519163e-04
	2.577682995126709e-01

 87	8.700000000000006e-01
	-3.069585163005777e-15
	-2.029291437122745e-18
	-1.801071786022418e-14
	4.061945398818123e-06
	6.313127902977602e-04
	1.103782366453003e-04
	2.577690135361200e-01

 88	8.800000000000006e-01
	-3.068711672125655e-15
	-2.072144680004272e-18
	-1.805417932777993e-14
	4.213543401276980e-06
	6.549727892647586e-04
	1.168082056221742e-04
	2.577697564260472e-01

 89	8.900000000000006e-01
	-3.068190229725854e-15
	-2.115821624588099e-18
	-1.809646229654271e-14
	4.368284741254586e-06
	6.786418331839513e-04
	1.234747434113605e-04
	2.577705282040381e-01

 90	9.000000000000006e-01
	-3.068010064573836e-15
	-2.160338071371199e-18
	-1.813758919355677e-14
	4.526150066481929e-06
	7.022789614832231e-04
	1.303777299272784e-04
	2.577713288327182e-01

 91	9.100000000000006e-01
	-3.068160620372323e-15
	-2.205710174225475e-18
	-1.817758234434124e-14
	4.687120059080613e-06
	7.258446959116788e-04
	1.375166428049862e-04
	2.577721582178817e-01

 92	9.200000000000006e-01
	-3.068631557451336e-15
	-2.251954449520389e-18
	-1.821646395310549e-14
	4.851175744918242e-06
	7.493012797392555e-04
	1.448905734596469e-04
	2.577730162110506e-01

 93	9.300000000000006e-01
	-3.069412754023493e-15
	-2.299087785493925e-18
	-1.825425608419957e-14
	5.018298798626889e-06
	7.726128885086868e-04
	1.524982453951575e-04
	2.577739026123665e-01

 94	9.400000000000006e-01
	-3.070494307025932e-15
	-2.347127451879467e-18
	-1.829098064476659e-14
	5.188471842484100e-06
	7.957458109723402e-04
	1.603380344699619e-04
	2.577748171738091e-01

 95	9.500000000000006e-01
	-3.071866532571418e-15
	-2.396091109797439e-18
	-1.832665936856291e-14
	5.361678737567078e-06
	8.186685994469093e-04
	1.684079908174884e-04
	2.577757596026523e-01

 96	9.600000000000006e-01
	-3.073519966031028e-15
	-2.445996821920330e-18
	-1.836131380091067e-14
	5.537904865812749e-06
	8.413521893917651e-04
	1.767058621139006e-04
	2.577767295651194e-01

 97	9.700000000000006e-01
	-3.075445361770309e-15
	-2.496863062919143e-18
	-1.839496528474666e-14
	5.717137401845205e-06
	8.637699885500776e-04
	1.852291178866692e-04
	2.577777266901636e-01

 98	9.800000000000006e-01
	-3.077633692560308e-15
	-2.548708730201704e-18
	-1.842763494773049e-14
	5.899365573661995e-06
	8.858979364752205e-04
	1.939749745633367e-04
	2.577787505733611e-01

 99	9.900000000000007e-01
	-3.080076148684336e-15
	-2.601553154951489e-18
	-1.845934369037480e-14
	6.084580911499634e-06
	9.077145356915015e-04
	2.029404209703357e-04
	2.577798007808302e-01

 100	1.000000000000001e+00
	-3.082764136760592e-15
	-2.655416113476869e-18
	-1.849011217515994e-14
	6.272777484419551e-06
	9.292008561021559e-04
	2.121222440060858e-04
	2.577808768531379e-01

 101	1.010000000000001e+00
	-3.085689278300575e-15
	-2.710317838880827e-18
	-1.851996081659511e-14
