Title: ** sch_path: /home/andylithia/openmpw/project-yatsuhashi-chip1/xschem/gmid_test/nmos_test.sch
Date: Sun Jul 17 22:51:45  2022
Plotname: DC transfer characteristic
Flags: real
No. Variables: 8
No. Points: 181
Variables:
	0	v(v-sweep)	voltage
	1	@m.xm1.msky130_fd_pr__nfet_01v8[cgb]	capacitance
	2	@m.xm1.msky130_fd_pr__nfet_01v8[cgd]	capacitance
	3	@m.xm1.msky130_fd_pr__nfet_01v8[cgs]	capacitance
	4	@m.xm1.msky130_fd_pr__nfet_01v8[gds]	admittance
	5	@m.xm1.msky130_fd_pr__nfet_01v8[gm]	admittance
	6	i(@m.xm1.msky130_fd_pr__nfet_01v8[id])	current
	7	v(@m.xm1.msky130_fd_pr__nfet_01v8[vth])	voltage
Values:
 0	0.000000000000000e+00
	-1.196287022038989e-15
	7.993840944195802e-24
	-1.717530562315246e-18
	3.379798967139170e-23
	8.825855083046901e-21
	1.211257641807411e-22
	6.587946599215456e-01

 1	1.000000000000000e-02
	-1.191085973279438e-15
	9.716698585715961e-24
	-1.722654297247277e-18
	6.997585437757692e-23
	1.828963018138900e-20
	2.510066817632807e-22
	6.587946599215456e-01

 2	2.000000000000000e-02
	-1.185951258081744e-15
	1.180371473678523e-23
	-1.731052018299580e-18
	1.448790170961382e-22
	3.790116129113406e-20
	5.201569024064004e-22
	6.587946599215456e-01

 3	3.000000000000000e-02
	-1.180881424729410e-15
	1.432971306423946e-23
	-1.743503146615149e-18
	2.999582997377417e-22
	7.854134826496719e-20
	1.077908524733324e-21
	6.587946599215456e-01

 4	4.000000000000000e-02
	-1.175875037601806e-15
	1.738418688082011e-23
	-1.760977241716561e-18
	6.210322839302889e-22
	1.627578425532651e-19
	2.233714713574347e-21
	6.587946599215456e-01

 5	5.000000000000000e-02
	-1.170930669499018e-15
	2.107391985543327e-23
	-1.784679202579902e-18
	1.285776018454796e-21
	3.372738215193829e-19
	4.628835306263285e-21
	6.587946599215456e-01

 6	6.000000000000000e-02
	-1.166046892312249e-15
	2.552597236407258e-23
	-1.816104690639330e-18
	2.662032669598025e-21
	6.989066502700009e-19
	9.592085616931068e-21
	6.587946599215456e-01

 7	7.000000000000001e-02
	-1.161222265624191e-15
	3.089103841195914e-23
	-1.857107814425681e-18
	5.511335040758620e-21
	1.448270083957031e-18
	1.987696678496385e-20
	6.587946599215456e-01

 8	8.000000000000000e-02
	-1.156455322743944e-15
	3.734715215456342e-23
	-1.909983381860574e-18
	1.141021712296538e-20
	3.001035985366875e-18
	4.118899791901523e-20
	6.587946599215456e-01

 9	9.000000000000000e-02
	-1.151744553596365e-15
	4.510368264166380e-23
	-1.977566251156203e-18
	2.362231186703015e-20
	6.218426001552372e-18
	8.535012042187566e-20
	6.587946599215456e-01

 10	9.999999999999999e-02
	-1.147088383802864e-15
	5.440549540018545e-23
	-2.063350444229532e-18
	4.890333525030885e-20
	1.288462720066992e-17
	1.768540673429777e-19
	6.587946599215456e-01

 11	1.100000000000000e-01
	-1.142485149219715e-15
	6.553707411816328e-23
	-2.171630656205953e-18
	1.012364747334781e-19
	2.669547258818021e-17
	3.664450428452810e-19
	6.587946599215456e-01

 12	1.200000000000000e-01
	-1.137933065156893e-15
	7.882627950433903e-23
	-2.307668508978004e-18
	2.095610030572123e-19
	5.530526966542383e-17
	7.592381479663715e-19
	6.587946599215456e-01

 13	1.300000000000000e-01
	-1.133430189506068e-15
	9.464727203295834e-23
	-2.477885251809311e-18
	4.337585919806089e-19
	1.145624923414485e-16
	1.572938833094254e-18
	6.587946599215456e-01

 14	1.400000000000000e-01
	-1.128974379085137e-15
	1.134219430081656e-22
	-2.690081516923744e-18
	8.977065309847278e-19
	2.372696837341774e-16
	3.258328181765219e-18
	6.587946599215456e-01

 15	1.500000000000000e-01
	-1.124563238680264e-15
	1.356189976897265e-22
	-2.953683169641250e-18
	1.857578262557391e-18
	4.912839889879563e-16
	6.748461761151439e-18
	6.587946599215456e-01

 16	1.600000000000000e-01
	-1.120194062539773e-15
	1.617496478292096e-22
	-3.280010394249532e-18
	3.842857828743554e-18
	1.016870568577497e-15
	1.397364747771641e-17
	6.587946599215456e-01

 17	1.700000000000000e-01
	-1.115863768410909e-15
	1.923587603155418e-22
	-3.682565392467988e-18
	7.947126650419292e-18
	2.103646737379277e-15
	2.892437451712090e-17
	6.587946599215456e-01

 18	1.800000000000000e-01
	-1.111568824493573e-15
	2.280103715597143e-22
	-4.177333430077744e-18
	1.642664443957114e-17
	4.348661969661997e-15
	5.984138737869692e-17
	6.587946599215456e-01

 19	1.900000000000000e-01
	-1.107305169668285e-15
	2.692668465227118e-22
	-4.783094167622653e-18
	3.392942308025520e-17
	8.979942364421178e-15
	1.237168219089230e-16
	6.587946599215456e-01

 20	2.000000000000000e-01
	-1.103068126619244e-15
	3.166617818792569e-22
	-5.521747779537220e-18
	7.000979902863488e-17
	1.851509672552703e-14
	2.555118141084871e-16
	6.587946599215456e-01

 21	2.100000000000000e-01
	-1.098852305420334e-15
	3.706681238088363e-22
	-6.418676372078055e-18
	1.442464649761225e-16
	3.809151846830103e-14
	5.269353248537058e-16
	6.587946599215456e-01

 22	2.200000000000001e-01
	-1.094651491097369e-15
	4.316648454991572e-22
	-7.503188396540460e-18
	2.965826231919735e-16
	7.812297205832535e-14
	1.084419680848074e-15
	6.587946599215456e-01

 23	2.300000000000001e-01
	-1.090458502083740e-15
	4.999075917555527e-22
	-8.809132938299794e-18
	6.079971681171403e-16
	1.595201375193677e-13
	2.225109782683897e-15
	6.587946599215456e-01

 24	2.400000000000001e-01
	-1.086264997325703e-15
	5.755102792295989e-22
	-1.037581883421953e-17
	1.241213302823692e-15
	3.237146892055942e-13
	4.546650965975627e-15
	6.587946599215456e-01

 25	2.500000000000001e-01
	-1.082061198948054e-15
	6.584447751449110e-22
	-1.224942210395579e-17
	2.519184799750818e-15
	6.512780117125207e-13
	9.236240280072102e-15
	6.587946599215456e-01

 26	2.600000000000001e-01
	-1.077835486790833e-15
	7.485634837584092e-22
	-1.448510115438933e-17
	5.071980041808220e-15
	1.294897229981214e-12
	1.861203269228785e-14
	6.587946599215465e-01

 27	2.700000000000001e-01
	-1.073573813399348e-15
	8.456444215712345e-22
	-1.715004879126283e-17
	1.010054871065772e-14
	2.533933905412032e-12
	3.709610261295919e-14
	6.587946599215488e-01

 28	2.800000000000001e-01
	-1.069258885657531e-15
	9.494505219329418e-22
	-2.032768433962965e-17
	1.982441456314099e-14
	4.856285022537918e-12
	7.286685830903564e-14
	6.587946599215522e-01

 29	2.900000000000001e-01
	-1.064869063581877e-15
	1.059785797521907e-21
	-2.412312840201621e-17
	3.818659714159473e-14
	9.065042564292806e-12
	1.404618895067438e-13
	6.587946599215576e-01

 30	3.000000000000001e-01
	-1.060376937865372e-15
	1.176522419700546e-21
	-2.867001534439353e-17
	7.186216284786247e-14
	1.639162126603231e-11
	2.645023165298384e-13
	6.587946599215690e-01

 31	3.100000000000001e-01
	-1.055747564989487e-15
	1.299566290954987e-21
	-3.413859409528664e-17
	1.315478402109741e-13
	2.858522974544634e-11
	4.844541341413211e-13
	6.587946599215889e-01

 32	3.200000000000001e-01
	-1.050936362247170e-15
	1.428725034734474e-21
	-4.074494880076186e-17
	2.334453952197154e-13
	4.796912123118227e-11
	8.601035920665006e-13
	6.587946599216234e-01

 33	3.300000000000001e-01
	-1.045886696658659e-15
	1.563441550865009e-21
	-4.876102913865859e-17
	4.009101904152518e-13
	7.752465789413795e-11
	1.477645350874255e-12
	6.587946599216793e-01

 34	3.400000000000001e-01
	-1.040527244929700e-15
	1.702358328736531e-21
	-5.852499998840976e-17
	6.665127186191240e-13
	1.211415899400715e-10
	2.457310475218363e-12
	6.587946599217682e-01

 35	3.500000000000001e-01
	-1.034769260593077e-15
	1.842682960690427e-21
	-7.045118413383898e-17
	1.075157361643943e-12
	1.841715934022959e-10
	3.964928527005928e-12
	6.587946599219051e-01

 36	3.600000000000002e-01
	-1.028503964206546e-15
	1.979334618339442e-21
	-8.503856164956807e-17
	1.689168333985613e-12
	2.743365423103818e-10
	6.230793966450311e-12
	6.587946599221114e-01

 37	3.700000000000002e-01
	-1.021600379191864e-15
	2.103865632986700e-21
	-1.028763824689710e-16
	2.596297111552974e-12
	4.029880751703645e-10
	9.579366886079972e-12
	6.587946599224154e-01

 38	3.800000000000002e-01
	-1.013904077318240e-15
	2.203172753609256e-21
	-1.246449153078249e-16
	3.921651954511528e-12
	5.867776806663176e-10
	1.447351921155679e-11
	6.587946599228603e-01

 39	3.900000000000002e-01
	-1.005237479114875e-15
	2.258040798702288e-21
	-1.511086826036692e-16
	5.844885625179155e-12
	8.499361481202783e-10
	2.157830091914056e-11
	6.587946599235063e-01

 40	4.000000000000002e-01
	-9.954025658184681e-16
	2.241600670075759e-21
	-1.830987770418818e-16
	8.624702836755669e-12
	1.227503172617269e-09
	3.185191261651891e-11
	6.587946599244409e-01

 41	4.100000000000002e-01
	-9.841870545300206e-16
	2.117839166863370e-21
	-2.214802457653272e-16
	1.263384144089522e-11
	1.769983778146074e-09
	4.667564850127461e-11
	6.587946599257879e-01

 42	4.200000000000002e-01
	-9.713751607246428e-16
	1.840373333273142e-21
	-2.671005397534899e-16
	1.840917453261360e-11
	2.550081894869280e-09
	6.804015540520172e-11
	6.587946599277298e-01

 43	4.300000000000002e-01
	-9.567638475782533e-16
	1.351791900976239e-21
	-3.207163849831319e-16
	2.672363861406336e-11
	3.672421991815116e-09
	9.881306931492482e-11
	6.587946599305270e-01

 44	4.400000000000002e-01
	-9.401847310652422e-16
	5.839469065270867e-22
	-3.828999251785135e-16
	3.868959870601668e-11
	5.287559957863273e-09
	1.431240247403506e-10
	6.587946599345555e-01

 45	4.500000000000002e-01
	-9.215304326513768e-16
	-5.403983870303083e-22
	-4.539309968872092e-16
	5.590741067380830e-11
	7.612154074426522e-09
	2.069187175940361e-10
	6.587946599403552e-01

 46	4.600000000000002e-01
	-9.007822423522111e-16
	-2.104258233082581e-21
	-5.336902303644062e-16
	8.067887289391051e-11
	1.095798707918524e-08
	2.987562651709665e-10
	6.587946599487029e-01

 47	4.700000000000003e-01
	-8.780339662919130e-16
	-4.191415393609730e-21
	-6.215749980096150e-16
	1.163137122587901e-10
	1.577370515733573e-08
	4.309565412054726e-10
	6.587946599607206e-01

 48	4.800000000000003e-01
	-8.535056768214816e-16
	-6.880116107877893e-21
	-7.164633111919660e-16
	1.675692314521127e-10
	2.270481823562950e-08
	6.212507187196557e-10
	6.587946599780189e-01

 49	4.900000000000003e-01
	-8.275417361176374e-16
	-1.023635963027671e-20
	-8.167459491817940e-16
	2.412801030998085e-10
	3.267989698971259e-08
	8.951549524352807e-10
	6.587946600029178e-01

 50	5.000000000000002e-01
	-8.005903812135347e-16
	-1.430801555076555e-20
	-9.204333412850807e-16
	3.472587629065423e-10
	4.703429234607345e-08
	1.289382461879824e-09
	6.587946600387549e-01

 51	5.100000000000002e-01
	-7.731667304203642e-16
	-1.912100009782183e-20
	-1.025324453186965e-15
	4.995789955463991e-10
	6.768747641873949e-08
	1.856745059551331e-09
	6.587946600903304e-01

 52	5.200000000000002e-01
	-7.458056512419209e-16
	-2.467832503226276e-20
	-1.129207392154939e-15
	7.183982438225439e-10
	9.739674912247425e-08
	2.673187594088305e-09
	6.587946601645476e-01

 53	5.300000000000002e-01
	-7.190136171822399e-16
	-3.096212812262316e-20
	-1.230053071109484e-15
	1.032529251671155e-09
	1.401191424593173e-07
	3.847869379945014e-09
	6.587946602713304e-01

 54	5.400000000000003e-01
	-6.932284027593932e-16
	-3.793807679502346e-20
	-1.326167370837761e-15
	1.483037489656306e-09
	2.015254158886142e-07
	5.537582671524257e-09
	6.587946604249325e-01

 55	5.500000000000003e-01
	-6.687925650579510e-16
	-4.556107457865020e-20
	-1.416281226762672e-15
	2.128209103007583e-09
	2.897252054459263e-07
	7.967310608724932e-09
	6.587946606458032e-01

 56	5.600000000000003e-01
	-6.459425717158389e-16
	-5.378111648837738e-20
	-1.499575421280159e-15
	3.050281469340868e-09
	4.162794851392444e-07
	1.145940271564740e-08
	6.587946609632480e-01

 57	5.700000000000003e-01
	-6.248117833505751e-16
	-6.254837863158049e-20
	-1.575651056108655e-15
	4.364301934569965e-09
	5.975908544779815e-07
	1.647468525688424e-08
	6.587946614191553e-01

 58	5.800000000000003e-01
	-6.054433025550728e-16
	-7.181702546866067e-20
	-1.644464167824238e-15
	6.229275633905546e-09
	8.567608647290203e-07
	2.366974446864243e-08
	6.587946620732131e-01

 59	5.900000000000003e-01
	-5.878081315708571e-16
	-8.154760808470591e-20
	-1.706243738129852e-15
	8.861201356821068e-09
	1.225956064754997e-06
	3.397533368655389e-08
	6.587946630100306e-01

 60	6.000000000000003e-01
	-5.718247022073135e-16
	-9.170820585766449e-20
	-1.761408672185978e-15
	1.254642285233029e-08
	1.749167298880215e-06
	4.870061601836639e-08
	6.587946643486159e-01

 61	6.100000000000003e-01
	-5.573770264906936e-16
	-1.022746055247928e-19
	-1.810493882053306e-15
	1.765171521985836e-08
	2.484870819538856e-06
	6.966515834975167e-08
	6.587946662543726e-01

 62	6.200000000000003e-01
	-5.443299477503165e-16
	-1.132298406280733e-19
	-1.854090447891572e-15
	2.462480425670202e-08
	3.507378197297604e-06
	9.935239427933273e-08
	6.587946689530586e-01

 63	6.300000000000003e-01
	-5.325409577417515e-16
	-1.245633742991951e-19
	-1.892800955140182e-15
	3.397667795199689e-08
	4.904618675293167e-06
	1.410610783732585e-07
	6.587946727445431e-01

 64	6.400000000000003e-01
	-5.218686956179571e-16
	-1.362701392704540e-19
	-1.927208725689170e-15
	4.623774869291835e-08
	6.769314979126380e-06
	1.990040722470593e-07
	6.587946780117949e-01

 65	6.500000000000004e-01
	-5.121785918567291e-16
	-1.483495778011624e-19
	-1.957858528092974e-15
	6.188712865123332e-08
	9.181515899725491e-06
	2.782761007909537e-07
	6.587946852179495e-01

 66	6.600000000000004e-01
	-5.033462469947445e-16
	-1.608047646336345e-19
	-1.985246071603553e-15
	8.126862067009787e-08
	1.218491352245454e-05
	3.846109362685450e-07
	6.587946948842358e-01

 67	6.700000000000004e-01
	-4.952591263808961e-16
	-1.736416524403207e-19
	-2.009813795140478e-15
	1.045214456938645e-07
	1.576617138426195e-05
	5.239066552946752e-07
	6.587947075468202e-01

 68	6.800000000000004e-01
	-4.878170751358259e-16
	-1.868684505308064e-19
	-2.031950885988194e-15
	1.315550929027034e-07
	1.984954452203691e-05
	7.016115602760661e-07
	6.587947237009872e-01

 69	6.900000000000004e-01
	-4.809320565223411e-16
	-2.004951307353225e-19
	-2.051995936067094e-15
	1.620795791931979e-07
	2.431245320052513e-05
	9.221615420631053e-07
	6.587947437499871e-01

 70	7.000000000000004e-01
	-4.745274173677927e-16
	-2.145330459033759e-19
	-2.070241077301253e-15
	1.956760805587083e-07
	2.901496603864805e-05
	1.188653313736893e-06
	6.587947679753338e-01

 71	7.100000000000004e-01
	-4.685368980663470e-16
	-2.289946433622155e-19
	-2.086936795380338e-15
	2.318779870009170e-07
	3.382879300959755e-05
	1.502822039503216e-06
	6.587947965347678e-01

 72	7.200000000000004e-01
	-4.629035358994161e-16
	-2.438932557175367e-19
	-2.102296896587728e-15
	2.702367286330410e-07
	3.865498427463876e-05
	1.865257804930644e-06
	6.587948294819376e-01

 73	7.300000000000004e-01
	-4.575785584454665e-16
	-2.592429530194112e-19
	-2.116503303606296e-15
	3.103614944753704e-07
	4.342840144102455e-05
	2.275731165588825e-06
	6.587948667959860e-01

 74	7.400000000000004e-01
	-4.525203262667316e-16
	-2.750584426136603e-19
	-2.129710497065157e-15
	3.519348753352580e-07
	4.811321408589280e-05
	2.733513828049898e-06
	6.587949084107098e-01

 75	7.500000000000004e-01
	-4.476933578851311e-16
	-2.913550054154858e-19
	-2.142049514288161e-15
	3.947122358616143e-07
	5.269484081821761e-05
	3.237632501177020e-06
	6.587949542376322e-01

 76	7.600000000000005e-01
	-4.430674524861614e-16
	-3.081484595964848e-19
	-2.153631477705028e-15
	4.385126984058800e-07
	5.717204295638948e-05
	3.787040773088589e-06
	6.587950041816253e-01

 77	7.700000000000005e-01
	-4.386169144593638e-16
	-3.254551446415507e-19
	-2.164550662667589e-15
	4.832073069272170e-07
	6.155078776734543e-05
	4.380720130379152e-06
	6.587950581500990e-01

 78	7.800000000000005e-01
	-4.343198769440822e-16
	-3.432919203718418e-19
	-2.174887135537441e-15
	5.287074829939428e-07
	6.584012738264230e-05
	5.017729832427236e-06
	6.587951160575320e-01

 79	7.900000000000005e-01
	-4.301577176075287e-16
	-3.616761768555023e-19
	-2.184709003381825e-15
	5.749551312558893e-07
	7.004973429659169e-05
	5.697224262552180e-06
	6.587951778270494e-01

 80	8.000000000000005e-01
	-4.261145579276278e-16
	-3.806258521752995e-19
	-2.194074320314360e-15
	6.219147420385834e-07
	7.418859773694378e-05
	6.418451840755412e-06
	6.587952433903245e-01

 81	8.100000000000005e-01
	-4.221768365712578e-16
	-4.001594558352701e-19
	-2.203032695110357e-15
	6.695673561560251e-07
	7.826445170036827e-05
	7.180744868323419e-06
	6.587953126866556e-01

 82	8.200000000000005e-01
	-4.183329475571089e-16
	-4.202960962107558e-19
	-2.211626641992050e-15
	7.179060799945638e-07
	8.228362452690697e-05
	7.983505970331071e-06
	6.587953856617342e-01

 83	8.300000000000005e-01
	-4.145729344396845e-16
	-4.410555109166681e-19
	-2.219892712574651e-15
	7.669328140091362e-07
	8.625110819959158e-05
	8.826194263068249e-06
	6.587954622663870e-01

 84	8.400000000000005e-01
	-4.108882325293273e-16
	-4.624580993211402e-19
	-2.227862442616994e-15
	8.166558964652686e-07
	9.017072569077268e-05
	9.708312780411422e-06
	6.587955424554328e-01

 85	8.500000000000005e-01
	-4.072714520335222e-16
	-4.845249566926360e-19
	-2.235563142870394e-15
	8.670884215961434e-07
	9.404532795385706e-05
	1.062939776265822e-05
	6.587956261867098e-01

 86	8.600000000000005e-01
	-4.037161958819616e-16
	-5.072779096603397e-19
	-2.243018559214641e-15
	9.182470472701301e-07
	9.787698518439329e-05
	1.158900990642579e-05
	6.587957134202793e-01

 87	8.700000000000006e-01
	-4.002169068321494e-16
	-5.307395528069864e-19
	-2.250249423537487e-15
	9.701511544893903e-07
	1.016671563300994e-04
	1.258672742627895e-05
	6.587958041177953e-01

 88	8.800000000000006e-01
	-3.967687392176596e-16
	-5.549332863137038e-19
	-2.257273913503194e-15
	1.022822258178737e-06
	1.054168315558618e-04
	1.362214067773239e-05
	6.587958982420138e-01

 89	8.900000000000006e-01
	-3.933674513860365e-16
	-5.798833546478789e-19
	-2.264108036470676e-15
	1.076283596770124e-06
	1.091266479065179e-04
	1.469484806927311e-05
	6.587959957564257e-01

 90	9.000000000000006e-01
	-3.900093154755631e-16
	-6.056148863352907e-19
	-2.270765950340114e-15
	1.130559848749270e-06
	1.127969809558188e-04
	1.580445300804151e-05
	6.587960966249753e-01

 91	9.100000000000006e-01
	-3.866910417029414e-16
	-6.321539348928784e-19
	-2.277260231992939e-15
	1.185676939312660e-06
	1.164280161290125e-04
	1.695056165716485e-05
	6.587962008118569e-01

 92	9.200000000000006e-01
	-3.834097147833087e-16
	-6.595275210222234e-19
	-2.283602102202863e-15
	1.241661911035770e-06
	1.200198034334560e-04
	1.813278132033088e-05
	6.587963082813684e-01

 93	9.300000000000006e-01
	-3.801627404874065e-16
	-6.877636761803852e-19
	-2.289801614393255e-15
	1.298542840118612e-06
	1.235722989804500e-04
	1.935071930498123e-05
	6.587964189978105e-01

 94	9.400000000000006e-01
	-3.769478006659070e-16
	-7.168914876552005e-19
	-2.295867813358978e-15
	1.356348785215169e-06
	1.270853961816367e-04
	2.060398214689541e-05
	6.587965329254108e-01

 95	9.500000000000006e-01
	-3.737628153454180e-16
	-7.469411452799535e-19
	-2.301808869022537e-15
	1.415109759703453e-06
	1.305589489846643e-04
	2.189217510515536e-05
	6.587966500282837e-01

 96	9.600000000000006e-01
	-3.706059107315512e-16
	-7.779439899270232e-19
	-2.307632189422791e-15
	1.474856720973398e-06
	1.339927890371932e-04
	2.321490185770339e-05
	6.587967702703963e-01

 97	9.700000000000006e-01
	-3.674753921480961e-16
	-8.099325639239351e-19
	-2.313344516411178e-15
	1.535621572229599e-06
	1.373867382598684e-04
	2.457176434448990e-05
	6.587968936155614e-01

 98	9.800000000000006e-01
	-3.643697211032789e-16
	-8.429406635383950e-19
	-2.318952006931478e-15
	1.597437173660849e-06
	1.407406179721696e-04
	2.596236271827630e-05
	6.587970200274270e-01

 99	9.900000000000007e-01
	-3.612874958093942e-16
	-8.770033936815144e-19
	-2.324460302263458e-15
	1.660337360784181e-06
	1.440542554450058e-04
	2.738629537318995e-05
	6.587971494694830e-01

 100	1.000000000000001e+00
	-3.582274345948083e-16
	-9.121572249814552e-19
	-2.329874587201367e-15
	1.724356968446200e-06
	1.473274885416562e-04
	2.884315902876482e-05
	6.587972819050656e-01

 101	1.010000000000001e+00
	-3.551883617413147e-16
	-9.484400533832582e-19
	-2.335199640799748e-15
	1.789531859441513e-06
	1.505601689442708e-04
