Title: ** sch_path: /home/andylithia/openmpw/project-yatsuhashi-chip1/xschem/gmid_test/nmos_test.sch
Date: Tue Jul 19 23:15:45  2022
Plotname: DC transfer characteristic
Flags: real
No. Variables: 8
No. Points: 181
Variables:
	0	v(v-sweep)	voltage
	1	@m.xm1.msky130_fd_pr__nfet_01v8[cgb]	capacitance
	2	@m.xm1.msky130_fd_pr__nfet_01v8[cgd]	capacitance
	3	@m.xm1.msky130_fd_pr__nfet_01v8[cgs]	capacitance
	4	@m.xm1.msky130_fd_pr__nfet_01v8[gds]	admittance
	5	@m.xm1.msky130_fd_pr__nfet_01v8[gm]	admittance
	6	i(@m.xm1.msky130_fd_pr__nfet_01v8[id])	current
	7	v(@m.xm1.msky130_fd_pr__nfet_01v8[vth])	voltage
Values:
 0	0.000000000000000e+00
	-3.387846057894725e-15
	3.214837065096286e-19
	-2.311297706528632e-17
	7.979561311129421e-14
	2.355232016207383e-12
	7.344965300882917e-14
	7.486943285712526e-01

 1	1.000000000000000e-02
	-3.371713408959311e-15
	3.437146602720751e-19
	-2.465565570956804e-17
	1.089494599429769e-13
	3.245569193999361e-12
	1.012161665507228e-13
	7.486943285712541e-01

 2	2.000000000000000e-02
	-3.355783686298392e-15
	3.673050721876596e-19
	-2.632506989932545e-17
	1.487416393593638e-13
	4.472460764173062e-12
	1.394790550542621e-13
	7.486943285712561e-01

 3	3.000000000000000e-02
	-3.340050511265928e-15
	3.923501125402425e-19
	-2.813257902817489e-17
	2.030488669584433e-13
	6.163117447314460e-12
	1.922059884878311e-13
	7.486943285712587e-01

 4	4.000000000000000e-02
	-3.324507456632235e-15
	4.189561371161245e-19
	-3.009090988019677e-17
	2.771584721461966e-13
	8.492827238482195e-12
	2.648643099652884e-13
	7.486943285712629e-01

 5	5.000000000000000e-02
	-3.309148014618211e-15
	4.472418854071022e-19
	-3.221433488981880e-17
	3.782808249159754e-13
	1.170312189405751e-11
	3.649877978462340e-13
	7.486943285712685e-01

 6	6.000000000000000e-02
	-3.293965562760136e-15
	4.773396683928235e-19
	-3.451886624150084e-17
	5.162475590836578e-13
	1.612680561950644e-11
	5.029575749516206e-13
	7.486943285712755e-01

 7	7.000000000000001e-02
	-3.278953327561347e-15
	5.093965241891795e-19
	-3.702246613773494e-17
	7.044628111824216e-13
	2.222243673701946e-11
	6.930780509851914e-13
	7.486943285712858e-01

 8	8.000000000000000e-02
	-3.264104345888908e-15
	5.435753192704390e-19
	-3.974527355577512e-17
	9.611989495287142e-13
	3.062183040595582e-11
	9.550593182722513e-13
	7.486943285712995e-01

 9	9.000000000000000e-02
	-3.249411424072696e-15
	5.800557726535090e-19
	-4.270984781766076e-17
	1.311361247558119e-12
	4.219549591534299e-11
	1.316059471336440e-12
	7.486943285713181e-01

 10	9.999999999999999e-02
	-3.234867094662301e-15
	6.190353803051166e-19
	-4.594142931155069e-17
	1.788890783551395e-12
	5.814277401949439e-11
	1.813498223667326e-12
	7.486943285713444e-01

 11	1.100000000000000e-01
	-3.220463570793230e-15
	6.607302170383224e-19
	-4.946821772171598e-17
	2.440035762531184e-12
	8.011598841165385e-11
	2.498932915763970e-12
	7.486943285713811e-01

 12	1.200000000000000e-01
	-3.206192698109504e-15
	7.053755932570919e-19
	-5.332166814673375e-17
	3.327804199236669e-12
	1.103914319963070e-10
	3.443397752308360e-12
	7.486943285714308e-01

 13	1.300000000000000e-01
	-3.192045904184749e-15
	7.532265440473609e-19
	-5.753680550701503e-17
	4.538023251918560e-12
	1.521048318170104e-10
	4.744758150022442e-12
	7.486943285714999e-01

 14	1.400000000000000e-01
	-3.178014145379237e-15
	8.045581282575906e-19
	-6.215255765946071e-17
	6.187582985611604e-12
	2.095755685492655e-10
	6.537839920336927e-12
	7.486943285715945e-01

 15	1.500000000000000e-01
	-3.164087851066777e-15
	8.596655153012937e-19
	-6.721210764179674e-17
	8.435649212149142e-12
	2.887530422641635e-10
	9.008378938435531e-12
	7.486943285717251e-01

 16	1.600000000000000e-01
	-3.150256865164959e-15
	9.188638373541618e-19
	-7.276326545127284e-17
	1.149891054696918e-11
	3.978311002388251e-10
	1.241223018060235e-11
	7.486943285719051e-01

 17	1.700000000000000e-01
	-3.136510384907223e-15
	9.824877842678487e-19
	-7.885885970477085e-17
	1.567230491846936e-11
	5.480936401329961e-10
	1.710181562410049e-11
	7.486943285721531e-01

 18	1.800000000000000e-01
	-3.122836896809951e-15
	1.050890917683697e-18
	-8.555714940492147e-17
	2.135718549311977e-11
	7.550781021163517e-10
	2.356253343062374e-11
	7.486943285724943e-01

 19	1.900000000000000e-01
	-3.109224109817656e-15
	1.124444679250618e-18
	-9.292225581447751e-17
	2.909958250777568e-11
	1.040175926556933e-09
	3.246287129497455e-11
	7.486943285729645e-01

 20	2.000000000000000e-01
	-3.095658885661888e-15
	1.203537065239675e-18
	-1.010246140728949e-16
	3.964215924628182e-11
	1.432833394911358e-09
	4.472336771130725e-11
	7.486943285736125e-01

 21	2.100000000000000e-01
	-3.082127166553951e-15
	1.288570935896673e-18
	-1.099414436168035e-16
	5.399473247978031e-11
	1.973576962014572e-09
	6.161148671819106e-11
	7.486943285745052e-01

 22	2.200000000000001e-01
	-3.068613900459102e-15
	1.379961922303319e-18
	-1.197572356214491e-16
	7.352994411535912e-11
	2.718170156816866e-09
	8.487210607080834e-11
	7.486943285757343e-01

 23	2.300000000000001e-01
	-3.055102964383032e-15
	1.478135886125206e-18
	-1.305642544851262e-16
	1.001129839107038e-10
	3.743322393166817e-09
	1.169069266194836e-10
	7.486943285774277e-01

 24	2.400000000000001e-01
	-3.041577086353809e-15
	1.583525878346619e-18
	-1.424630487494872e-16
	1.362773759374021e-10
	5.154524396554855e-09
	1.610210462676778e-10
	7.486943285797590e-01

 25	2.500000000000001e-01
	-3.028017767117386e-15
	1.696568532063165e-18
	-1.555629647002671e-16
	1.854630236933874e-10
	7.096794914504740e-09
	2.217616851941080e-10
	7.486943285829698e-01

 26	2.600000000000001e-01
	-3.014405202995874e-15
	1.817699812019184e-18
	-1.699826531446094e-16
	2.523383172957323e-10
	9.769408294121938e-09
	3.053832482132900e-10
	7.486943285873895e-01

 27	2.700000000000001e-01
	-3.000718211895146e-15
	1.947350030548408e-18
	-1.858505564438903e-16
	3.432356112926508e-10
	1.344605806448219e-08
	4.204854371854707e-10
	7.486943285934731e-01

 28	2.800000000000001e-01
	-2.986934165100634e-15
	2.085938026970828e-18
	-2.033053587465996e-16
	4.667393997692439e-10
	1.850243168116971e-08
	5.788881491737598e-10
	7.486943286018448e-01

 29	2.900000000000001e-01
	-2.973028928268937e-15
	2.233864396774162e-18
	-2.224963774972337e-16
	6.344798496396110e-10
	2.545387021463748e-08
	7.968299703242187e-10
	7.486943286133642e-01

 30	3.000000000000001e-01
	-2.958976815904306e-15
	2.391503649924296e-18
	-2.435838687222437e-16
	8.622020418421417e-10
	3.500672092924813e-08
	1.096608260190186e-09
	7.486943286292083e-01

 31	3.100000000000001e-01
	-2.944750564588265e-15
	2.559195176665387e-18
	-2.667392123997439e-16
	1.171204644716396e-09
	4.812823278334296e-08
	1.508820819763467e-09
	7.486943286509953e-01

 32	3.200000000000001e-01
	-2.930321331281101e-15
	2.737232906812386e-18
	-2.921449375719890e-16
	1.590272491994483e-09
	6.614148517144489e-08
	2.075425463612142e-09
	7.486943286809418e-01

 33	3.300000000000001e-01
	-2.915658724092850e-15
	2.925853567733633e-18
	-3.199945400224260e-16
	2.158267771475634e-09
	9.085398857927062e-08
	2.853908986982680e-09
	7.486943287220875e-01

 34	3.400000000000001e-01
	-2.900730873966598e-15
	3.125223480072554e-18
	-3.504920386974648e-16
	2.927596848287638e-09
	1.247313813505113e-07
	3.922956743538813e-09
	7.486943287785901e-01

 35	3.500000000000001e-01
	-2.885504556644007e-15
	3.335423881858314e-18
	-3.838512111321332e-16
	3.968837278805211e-09
	1.711312137740343e-07
	5.390145412299617e-09
	7.486943288561362e-01

 36	3.600000000000002e-01
	-2.869945374982586e-15
	3.556434843795117e-18
	-4.202944436194457e-16
	5.376895983171011e-09
	2.346163079373618e-07
	7.402353095029834e-09
	7.486943289624880e-01

 37	3.700000000000002e-01
	-2.854018012031443e-15
	3.788117933290848e-18
	-4.600511295858877e-16
	7.279178963963466e-09
	3.213727408237407e-07
	1.015980263480452e-08
	7.486943291082286e-01

 38	3.800000000000002e-01
	-2.837686565089703e-15
	4.030197903057136e-18
	-5.033555505852220e-16
	9.846389775645453e-09
	4.397641950162031e-07
	1.393493704854123e-08
	7.486943293077573e-01

 39	3.900000000000002e-01
	-2.820914970095324e-15
	4.282243820904707e-18
	-5.504441795899248e-16
	1.330674241190889e-08
	6.010622141581649e-07
	1.909768152122192e-08
	7.486943295806262e-01

 40	4.000000000000002e-01
	-2.803667523943844e-15
	4.543650217142158e-18
	-6.015523569644578e-16
	1.796457778762138e-08
	8.204005339443928e-07
	2.614908442695022e-08
	7.486943299533174e-01

 41	4.100000000000002e-01
	-2.785909509552757e-15
	4.813618998003657e-18
	-6.569103066845673e-16
	2.422461297604183e-08
	1.118010530594164e-06
	3.576585606910411e-08
	7.486943304615985e-01

 42	4.200000000000002e-01
	-2.767607924543605e-15
	5.091143047244010e-18
	-7.167384848218604e-16
	3.262332658235699e-08
	1.520802808663754e-06
	4.885893551783837e-08
	7.486943311536161e-01

 43	4.300000000000002e-01
	-2.748732309255632e-15
	5.374992598884177e-18
	-7.812422844160083e-16
	4.386928379970355e-08
	2.064365175429988e-06
	6.664989553378380e-08
	7.486943320939373e-01

 44	4.400000000000002e-01
	-2.729255663480954e-15
	5.663705593714891e-18
	-8.506061603463590e-16
	5.889451328720259e-08
	2.795446917428185e-06
	9.076970238768636e-08
	7.486943333687673e-01

 45	4.500000000000002e-01
	-2.709155434005097e-15
	5.955583309337928e-18
	-9.249872835912019e-16
	7.891933436869393e-08
	3.774989540187095e-06
	1.233850073924121e-07
	7.486943350926279e-01

 46	4.600000000000002e-01
	-2.688414547093300e-15
	6.248692555820975e-18
	-1.004508884232268e-15
	1.055332489687779e-07
	5.081740116444871e-06
	1.673576423880084e-07
	7.486943374167895e-01

 47	4.700000000000003e-01
	-2.667022451996025e-15
	6.540875635379744e-18
	-1.089253493564748e-15
	1.407945882125083e-07
	6.816439805214043e-06
	2.264431531022319e-07
	7.486943405397681e-01

 48	4.800000000000003e-01
	-2.644976134030852e-15
	6.829769058321209e-18
	-1.179256343546677e-15
	1.873514442143023e-07
	9.106512340828170e-06
	3.055338121723940e-07
	7.486943447201773e-01

 49	4.900000000000003e-01
	-2.622281049626176e-15
	7.112831680325773e-18
	-1.274499221633286e-15
	2.485859049399545e-07
	1.211108344690046e-05
	4.109503529296480e-07
	7.486943502921608e-01

 50	5.000000000000002e-01
	-2.598951931730948e-15
	7.387382481041663e-18
	-1.374905105504429e-15
	3.287826091200159e-07
	1.602604589419246e-05
	5.507844073299192e-07
	7.486943576835139e-01

 51	5.100000000000002e-01
	-2.575013413006649e-15
	7.650647658005669e-18
	-1.480333910251140e-15
	4.333210145580848e-07
	2.108875884326845e-05
	7.352901467374952e-07
	7.486943674364190e-01

 52	5.200000000000002e-01
	-2.550500416868498e-15
	7.899816095292951e-18
	-1.590579666118040e-15
	5.688884239181965e-07
	2.758185806388847e-05
	9.773189235918248e-07
	7.486943802304789e-01

 53	5.300000000000002e-01
	-2.525458273105884e-15
	8.132101629269818e-18
	-1.705369405435812e-15
	7.437077124059497e-07
	3.583559042103246e-05
	1.292785101937321e-06
	7.486943969074304e-01

 54	5.400000000000003e-01
	-2.499942525487434e-15
	8.344809931149958e-18
	-1.824363972740782e-15
	9.677699636399199e-07
	4.622811178028326e-05
	1.701145434247660e-06
	7.486944184966322e-01

 55	5.500000000000003e-01
	-2.474018413010937e-15
	8.535407319216888e-18
	-1.947160884771662e-15
	1.253058149856585e-06
	5.918333511417527e-05
	2.225869358345807e-06
	7.486944462401435e-01

 56	5.600000000000003e-01
	-2.447760023417137e-15
	8.701588461269863e-18
	-2.073299262313542e-15
	1.613744121947793e-06
	7.516619257809913e-05
	2.894874737422935e-06
	7.486944816160878e-01

 57	5.700000000000003e-01
	-2.421249135990332e-15
	8.841339777809145e-18
	-2.202266741404408e-15
	2.066338227118819e-06
	9.467554567065552e-05
	3.740904004228951e-06
	7.486945263590142e-01

 58	5.800000000000003e-01
	-2.394573788995484e-15
	8.952995438061418e-18
	-2.333508156599711e-15
	2.629769631187104e-06
	1.182353540329951e-04
	4.801819936212732e-06
	7.486945824761982e-01

 59	5.900000000000003e-01
	-2.367826623737348e-15
	9.035283159793439e-18
	-2.466435683823417e-15
	3.325376499785797e-06
	1.463849707128773e-04
	6.120807835904455e-06
	7.486946522592468e-01

 60	6.000000000000003e-01
	-2.341103070661375e-15
	9.087357559765444e-18
	-2.600440044278286e-15
	4.176788746375912e-06
	1.796694449135124e-04
	7.746479882147102e-06
	7.486947382908246e-01

 61	6.100000000000003e-01
	-2.314499451934343e-15
	9.108819510244293e-18
	-2.734902311648414e-15
	5.209691589370514e-06
	2.186304117904685e-04
	9.732884991177913e-06
	7.486948434467380e-01

 62	6.200000000000003e-01
	-2.288111078778095e-15
	9.099720774909184e-18
	-2.869205837392966e-15
	6.451464555667265e-06
	2.637975631571296e-04
	1.213943059130046e-05
	7.486949708937601e-01

 63	6.300000000000003e-01
	-2.262030420255434e-15
	9.060554050606441e-18
	-3.002747814981177e-15
	7.930696427609478e-06
	3.156799674435395e-04
	1.503071906341059e-05
	7.486951240833649e-01

 64	6.400000000000003e-01
	-2.236345413548993e-15
	8.992229354272031e-18
	-3.134950041714329e-15
	9.676580882158069e-06
	3.747558665393384e-04
	1.847629091746343e-05
	7.486953067409577e-01

 65	6.500000000000004e-01
	-2.211137974845869e-15
	8.896038399460670e-18
	-3.265268501523627e-15
	1.171820006779915e-05
	4.414592557911450e-04
	2.255025111089836e-05
	7.486955228493239e-01

 66	6.600000000000004e-01
	-2.186482755919611e-15
	8.773609152389900e-18
	-3.393201476729859e-15
	1.408370516813382e-05
	5.161617192333866e-04
	2.733073838724680e-05
	7.486957766240715e-01

 67	6.700000000000004e-01
	-2.162446175758675e-15
	8.626853111736933e-18
	-3.518295992822465e-15
	1.679940612275064e-05
	5.991486946081194e-04
	3.289918535203726e-05
	7.486960724781517e-01

 68	6.800000000000004e-01
	-2.139085740520330e-15
	8.457908010016978e-18
	-3.640152499271466e-15
	1.988878929341997e-05
	6.905905013652074e-04
	3.933931427497802e-05
	7.486964149722872e-01

 69	6.900000000000004e-01
	-2.116449649949329e-15
	8.269078598004149e-18
	-3.758427783396956e-15
	2.337149327755259e-05
	7.905098903762003e-04
	4.673582399873261e-05
	7.486968087486044e-01

 70	7.000000000000004e-01
	-2.094576675197057e-15
	8.062777974403884e-18
	-3.872836197060813e-15
	2.726228880077766e-05
	8.987493047765797e-04
	5.517274824005698e-05
	7.486972584459970e-01

 71	7.100000000000004e-01
	-2.073496282394964e-15
	7.841471598796148e-18
	-3.983149343021954e-15
	3.157012600715139e-05
	1.014942181106349e-03
	6.473150355791851e-05
	7.486977685977041e-01

 72	7.200000000000004e-01
	-2.053228968724545e-15
	7.607625719672241e-18
	-4.089194416881824e-15
	3.629732699975518e-05
	1.138493179003868e-03
	7.548869193685146e-05
	7.486983435140733e-01

 73	7.300000000000004e-01
	-2.033786773123212e-15
	7.363661503740939e-18
	-4.190851431228818e-15
	4.143900787316324e-05
	1.268571974310756e-03
	8.751377123875160e-05
	7.486989871561133e-01

 74	7.400000000000004e-01
	-2.015173921955922e-15
	7.111915705571122e-18
	-4.288049562038163e-15
	4.698280822779955e-05
	1.404124076124515e-03
	1.008667479079187e-04
	7.486997030078321e-01

 75	7.500000000000004e-01
	-1.997387570571058e-15
	6.854608298686943e-18
	-4.380762855906425e-15
	5.290898522373178e-05
	1.543900112499787e-03
	1.155960712902472e-04
	7.487004939569244e-01

 76	7.600000000000005e-01
	-1.980418604147434e-15
	6.593817122465033e-18
	-4.469005523274881e-15
	5.919089517527863e-05
	1.686502471081636e-03
	1.317369106698127e-04
	7.487013621937997e-01

 77	7.700000000000005e-01
	-1.964252465093606e-15
	6.331459296945240e-18
	-4.552827020652059e-15
	6.579584376725111e-05
	1.830445564224854e-03
	1.493099715466759e-04
	7.487023091379130e-01

 78	7.800000000000005e-01
	-1.948869978968000e-15
	6.069278925578124e-18
	-4.632307097115795e-15
	7.268624399888069e-05
	1.974223872057461e-03
	1.683209590301925e-04
	7.487033353980324e-01

 79	7.900000000000005e-01
	-1.934248155993285e-15
	5.808840443238717e-18
	-4.707550949863243e-15
	7.982098717608985e-05
	2.116380775653231e-03
	1.887607310511437e-04
	7.487044407696741e-01

 80	8.000000000000005e-01
	-1.920360950365797e-15
	5.551526868147093e-18
	-4.778684602613221e-15
	8.715691300958900e-05
	2.255571266948660e-03
	2.106061136099933e-04
	7.487056242691673e-01

 81	8.100000000000005e-01
	-1.907179964423166e-15
	5.298542173119178e-18
	-4.845850591054336e-15
	9.465026286606272e-05
	2.390612845981272e-03
	2.338212865531564e-04
	7.487068842001930e-01

 82	8.200000000000005e-01
	-1.894675089130086e-15
	5.050916993685091e-18
	-4.909204012552335e-15
	1.022580141467522e-04
	2.520520948314853e-03
	2.583596013512150e-04
	7.487082182458730e-01

 83	8.300000000000005e-01
	-1.882815076151003e-15
	4.809516927397523e-18
	-4.968908973783281e-15
	1.099390191153671e-04
	2.644527592195897e-03
	2.841656676778835e-04
	7.487096235778360e-01

 84	8.400000000000005e-01
	-1.871568039943069e-15
	4.575052739891083e-18
	-5.025135450237313e-15
	1.176549022020118e-04
	2.762084105648900e-03
	3.111775438437131e-04
	7.487110969733083e-01

 85	8.500000000000005e-01
	-1.860901890820405e-15
	4.348091869774984e-18
	-5.078056555703368e-15
	1.253707000197461e-04
	2.872850430016351e-03
	3.393288835971295e-04
	7.487126349319737e-01

 86	8.600000000000005e-01
	-1.850784701846758e-15
	4.129070708529624e-18
	-5.127846207716370e-15
	1.330552536811254e-04
	2.976674433445244e-03
	3.685509221206141e-04
	7.487142337858450e-01

 87	8.700000000000006e-01
	-1.841185013770344e-15
	3.918307217103323e-18
	-5.174677166174569e-15
	1.406813811543624e-04
	3.073564924296990e-03
	3.987742201923658e-04
	7.487158897972747e-01

 88	8.800000000000006e-01
	-1.832072083098242e-15
	3.716013523345824e-18
	-5.218719416470170e-15
	1.482258679098562e-04
	3.163661775651025e-03
	4.299301213134743e-04
	7.487175992421710e-01

 89	8.900000000000006e-01
	-1.823416078899911e-15
	3.522308220686104e-18
	-5.260138865034764e-15
	1.556693178997111e-04
	3.247205957648003e-03
	4.619519077646672e-04
	7.487193584772274e-01

 90	9.000000000000006e-01
	-1.815188234110516e-15
	3.337228156708571e-18
	-5.299096313700878e-15
	1.629959056260971e-04
	3.324511517834702e-03
	4.947756657080331e-04
	7.487211639913907e-01

 91	9.100000000000006e-01
	-1.807360957048494e-15
	3.160739559602954e-18
	-5.335746679275056e-15
	1.701930654951192e-04
	3.395940801481492e-03
	5.283408859775021e-04
	7.487230124427383e-01

 92	9.200000000000006e-01
	-1.799907908633153e-15
	2.992748400729266e-18
	-5.370238425810140e-15
	1.772511484259497e-04
	3.461883559008771e-03
	5.625908367202392e-04
	7.487249006825878e-01

 93	9.300000000000006e-01
	-1.792804050441676e-15
	2.833109933066182e-18
	-5.402713178920346e-15
	1.841630690171835e-04
	3.522740090023349e-03
	5.974727478547500e-04
	7.487268257689049e-01

 94	9.400000000000006e-01
	-1.786025668325145e-15
	2.681637378796443e-18
	-5.433305493826494e-15
	1.909239602789129e-04
	3.578908228785194e-03
	6.329378469263112e-04
	7.487287849711267e-01

 95	9.500000000000006e-01
	-1.779550375845226e-15
	2.538109765572970e-18
	-5.462142751434555e-15
	1.975308474761428e-04
	3.630773766687935e-03
	6.689412828203245e-04
	7.487307757683993e-01

 96	9.600000000000006e-01
	-1.773357101323345e-15
	2.402278931029844e-18
	-5.489345159471093e-15
	2.039823481818594e-04
	3.678703805322833e-03
	7.054419691543772e-04
	7.487327958429830e-01

 97	9.700000000000006e-01
	-1.767426061831942e-15
	2.273875729799445e-18
	-5.515025838402771e-15
	2.102784022107635e-04
	3.723042508768202e-03
	7.424023739275047e-04
	7.487348430703207e-01

 98	9.800000000000006e-01
	-1.761738727016389e-15
	2.152615487559179e-18
	-5.539290974466945e-15
	2.164200325976606e-04
	3.764108748951862e-03
	7.797882767897430e-04
	7.487369155069962e-01

 99	9.900000000000007e-01
	-1.756277775224864e-15
	2.038202753257987e-18
	-5.562240024579195e-15
	2.224091370500433e-04
	3.802195191749476e-03
	8.175685104933170e-04
	7.487390113775217e-01

 100	1.000000000000001e+00
	-1.751027044047374e-15
	1.930335404423068e-18
	-5.583965960126646e-15
	2.282483081837686e-04
	3.837568438190849e-03
	8.557146988994843e-04
	7.487411290607006e-01

 101	1.010000000000001e+00
	-1.745971477026310e-15
	1.828708161910883e-18
	-5.604555538685901e-15
	2.339406801956112e-04
	3.870469904209100e-03
	8.942010004139146e-04
	7.487432670760794e-01

