Title: ** sch_path: /home/andylithia/openmpw/project-yatsuhashi-chip1/xschem/gmid_test/nmos_test.sch
Date: Sun Jul 17 22:51:45  2022
Plotname: DC transfer characteristic
Flags: real
No. Variables: 8
No. Points: 181
Variables:
	0	v(v-sweep)	voltage
	1	@m.xm1.msky130_fd_pr__nfet_01v8[cgb]	capacitance
	2	@m.xm1.msky130_fd_pr__nfet_01v8[cgd]	capacitance
	3	@m.xm1.msky130_fd_pr__nfet_01v8[cgs]	capacitance
	4	@m.xm1.msky130_fd_pr__nfet_01v8[gds]	admittance
	5	@m.xm1.msky130_fd_pr__nfet_01v8[gm]	admittance
	6	i(@m.xm1.msky130_fd_pr__nfet_01v8[id])	current
	7	v(@m.xm1.msky130_fd_pr__nfet_01v8[vth])	voltage
Values:
 0	0.000000000000000e+00
	-2.259562208880194e-15
	2.052376902716422e-19
	-1.508442415345111e-17
	3.354001002556906e-14
	7.745430370021755e-13
	2.393149519899440e-14
	7.499919517473512e-01

 1	1.000000000000000e-02
	-2.248774098383049e-15
	2.196324201809980e-19
	-1.609448194557535e-17
	4.602093582170124e-14
	1.070537247395389e-12
	3.307720765410531e-14
	7.499919517473512e-01

 2	2.000000000000000e-02
	-2.238120589541316e-15
	2.349094834884019e-19
	-1.718758463924033e-17
	6.314273480228148e-14
	1.479641767558384e-12
	4.571796331928432e-14
	7.499919517473527e-01

 3	3.000000000000000e-02
	-2.227597361685457e-15
	2.511289207474933e-19
	-1.837106533106534e-17
	8.662963746548778e-14
	2.045077225678663e-12
	6.318933402588410e-14
	7.499919517473534e-01

 4	4.000000000000000e-02
	-2.217200056290706e-15
	2.683578992970234e-19
	-1.965313828939187e-17
	1.188459037359358e-13
	2.826577448725881e-12
	8.733721938443534e-14
	7.499919517473548e-01

 5	5.000000000000000e-02
	-2.206924254311586e-15
	2.866715455482192e-19
	-2.104301788243650e-17
	1.630331618589385e-13
	3.906697468216978e-12
	1.207128214116562e-13
	7.499919517473571e-01

 6	6.000000000000000e-02
	-2.196765451920649e-15
	3.061537799076508e-19
	-2.255104862871377e-17
	2.236356577449336e-13
	5.399530453479332e-12
	1.668420958873919e-13
	7.499919517473591e-01

 7	7.000000000000001e-02
	-2.186719034633632e-15
	3.268981391155141e-19
	-2.418884659600240e-17
	3.067459329421503e-13
	7.462753057073776e-12
	2.305981199763729e-13
	7.499919517473634e-01

 8	8.000000000000000e-02
	-2.176780249806842e-15
	3.490085701834101e-19
	-2.596945235945655e-17
	4.207154580301247e-13
	1.031426934406052e-11
	3.187156697377382e-13
	7.499919517473680e-01

 9	9.000000000000000e-02
	-2.166944177493789e-15
	3.726001797467257e-19
	-2.790749572433657e-17
	5.769911821536333e-13
	1.425520774096263e-11
	4.405022942098954e-13
	7.499919517473755e-01

 10	9.999999999999999e-02
	-2.157205699648096e-15
	3.977999224526640e-19
	-3.001937242211276e-17
	7.912614447607861e-13
	1.970169405219914e-11
	6.088208808370138e-13
	7.499919517473855e-01

 11	1.100000000000000e-01
	-2.147559467657675e-15
	4.247472119372371e-19
	-3.232343299784368e-17
	1.085025453440656e-12
	2.722874654854243e-11
	8.414473046917458e-13
	7.499919517473985e-01

 12	1.200000000000000e-01
	-2.137999868192818e-15
	4.535944379629179e-19
	-3.484018411926594e-17
	1.487742595500269e-12
	3.763091291274935e-11
	1.162946241874035e-12
	7.499919517474176e-01

 13	1.300000000000000e-01
	-2.128520987347652e-15
	4.845073733611707e-19
	-3.759250255155741e-17
	2.039775358958214e-12
	5.200602630026677e-11
	1.607262742025939e-12
	7.499919517474436e-01

 14	1.400000000000000e-01
	-2.119116573051078e-15
	5.176654545222827e-19
	-4.060586205349490e-17
	2.796418237619463e-12
	7.187088187516571e-11
	2.221302399954437e-12
	7.499919517474795e-01

 15	1.500000000000000e-01
	-2.109779995720718e-15
	5.532619192647641e-19
	-4.390857345677411e-17
	3.833412380528782e-12
	9.932097753709832e-11
	3.069876799197489e-12
	7.499919517475289e-01

 16	1.600000000000000e-01
	-2.100504207132103e-15
	5.915037859472507e-19
	-4.753203818467430e-17
	5.254492401426966e-12
	1.372510690087455e-10
	4.242534141127723e-12
	7.499919517475976e-01

 17	1.700000000000000e-01
	-2.091281697477204e-15
	6.326116575776052e-19
	-5.151101543930573e-17
	7.201711957830603e-12
	1.896596348898778e-10
	5.862992513176475e-12
	7.499919517476922e-01

 18	1.800000000000000e-01
	-2.082104450593929e-15
	6.768193343091517e-19
	-5.588390322355084e-17
	9.869567841262283e-12
	2.620690829275801e-10
	8.102165562800503e-12
	7.499919517478231e-01

 19	1.900000000000000e-01
	-2.072963897365026e-15
	7.243732169338803e-19
	-6.069303324324586e-17
	1.352431474112809e-11
	3.621055464999776e-10
	1.119614556004792e-11
	7.499919517480039e-01

 20	2.000000000000000e-01
	-2.063850867315819e-15
	7.755314825904237e-19
	-6.598497952769658e-17
	1.853037029601964e-11
	5.002986395234621e-10
	1.547102555130697e-11
	7.499919517482537e-01

 21	2.100000000000000e-01
	-2.054755538492134e-15
	8.305630116813019e-19
	-7.181088027470830e-17
	2.538640093878132e-11
	6.911842225316794e-10
	2.137715343639306e-11
	7.499919517485989e-01

 22	2.200000000000001e-01
	-2.045667385780152e-15
	8.897460417211860e-19
	-7.822677192350743e-17
	3.477461882622597e-11
	9.548243474716093e-10
	2.953638873811619e-11
	7.499919517490757e-01

 23	2.300000000000001e-01
	-2.036575127948189e-15
	9.533665193322129e-19
	-8.529393373136053e-17
	4.762809713538571e-11
	1.318901168428924e-09
	4.080727647759466e-11
	7.499919517497345e-01

 24	2.400000000000001e-01
	-2.027466673856358e-15
	1.021716115757913e-18
	-9.307924011780027e-17
	6.522264407477553e-11
	1.821599889554902e-09
	5.637489672387465e-11
	7.499919517506441e-01

 25	2.500000000000001e-01
	-2.018329068504209e-15
	1.095089864099939e-18
	-1.016555166813282e-16
	8.930212465718854e-11
	2.515575374690482e-09
	7.787467634355813e-11
	7.499919517519008e-01

 26	2.600000000000001e-01
	-2.009148439878695e-15
	1.173783368177675e-18
	-1.111018940264129e-16
	1.222492970486177e-10
	3.473405380694993e-09
	1.075629096795319e-10
	7.499919517536358e-01

 27	2.700000000000001e-01
	-1.999909947933953e-15
	1.258089523868231e-18
	-1.215041513076763e-16
	1.673185215623427e-10
	4.795080515924464e-09
	1.485514629060173e-10
	7.499919517560308e-01

 28	2.800000000000001e-01
	-1.990597737486998e-15
	1.348294684652097e-18
	-1.329550386609159e-16
	2.289524823013447e-10
	6.618280223626490e-09
	2.051305838905677e-10
	7.499919517593373e-01

 29	2.900000000000001e-01
	-1.981194897352340e-15
	1.444674194794119e-18
	-1.455545644234304e-16
	3.132128315277311e-10
	9.132452736328886e-09
	2.832125092226230e-10
	7.499919517639005e-01

 30	3.000000000000001e-01
	-1.971683428661739e-15
	1.547487207351516e-18
	-1.594102292544688e-16
	4.283650767146920e-10
	1.259807760005924e-08
	3.909404551452846e-10
	7.499919517701958e-01

 31	3.100000000000001e-01
	-1.962044226013959e-15
	1.656970701539321e-18
	-1.746371849952638e-16
	5.856719266292801e-10
	1.737297088592930e-08
	5.395236580822456e-10
	7.499919517788788e-01

 32	3.200000000000001e-01
	-1.952257075855623e-15
	1.773332616700727e-18
	-1.913582914538292e-16
	8.004677849495524e-10
	2.394813185639316e-08
	7.443807766778659e-10
	7.499919517908508e-01

 33	3.300000000000001e-01
	-1.942300677279137e-15
	1.896744030272806e-18
	-2.097040394258452e-16
	1.093611511954666e-09
	3.299647014236638e-08
	1.026702967548083e-09
	7.499919518073493e-01

 34	3.400000000000001e-01
	-1.932152691194349e-15
	2.027330326926077e-18
	-2.298123034158364e-16
	1.493446698541718e-09
	4.543884730449425e-08
	1.415586575344850e-09
	7.499919518300757e-01

 35	3.500000000000001e-01
	-1.921789824528030e-15
	2.165161337763438e-18
	-2.518278830463402e-16
	2.038440636693478e-09
	6.253327599255006e-08
	1.950936474707286e-09
	7.499919518613610e-01

 36	3.600000000000002e-01
	-1.911187956652147e-15
	2.310240474231258e-18
	-2.759017884922723e-16
	2.780727465743609e-09
	8.599490706144258e-08
	2.687408128619330e-09
	7.499919519044006e-01

 37	3.700000000000002e-01
	-1.900322315542135e-15
	2.462492942974713e-18
	-3.021902230260821e-16
	3.790850553235197e-09
	1.181566584711099e-07
	3.699743464076497e-09
	7.499919519635601e-01

 38	3.800000000000002e-01
	-1.889167711105837e-15
	2.621753206266264e-18
	-3.308532155912020e-16
	5.164087241286708e-09
	1.621830387236538e-07
	5.089967295139838e-09
	7.499919520448036e-01

 39	3.900000000000002e-01
	-1.877698832575352e-15
	2.787751947676571e-18
	-3.620528590123579e-16
	7.028848891919469e-09
	2.223528874680347e-07
	6.997052027010411e-09
	7.499919521562530e-01

 40	4.000000000000002e-01
	-1.865890615684542e-15
	2.960102912482511e-18
	-3.959511158194193e-16
	9.557783497806407e-09
	3.044303112089192e-07
	9.609833121578399e-09
	7.499919523089419e-01

 41	4.100000000000002e-01
	-1.853718683439745e-15
	3.138290112857224e-18
	-4.327071644957585e-16
	1.298236856842384e-08
	4.161468125882121e-07
	1.318416918710524e-08
	7.499919525178238e-01

 42	4.200000000000002e-01
	-1.841159861530275e-15
	3.321656012448165e-18
	-4.724742749148022e-16
	1.761196770330458e-08
	5.678210714841840e-07
	1.806558829937042e-08
	7.499919528030911e-01

 43	4.300000000000002e-01
	-1.828192765767200e-15
	3.509391423881410e-18
	-5.153962231830565e-16
	2.385853018270277e-08
	7.731453189389185e-07
	2.471894035727311e-08
	7.499919531919088e-01

 44	4.400000000000002e-01
	-1.814798454405038e-15
	3.700527953510302e-18
	-5.616032830267079e-16
	3.226832743905393e-08
	1.050167660516237e-06
	3.376686904120740e-08
	7.499919537206637e-01

 45	4.500000000000002e-01
	-1.800961132911244e-15
	3.893933895446720e-18
	-6.112078626269588e-16
	4.356232230676374e-08
	1.422496538475804e-06
	4.603919838295838e-08
	7.499919544378509e-01

 46	4.600000000000002e-01
	-1.786668892940880e-15
	4.088314495352290e-18
	-6.642998911052543e-16
	5.868692259549607e-08
	1.920744866932066e-06
	6.263555298492342e-08
	7.499919554077309e-01

 47	4.700000000000003e-01
	-1.771914461315771e-15
	4.282217457776924e-18
	-7.209420955800138e-16
	7.887693019128379e-08
	2.584215142231507e-06
	8.500363221688838e-08
	7.499919567149073e-01

 48	4.800000000000003e-01
	-1.756695929189186e-15
	4.474044445780659e-18
	-7.811653449932731e-16
	1.057323938086411e-07
	3.462801226968777e-06
	1.150354519842444e-07
	7.499919584699477e-01

 49	4.900000000000003e-01
	-1.741017426886208e-15
	4.662069110148695e-18
	-8.449642672419494e-16
	1.413107257033750e-07
	4.619046862047979e-06
	1.551834544415833e-07
	7.499919608161713e-01

 50	5.000000000000002e-01
	-1.724889706782407e-15
	4.844461887507450e-18
	-9.122933676968828e-16
	1.882347605699414e-07
	6.130256922838493e-06
	2.085975716396445e-07
	7.499919639376581e-01

 51	5.100000000000002e-01
	-1.708330595632438e-15
	5.019321431816477e-18
	-9.830638861627304e-16
	2.498163374376247e-07
	8.090510304228658e-06
	2.792830525210230e-07
	7.499919680684729e-01

 52	5.200000000000002e-01
	-1.691365279491164e-15
	5.184712112840887e-18
	-1.057141622499502e-15
	3.301934260606476e-07
	1.061238303314971e-05
	3.722771386382009e-07
	7.499919735029892e-01

 53	5.300000000000002e-01
	-1.674026389089533e-15
	5.338706559770221e-18
	-1.134345936380509e-15
	4.344768205780825e-07
	1.382817109539653e-05
	4.938406395085757e-07
	7.499919806070838e-01

 54	5.400000000000003e-01
	-1.656353861265452e-15
	5.479431788115716e-18
	-1.214450083496180e-15
	5.689001134085010e-07
	1.789042075040182e-05
	6.516584067349447e-07
	7.499919898298566e-01

 55	5.500000000000003e-01
	-1.638394562506661e-15
	5.605117067894666e-18
	-1.297182990372181e-15
	7.409643005023856e-07
	2.297164251737911e-05
	8.550410804384775e-07
	7.499920017154159e-01

 56	5.600000000000003e-01
	-1.620201673199055e-15
	5.714141414587697e-18
	-1.382232496351833e-15
	9.595663379059098e-07
	2.926320506716801e-05
	1.115119803815319e-06
	7.499920169142608e-01

 57	5.700000000000003e-01
	-1.601833844851682e-15
	5.805078448235600e-18
	-1.469250009556982e-15
	1.235099715502141e-06
	3.697355979642886e-05
	1.445026320275132e-06
	7.499920361938042e-01

 58	5.800000000000003e-01
	-1.583354156240773e-15
	5.876736394559776e-18
	-1.557856440512973e-15
	1.579515025814430e-06
	4.632609723193789e-05
	1.860053151265472e-06
	7.499920604477364e-01

 59	5.900000000000003e-01
	-1.564828906853476e-15
	5.928191202462793e-18
	-1.647649199942098e-15
	2.006329753715543e-06
	5.755702862715479e-05
	2.377792097208322e-06
	7.499920907041163e-01

 60	6.000000000000003e-01
	-1.546326296063462e-15
	5.958811113082210e-18
	-1.738209983053097e-15
	2.530578903765316e-06
	7.091366740106308e-05
	3.018253253430109e-06
	7.499921281323304e-01

 61	6.100000000000003e-01
	-1.527915043204125e-15
	5.968271506939253e-18
	-1.829113017355049e-15
	3.168701020097705e-06
	8.665332626046667e-05
	3.803969803561896e-06
	7.499921740492178e-01

 62	6.200000000000003e-01
	-1.509663006530682e-15
	5.956559433224328e-18
	-1.919933428539496e-15
	3.938356778126140e-06
	1.050427596998268e-04
	4.760094668084600e-06
	7.499922299247173e-01

 63	6.300000000000003e-01
	-1.491635857804834e-15
	5.923967835586271e-18
	-2.010255380825774e-15
	4.858178829887428e-06
	1.263577265663408e-04
	5.914492630039213e-06
	7.499922973872536e-01

 64	6.400000000000003e-01
	-1.473895864143375e-15
	5.871080076713465e-18
	-2.099679673335477e-15
	5.947451614806343e-06
	1.508819128190553e-04
	7.297825576489894e-06
	7.499923782287226e-01

 65	6.500000000000004e-01
	-1.456500820470023e-15
	5.798745879337151e-18
	-2.187830519233756e-15
	7.225718824870346e-06
	1.789042330945761e-04
	8.943619660912003e-06
	7.499924744084139e-01

 66	6.600000000000004e-01
	-1.439503165299463e-15
	5.708050204748996e-18
	-2.274361294470808e-15
	8.712315377267760e-06
	2.107134901152229e-04
	1.088829301233008e-05
	7.499925880546353e-01

 67	6.700000000000004e-01
	-1.422949300714149e-15
	5.600276856884666e-18
	-2.358959111880338e-15
	1.042582186362880e-05
	2.465895440479342e-04
	1.317111309911684e-05
	7.499927214622212e-01

 68	6.800000000000004e-01
	-1.406879125332138e-15
	5.476868721964188e-18
	-2.441348147824810e-15
	1.238344422673266e-05
	2.867905232784394e-04
	1.583404612156815e-05
	7.499928770837303e-01

 69	6.900000000000004e-01
	-1.391325777764138e-15
	5.339386537209749e-18
	-2.521291716716538e-15
	1.460033083697821e-05
	3.315361601710325e-04
	1.892145877143242e-05
	7.499930575120177e-01

 70	7.000000000000004e-01
	-1.376315578279235e-15
	5.189467946223472e-18
	-2.598593148862198e-15
	1.708885284990217e-05
	3.809880073757420e-04
	2.247963683607472e-05
	7.499932654521011e-01

 71	7.100000000000004e-01
	-1.361868148651314e-15
	5.028788370484824e-18
	-2.673095575869746e-15
	1.985788975053662e-05
	4.352280089833688e-04
	2.655609629080419e-05
	7.499935036808960e-01

 72	7.200000000000004e-01
	-1.347996684691298e-15
	4.859024937404253e-18
	-2.744680763541917e-15
	2.291217687912380e-05
	4.942375656231824e-04
	3.119868070161337e-05
	7.499937749944625e-01

 73	7.300000000000004e-01
	-1.334708352793958e-15
	4.681824386685448e-18
	-2.813267154414906e-15
	2.625178119969282e-05
	5.578797123626891e-04
	3.645446277543722e-05
	7.499940821438065e-01

 74	7.400000000000004e-01
	-1.322004780758685e-15
	4.498775556400804e-18
	-2.878807291727461e-15
	2.987177159704059e-05
	6.258871760223064e-04
	4.236849515658170e-05
	7.499944277618644e-01

 75	7.500000000000004e-01
	-1.309882613861739e-15
	4.311386750784088e-18
	-2.941284795329103e-15
	3.376213813638465e-05
	6.978587694667124e-04
	4.898248208797172e-05
	7.499948142858677e-01

 76	7.600000000000005e-01
	-1.298334109267978e-15
	4.121068029472309e-18
	-3.000711050070954e-15
	3.790799127588658e-05
	7.732657659455193e-04
	5.633346443529788e-05
	7.499952438804800e-01

 77	7.700000000000005e-01
	-1.287347744956188e-15
	3.929118242514935e-18
	-3.057121750970267e-15
	4.229004040934057e-05
	8.514686514595591e-04
	6.445262101831416e-05
	7.499957183677421e-01

 78	7.800000000000005e-01
	-1.276908822998215e-15
	3.736716470809985e-18
	-3.110573429228399e-15
	4.688531728826205e-05
	9.317431878276705e-04
	7.336428585583949e-05
	7.499962391696270e-01

 79	7.900000000000005e-01
	-1.267000050932911e-15
	3.544917416954329e-18
	-3.161140061079431e-15
	5.166808072774026e-05
	1.013313338362753e-03
	8.308526309485220e-05
	7.499968072680006e-01

 80	8.000000000000005e-01
	-1.257602088833269e-15
	3.354650222585763e-18
	-3.208909839154345e-15
	5.661082035843566e-05
	1.095387623295164e-03
	9.362449151161332e-05
	7.499974231850137e-01

 81	8.100000000000005e-01
	-1.248694053271985e-15
	3.166720158793282e-18
	-3.253982164857309e-15
	6.168527211547390e-05
	1.177195100868050e-03
	1.049830737153830e-04
	7.499980869848089e-01

 82	8.200000000000005e-01
	-1.240253972609132e-15
	2.981812638619474e-18
	-3.296464901060672e-15
	6.686336629458716e-05
	1.258017466353412e-03
	1.171546481114091e-04
	7.499987982952637e-01

 83	8.300000000000005e-01
	-1.232259190777272e-15
	2.800499027406975e-18
	-3.336471907773398e-15
	7.211804707545961e-05
	1.337214606847538e-03
	1.301260504991052e-04
	7.499995563466624e-01

 84	8.400000000000005e-01
	-1.224686718995142e-15
	2.623243770493668e-18
	-3.374120869567074e-15
	7.742392555077748e-05
	1.414242106416518e-03
	1.438781912528210e-04
	7.500003600229688e-01

 85	8.500000000000005e-01
	-1.217513536609334e-15
	2.450412412090074e-18
	-3.409531412467174e-15
	8.275775161745734e-05
	1.488660391207383e-03
	1.583870650841138e-04
	7.500012079208458e-01

 86	8.600000000000005e-01
	-1.210716843578768e-15
	2.282280138691355e-18
	-3.442823499581017e-15
	8.809870985199280e-05
	1.560136210664741e-03
	1.736248125903682e-04
	7.500020984117042e-01

 87	8.700000000000006e-01
	-1.204274268030452e-15
	2.119040540813997e-18
	-3.474116088674567e-15
	9.342855866701811e-05
	1.628437835908806e-03
	1.895607635106689e-04
	7.500030297026824e-01

 88	8.800000000000006e-01
	-1.198164032887023e-15
	1.960814345049750e-18
	-3.503526030902217e-15
	9.873164021086750e-05
	1.693425687847743e-03
	2.061624073803889e-04
	7.500039998933765e-01

 89	8.900000000000006e-01
	-1.192365085858704e-15
	1.807657922239764e-18
	-3.531167187589892e-15
	1.039947913686260e-04
	1.755040132281438e-03
	2.233962547501618e-04
	7.500050070261808e-01

 90	9.000000000000006e-01
	-1.186857197164701e-15
	1.659571425665713e-18
	-3.557149741028897e-15
	1.092071851934170e-04
	1.813287986018593e-03
	2.412285686727464e-04
	7.500060491290393e-01

 91	9.100000000000006e-01
	-1.181621029255787e-15
	1.516506454921964e-18
	-3.581579675340177e-15
	1.143601286020724e-04
	1.868228964437846e-03
	2.596259600800403e-04
	7.500071242502461e-01

 92	9.200000000000006e-01
	-1.176638182598497e-15
	1.378373176437414e-18
	-3.604558404334989e-15
	1.194468374833800e-04
	1.919962950305248e-03
	2.785558512074927e-04
	7.500082304855291e-01

 93	9.300000000000006e-01
	-1.171891221291588e-15
	1.245046860719592e-18
	-3.626182524692043e-15
	1.244622054362524e-04
	1.968618634625141e-03
	2.979868183223748e-04
	7.500093659980802e-01

 94	9.400000000000006e-01
	-1.167363681949090e-15
	1.116373819766260e-18
	-3.646543674497815e-15
	1.294025777839650e-04
	2.014343805947890e-03
	3.178888290790152e-04
	7.500105290324299e-01

 95	9.500000000000006e-01
	-1.163040068926603e-15
	9.921767463473697e-19
	-3.665728479103041e-15
	1.342655386159234e-04
	2.057297357231734e-03
	3.382333914823181e-04
	7.500117179231499e-01

 96	9.600000000000006e-01
	-1.158905838606833e-15
	8.722594706827536e-19
	-3.683818568216728e-15
	1.390497154986130e-04
	2.097642937338321e-03
	3.589936313613078e-04
	7.500129310993803e-01

 97	9.700000000000006e-01
	-1.154947375110468e-15
	7.564111600861659e-19
	-3.700890650103667e-15
	1.437546041491292e-04
	2.135544088024329e-03
	3.801443140466960e-04
	7.500141670860980e-01

 98	9.800000000000006e-01
	-1.151151959468299e-15
	6.444099940691844e-19
	-3.717016630612284e-15
	1.483804136840987e-04
	2.171160664355182e-03
	4.016618241063314e-04
	7.500154245029288e-01

 99	9.900000000000007e-01
	-1.147507733985691e-15
	5.360263517810967e-19
	-3.732263766497182e-15
	1.529279319223005e-04
	2.204646324356476e-03
	4.235241148887279e-04
	7.500167020611990e-01

 100	1.000000000000001e+00
	-1.144003663254315e-15
	4.310255510200001e-19
	-3.746694844091666e-15
	1.573984095080712e-04
	2.236146881682518e-03
	4.457106375099922e-04
	7.500179985597817e-01

 101	1.010000000000001e+00
	-1.140629493019399e-15
	3.291701788439706e-19
	-3.760368375819221e-15
	1.617934612245382e-04
	2.265799334686856e-03
	4.682022569492352e-04
	7.500193128801964e-01

