Title: ** sch_path: /home/andylithia/openmpw/project-yatsuhashi-chip1/xschem/gmid_test/nmos_test.sch
Date: Tue Jul 19 23:15:45  2022
Plotname: DC transfer characteristic
Flags: real
No. Variables: 8
No. Points: 181
Variables:
	0	v(v-sweep)	voltage
	1	@m.xm1.msky130_fd_pr__nfet_01v8[cgb]	capacitance
	2	@m.xm1.msky130_fd_pr__nfet_01v8[cgd]	capacitance
	3	@m.xm1.msky130_fd_pr__nfet_01v8[cgs]	capacitance
	4	@m.xm1.msky130_fd_pr__nfet_01v8[gds]	admittance
	5	@m.xm1.msky130_fd_pr__nfet_01v8[gm]	admittance
	6	i(@m.xm1.msky130_fd_pr__nfet_01v8[id])	current
	7	v(@m.xm1.msky130_fd_pr__nfet_01v8[vth])	voltage
Values:
 0	0.000000000000000e+00
	-1.924339549969453e-15
	2.574215339538799e-19
	-8.421619081960967e-16
	2.409035912480698e-09
	1.196407312890430e-07
	8.668288623379320e-09
	4.713199820801292e-01

 1	1.000000000000000e-02
	-1.907307257210522e-15
	2.636894670942435e-19
	-8.744124570327205e-16
	2.763883477408492e-09
	1.371942503278932e-07
	9.950483670872795e-09
	4.713199821844729e-01

 2	2.000000000000000e-02
	-1.890178224252391e-15
	2.699505400329957e-19
	-9.075485451009653e-16
	3.170479756207231e-09
	1.572895467899962e-07
	1.142064119542027e-08
	4.713199823041132e-01

 3	3.000000000000000e-02
	-1.872955024948929e-15
	2.761937273096202e-19
	-9.415692378058960e-16
	3.636253598791047e-09
	1.802874783897583e-07
	1.310594433512926e-08
	4.713199824412647e-01

 4	4.000000000000000e-02
	-1.855640861632598e-15
	2.824075627271106e-19
	-9.764717261438140e-16
	4.169673780612224e-09
	2.065986502336951e-07
	1.503742838315090e-08
	4.713199825984547e-01

 5	5.000000000000000e-02
	-1.838239570252908e-15
	2.885801665107935e-19
	-1.012251257361649e-15
	4.780388650110578e-09
	2.366899838157733e-07
	1.725051046238074e-08
	4.713199827785649e-01

 6	6.000000000000000e-02
	-1.820755622551273e-15
	2.946992762328331e-19
	-1.048901072662154e-15
	5.479383214974225e-09
	2.710921023800044e-07
	1.978558889732049e-08
	4.713199829848855e-01

 7	7.000000000000001e-02
	-1.803194125100656e-15
	3.007522814459806e-19
	-1.086412352751859e-15
	6.279155554561103e-09
	3.104076268215475e-07
	2.268872090939840e-08
	4.713199832211654e-01

 8	8.000000000000000e-02
	-1.785560815060462e-15
	3.067262619291938e-19
	-1.124774171997075e-15
	7.193914585105813e-09
	3.553204867322043e-07
	2.601238825485664e-08
	4.713199834916811e-01

 9	9.000000000000000e-02
	-1.767862052522124e-15
	3.126080294053485e-19
	-1.163973461911495e-15
	8.239801338325851e-09
	4.066063630127789e-07
	2.981636152818942e-08
	4.713199838012991e-01

 10	9.999999999999999e-02
	-1.750104809348532e-15
	3.183841725487876e-19
	-1.203994984646055e-15
	9.435136037818023e-09
	4.651443919649855e-07
	3.416867508421300e-08
	4.713199841555651e-01

 11	1.100000000000000e-01
	-1.732296654440685e-15
	3.240411050576835e-19
	-1.244821317088955e-15
	1.080069336511993e-08
	5.319302763091339e-07
	3.914672590675671e-08
	4.713199845607807e-01

 12	1.200000000000000e-01
	-1.714445735397233e-15
	3.295651165246435e-19
	-1.286432846110060e-15
	1.236000839101981e-08
	6.080909666096107e-07
	4.483851129422734e-08
	4.713199850241190e-01

 13	1.300000000000000e-01
	-1.696560756566831e-15
	3.349424257984189e-19
	-1.328807775401537e-15
	1.413971569868516e-08
	6.949010976969247e-07
	5.134402196982261e-08
	4.713199855537289e-01

 14	1.400000000000000e-01
	-1.678650953528696e-15
	3.401592364916074e-19
	-1.371922144274246e-15
	1.616992423273957e-08
	7.938013895379853e-07
	5.877680919080930e-08
	4.713199861588686e-01

 15	1.500000000000000e-01
	-1.660726064073399e-15
	3.452017942537328e-19
	-1.415749858669751e-15
	1.848463036010931e-08
	9.064192514457806e-07
	6.726574666875995e-08
	4.713199868500496e-01

 16	1.600000000000000e-01
	-1.642796295792821e-15
	3.500564453972196e-19
	-1.460262734540747e-15
	2.112217150985389e-08
	1.034591863485668e-06
	7.695701067122957e-08
	4.713199876391952e-01

 17	1.700000000000000e-01
	-1.624872290425195e-15
	3.547096964360823e-19
	-1.505430553639936e-15
	2.412572255393549e-08
	1.180392050505156e-06
	8.801630461566396e-08
	4.713199885398248e-01

 18	1.800000000000000e-01
	-1.606965085137498e-15
	3.591482740739830e-19
	-1.551221131640087e-15
	2.754383678066551e-08
	1.346157313560156e-06
	1.006313578601589e-07
	4.713199895672676e-01

 19	1.900000000000000e-01
	-1.589086070962687e-15
	3.633591851603956e-19
	-1.597600398388270e-15
	3.143103287733946e-08
	1.534522441851838e-06
	1.150147323269839e-07
	4.713199907388848e-01

 20	2.000000000000000e-01
	-1.571246948642727e-15
	3.673297761215617e-19
	-1.644532489975438e-15
	3.584842875667862e-08
	1.748456196792065e-06
	1.314069751591584e-07
	4.713199920743297e-01

 21	2.100000000000000e-01
	-1.553459682159760e-15
	3.710477913666906e-19
	-1.691979852181913e-15
	4.086442231059670e-08
	1.991302639473338e-06
	1.500801609149297e-07
	4.713199935958520e-01

 22	2.200000000000001e-01
	-1.535736450266158e-15
	3.745014301698318e-19
	-1.739903354740693e-15
	4.655541823147560e-08
	2.266827764234510e-06
	1.713418729645302e-07
	4.713199953286186e-01

 23	2.300000000000001e-01
	-1.518089596349601e-15
	3.776794015346136e-19
	-1.788262415745663e-15
	5.300659888315628e-08
	2.579272204136864e-06
	1.955396808860196e-07
	4.713199973010869e-01

 24	2.400000000000001e-01
	-1.500531576990846e-15
	3.805709765620206e-19
	-1.837015135422987e-15
	6.031273581070135e-08
	2.933410887935814e-06
	2.230661788752429e-07
	4.713199995454290e-01

 25	2.500000000000001e-01
	-1.483074909589418e-15
	3.831660378607682e-19
	-1.886118438382727e-15
	6.857903683250409e-08
	3.334620650020090e-06
	2.543646595841619e-07
	4.713200020980073e-01

 26	2.600000000000001e-01
	-1.465732119445516e-15
	3.854551255655491e-19
	-1.935528223375465e-15
	7.792202174865899e-08
	3.788956920238115e-06
	2.899355084421997e-07
	4.713200049999099e-01

 27	2.700000000000001e-01
	-1.448515686694928e-15
	3.874294795600445e-19
	-1.985199519497211e-15
	8.847041752152079e-08
	4.303240742319062e-06
	3.303434153988415e-07
	4.713200082975560e-01

 28	2.800000000000001e-01
	-1.431437993497323e-15
	3.890810775386047e-19
	-2.035086647716389e-15
	1.003660613441426e-07
	4.885157477119095e-06
	3.762255140659130e-07
	4.713200120433877e-01

 29	2.900000000000001e-01
	-1.414511271877007e-15
	3.904026685824647e-19
	-2.085143386540389e-15
	1.137647973291100e-07
	5.543368625456853e-06
	4.283005722221671e-07
	4.713200162966560e-01

 30	3.000000000000001e-01
	-1.397747552608929e-15
	3.913878019725356e-19
	-2.135323140597148e-15
	1.288373496597579e-07
	6.287638235309550e-06
	4.873793721875774e-07
	4.713200211242954e-01

 31	3.100000000000001e-01
	-1.381158615531706e-15
	3.920308510110281e-19
	-2.185579110879431e-15
	1.457701520027947e-07
	7.128975314729831e-06
	5.543764340744578e-07
	4.713200266019373e-01

 32	3.200000000000001e-01
	-1.364755941653596e-15
	3.923270316763780e-19
	-2.235864465387787e-15
	1.647661098635494e-07
	8.079793524539009e-06
	6.303232484959369e-07
	4.713200328150489e-01

 33	3.300000000000001e-01
	-1.348550667397161e-15
	3.922724159909006e-19
	-2.286132508911147e-15
	1.860452694743617e-07
	9.154089137784594e-06
	7.163831967441157e-07
	4.713200398602194e-01

 34	3.400000000000001e-01
	-1.332553541304150e-15
	3.918639400363033e-19
	-2.336336850702515e-15
	2.098453638718275e-07
	1.036763778579491e-05
	8.138683441446366e-07
	4.713200478466307e-01

 35	3.500000000000001e-01
	-1.316774883494059e-15
	3.910994066079300e-19
	-2.386431568840867e-15
	2.364222041952009e-07
	1.173820982042351e-05
	9.242582942365749e-07
	4.713200568976998e-01

 36	3.600000000000002e-01
	-1.301224548138750e-15
	3.899774825542392e-19
	-2.436371370117688e-15
	2.660498821068973e-07
	1.328580316598997e-05
	1.049221285168760e-06
	4.713200671529421e-01

 37	3.700000000000002e-01
	-1.285911889181570e-15
	3.884976909014753e-19
	-2.486111744347844e-15
	2.990207477999286e-07
	1.503289127422849e-05
	1.190637692391389e-06
	4.713200787700554e-01

 38	3.800000000000002e-01
	-1.270845729493431e-15
	3.866603979151302e-19
	-2.535609112077518e-15
	3.356451275343908e-07
	1.700468220300805e-05
	1.350626070159768e-06
	4.713200919272432e-01

 39	3.900000000000002e-01
	-1.256034333620782e-15
	3.844667952981194e-19
	-2.584820964745968e-15
	3.762507452612639e-07
	1.922938290344186e-05
	1.531571815158948e-06
	4.713201068257958e-01

 40	4.000000000000002e-01
	-1.241485384241828e-15
	3.819188777702404e-19
	-2.633705996451348e-15
	4.211818148658374e-07
	2.173846053390249e-05
	1.736158465310875e-06
	4.713201236929418e-01

 41	4.100000000000002e-01
	-1.227205962408552e-15
	3.790194163134814e-19
	-2.682224226572218e-15
	4.707977730936045e-07
	2.456689007044134e-05
	1.967401552445137e-06
	4.713201427849376e-01

 42	4.200000000000002e-01
	-1.213202531613500e-15
	3.757719274037763e-19
	-2.730337112603048e-15
	5.254716284663507e-07
	2.775337473965536e-05
	2.228684806572879e-06
	4.713201643904414e-01

 43	4.300000000000002e-01
	-1.199480925682413e-15
	3.721806385792265e-19
	-2.778007652674193e-15
	5.855879085559658e-07
	3.134052299887147e-05
	2.523798360704428e-06
	4.713201888340932e-01

 44	4.400000000000002e-01
	-1.186046340457396e-15
	3.682504507201837e-19
	-2.825200477340249e-15
	6.515401968759461e-07
	3.537496311809311e-05
	2.856978428810847e-06
	4.713202164803026e-01

 45	4.500000000000002e-01
	-1.172903329200652e-15
	3.639868974352436e-19
	-2.871881930335562e-15
	7.237282612959124e-07
	3.990737411820897e-05
	3.232947728120699e-06
	4.713202477371727e-01

 46	4.600000000000002e-01
	-1.160055801616445e-15
	3.593961019607104e-19
	-2.918020138109328e-15
	8.025547880853530e-07
	4.499241017451295e-05
	3.656955695558931e-06
	4.713202830604929e-01

 47	4.700000000000003e-01
	-1.147507026359185e-15
	3.544847319887184e-19
	-2.963585068063621e-15
	8.884217491252538e-07
	5.068849491792337e-05
	4.134817314879246e-06
	4.713203229577005e-01

 48	4.800000000000003e-01
	-1.135259636868787e-15
	3.492599528414084e-19
	-3.008548575524671e-15
	9.817264440365197e-07
	5.705746268079943e-05
	4.672949137224675e-06
	4.713203679916875e-01

 49	4.900000000000003e-01
	-1.123315640350813e-15
	3.437293794057884e-19
	-3.052884439578934e-15
	1.082857273386021e-06
	6.416402594040207e-05
	5.278400857925805e-06
	4.713204187843382e-01

 50	5.000000000000002e-01
	-1.111676429698649e-15
	3.379010272354799e-19
	-3.096568388000584e-15
	1.192189313066552e-06
	7.207505225296007e-05
	5.958880623516422e-06
	4.713204760195853e-01

 51	5.100000000000002e-01
	-1.100342798138235e-15
	3.317832632138965e-19
	-3.139578111583607e-15
	1.310079772654893e-06
	8.085863998838117e-05
	6.722772104363979e-06
	4.713205404458548e-01

 52	5.200000000000002e-01
	-1.089314956362522e-15
	3.253847561565369e-19
	-3.181893268270738e-15
	1.436863431258599e-06
	9.058299017516518e-05
	7.579141299927720e-06
	4.713206128776747e-01

 53	5.300000000000002e-01
	-1.078592551913029e-15
	3.187144277104712e-19
	-3.223495477540833e-15
	1.572848152315563e-06
	1.013150815795379e-04
	8.537731064606258e-06
	4.713206941962521e-01

 54	5.400000000000003e-01
	-1.068174690559466e-15
	3.117814038863726e-19
	-3.264368305576196e-15
	1.718310583348903e-06
	1.131191674098542e-04
	9.608941468931606e-06
	4.713207853488329e-01

 55	5.500000000000003e-01
	-1.058059959425140e-15
	3.045949675331652e-19
	-3.304497241782156e-15
	1.873492147287649e-06
	1.260551241942023e-04
	1.080379435538717e-05
	4.713208873466375e-01

 56	5.600000000000003e-01
	-1.048246451605771e-15
	2.971645120387141e-19
	-3.343869667271491e-15
	2.038595428324527e-06
	1.401766956792371e-04
	1.213388081565599e-05
	4.713210012612439e-01

 57	5.700000000000003e-01
	-1.038731792031968e-15
	2.894994965112212e-19
	-3.382474815957930e-15
	2.213781047328519e-06
	1.555296861526286e-04
	1.361129080373088e-05
	4.713211282192631e-01

 58	5.800000000000003e-01
	-1.029513164330909e-15
	2.816094026674694e-19
	-3.420303728924779e-15
	2.399165109757541e-06
	1.721501674329257e-04
	1.524852469473355e-05
	4.713212693952518e-01

 59	5.900000000000003e-01
	-1.020587338450330e-15
	2.735036936244118e-19
	-3.457349202747972e-15
	2.594817293297916e-06
	1.900627709392289e-04
	1.705838728050642e-05
	4.713214260028499e-01

 60	6.000000000000003e-01
	-1.011950698817361e-15
	2.651917747612832e-19
	-3.493605732458287e-15
	2.800759623811689e-06
	2.092791398926445e-04
	1.905386542888701e-05
	4.713215992841925e-01

 61	6.100000000000003e-01
	-1.003599272816113e-15
	2.566829567907631e-19
	-3.529069449824747e-15
	3.016965967519938e-06
	2.297966161578245e-04
	2.124799138523008e-05
	4.713217904977254e-01

 62	6.200000000000003e-01
	-9.955287593804334e-16
	2.479864211495616e-19
	-3.563738057632244e-15
	3.243362245749068e-06
	2.515972311417530e-04
	2.365369441826245e-05
	4.713220009046399e-01

 63	6.300000000000003e-01
	-9.877345575120368e-16
	2.391111877915638e-19
	-3.597610760611184e-15
	3.479827357127467e-06
	2.746470605174913e-04
	2.628364416186388e-05
	4.713222317541766e-01

 64	6.400000000000003e-01
	-9.802117945487991e-16
	2.300660854414395e-19
	-3.630688193656101e-15
	3.726194771917780e-06
	2.988959887059021e-04
	2.915008953578823e-05
	4.713224842681870e-01

 65	6.500000000000004e-01
	-9.729553540230691e-16
	2.208597243415444e-19
	-3.662972347945424e-15
	3.982254745171282e-06
	3.242779117756115e-04
	3.226469750329952e-05
	4.713227596253079e-01

 66	6.600000000000004e-01
	-9.659599029653759e-16
	2.115004715024280e-19
	-3.694466495545288e-15
	4.247757080366827e-06
	3.507113877783757e-04
	3.563839611289176e-05
	4.713230589451878e-01

 67	6.700000000000004e-01
	-9.592199185244537e-16
	2.019964284460311e-19
	-3.725175113048261e-15
	4.522414363689071e-06
	3.781007228232381e-04
	3.928122625739094e-05
	4.713233832732215e-01

 68	6.800000000000004e-01
	-9.527297137900255e-16
	1.923554114112913e-19
	-3.755103804763126e-15
	4.805905581387860e-06
	4.063374608212376e-04
	4.320220636317486e-05
	4.713237335662481e-01

 69	6.900000000000004e-01
	-9.464834627199803e-16
	1.825849339732515e-19
	-3.784259225935474e-15
	5.097880028761455e-06
	4.353022261973850e-04
	4.740921380552411e-05
	4.713241106795736e-01

 70	7.000000000000004e-01
	-9.404752240884838e-16
	1.726921920123432e-19
	-3.812649006440705e-15
	5.397961418998850e-06
	4.648668532137546e-04
	5.190888625701671e-05
	4.713245153557640e-01

 71	7.100000000000004e-01
	-9.346989643858365e-16
	1.626840509547887e-19
	-3.840281675352596e-15
	5.705752103001440e-06
	4.948967238630702e-04
	5.670654544957993e-05
	4.713249482154507e-01

 72	7.200000000000004e-01
	-9.291485796145941e-16
	1.525670351940544e-19
	-3.867166586751317e-15
	6.020837316829996e-06
	5.252532292186444e-04
	6.180614501046889e-05
	4.713254097504163e-01

 73	7.300000000000004e-01
	-9.238179159394123e-16
	1.423473195921634e-19
	-3.893313847095933e-15
	6.342789380979043e-06
	5.557962669231444e-04
	6.721024316590255e-05
	4.713259003190873e-01

 74	7.400000000000004e-01
	-9.187007891602698e-16
	1.320307229514745e-19
	-3.918734244447899e-15
	6.671171784633470e-06
	5.863866900385427e-04
	7.292000024173041e-05
	4.713264201444917e-01

 75	7.500000000000004e-01
	-9.137910029900455e-16
	1.216227033408567e-19
	-3.943439179794249e-15
	7.005543097814050e-06
	6.168886292888477e-04
	7.893520007364036e-05
	4.713269693146641e-01

 76	7.600000000000005e-01
	-9.090823661278050e-16
	1.111283551546716e-19
	-3.967440600683012e-15
	7.345460664345494e-06
	6.471716210549880e-04
	8.525429370922321e-05
	4.713275477853507e-01

 77	7.700000000000005e-01
	-9.045687081287855e-16
	1.005524077805141e-19
	-3.990750937347862e-15
	7.690484038446617e-06
	6.771124863886086e-04
	9.187446317114912e-05
	4.713281553848718e-01

 78	7.800000000000005e-01
	-9.002438940805620e-16
	8.989922574922955e-20
	-4.013383041466025e-15
	8.040178137124466e-06
	7.065969207722703e-04
	9.879170257555974e-05
	4.713287918208808e-01

 79	7.900000000000005e-01
	-8.961018381025972e-16
	7.917281024052633e-20
	-4.035350127661776e-15
	8.394116089220818e-06
	7.355207693465107e-04
	1.060009135727797e-04
	4.713294566887183e-01

 80	8.000000000000005e-01
	-8.921365156931375e-16
	6.837680181893292e-20
	-4.056665717838425e-15
	8.751881769772200e-06
	7.637909769170465e-04
	1.134960118990886e-04
	4.713301494810838e-01

 81	8.100000000000005e-01
	-8.883419749532728e-16
	5.751448427668712e-20
	-4.077343588394509e-15
	9.113072015243480e-06
	7.913262154664033e-04
	1.212700417905614e-04
	4.713308695986861e-01

 82	8.200000000000005e-01
	-8.847123467229887e-16
	4.658878946329116e-20
	-4.097397720354815e-15
	9.477298521166256e-06
	8.180572035298354e-04
	1.293152950977772e-04
	4.713316163615370e-01

 83	8.300000000000005e-01
	-8.812418536681975e-16
	3.560230298572832e-20
	-4.116842252424260e-15
	9.844189428787903e-06
	8.439267412674287e-04
	1.376234321336538e-04
	4.713323890205952e-01

 84	8.400000000000005e-01
	-8.779248183611925e-16
	2.455727066831205e-20
	-4.135691436952049e-15
	1.021339061156646e-05
	8.688894921842352e-04
	1.461856015630271e-04
	4.713331867694890e-01

 85	8.500000000000005e-01
	-8.747556703995597e-16
	1.345560566564171e-20
	-4.153959598775728e-15
	1.058456667579667e-05
	8.929115472087081e-04
	1.549925569781994e-04
	4.713340087560259e-01

 86	8.600000000000005e-01
	-8.717289526106759e-16
	2.298896128841818e-21
	-4.171661096898441e-15
	1.095740169238286e-05
	9.159698093730509e-04
	1.640347681763320e-04
	4.713348540933081e-01

 87	8.700000000000006e-01
	-8.688393263902469e-16
	-8.911586669404291e-21
	-4.188810288939243e-15
	1.133159967885976e-05
	9.380512378945035e-04
	1.733025255414019e-04
	4.713357218702562e-01

 88	8.800000000000006e-01
	-8.660815762242030e-16
	-2.017487983912996e-20
	-4.205421498284337e-15
	1.170688485225581e-05
	9.591519893501221e-04
	1.827860363170427e-04
	4.713366111614077e-01

 89	8.900000000000006e-01
	-8.634506134435894e-16
	-3.149032008856077e-20
	-4.221508983857384e-15
	1.208300167435942e-05
	9.792764912213263e-04
	1.924755119222550e-04
	4.713375210358810e-01

 90	9.000000000000006e-01
	-8.609414792619732e-16
	-4.285753472641603e-20
	-4.237086912418845e-15
	1.245971471143671e-05
	9.984364797137834e-04
	2.023612457982866e-04
	4.713384505654434e-01

 91	9.100000000000006e-01
	-8.585493471444622e-16
	-5.427643252059813e-20
	-4.252169333297843e-15
	1.283680833051509e-05
	1.016650029769144e-03
	2.124336815742256e-04
	4.713393988316575e-01

 92	9.200000000000006e-01
	-8.562695245564559e-16
	-6.574719447711055e-20
	-4.266770155455328e-15
	1.321408625404230e-05
	1.033940600877052e-03
	2.226834715963724e-04
	4.713403649320566e-01

 93	9.300000000000006e-01
	-8.540974541393471e-16
	-7.727026459649603e-20
	-4.280903126773223e-15
	1.359137099410090e-05
	1.050336117920728e-03
	2.331015260802609e-04
	4.713413479854324e-01

 94	9.400000000000006e-01
	-8.520287143588572e-16
	-8.884634066065518e-20
	-4.294581815462378e-15
	1.396850318646217e-05
	1.065868102049161e-03
	2.436790533149585e-04
	4.713423471362025e-01

 95	9.500000000000006e-01
	-8.500590196702826e-16
	-1.004763650965196e-19
	-4.307819593480433e-15
	1.434534084364355e-05
	1.080570862612714e-03
	2.544075914788062e-04
	4.713433615579503e-01

 96	9.600000000000006e-01
	-8.481842202431541e-16
	-1.121615159590201e-19
	-4.320629621850571e-15
	1.472175854484205e-05
	1.094480757629968e-03
	2.652790327177290e-04
	4.713443904561723e-01

 97	9.700000000000006e-01
	-8.464003012860827e-16
	-1.239031980699776e-19
	-4.333024837772434e-15
	1.509764657919866e-05
	1.107635527132249e-03
	2.762856401956941e-04
	4.713454330703278e-01

 98	9.800000000000006e-01
	-8.447033820105571e-16
	-1.357030343464486e-19
	-4.345017943417858e-15
	1.547291005735160e-05
	1.120073701084841e-03
	2.874200588566225e-04
	4.713464886752115e-01

 99	9.900000000000007e-01
	-8.430897142706501e-16
	-1.475628573464067e-19
	-4.356621396305633e-15
	1.584746800469135e-05
	1.131834081408072e-03
	2.986753206425231e-04
	4.713475565817933e-01

 100	1.000000000000001e+00
	-8.415556809134396e-16
	-1.594847010570732e-19
	-4.367847401152100e-15
	1.622125244818878e-05
	1.142955295896196e-03
	3.100448448989160e-04
	4.713486361375248e-01

 101	1.010000000000001e+00
	-8.400977938730704e-16
	-1.714707929469004e-19
	-4.378707903096906e-15
	1.659420750714175e-05
	1.153475420519524e-03
	3.215224346694747e-04
	4.713497267262307e-01
