Title: ** sch_path: /home/andylithia/openmpw/project-yatsuhashi-chip1/xschem/gmid_test/nmos_test.sch
Date: Sun Jul 17 22:51:45  2022
Plotname: DC transfer characteristic
Flags: real
No. Variables: 8
No. Points: 181
Variables:
	0	v(v-sweep)	voltage
	1	@m.xm1.msky130_fd_pr__nfet_01v8[cgb]	capacitance
	2	@m.xm1.msky130_fd_pr__nfet_01v8[cgd]	capacitance
	3	@m.xm1.msky130_fd_pr__nfet_01v8[cgs]	capacitance
	4	@m.xm1.msky130_fd_pr__nfet_01v8[gds]	admittance
	5	@m.xm1.msky130_fd_pr__nfet_01v8[gm]	admittance
	6	i(@m.xm1.msky130_fd_pr__nfet_01v8[id])	current
	7	v(@m.xm1.msky130_fd_pr__nfet_01v8[vth])	voltage
Values:
 0	0.000000000000000e+00
	-1.480119909338220e-14
	-8.172309467042300e-18
	-3.000046698747104e-14
	5.798859279782832e-08
	1.812735408576015e-06
	2.410473944953294e-07
	1.716750475446224e-01

 1	1.000000000000000e-02
	-1.464466566302915e-14
	-8.387064904131921e-18
	-3.037506987933916e-14
	6.227093906977858e-08
	1.954280918319736e-06
	2.598734203008896e-07
	1.716750498099275e-01

 2	2.000000000000000e-02
	-1.449034181497144e-14
	-8.607657110466148e-18
	-3.074875281632848e-14
	6.685263827947034e-08
	2.107126828976623e-06
	2.801706393319916e-07
	1.716750522522742e-01

 3	3.000000000000000e-02
	-1.433825360938391e-14
	-8.834253539463472e-18
	-3.112139853557288e-14
	7.175297428311884e-08
	2.272228233032728e-06
	3.020567609479685e-07
	1.716750548858364e-01

 4	4.000000000000000e-02
	-1.418842608013184e-14
	-9.067026876991083e-18
	-3.149289086226939e-14
	7.699232563597869e-08
	2.450627943242490e-06
	3.256594771429426e-07
	1.716750577259780e-01

 5	5.000000000000000e-02
	-1.404088319177923e-14
	-9.306155223394233e-18
	-3.186311483720342e-14
	8.259221584683525e-08
	2.643465080459274e-06
	3.511173820137145e-07
	1.716750607893860e-01

 6	6.000000000000000e-02
	-1.389564779920870e-14
	-9.551822282579871e-18
	-3.223195684156636e-14
	8.857536512471448e-08
	2.851984490811791e-06
	3.785809811947668e-07
	1.716750640941720e-01

 7	7.000000000000001e-02
	-1.375274160991663e-14
	-9.804217558455293e-18
	-3.259930471878740e-14
	9.496574362004311e-08
	3.077547061453353e-06
	4.082137998963705e-07
	1.716750676600246e-01

 8	8.000000000000000e-02
	-1.361218514903676e-14
	-1.006353655904169e-17
	-3.296504789312124e-14
	1.017886261616855e-07
	3.321641007734059e-06
	4.401935988926091e-07
	1.716750715083389e-01

 9	9.000000000000000e-02
	-1.347399772713856e-14
	-1.032998100858820e-17
	-3.332907748473780e-14
	1.090706484905004e-07
	3.585894208100196e-06
	4.747137085516108e-07
	1.716750756623928e-01

 10	9.999999999999999e-02
	-1.333819741083746e-14
	-1.060375906803840e-17
	-3.369128642107903e-14
	1.168398649896885e-07
	3.872087666247178e-06
	5.119844917799546e-07
	1.716750801475060e-01

 11	1.100000000000000e-01
	-1.320480099624669e-14
	-1.088508556420708e-17
	-3.405156954425425e-14
	1.251258079119032e-07
	4.182170182949419e-06
	5.522349475627861e-07
	1.716750849912481e-01

 12	1.200000000000000e-01
	-1.307382398529043e-14
	-1.117418222805084e-17
	-3.440982371426674e-14
	1.339595481032261e-07
	4.518274322478099e-06
	5.957144676184412e-07
	1.716750902236460e-01

 13	1.300000000000000e-01
	-1.294528056489079e-14
	-1.147127794242922e-17
	-3.476594790787336e-14
	1.433737572244280e-07
	4.882733760483102e-06
	6.426947595454965e-07
	1.716750958774089e-01

 14	1.400000000000000e-01
	-1.281918358903184e-14
	-1.177660899977208e-17
	-3.511984331289717e-14
	1.534027714705341e-07
	5.278102101544371e-06
	6.934719507158666e-07
	1.716751019881931e-01

 15	1.500000000000000e-01
	-1.269554456369566e-14
	-1.209041937009221e-17
	-3.547141341782904e-14
	1.640826567907728e-07
	5.707173255163869e-06
	7.483688880532877e-07
	1.716751085948649e-01

 16	1.600000000000000e-01
	-1.257437363465738e-14
	-1.241296097979747e-17
	-3.582056409656779e-14
	1.754512756121546e-07
	6.173003458621490e-06
	8.077376497225640e-07
	1.716751157398250e-01

 17	1.700000000000000e-01
	-1.245567957811688e-14
	-1.274449400178715e-17
	-3.616720368817064e-14
	1.875483550717355e-07
	6.678935033714985e-06
	8.719622856335433e-07
	1.716751234693099e-01

 18	1.800000000000000e-01
	-1.233946979413844e-14
	-1.308528715732871e-17
	-3.651124307149513e-14
	2.004155567644494e-07
	7.228621961759524e-06
	9.414618045206500e-07
	1.716751318337791e-01

 19	1.900000000000000e-01
	-1.222575030286062e-14
	-1.343561803024737e-17
	-3.685259573463820e-14
	2.140965480159793e-07
	7.826057357178497e-06
	1.016693426184096e-06
	1.716751408882908e-01

 20	2.000000000000000e-01
	-1.211452574343105e-14
	-1.379577339397795e-17
	-3.719117783909042e-14
	2.286370746928388e-07
	8.475602914360160e-06
	1.098156118254233e-06
	1.716751506929322e-01

 21	2.100000000000000e-01
	-1.200579937561467e-14
	-1.416604955206013e-17
	-3.752690827854293e-14
	2.440850355651462e-07
	9.182020394998596e-06
	1.186394437551344e-06
	1.716751613132814e-01

 22	2.200000000000001e-01
	-1.189957308401605e-14
	-1.454675269268104e-17
	-3.785970873230034e-14
	2.604905582412724e-07
	9.950505213661011e-06
	1.282002696738936e-06
	1.716751728209169e-01

 23	2.300000000000001e-01
	-1.179584738485007e-14
	-1.493819925790861e-17
	-3.818950371327222e-14
	2.779060766978790e-07
	1.078672216761268e-05
	1.385629477489023e-06
	1.716751852939534e-01

 24	2.400000000000001e-01
	-1.169462143518893e-14
	-1.534071632827784e-17
	-3.851622061052987e-14
	2.963864104335246e-07
	1.169684334275566e-05
	1.497982511768150e-06
	1.716751988176307e-01

 25	2.500000000000001e-01
	-1.159589304460871e-14
	-1.575464202343653e-17
	-3.883978972643302e-14
	3.159888452795631e-07
	1.268758821067847e-05
	1.619833953088822e-06
	1.716752134849552e-01

 26	2.600000000000001e-01
	-1.149965868915114e-14
	-1.618032591958157e-17
	-3.916014430834762e-14
	3.367732159081401e-07
	1.376626591204275e-05
	1.752026059623533e-06
	1.716752293973812e-01

 27	2.700000000000001e-01
	-1.140591352751383e-14
	-1.661812948446519e-17
	-3.947722057499043e-14
	3.588019900839251e-07
	1.494081969863177e-05
	1.895477310917549e-06
	1.716752466655480e-01

 28	2.800000000000001e-01
	-1.131465141937550e-14
	-1.706842653077473e-17
	-3.979095773745204e-14
	3.821403547140603e-07
	1.621987348014811e-05
	2.051188979530058e-06
	1.716752654100729e-01

 29	2.900000000000001e-01
	-1.122586494576032e-14
	-1.753160368874313e-17
	-4.010129801496407e-14
	4.068563037594641e-07
	1.761278039208829e-05
	2.220252178246649e-06
	1.716752857624059e-01

 30	3.000000000000001e-01
	-1.113954543134050e-14
	-1.800806089888126e-17
	-4.040818664549182e-14
	4.330207280806403e-07
	1.912967326757399e-05
	2.403855402503529e-06
	1.716753078657288e-01

 31	3.100000000000001e-01
	-1.105568296857467e-14
	-1.849821192577390e-17
	-4.071157189124303e-14
	4.607075073021839e-07
	2.078151685874524e-05
	2.603292586306532e-06
	1.716753318759401e-01

 32	3.200000000000001e-01
	-1.097426644357502e-14
	-1.900248489392077e-17
	-4.101140503920221e-14
	4.899936037930374e-07
	2.258016161214955e-05
	2.819971688179954e-06
	1.716753579626780e-01

 33	3.300000000000001e-01
	-1.089528356359613e-14
	-1.952132284666490e-17
	-4.130764039680514e-14
	5.209591588738739e-07
	2.453839875742401e-05
	3.055423821498129e-06
	1.716753863104340e-01

 34	3.400000000000001e-01
	-1.081872088603452e-14
	-2.005518432929314e-17
	-4.160023528288477e-14
	5.536875913795223e-07
	2.667001641951941e-05
	3.311312940901525e-06
	1.716754171197112e-01

 35	3.500000000000001e-01
	-1.074456384882845e-14
	-2.060454399745394e-17
	-4.188915001402583e-14
	5.882656987230336e-07
	2.898985641181640e-05
	3.589446093335347e-06
	1.716754506082702e-01

 36	3.600000000000002e-01
	-1.067279680214553e-14
	-2.116989325209493e-17
	-4.217434788647846e-14
	6.247837606295930e-07
	3.151387131094761e-05
	3.891784238539694e-06
	1.716754870124226e-01

 37	3.700000000000002e-01
	-1.060340304124581e-14
	-2.175174090218316e-17
	-4.245579515378636e-14
	6.633356457327779e-07
	3.425918135419959e-05
	4.220453639525215e-06
	1.716755265884206e-01

 38	3.800000000000002e-01
	-1.053636484040786e-14
	-2.235061385653977e-17
	-4.273346100029561e-14
	7.040189212541822e-07
	3.724413063745089e-05
	4.577757818661759e-06
	1.716755696138827e-01

 39	3.900000000000002e-01
	-1.047166348780586e-14
	-2.296705784618011e-17
	-4.300731751071504e-14
	7.469349660191955e-07
	4.048834202615390e-05
	4.966190069453652e-06
	1.716756163893235e-01

 40	4.000000000000002e-01
	-1.040927932122642e-14
	-2.360163817863750e-17
	-4.327733963590661e-14
	7.921890870991335e-07
	4.401277012458017e-05
	5.388446507861877e-06
	1.716756672397095e-01

 41	4.100000000000002e-01
	-1.034919176451516e-14
	-2.425494052580412e-17
	-4.354350515508823e-14
	8.398906404119118e-07
	4.783975158012785e-05
	5.847439640135116e-06
	1.716757225161057e-01

 42	4.200000000000002e-01
	-1.029137936464461e-14
	-2.492757174692581e-17
	-4.380579463463629e-14
	8.901531556622296e-07
	5.199305193091207e-05
	6.346312416531266e-06
	1.716757825973703e-01

 43	4.300000000000002e-01
	-1.023581982929669e-14
	-2.562016074844923e-17
	-4.406419138367872e-14
	9.430944660576972e-07
	5.649790813715898e-05
	6.888452732045134e-06
	1.716758478919012e-01

 44	4.400000000000002e-01
	-1.018249006485566e-14
	-2.633335938252858e-17
	-4.431868140667137e-14
	9.988368433009553e-07
	6.138106587136191e-05
	7.477508326325917e-06
	1.716759188394415e-01

 45	4.500000000000002e-01
	-1.013136621470883e-14
	-2.706784338608071e-17
	-4.456925335315410e-14
	1.057507138430525e-06
	6.667081058010945e-05
	8.117402025395617e-06
	1.716759959129057e-01

 46	4.600000000000002e-01
	-1.008242369775683e-14
	-2.782431336237515e-17
	-4.481589846488085e-14
	1.119236929165937e-06
	7.239699127352435e-05
	8.812347257610282e-06
	1.716760796202627e-01

 47	4.700000000000003e-01
	-1.003563724703630e-14
	-2.860349580726490e-17
	-4.505861052052215e-14
	1.184162674507217e-06
	7.859103594805068e-05
	9.566863765600325e-06
	1.716761705064190e-01

 48	4.800000000000003e-01
	-9.990980948362462e-15
	-2.940614418225020e-17
	-4.529738577813451e-14
	1.252425877446127e-06
	8.528595750672719e-05
	1.038579342475827e-05
	1.716762691551390e-01

 49	4.900000000000003e-01
	-9.948428278901309e-15
	-3.023304003671141e-17
	-4.553222291559335e-14
	1.324173256768548e-06
	9.251634901005409e-05
	1.127431606731294e-05
	1.716763761909427e-01

 50	5.000000000000002e-01
	-9.907952145585948e-15
	-3.108499418173913e-17
	-4.576312296918118e-14
	1.399556929065294e-06
	1.003183670720938e-04
	1.223796519924629e-05
	1.716764922809993e-01

 51	5.100000000000002e-01
	-9.869524923294078e-15
	-3.196284791814640e-17
	-4.599008927052289e-14
	1.478734602224733e-06
	1.087297022127019e-04
	1.328264348541896e-05
	1.716766181370026e-01

 52	5.200000000000002e-01
	-9.833118492707875e-15
	-3.286747432136444e-17
	-4.621312738205676e-14
	1.561869781856646e-06
	1.177895349898292e-04
	1.441463786642505e-05
	1.716767545169775e-01

 53	5.300000000000002e-01
	-9.798704277782076e-15
	-3.379977958607591e-17
	-4.643224503122371e-14
	1.649131992294368e-06
	1.275384767677459e-04
	1.564063415907196e-05
	1.716769022270443e-01

 54	5.400000000000003e-01
	-9.766253282748888e-15
	-3.476070443358509e-17
	-4.664745204355778e-14
	1.740697014044650e-06
	1.380184940298660e-04
	1.696773098118652e-05
	1.716770621230994e-01

 55	5.500000000000003e-01
	-9.735736128593039e-15
	-3.575122558509390e-17
	-4.685876027485271e-14
	1.836747139803269e-06
	1.492728152203892e-04
	1.840345283089325e-05
	1.716772351123704e-01

 56	5.600000000000003e-01
	-9.707123088934813e-15
	-3.677235730420333e-17
	-4.706618354257563e-14
	1.937471451431948e-06
	1.613458191988540e-04
	1.995576214083033e-05
	1.716774221548808e-01

 57	5.700000000000003e-01
	-9.680384125261592e-15
	-3.782515301215404e-17
	-4.726973755669554e-14
	2.043066120601970e-06
	1.742829045173478e-04
	2.163307011922763e-05
	1.716776242647474e-01

 58	5.800000000000003e-01
	-9.655488921453812e-15
	-3.891070697950048e-17
	-4.746943985008603e-14
	2.153734736153629e-06
	1.881303388824194e-04
	2.344424618261515e-05
	1.716778425112917e-01

 59	5.900000000000003e-01
	-9.632406917555163e-15
	-4.003015609809534e-17
	-4.766530970865672e-14
	2.269688661601934e-06
	2.029350883432514e-04
	2.539862577943381e-05
	1.716780780200043e-01

 60	6.000000000000003e-01
	-9.611107342739685e-15
	-4.118468173750021e-17
	-4.785736810136383e-14
	2.391147426641767e-06
	2.187446259545316e-04
	2.750601640027847e-05
	1.716783319732340e-01

 61	6.100000000000003e-01
	-9.591559247433837e-15
	-4.237551169012177e-17
	-4.804563761024040e-14
	2.518339156971049e-06
	2.356067198958709e-04
	2.977670156914158e-05
	1.716786056106735e-01

 62	6.200000000000003e-01
	-9.573731534554781e-15
	-4.360392220962538e-17
	-4.823014236058333e-14
	2.651501047264922e-06
	2.535692012886348e-04
	3.222144261115914e-05
	1.716789002295635e-01

 63	6.300000000000003e-01
	-9.557592989829504e-15
	-4.487124014741711e-17
	-4.841090795142632e-14
	2.790879882698860e-06
	2.726797122334674e-04
	3.485147799619093e-05
	1.716792171845907e-01

 64	6.400000000000003e-01
	-9.543112311164289e-15
	-4.617884519223229e-17
	-4.858796138642117e-14
	2.936732615039556e-06
	2.929854348950272e-04
	3.767852006433902e-05
	1.716795578874961e-01

 65	6.500000000000004e-01
	-9.530258137036268e-15
	-4.752817221814675e-17
	-4.876133100524339e-14
	3.089327000003991e-06
	3.145328027809934e-04
	4.071474894941465e-05
	1.716799238063264e-01

 66	6.600000000000004e-01
	-9.518999073883113e-15
	-4.892071374661297e-17
	-4.893104641563159e-14
	3.248942303333368e-06
	3.373671956958474e-04
	4.397280352953705e-05
	1.716803164643327e-01

 67	6.700000000000004e-01
	-9.509303722470284e-15
	-5.035802252841346e-17
	-4.909713842616214e-14
	3.415870083846537e-06
	3.615326201912958e-04
	4.746576925061502e-05
	1.716807374384996e-01

 68	6.800000000000004e-01
	-9.501140703217805e-15
	-5.184171425174521e-17
	-4.925963897985519e-14
	3.590415062632847e-06
	3.870713776785749e-04
	5.120716268845944e-05
	1.716811883576749e-01

 69	6.900000000000004e-01
	-9.494478680471941e-15
	-5.337347038298975e-17
	-4.941858108870095e-14
	3.772896088524424e-06
	4.140237227067383e-04
	5.521091273869091e-05
	1.716816709002938e-01

 70	7.000000000000004e-01
	-9.489286385710569e-15
	-5.495504114705187e-17
	-4.957399876918771e-14
	3.963647211061639e-06
	4.424275142383248e-04
	5.949133835036601e-05
	1.716821867916988e-01

 71	7.100000000000004e-01
	-9.485532639672902e-15
	-5.658824865455412e-17
	-4.972592697890724e-14
	4.163018873342052e-06
	4.723178630619291e-04
	6.406312274918630e-05
	1.716827378010242e-01

 72	7.200000000000004e-01
	-9.483186373407444e-15
	-5.827499018351874e-17
	-4.987440155430766e-14
	4.371379238435093e-06
	5.037267787624417e-04
	6.894128412905723e-05
	1.716833257376726e-01

 73	7.300000000000004e-01
	-9.482216648234003e-15
	-6.001724162363568e-17
	-5.001945914965520e-14
	4.589115664463756e-06
	5.366828199159310e-04
	7.414114282629451e-05
	1.716839524473504e-01

 74	7.400000000000004e-01
	-9.482592674618733e-15
	-6.181706109157935e-17
	-5.016113717726278e-14
	4.816636345018435e-06
	5.712107513797535e-04
	7.967828502857314e-05
	1.716846198077190e-01

 75	7.500000000000004e-01
	-9.484283829961953e-15
	-6.367659272636739e-17
	-5.029947374903599e-14
	5.054372133294034e-06
	6.073312127018052e-04
	8.556852311029546e-05
	1.716853297236045e-01

 76	7.600000000000005e-01
	-9.487259675301993e-15
	-6.559807067416831e-17
	-5.043450761938091e-14
	5.302778570251403e-06
	6.450604017689695e-04
	9.182785272687189e-05
	1.716860841218485e-01

 77	7.700000000000005e-01
	-9.491489970938808e-15
	-6.758382327251041e-17
	-5.056627812951461e-14
	5.562338139224187e-06
	6.844097778477039e-04
	9.847240684187197e-05
	1.716868849457742e-01

 78	7.800000000000005e-01
	-9.496944690983492e-15
	-6.963627744435995e-17
	-5.069482515321119e-14
	5.833562771752825e-06
	7.253857881343300e-04
	1.055184069024604e-04
	1.716877341493221e-01

 79	7.900000000000005e-01
	-9.503594036841326e-15
	-7.175796331309698e-17
	-5.082018904401357e-14
	6.116996632062412e-06
	7.679896218249514e-04
	1.129821114192379e-04
	1.716886336908716e-01

 80	8.000000000000005e-01
	-9.511408449636366e-15
	-7.395151905001622e-17
	-5.094241058393531e-14
	6.413219210554236e-06
	8.122169955329978e-04
	1.208797622458833e-04
	1.716895855267669e-01

 81	8.100000000000005e-01
	-9.520358621588635e-15
	-7.621969596656758e-17
	-5.106153093367131e-14
	6.722848759997401e-06
	8.580579736251672e-04
	1.292275288910156e-04
	1.716905916046416e-01

 82	8.200000000000005e-01
	-9.530415506354069e-15
	-7.856536386424077e-17
	-5.117759158433328e-14
	7.046546111847594e-06
	9.054968267156035e-04
	1.380414512288192e-04
	1.716916538565222e-01

 83	8.300000000000005e-01
	-9.541550328338955e-15
	-8.099151665564861e-17
	-5.129063431072138e-14
	7.385018914345242e-06
	9.545119311557848e-04
	1.473373810053401e-04
	1.716927741917903e-01

 84	8.400000000000005e-01
	-9.553734591002383e-15
	-8.350127827108860e-17
	-5.140070112613838e-14
	7.739026338836211e-06
	1.005075711889316e-03
	1.571309225634162e-04
	1.716939544900488e-01

 85	8.500000000000005e-01
	-9.566940084159328e-15
	-8.609790886560875e-17
	-5.150783423875000e-14
	8.109384306199592e-06
	1.057154630512612e-03
	1.674373732301964e-04
	1.716951965939612e-01

 86	8.600000000000005e-01
	-9.581138890297814e-15
	-8.878481134238788e-17
	-5.161207600949202e-14
	8.496971291464385e-06
	1.110709219803256e-03
	1.782716638266938e-04
	1.716965023020795e-01

 87	8.700000000000006e-01
	-9.596303389925124e-15
	-9.156553820907792e-17
	-5.171346891151942e-14
	8.902734771765320e-06
	1.165694165356831e-03
	1.896482997682214e-04
	1.716978733617448e-01

 88	8.800000000000006e-01
	-9.612406265956659e-15
	-9.444379878455654e-17
	-5.181205549119274e-14
	9.327698390867324e-06
	1.222058434322048e-03
	2.015813032276169e-04
	1.716993114621323e-01

 89	8.900000000000006e-01
	-9.629420507162377e-15
	-9.742346677452149e-17
	-5.190787833059051e-14
	9.772969922735165e-06
	1.279745450554915e-03
	2.140841568296027e-04
	1.717008182274490e-01

 90	9.000000000000006e-01
	-9.647319410684930e-15
	-1.005085882352012e-16
	-5.200098001153740e-14
	1.023975012722041e-05
	1.338693314838351e-03
	2.271697493342975e-04
	1.717023952103934e-01

 91	9.100000000000006e-01
	-9.666076583644223e-15
	-1.037033899454913e-16
	-5.209140308113231e-14
	1.072934260309487e-05
	1.398835068147620e-03
	2.408503237508884e-04
	1.717040438858849e-01

 92	9.200000000000006e-01
	-9.685665943842385e-15
	-1.070122882087902e-16
	-5.217919001876003e-14
	1.124316475761612e-05
	1.460098995296954e-03
	2.551374282988406e-04
	1.717057656451551e-01

 93	9.300000000000006e-01
	-9.706061719582850e-15
	-1.104398981069030e-16
	-5.226438320456762e-14
	1.178276002785060e-05
	1.522408965692241e-03
	2.700418706041966e-04
	1.717075617901986e-01

 94	9.400000000000006e-01
	-9.727238448617578e-15
	-1.139910432294017e-16
	-5.234702488938398e-14
	1.234981150741591e-05
	1.585684807349541e-03
	2.855736754826771e-04
	1.717094335286890e-01

 95	9.500000000000006e-01
	-9.749170976234758e-15
	-1.176707659030234e-16
	-5.242715716606006e-14
	1.294615715351377e-05
	1.649842709831540e-03
	3.017420466202326e-04
	1.717113819693361e-01

 96	9.600000000000006e-01
	-9.771834452499851e-15
	-1.214843379467642e-16
	-5.250482194220500e-14
	1.357380677352373e-05
	1.714795651311840e-03
	3.185553324157738e-04
	1.717134081177646e-01

 97	9.700000000000006e-01
	-9.795204328661262e-15
	-1.254372719796051e-16
	-5.258006091429230e-14
	1.423496101850623e-05
	1.780453844608653e-03
	3.360209962009127e-04
	1.717155128729013e-01

 98	9.800000000000006e-01
	-9.819256352732159e-15
	-1.295353333089235e-16
	-5.265291554310805e-14
	1.493203264327566e-05
	1.846725196739876e-03
	3.541455909983513e-04
	1.717176970239345e-01

 99	9.900000000000007e-01
	-9.843966564258370e-15
	-1.337845524289725e-16
	-5.272342703051222e-14
	1.566767032988367e-05
	1.913515776344316e-03
	3.729347389248876e-04
	1.717199612478146e-01

 100	1.000000000000001e+00
	-9.869311288281358e-15
	-1.381912381600318e-16
	-5.279163629748368e-14
	1.644478541412556e-05
	1.980730283189808e-03
	3.923931152877195e-04
	1.717223061073350e-01

 101	1.010000000000001e+00
	-9.895267128505177e-15
	-1.427619914601230e-16
	-5.285758396341664e-14
