Title: ** sch_path: /home/andylithia/openmpw/project-yatsuhashi-chip1/xschem/gmid_test/nmos_test.sch
Date: Tue Jul 19 23:15:45  2022
Plotname: DC transfer characteristic
Flags: real
No. Variables: 8
No. Points: 181
Variables:
	0	v(v-sweep)	voltage
	1	@m.xm1.msky130_fd_pr__nfet_01v8[cgb]	capacitance
	2	@m.xm1.msky130_fd_pr__nfet_01v8[cgd]	capacitance
	3	@m.xm1.msky130_fd_pr__nfet_01v8[cgs]	capacitance
	4	@m.xm1.msky130_fd_pr__nfet_01v8[gds]	admittance
	5	@m.xm1.msky130_fd_pr__nfet_01v8[gm]	admittance
	6	i(@m.xm1.msky130_fd_pr__nfet_01v8[id])	current
	7	v(@m.xm1.msky130_fd_pr__nfet_01v8[vth])	voltage
Values:
 0	0.000000000000000e+00
	-1.169595954129015e-14
	-8.527337666074892e-19
	-2.236170998565495e-14
	5.399732354453892e-08
	2.053604171342618e-06
	2.668716918992021e-07
	1.915950735781084e-01

 1	1.000000000000000e-02
	-1.157037568939314e-14
	-8.724722700468363e-19
	-2.265914220426445e-14
	5.813748656638636e-08
	2.216177246368250e-06
	2.882102216231478e-07
	1.915950751570606e-01

 2	2.000000000000000e-02
	-1.144645404732140e-14
	-8.926305023270279e-19
	-2.295608463451073e-14
	6.257863044213262e-08
	2.391688741102454e-06
	3.112383178714105e-07
	1.915950768624941e-01

 3	3.000000000000000e-02
	-1.132421848418397e-14
	-9.132162456865098e-19
	-2.325243772722052e-14
	6.734093699347294e-08
	2.581207849664637e-06
	3.360906344816741e-07
	1.915950787047130e-01

 4	4.000000000000000e-02
	-1.120369208365216e-14
	-9.342374062073043e-19
	-2.354810260331087e-14
	7.244577716315662e-08
	2.785899169602210e-06
	3.629129868259670e-07
	1.915950806949010e-01

 5	5.000000000000000e-02
	-1.108489710241681e-14
	-9.557020159708369e-19
	-2.384298117125166e-14
	7.791576648411823e-08
	3.007031954234446e-06
	3.918633513631368e-07
	1.915950828452208e-01

 6	6.000000000000000e-02
	-1.096785493081254e-14
	-9.776182352783123e-19
	-2.413697624263163e-14
	8.377482195958791e-08
	3.245990281019988e-06
	4.231129622272412e-07
	1.915950851688902e-01

 7	7.000000000000001e-02
	-1.085258605568188e-14
	-9.999943549372225e-19
	-2.442999164555208e-14
	9.004822030137094e-08
	3.504284216929399e-06
	4.568475144125079e-07
	1.915950876802948e-01

 8	8.000000000000000e-02
	-1.073911002554603e-14
	-1.022838798616023e-18
	-2.472193233558240e-14
	9.676265746597886e-08
	3.783562066517227e-06
	4.932684839491788e-07
	1.915950903950928e-01

 9	9.000000000000000e-02
	-1.062744541814055e-14
	-1.046160125269855e-18
	-2.501270450401947e-14
	1.039463094204136e-07
	4.085623792934954e-06
	5.325945763440542e-07
	1.915950933303447e-01

 10	9.999999999999999e-02
	-1.051760981036795e-14
	-1.069967031638258e-18
	-2.530221568320403e-14
	1.116288940614275e-07
	4.412435706418861e-06
	5.750633154838286e-07
	1.915950965046478e-01

 11	1.100000000000000e-01
	-1.040961975070963e-14
	-1.094268354817670e-18
	-2.559037484865840e-14
	1.198417342037340e-07
	4.766146518710453e-06
	6.209327861642811e-07
	1.915950999382898e-01

 12	1.200000000000000e-01
	-1.030349073413360e-14
	-1.119073074911045e-18
	-2.587709251782102e-14
	1.286178215441760e-07
	5.149104865303182e-06
	6.704835444106676e-07
	1.915951036534109e-01

 13	1.300000000000000e-01
	-1.019923717952447e-14
	-1.144390317756316e-18
	-2.616228084516810e-14
	1.379918815000182e-07
	5.563878400212055e-06
	7.240207107878293e-07
	1.915951076741943e-01

 14	1.400000000000000e-01
	-1.009687240965550e-14
	-1.170229357736201e-18
	-2.644585371352403e-14
	1.480004388104935e-07
	6.013274569979997e-06
	7.818762629562522e-07
	1.915951120270650e-01

 15	1.500000000000000e-01
	-9.996408633713736e-15
	-1.196599620671515e-18
	-2.672772682137873e-14
	1.586818837814182e-07
	6.500363174687535e-06
	8.444115448032818e-07
	1.915951167409201e-01

 16	1.600000000000000e-01
	-9.897856932381073e-15
	-1.223510686800456e-18
	-2.700781776604382e-14
	1.700765390430163e-07
	7.028500823629693e-06
	9.120200105566699e-07
	1.915951218473701e-01

 17	1.700000000000000e-01
	-9.801227245466497e-15
	-1.250972293845828e-18
	-2.728604612249507e-14
	1.822267266811223e-07
	7.601357391852071e-06
	9.851302233576960e-07
	1.915951273810190e-01

 18	1.800000000000000e-01
	-9.706528362076437e-15
	-1.278994340173021e-18
	-2.756233351776521e-14
	1.951768355916304e-07
	8.222944580669652e-06
	1.064209128818886e-06
	1.915951333797560e-01

 19	1.900000000000000e-01
	-9.613767913302823e-15
	-1.307586888040727e-18
	-2.783660370076607e-14
	2.089733888972917e-07
	8.897646680374428e-06
	1.149765625098910e-06
	1.915951398851011e-01

 20	2.000000000000000e-01
	-9.522952367400353e-15
	-1.336760166947145e-18
	-2.810878260743733e-14
	2.236651112548875e-07
	9.630253626314181e-06
	1.242354451975948e-06
	1.915951469425546e-01

 21	2.100000000000000e-01
	-9.434087027417681e-15
	-1.366524577073826e-18
	-2.837879842113391e-14
	2.393029958691520e-07
	1.042599643010195e-05
	1.342580422266382e-06
	1.915951546020112e-01

 22	2.200000000000001e-01
	-9.347176031240012e-15
	-1.396890692829925e-18
	-2.864658162818163e-14
	2.559403710177985e-07
	1.129058505561649e-05
	1.451103019694997e-06
	1.915951629181910e-01

 23	2.300000000000001e-01
	-9.262222353993525e-15
	-1.427869266499395e-18
	-2.891206506854814e-14
	2.736329658793683e-07
	1.223024879435756e-05
	1.568641387945217e-06
	1.915951719511287e-01

 24	2.400000000000001e-01
	-9.179227812755999e-15
	-1.459471231993355e-18
	-2.917518398159098e-14
	2.924389754425239e-07
	1.325177917632908e-05
	1.695979736073783e-06
	1.915951817667022e-01

 25	2.500000000000001e-01
	-9.098193073512065e-15
	-1.491707708710825e-18
	-2.943587604686202e-14
	3.124191242616554e-07
	1.436257543061570e-05
	1.833973185727663e-06
	1.915951924372168e-01

 26	2.600000000000001e-01
	-9.019117660284911e-15
	-1.524590005510209e-18
	-2.969408141996465e-14
	3.336367288094067e-07
	1.557069248389249e-05
	1.983554085615233e-06
	1.915952040420391e-01

 27	2.700000000000001e-01
	-8.941999966372107e-15
	-1.558129624793953e-18
	-2.994974276347352e-14
	3.561577581617997e-07
	1.688489145495785e-05
	2.145738818417215e-06
	1.915952166682889e-01

 28	2.800000000000001e-01
	-8.866837267607638e-15
	-1.592338266709947e-18
	-3.020280527294390e-14
	3.800508927360796e-07
	1.831469256873312e-05
	2.321635124732523e-06
	1.915952304116045e-01

 29	2.900000000000001e-01
	-8.793625737567746e-15
	-1.627227833471666e-18
	-3.045321669805207e-14
	4.053875807854565e-07
	1.987043037377558e-05
	2.512449967693841e-06
	1.915952453769647e-01

 30	3.000000000000001e-01
	-8.722360464634521e-15
	-1.662810433800517e-18
	-3.070092735892229e-14
	4.322420923379992e-07
	2.156331110298669e-05
	2.719497960507514e-06
	1.915952616795969e-01

 31	3.100000000000001e-01
	-8.653035470827241e-15
	-1.699098387493416e-18
	-3.094589015770999e-14
	4.606915702500547e-07
	2.340547196771712e-05
	2.944210377324168e-06
	1.915952794459412e-01

 32	3.200000000000001e-01
	-8.585643732308615e-15
	-1.736104230117521e-18
	-3.118806058552337e-14
	4.908160780265849e-07
	2.541004212075455e-05
	3.188144765474681e-06
	1.915952988147335e-01

 33	3.300000000000001e-01
	-8.520177201470119e-15
	-1.773840717837357e-18
	-3.142739672477944e-14
	5.226986440431478e-07
	2.759120496374700e-05
	3.452995174163941e-06
	1.915953199381325e-01

 34	3.400000000000001e-01
	-8.456626830498736e-15
	-1.812320832375098e-18
	-3.166385924709971e-14
	5.564253017857162e-07
	2.996426140949441e-05
	3.740603011142677e-06
	1.915953429829825e-01

 35	3.500000000000001e-01
	-8.394982596325450e-15
	-1.851557786108764e-18
	-3.189741140686445e-14
	5.920851257063181e-07
	3.254569363947703e-05
	4.052968534632967e-06
	1.915953681321498e-01

 36	3.600000000000002e-01
	-8.335233526854291e-15
	-1.891565027311375e-18
	-3.212801903055309e-14
	6.297702622742644e-07
	3.535322882225382e-05
	4.392262982810626e-06
	1.915953955859643e-01

 37	3.700000000000002e-01
	-8.277367728370569e-15
	-1.932356245534218e-18
	-3.235565050200693e-14
	6.695759557846580e-07
	3.840590217945217e-05
	4.760841337407137e-06
	1.915954255637714e-01

 38	3.800000000000002e-01
	-8.221372414025708e-15
	-1.973945377137612e-18
	-3.258027674376062e-14
	7.116005684685723e-07
	4.172411870359804e-05
	5.161255711444672e-06
	1.915954583056091e-01

 39	3.900000000000002e-01
	-8.167233933296564e-15
	-2.016346610973210e-18
	-3.280187119459527e-14
	7.559455944329809e-07
	4.532971274683522e-05
	5.596269343730670e-06
	1.915954940739701e-01

 40	4.000000000000002e-01
	-8.114937802317084e-15
	-2.059574394221169e-18
	-3.302040978347306e-14
	8.027156669429852e-07
	4.924600461262315e-05
	6.068871174485336e-06
	1.915955331557093e-01

 41	4.100000000000002e-01
	-8.064468734981525e-15
	-2.103643438385672e-18
	-3.323587090001865e-14
	8.520185585457320e-07
	5.349785319505956e-05
	6.582290967353010e-06
	1.915955758640608e-01

 42	4.200000000000002e-01
	-8.015810674718763e-15
	-2.148568725453614e-18
	-3.344823536171935e-14
	9.039651735237433e-07
	5.811170362393922e-05
	7.140014933051200e-06
	1.915956225407680e-01

 43	4.300000000000002e-01
	-7.968946826839437e-15
	-2.194365514219189e-18
	-3.365748637801789e-14
	9.586695321568989e-07
	6.311562878972609e-05
	7.745801799060564e-06
	1.915956735583390e-01

 44	4.400000000000002e-01
	-7.923859691358952e-15
	-2.241049346779222e-18
	-3.386360951147675e-14
	1.016248746266604e-06
	6.853936354317495e-05
	8.403699258089422e-06
	1.915957293224305e-01

 45	4.500000000000002e-01
	-7.880531096201713e-15
	-2.288636055203421e-18
	-3.406659263619510e-14
	1.076822985514527e-06
	7.441433029152302e-05
	9.118060715615369e-06
	1.915957902743233e-01

 46	4.600000000000002e-01
	-7.838942230694145e-15
	-2.337141768383483e-18
	-3.426642589366083e-14
	1.140515433930862e-06
	8.077365464928100e-05
	9.893562243685652e-06
	1.915958568935123e-01

 47	4.700000000000003e-01
	-7.799073679257125e-15
	-2.386582919065652e-18
	-3.446310164622104e-14
	1.207452236155763e-06
	8.765216974926070e-05
	1.073521963445721e-05
	1.915959297004155e-01

 48	4.800000000000003e-01
	-7.760905455210265e-15
	-2.436976251071452e-18
	-3.465661442835611e-14
	1.277762432892091e-06
	9.508640778126671e-05
	1.164840543280293e-05
	1.915960092591301e-01

 49	4.900000000000003e-01
	-7.724417034605256e-15
	-2.488338826710647e-18
	-3.484696089593913e-14
	1.351577885088623e-06
	1.031145773046072e-04
	1.263886581284916e-05
	1.915960961803076e-01

 50	5.000000000000002e-01
	-7.689587390006794e-15
	-2.540688034392555e-18
	-3.503413977366432e-14
	1.429033186402593e-06
	1.117765248792823e-04
	1.371273714874732e-05
	1.915961911240472e-01

 51	5.100000000000002e-01
	-7.656395024144604e-15
	-2.594041596438830e-18
	-3.521815180082477e-14
	1.510265563527542e-06
	1.211136795821144e-04
	1.487656211550446e-05
	1.915962948028583e-01

 52	5.200000000000002e-01
	-7.624818003362435e-15
	-2.648417577104523e-18
	-3.539899967561733e-14
	1.595414764020000e-06
	1.311689790212426e-04
	1.613730514157702e-05
	1.915964079845999e-01

 53	5.300000000000002e-01
	-7.594833990794779e-15
	-2.703834390811600e-18
	-3.557668799814981e-14
	1.684622931315439e-06
	1.419867755378531e-04
	1.750236702141131e-05
	1.915965314954446e-01

 54	5.400000000000003e-01
	-7.566420279204362e-15
	-2.760310810601311e-18
	-3.575122321232309e-14
	1.778034466692155e-06
	1.536127213904006e-04
	1.897959848351555e-05
	1.915966662227655e-01

 55	5.500000000000003e-01
	-7.539553823418500e-15
	-2.817865976809681e-18
	-3.592261354675503e-14
	1.875795878021270e-06
	1.660936318559352e-04
	2.057731249827266e-05
	1.915968131179440e-01

 56	5.600000000000003e-01
	-7.514211272305833e-15
	-2.876519405973039e-18
	-3.609086895490991e-14
	1.978055615232238e-06
	1.794773253572225e-04
	2.230429509989800e-05
	1.915969731990785e-01

 57	5.700000000000003e-01
	-7.490369000238404e-15
	-2.936290999969748e-18
	-3.625600105459233e-14
	2.084963892527395e-06
	1.938124399343564e-04
	2.416981448907463e-05
	1.915971475534964e-01

 58	5.800000000000003e-01
	-7.468003137988741e-15
	-2.997201055402771e-18
	-3.641802306695841e-14
	2.196672497494473e-06
	2.091482256258276e-04
	2.618362817719783e-05
	1.915973373400795e-01

 59	5.900000000000003e-01
	-7.447089603014795e-15
	-3.059270273231319e-18
	-3.657694975519304e-14
	2.313334587394882e-06
	2.255343126064406e-04
	2.835598793022876e-05
	1.915975437913096e-01

 60	6.000000000000003e-01
	-7.427604129089876e-15
	-3.122519768656933e-18
	-3.673279736299472e-14
	2.435104473045158e-06
	2.430204552466341e-04
	3.069764227021358e-05
	1.915977682150069e-01

 61	6.100000000000003e-01
	-7.409522295238219e-15
	-3.186971081271198e-18
	-3.688558355300483e-14
	2.562137390860463e-06
	2.616562526076734e-04
	3.321983629593835e-05
	1.915980119957040e-01

 62	6.200000000000003e-01
	-7.392819553940902e-15
	-3.252646185472440e-18
	-3.703532734531103e-14
	2.694589263790411e-06
	2.814908462664595e-04
	3.593430859125302e-05
	1.915982765955730e-01

 63	6.300000000000003e-01
	-7.377471258579931e-15
	-3.319567501157743e-18
	-3.718204905614906e-14
	2.832616452047463e-06
	3.025725967680512e-04
	3.885328500059121e-05
	1.915985635548920e-01

 64	6.400000000000003e-01
	-7.363452690092910e-15
	-3.387757904699346e-18
	-3.732577023691958e-14
	2.976375494705537e-06
	3.249487404278741e-04
	4.198946906636134e-05
	1.915988744919529e-01

 65	6.500000000000004e-01
	-7.350739082812934e-15
	-3.457240740211401e-18
	-3.746651361363179e-14
	3.126022843428493e-06
	3.486650286424064e-04
	4.535602894234690e-05
	1.915992111023846e-01

 66	6.600000000000004e-01
	-7.339305649472814e-15
	-3.528039831116493e-18
	-3.760430302687734e-14
	3.281714589772699e-06
	3.737653523090678e-04
	4.896658062112164e-05
	1.915995751578203e-01

 67	6.700000000000004e-01
	-7.329127605355537e-15
	-3.600179492019016e-18
	-3.773916337243277e-14
	3.443606187692297e-06
	4.002913543944919e-04
	5.283516734177110e-05
	1.915999685038764e-01

 68	6.800000000000004e-01
	-7.320180191575956e-15
	-3.673684540896013e-18
	-3.787112054258154e-14
	3.611852173056499e-06
	4.282820341156289e-04
	5.697623507682516e-05
	1.916003930573785e-01

 69	6.900000000000004e-01
	-7.312438697482330e-15
	-3.748580311610591e-18
	-3.800020136823998e-14
	3.786605882161921e-06
	4.577733465999817e-04
	6.140460403406288e-05
	1.916008508028328e-01

 70	7.000000000000004e-01
	-7.305878482168332e-15
	-3.824892666760876e-18
	-3.812643356196632e-14
	3.968019171386827e-06
	4.887978022590228e-04
	6.613543614947483e-05
	1.916013437880783e-01

 71	7.100000000000004e-01
	-7.300474995090112e-15
	-3.902648010871364e-18
	-3.824984566192369e-14
	4.156242140282728e-06
	5.213840704314327e-04
	7.118419859173448e-05
	1.916018741191353e-01

 72	7.200000000000004e-01
	-7.296203795784460e-15
	-3.981873303937051e-18
	-3.837046697686382e-14
	4.351422860530433e-06
	5.555565921195929e-04
	7.656662334556886e-05
	1.916024439542159e-01

 73	7.300000000000004e-01
	-7.293040572687706e-15
	-4.062596075329377e-18
	-3.848832753219096e-14
	4.553707113296384e-06
	5.913352068431457e-04
	8.229866299076861e-05
	1.916030554969252e-01

 74	7.400000000000004e-01
	-7.290961161056907e-15
	-4.144844438075113e-18
	-3.860345801715950e-14
	4.763238137609339e-06
	6.287347987581213e-04
	8.839644284457909e-05
	1.916037109886667e-01

 75	7.500000000000004e-01
	-7.289941559996874e-15
	-4.228647103517740e-18
	-3.871588973325454e-14
	4.980156392432411e-06
	6.677649672303836e-04
	9.487620968701167e-05
	1.916044127002708e-01

 76	7.600000000000005e-01
	-7.289957948599680e-15
	-4.314033396372005e-18
	-3.882565454379713e-14
	5.204599335128950e-06
	7.084297270013143e-04
	1.017542773403632e-04
	1.916051629229142e-01

 77	7.700000000000005e-01
	-7.290986701204132e-15
	-4.401033270182070e-18
	-3.893278482481273e-14
	5.436701219009836e-06
	7.507272429364901e-04
	1.090469694249697e-04
	1.916059639583830e-01

 78	7.800000000000005e-01
	-7.293004401785528e-15
	-4.489677323195734e-18
	-3.903731341719442e-14
	5.676592912603361e-06
	7.946496041018114e-04
	1.167705596619806e-04
	1.916068181087481e-01

 79	7.900000000000005e-01
	-7.295987857487476e-15
	-4.579996814663224e-18
	-3.913927358018942e-14
	5.924401743204564e-06
	8.401826415654247e-04
	1.249412101397075e-04
	1.916077276655678e-01

 80	8.000000000000005e-01
	-7.299914111308483e-15
	-4.672023681575627e-18
	-3.923869894623176e-14
	6.180251367139991e-06
	8.873057938800987e-04
	1.335749080019096e-04
	1.916086948986738e-01

 81	8.100000000000005e-01
	-7.304760453959114e-15
	-4.765790555852422e-18
	-3.933562347713906e-14
	6.444261669025004e-06
	9.359920236638752e-04
	1.426874010532391e-04
	1.916097220446967e-01

 82	8.200000000000005e-01
	-7.310504434905132e-15
	-4.861330781990514e-18
	-3.943008142168930e-14
	6.716548692096820e-06
	9.862077880744724e-04
	1.522941328081152e-04
	1.916108112954499e-01

 83	8.300000000000005e-01
	-7.317123872614313e-15
	-4.958678435189159e-18
	-3.952210727458719e-14
	6.997224601479139e-06
	1.037913065274987e-03
	1.624101775337211e-04
	1.916119647862544e-01

 84	8.400000000000005e-01
	-7.324596864025566e-15
	-5.057868339961231e-18
	-3.961173573682773e-14
	7.286397681975771e-06
	1.091061438227177e-03
	1.730501758548803e-04
	1.916131845844066e-01

 85	8.500000000000005e-01
	-7.332901793259670e-15
	-5.158936089246515e-18
	-3.969900167746012e-14
	7.584172371706866e-06
	1.145600236338908e-03
	1.842282714977887e-04
	1.916144726778659e-01

 86	8.600000000000005e-01
	-7.342017339592156e-15
	-5.261918064038822e-18
	-3.978394009675250e-14
	7.890649332594713e-06
	1.201470734650301e-03
	1.959580497504769e-04
	1.916158309643262e-01

 87	8.700000000000006e-01
	-7.351922484709521e-15
	-5.366851453543721e-18
	-3.986658609075464e-14
	8.205925558383379e-06
	1.258608409386597e-03
	2.082524782102628e-04
	1.916172612408221e-01

 88	8.800000000000006e-01
	-7.362596519270196e-15
	-5.473774275878577e-18
	-3.994697481725277e-14
	8.530094520543253e-06
	1.316943247853366e-03
	2.211238503722907e-04
	1.916187651939465e-01

 89	8.900000000000006e-01
	-7.374019048792972e-15
	-5.582725399334198e-18
	-4.002514146310842e-14
	8.863246352073150e-06
	1.376400109820201e-03
	2.345837325886307e-04
	1.916203443908543e-01

 90	9.000000000000006e-01
	-7.386169998895086e-15
	-5.693744564211149e-18
	-4.010112121297040e-14
	9.205468068876245e-06
	1.436899136751118e-03
	2.486429148947048e-04
	1.916220002711060e-01

 91	9.100000000000006e-01
	-7.399029619903197e-15
	-5.806872405249176e-18
	-4.017494921934672e-14
	9.556843828057672e-06
	1.498356204511242e-03
	2.633113661594972e-04
	1.916237341395039e-01

 92	9.200000000000006e-01
	-7.412578490860437e-15
	-5.922150474667542e-18
	-4.024666057402109e-14
	9.917455222177504e-06
	1.560683414526501e-03
	2.785981939687972e-04
	1.916255471599584e-01

 93	9.300000000000006e-01
	-7.426797522952355e-15
	-6.039621265834282e-18
	-4.031629028079708e-14
	1.028738160819922e-05
	1.623789617810195e-03
	2.945116095974413e-04
	1.916274403504539e-01

 94	9.400000000000006e-01
	-7.441667962375766e-15
	-6.159328237583249e-18
	-4.038387322954995e-14
	1.066670046960384e-05
	1.687580965809445e-03
	3.110588983680726e-04
	1.916294145791925e-01

 95	9.500000000000006e-01
	-7.457171392672705e-15
	-6.281315839201538e-18
	-4.044944417156675e-14
	1.105548780990390e-05
	1.751961481675774e-03
	3.282463956315801e-04
	1.916314705618990e-01

 96	9.600000000000006e-01
	-7.473289736553470e-15
	-6.405629536105526e-18
	-4.051303769615081e-14
	1.145381857558483e-05
	1.816833645332433e-03
	3.460794685389686e-04
	1.916336088603387e-01

 97	9.700000000000006e-01
	-7.490005257231039e-15
	-6.532315836230569e-18
	-4.057468820846767e-14
	1.186176710633740e-05
	1.882098985601496e-03
	3.645625037074953e-04
	1.916358298820177e-01

 98	9.800000000000006e-01
	-7.507300559289575e-15
	-6.661422317155201e-18
	-4.063442990860729e-14
	1.227940761031695e-05
	1.947658672664899e-03
	3.836989008164053e-04
	1.916381338810401e-01

 99	9.900000000000007e-01
	-7.525158589109259e-15
	-6.792997653987444e-18
	-4.069229677183591e-14
	1.270681466207978e-05
	2.013414104263198e-03
	4.034910721008626e-04
	1.916405209601000e-01

 100	1.000000000000001e+00
	-7.543562634869414e-15
	-6.927091648034696e-18
	-4.074832253001060e-14
	1.314406372080472e-05
	2.079267479278064e-03
	4.239404476478912e-04
	1.916429910735414e-01

 101	1.010000000000001e+00
	-7.562496326151310e-15
	-7.063755256287536e-18
	-4.080254065412792e-14
