Title: ** sch_path: /home/andylithia/openmpw/project-yatsuhashi-chip1/xschem/gmid_test/nmos_test.sch
Date: Tue Jul 19 23:15:45  2022
Plotname: DC transfer characteristic
Flags: real
No. Variables: 8
No. Points: 181
Variables:
	0	v(v-sweep)	voltage
	1	@m.xm1.msky130_fd_pr__nfet_01v8[cgb]	capacitance
	2	@m.xm1.msky130_fd_pr__nfet_01v8[cgd]	capacitance
	3	@m.xm1.msky130_fd_pr__nfet_01v8[cgs]	capacitance
	4	@m.xm1.msky130_fd_pr__nfet_01v8[gds]	admittance
	5	@m.xm1.msky130_fd_pr__nfet_01v8[gm]	admittance
	6	i(@m.xm1.msky130_fd_pr__nfet_01v8[id])	current
	7	v(@m.xm1.msky130_fd_pr__nfet_01v8[vth])	voltage
Values:
 0	0.000000000000000e+00
	-4.157496833582714e-15
	-6.382381054019025e-20
	-3.120744068707800e-15
	1.188391462399857e-09
	7.428786891818974e-08
	5.694716372073117e-09
	3.687801562172645e-01

 1	1.000000000000000e-02
	-4.110794266725557e-15
	-6.625366326926385e-20
	-3.221389106201010e-15
	1.352932802568782e-09
	8.447657172415977e-08
	6.487467849303387e-09
	3.687801562937913e-01

 2	2.000000000000000e-02
	-4.063966132595604e-15
	-6.876834378070112e-20
	-3.323804924885931e-15
	1.539750027312989e-09
	9.603283888637291e-08
	7.388804057667974e-09
	3.687801563808036e-01

 3	3.000000000000000e-02
	-4.017034015317706e-15
	-7.137022730371766e-20
	-3.427937869100130e-15
	1.751752703351656e-09
	1.091353259385865e-07
	8.413276099585023e-09
	3.687801564797115e-01

 4	4.000000000000000e-02
	-3.970020710965571e-15
	-7.406172159306659e-20
	-3.533729737620373e-15
	1.992208537663336e-09
	1.239853864278689e-07
	9.577332889460431e-09
	3.687801565921002e-01

 5	5.000000000000000e-02
	-3.922950158239636e-15
	-7.684526592638591e-20
	-3.641117874468394e-15
	2.264783034691975e-09
	1.408099224570726e-07
	1.089956209580295e-08
	3.687801567197733e-01

 6	6.000000000000000e-02
	-3.875847362118036e-15
	-7.972333007985050e-20
	-3.750035284035893e-15
	2.573582665316678e-09
	1.598646091530892e-07
	1.240096141535615e-08
	3.687801568647552e-01

 7	7.000000000000001e-02
	-3.828738310826316e-15
	-8.269841328829800e-20
	-3.860410770375349e-15
	2.923201683457481e-09
	1.814375489970030e-07
	1.410524419077101e-08
	3.687801570293463e-01

 8	8.000000000000000e-02
	-3.781649886540521e-15
	-8.577304319640653e-20
	-3.972169100290338e-15
	3.318772692994636e-09
	2.058534215482213e-07
	1.603918398947749e-08
	3.687801572161372e-01

 9	9.000000000000000e-02
	-3.734609770305263e-15
	-8.894977480764012e-20
	-4.085231189638309e-15
	3.766021024604566e-09
	2.334782052294915e-07
	1.823300347104575e-08
	3.687801574280564e-01

 10	9.999999999999999e-02
	-3.687646341711034e-15
	-9.223118943789940e-20
	-4.199514312043217e-15
	4.271322927922862e-09
	2.647245606194580e-07
	2.072081369951014e-08
	3.687801576684053e-01

 11	1.100000000000000e-01
	-3.640788573933375e-15
	-9.561989368097430e-20
	-4.314932328999778e-15
	4.841767517895204e-09
	3.000579791672610e-07
	2.354111102250442e-08
	3.687801579409207e-01

 12	1.200000000000000e-01
	-3.594065924788871e-15
	-9.911851839291290e-20
	-4.431395940144807e-15
	5.485222334175331e-09
	3.400038173507355e-07
	2.673733975744031e-08
	3.687801582498169e-01

 13	1.300000000000000e-01
	-3.547508224509334e-15
	-1.027297177025756e-19
	-4.548812952271199e-15
	6.210402278015580e-09
	3.851553538589006e-07
	3.035853021184728e-08
	3.687801585998505e-01

 14	1.400000000000000e-01
	-3.501145560974352e-15
	-1.064561680554992e-19
	-4.667088565474557e-15
	7.026941581617765e-09
	4.361830260183409e-07
	3.446002303330751e-08
	3.687801589963993e-01

 15	1.500000000000000e-01
	-3.455008163173567e-15
	-1.103005672982754e-19
	-4.786125674651343e-15
	7.945468340061292e-09
	4.938450207813343e-07
	3.910429254204559e-08
	3.687801594455409e-01

 16	1.600000000000000e-01
	-3.409126283692687e-15
	-1.142656338104197e-19
	-4.905825184413210e-15
	8.977680995876523e-09
	5.589994142177487e-07
	4.436188354638086e-08
	3.687801599541360e-01

 17	1.700000000000000e-01
	-3.363530081031472e-15
	-1.183541056906255e-19
	-5.026086335348042e-15
	1.013642601187452e-08
	6.326180702861087e-07
	5.031247816694597e-08
	3.687801605299487e-01

 18	1.800000000000000e-01
	-3.318249502566463e-15
	-1.225687400040478e-19
	-5.146807039447068e-15
	1.143577580049520e-08
	7.158025229330777e-07
	5.704611137352841e-08
	3.687801611817628e-01

 19	1.900000000000000e-01
	-3.273314168967212e-15
	-1.269123120970386e-19
	-5.267884222428589e-15
	1.289110580003537e-08
	8.098020730020723e-07
	6.466455622192845e-08
	3.687801619195100e-01

 20	2.000000000000000e-01
	-3.228753260861237e-15
	-1.313876149853879e-19
	-5.389214170625070e-15
	1.451916940298193e-08
	9.160343301866384e-07
	7.328290209528284e-08
	3.687801627544453e-01

 21	2.100000000000000e-01
	-3.184595408520385e-15
	-1.359974588218911e-19
	-5.510692880064467e-15
	1.633816925367559e-08
	1.036108416947657e-06
	8.303135150167177e-08
	3.687801636993131e-01

 22	2.200000000000001e-01
	-3.140868585310312e-15
	-1.407446704485714e-19
	-5.632216405364260e-15
	1.836782324705947e-08
	1.171851022005440e-06
	9.405726301736789e-08
	3.687801647685690e-01

 23	2.300000000000001e-01
	-3.097600005605234e-15
	-1.456320930385653e-19
	-5.753681206074228e-15
	2.062942338391008e-08
	1.325335441388737e-06
	1.065274696118251e-07
	3.687801659785916e-01

 24	2.400000000000001e-01
	-3.054816027823549e-15
	-1.506625858321398e-19
	-5.874984488144055e-15
	2.314588547822576e-08
	1.498913670507370e-06
	1.206309026200973e-07
	3.687801673479737e-01

 25	2.500000000000001e-01
	-3.012542063185550e-15
	-1.558390239709693e-19
	-5.996024538262054e-15
	2.594178757791266e-08
	1.695251506819248e-06
	1.365815517697696e-07
	3.687801688978093e-01

 26	2.600000000000001e-01
	-2.970802490735207e-15
	-1.611642984341507e-19
	-6.116701048900856e-15
	2.904339485969262e-08
	1.917366485338463e-06
	1.546217906075039e-07
	3.687801706520399e-01

 27	2.700000000000001e-01
	-2.929620579102461e-15
	-1.666413160791139e-19
	-6.236915432022091e-15
	3.247866870294036e-08
	2.168668295413717e-06
	1.750260940547057e-07
	3.687801726378424e-01

 28	2.800000000000001e-01
	-2.889018415413656e-15
	-1.722729997898785e-19
	-6.356571119527208e-15
	3.627725764461152e-08
	2.453001115411270e-06
	1.981051702785115e-07
	3.687801748860455e-01

 29	2.900000000000001e-01
	-2.849016841685414e-15
	-1.780622887347707e-19
	-6.475573848694984e-15
	4.047046797776700e-08
	2.774687052961287e-06
	2.242105222150245e-07
	3.687801774316153e-01

 30	3.000000000000001e-01
	-2.809635398962948e-15
	-1.840121387350839e-19
	-6.593831931016957e-15
	4.509121188787342e-08
	3.138569596086972e-06
	2.537394445714374e-07
	3.687801803141856e-01

 31	3.100000000000001e-01
	-2.770892279388511e-15
	-1.901255227456557e-19
	-6.711256503025503e-15
	5.017393123085618e-08
	3.550055672345635e-06
	2.871404496625883e-07
	3.687801835786174e-01

 32	3.200000000000001e-01
	-2.732804286310850e-15
	-1.964054314479570e-19
	-6.827761757901697e-15
	5.575449534952216e-08
	4.015154590861708e-06
	3.249190998020769e-07
	3.687801872756376e-01

 33	3.300000000000001e-01
	-2.695386802472115e-15
	-2.028548739556110e-19
	-6.943265156853212e-15
	6.187007170275359e-08
	4.540511822252812e-06
	3.676442051069086e-07
	3.687801914624981e-01

 34	3.400000000000001e-01
	-2.658653766237194e-15
	-2.094768786319847e-19
	-7.057687619456538e-15
	6.855896854346804e-08
	5.133435274968380e-06
	4.159543236114642e-07
	3.687801962036986e-01

 35	3.500000000000001e-01
	-2.622617655761145e-15
	-2.162744940189400e-19
	-7.170953692366658e-15
	7.586044942233537e-08
	5.801911478708130e-06
	4.705644758798735e-07
	3.687802015717171e-01

 36	3.600000000000002e-01
	-2.587289480925751e-15
	-2.232507898754470e-19
	-7.282991696001910e-15
	8.381451990587125e-08
	6.554608914738513e-06
	5.322729594804190e-07
	3.687802076477875e-01

 37	3.700000000000002e-01
	-2.552678782815253e-15
	-2.304088583244258e-19
	-7.393733849015082e-15
	9.246168756734808e-08
	7.400865669055825e-06
	6.019681206620260e-07
	3.687802145226817e-01

 38	3.800000000000002e-01
	-2.518793640446204e-15
	-2.377518151057194e-19
	-7.503116370556742e-15
	1.018426970204582e-07
	8.350658656792127e-06
	6.806349125687397e-07
	3.687802222974754e-01

 39	3.900000000000002e-01
	-2.485640684416401e-15
	-2.452828009330086e-19
	-7.611079560523726e-15
	1.119982424986365e-07
	9.414551901044075e-06
	7.693610428406131e-07
	3.687802310843004e-01

 40	4.000000000000002e-01
	-2.453225117094264e-15
	-2.530049829518293e-19
	-7.717567858161454e-15
	1.229686612144114e-07
	1.060362176607705e-05
	8.693424902077117e-07
	3.687802410070502e-01

 41	4.100000000000002e-01
	-2.421550738932352e-15
	-2.609215562961159e-19
	-7.822529879552604e-15
	1.347936114374951e-07
	1.192935765374321e-05
	9.818881515672726e-07
	3.687802522020122e-01

 42	4.200000000000002e-01
	-2.390619980457719e-15
	-2.690357457399632e-19
	-7.925918434673537e-15
	1.475117398808036e-07
	1.340353747067526e-05
	1.108423369963963e-06
	3.687802648183945e-01

 43	4.300000000000002e-01
	-2.360433939467239e-15
	-2.773508074415287e-19
	-8.027690524833994e-15
	1.611603435532144e-07
	1.503807814541129e-05
	1.250492091696067e-06
	3.687802790187404e-01

 44	4.400000000000002e-01
	-2.330992422937574e-15
	-2.858700307757735e-19
	-8.127807321434228e-15
	1.757750317006809e-07
	1.684486258616528e-05
	1.409757409025001e-06
	3.687802949791765e-01

 45	4.500000000000002e-01
	-2.302293993147683e-15
	-2.945967402523247e-19
	-8.226234127074629e-15
	1.913893937896267e-07
	1.883554567267496e-05
	1.588000264838726e-06
	3.687803128894829e-01

 46	4.600000000000002e-01
	-2.274336017505465e-15
	-3.035342975154012e-19
	-8.322940320138306e-15
	2.080346796683529e-07
	2.102134310644476e-05
	1.787116127720257e-06
	3.687803329529630e-01

 47	4.700000000000003e-01
	-2.247114721569818e-15
	-3.126861034217573e-19
	-8.417899284035064e-15
	2.257394980582849e-07
	2.341280812885040e-05
	2.009109490119208e-06
	3.687803553860686e-01

 48	4.800000000000003e-01
	-2.220625244764106e-15
	-3.220556001936788e-19
	-8.511088322346717e-15
	2.445295393677220e-07
	2.601960217605170e-05
	2.256086097861924e-06
	3.687803804177920e-01

 49	4.900000000000003e-01
	-2.194861698286739e-15
	-3.316462736430533e-19
	-8.602488561149944e-15
	2.644273284836824e-07
	2.885026639363452e-05
	2.530242884406846e-06
	3.687804082887889e-01

 50	5.000000000000002e-01
	-2.169817224738353e-15
	-3.414616554634993e-19
	-8.692084839813224e-15
	2.854520126865505e-07
	3.191200150936382e-05
	2.833855655624989e-06
	3.687804392502480e-01

 51	5.100000000000002e-01
	-2.145484059002920e-15
	-3.515053255869750e-19
	-8.779865591571148e-15
	3.076191891592698e-07
	3.521046380011428e-05
	3.169264647366568e-06
	3.687804735624934e-01

 52	5.200000000000002e-01
	-2.121853589941128e-15
	-3.617809146019339e-19
	-8.865822715172457e-15
	3.309407757462707e-07
	3.874958474949904e-05
	3.538858155068113e-06
	3.687805114933510e-01

 53	5.300000000000002e-01
	-2.098916422478124e-15
	-3.722921062297405e-19
	-8.949951438879642e-15
	3.554249276823300e-07
	4.253142146102836e-05
	3.945054508291430e-06
	3.687805533162748e-01

 54	5.400000000000003e-01
	-2.076662439693960e-15
	-3.830426398566637e-19
	-9.032250178067763e-15
	3.810760019886237e-07
	4.655604398006702e-05
	4.390282729481334e-06
	3.687805993082897e-01

 55	5.500000000000003e-01
	-2.055080864552666e-15
	-3.940363131187327e-19
	-9.112720387631523e-15
	4.078945701571017e-07
	5.082146442610616e-05
	4.876962271762037e-06
	3.687806497477793e-01

 56	5.600000000000003e-01
	-2.034160320935167e-15
	-4.052769845368842e-19
	-9.191366410361686e-15
	4.358774786523511e-07
	5.532361130965692e-05
	5.407482272163932e-06
	3.687807049121446e-01

 57	5.700000000000003e-01
	-2.013888893671126e-15
	-4.167685762003570e-19
	-9.268195322397315e-15
	4.650179556901768e-07
	6.005635069044964e-05
	5.984180781937430e-06
	3.687807650754141e-01

 58	5.800000000000003e-01
	-1.994254187295115e-15
	-4.285150764961047e-19
	-9.343216776800105e-15
	4.953057617415726e-07
	6.501155402435282e-05
	6.609324443154529e-06
	3.687808305058362e-01

 59	5.900000000000003e-01
	-1.975243383282770e-15
	-4.405205428826464e-19
	-9.416442846232098e-15
	5.267273802934824e-07
	7.017921074998919e-05
	7.285089070223119e-06
	3.687809014635101e-01

 60	6.000000000000003e-01
	-1.956843295552871e-15
	-4.527891047066785e-19
	-9.487887865649199e-15
	5.592662446034461e-07
	7.554758198441552e-05
	8.013541566888424e-06
	3.687809781981325e-01

 61	6.100000000000003e-01
	-1.939040424050198e-15
	-4.653249660614152e-19
	-9.557568275853097e-15
	5.929029955378029e-07
	8.110339022211668e-05
	8.796623565395489e-06
	3.687810609468635e-01

 62	6.200000000000003e-01
	-1.921821006253059e-15
	-4.781324086855005e-19
	-9.625502468670731e-15
	6.276157650989204e-07
	8.683203873746123e-05
	9.636137117178347e-06
	3.687811499324090e-01

 63	6.300000000000003e-01
	-1.905171066476163e-15
	-4.912157949018269e-19
	-9.691710634459078e-15
	6.633804799357873e-07
	9.271785353062282e-05
	1.053373269683765e-05
	3.687812453613346e-01

 64	6.400000000000003e-01
	-1.889076462865925e-15
	-5.045795705959080e-19
	-9.756214612560063e-15
	7.001711789954614e-07
	9.874434015903899e-05
	1.149089970675814e-05
	3.687813474226287e-01

 65	6.500000000000004e-01
	-1.873522932009725e-15
	-5.182282682335052e-19
	-9.819037745259253e-15
	7.379603395047037e-07
	1.048944476643803e-04
	1.250895959216619e-05
	3.687814562865758e-01

 66	6.600000000000004e-01
	-1.858496131103547e-15
	-5.321665099177030e-19
	-9.880204735733066e-15
	7.767192056597027e-07
	1.111508320192679e-04
	1.358906159931896e-05
	3.687815721039185e-01

 67	6.700000000000004e-01
	-1.843981677643847e-15
	-5.463990104856911e-19
	-9.939741510401558e-15
	8.164181147289860e-07
	1.174961120395330e-04
	1.473218113612758e-05
	3.687816950053372e-01

 68	6.800000000000004e-01
	-1.829965186628984e-15
	-5.609305806459086e-19
	-9.997675086039884e-15
	8.570268157186938e-07
	1.239131114828257e-04
	1.593912062766435e-05
	3.687818251012273e-01

 69	6.900000000000004e-01
	-1.816432305273531e-15
	-5.757661301563034e-19
	-1.005403344193998e-14
	8.985147762855731e-07
	1.303850820194916e-04
	1.721051270090955e-05
	3.687819624817827e-01

 70	7.000000000000004e-01
	-1.803368745254716e-15
	-5.909106710448487e-19
	-1.010884539735651e-14
	9.408514741854964e-07
	1.368959028495632e-04
	1.854682548532842e-05
	3.687821072173410e-01

 71	7.100000000000004e-01
	-1.790760312524771e-15
	-6.063693208735174e-19
	-1.016214049441661e-14
	9.840066701875092e-07
	1.434302538840660e-04
	1.994836977931350e-05
	3.687822593589826e-01

 72	7.200000000000004e-01
	-1.778592934735559e-15
	-6.221473060473090e-19
	-1.021394888662301e-14
	1.027950660041351e-06
	1.499737605486576e-04
	2.141530780744736e-05
	3.687824189393627e-01

 73	7.300000000000004e-01
	-1.766852686332980e-15
	-6.382499651697862e-19
	-1.026430123303337e-14
	1.072654503737219e-06
	1.565131093503446e-04
	2.294766327961655e-05
	3.687825859737138e-01

 74	7.400000000000004e-01
	-1.755525811388071e-15
	-6.546827524474565e-19
	-1.031322859815622e-14
	1.118090230920699e-06
	1.630361343315893e-04
	2.454533245943532e-05
	3.687827604610225e-01

 75	7.500000000000004e-01
	-1.744598744239822e-15
	-6.714512411443872e-19
	-1.036076235756554e-14
	1.164231021907903e-06
	1.695318753901905e-04
	2.620809595508782e-05
	3.687829423853099e-01

 76	7.600000000000005e-01
	-1.734058128031310e-15
	-6.885611270900806e-19
	-1.040693410920087e-14
	1.211051364272896e-06
	1.759906101487878e-04
	2.793563095913921e-05
	3.687831317170186e-01

 77	7.700000000000005e-01
	-1.723890831225918e-15
	-7.060182322422388e-19
	-1.045177559028953e-14
	1.258527185443950e-06
	1.824038616065756e-04
	2.972752368360103e-05
	3.687833284144248e-01

 78	7.800000000000005e-01
	-1.714083962194865e-15
	-7.238285083076682e-19
	-1.049531859979945e-14
	1.306635962140663e-06
	1.887643841986375e-04
	3.158328176094557e-05
	3.687835324251120e-01

 79	7.900000000000005e-01
	-1.704624881969762e-15
	-7.419980404233919e-19
	-1.053759492630806e-14
	1.355356807810383e-06
	1.950661311339704e-04
	3.350234640938686e-05
	3.687837436874121e-01

 80	8.000000000000005e-01
	-1.695501215256307e-15
	-7.605330509014960e-19
	-1.057863628115168e-14
	1.404670539478871e-06
	2.013042059957158e-04
	3.548410419011650e-05
	3.687839621318225e-01

 81	8.100000000000005e-01
	-1.686700859806083e-15
	-7.794399030400150e-19
	-1.061847423670263e-14
	1.454559725620904e-06
	2.074748015843793e-04
	3.752789821409340e-05
	3.687841876824035e-01

 82	8.200000000000005e-01
	-1.678211994243649e-15
	-7.987251050036419e-19
	-1.065714016960694e-14
	1.505008716786337e-06
	2.135751288868894e-04
	3.963303868538985e-05
	3.687844202580713e-01

 83	8.300000000000005e-01
	-1.670023084445715e-15
	-8.183953137769664e-19
	-1.069466520880355e-14
	1.556003660791213e-06
	2.196033388815361e-04
	4.179881269609776e-05
	3.687846597738422e-01

 84	8.400000000000005e-01
	-1.662122888567983e-15
	-8.384573391940043e-19
	-1.073108018813692e-14
	1.607532504309850e-06
	2.255584396612536e-04
	4.402449321381124e-05
	3.687849061419778e-01

 85	8.500000000000005e-01
	-1.654500460813630e-15
	-8.589181480473884e-19
	-1.076641560336771e-14
	1.659584982688538e-06
	2.314402110935079e-04
	4.630934722621891e-05
	3.687851592730426e-01

 86	8.600000000000005e-01
	-1.647145154035132e-15
	-8.797848682809133e-19
	-1.080070157338164e-14
	1.712152599752559e-06
	2.372491189506166e-04
	4.865264302811500e-05
	3.687854190768527e-01

 87	8.700000000000006e-01
	-1.640046621258733e-15
	-9.010647932691486e-19
	-1.083396780539332e-14
	1.765228599301853e-06
	2.429862301533075e-04
	5.105365665400996e-05
	3.687856854633329e-01

 88	8.800000000000006e-01
	-1.633194816217832e-15
	-9.227653861879412e-19
	-1.086624356394079e-14
	1.818807929894203e-06
	2.486531304840823e-04
	5.351167747451556e-05
	3.687859583432772e-01

 89	8.900000000000006e-01
	-1.626579992978476e-15
	-9.448942844801333e-19
	-1.089755764346653e-14
	1.872887204403297e-06
	2.542518458540264e-04
	5.602601298685969e-05
	3.687862376289959e-01

 90	9.000000000000006e-01
	-1.620192704736790e-15
	-9.674593044200311e-19
	-1.092793834428216e-14
	1.927464655718169e-06
	2.597847679535168e-04
	5.859599283943118e-05
	3.687865232348860e-01

 91	9.100000000000006e-01
	-1.614023801864642e-15
	-9.904684457817258e-19
	-1.095741345171678e-14
	1.982540089824940e-06
	2.652545848880419e-04
	6.122097213739578e-05
	3.687868150779059e-01

 92	9.200000000000006e-01
	-1.608064429276126e-15
	-1.013929896614546e-18
	-1.098601021825263e-14
	2.038114837384733e-06
	2.706642171974354e-04
	6.390033408139178e-05
	3.687871130779661e-01

 93	9.300000000000006e-01
	-1.602306023183944e-15
	-1.037852038131283e-18
	-1.101375534845572e-14
	2.094191704796760e-06
	2.760167594812212e-04
	6.663349199439455e-05
	3.687874171582429e-01

 94	9.400000000000006e-01
	-1.596740307310813e-15
	-1.062243449712969e-18
	-1.104067498651495e-14
	2.150774925614980e-06
	2.813154277041851e-04
	6.941989079330077e-05
	3.687877272454194e-01

 95	9.500000000000006e-01
	-1.591359288617442e-15
	-1.087112914035296e-18
	-1.106679470620844e-14
	2.207870113072350e-06
	2.865635121335933e-04
	7.225900796188057e-05
	3.687880432698726e-01

 96	9.600000000000006e-01
	-1.586155252604865e-15
	-1.112469422321569e-18
	-1.109213950312216e-14
	2.265484214360153e-06
	2.917643357609391e-04
	7.515035408076214e-05
	3.687883651657840e-01

 97	9.700000000000006e-01
	-1.581120758245284e-15
	-1.138322179727200e-18
	-1.111673378895273e-14
	2.323625467211232e-06
	2.969212179843896e-04
	7.809347296821609e-05
	3.687886928712213e-01

 98	9.800000000000006e-01
	-1.576248632591958e-15
	-1.164680610860741e-18
	-1.114060138773285e-14
	2.382303359247210e-06
	3.020374432710301e-04
	8.108794148299347e-05
	3.687890263281574e-01

 99	9.900000000000007e-01
	-1.571531965115329e-15
	-1.191554365447000e-18
	-1.116376553382496e-14
	2.441528590469223e-06
	3.071162344777937e-04
	8.413336903742517e-05
	3.687893654824586e-01

 100	1.000000000000001e+00
	-1.566964101809016e-15
	-1.218953324137493e-18
	-1.118624887153599e-14
	2.501313039201102e-06
	3.121607304843691e-04
	8.722939686565107e-05
	3.687897102838430e-01

 101	1.010000000000001e+00
	-1.562538639106147e-15
	-1.246887604473970e-18
	-1.120807345621319e-14
