Title: ** sch_path: /home/andylithia/openmpw/project-yatsuhashi-chip1/xschem/gmid_test/nmos_test.sch
Date: Tue Jul 19 23:15:45  2022
Plotname: DC transfer characteristic
Flags: real
No. Variables: 8
No. Points: 181
Variables:
	0	v(v-sweep)	voltage
	1	@m.xm1.msky130_fd_pr__nfet_01v8[cgb]	capacitance
	2	@m.xm1.msky130_fd_pr__nfet_01v8[cgd]	capacitance
	3	@m.xm1.msky130_fd_pr__nfet_01v8[cgs]	capacitance
	4	@m.xm1.msky130_fd_pr__nfet_01v8[gds]	admittance
	5	@m.xm1.msky130_fd_pr__nfet_01v8[gm]	admittance
	6	i(@m.xm1.msky130_fd_pr__nfet_01v8[id])	current
	7	v(@m.xm1.msky130_fd_pr__nfet_01v8[vth])	voltage
Values:
 0	0.000000000000000e+00
	-1.101908112826180e-14
	-7.338871511854175e-19
	-2.011870536640630e-14
	6.622639994666623e-08
	2.538729728927932e-06
	3.243582882547309e-07
	2.069688464566060e-01

 1	1.000000000000000e-02
	-1.090054697158597e-14
	-7.511533820287101e-19
	-2.039727875185687e-14
	7.141862202838365e-08
	2.742876221902527e-06
	3.507531380008459e-07
	2.069688483911365e-01

 2	2.000000000000000e-02
	-1.078351398499477e-14
	-7.687916692407947e-19
	-2.067556425003804e-14
	7.699771427054089e-08
	2.963452855255902e-06
	3.792705101554619e-07
	2.069688504828699e-01

 3	3.000000000000000e-02
	-1.066800634608771e-14
	-7.868089219463654e-19
	-2.095346519854038e-14
	8.299035170226821e-08
	3.201823633873057e-06
	4.100814286085933e-07
	2.069688527447305e-01

 4	4.000000000000000e-02
	-1.055404753700028e-14
	-8.052121560320978e-19
	-2.123088538859456e-14
	8.942483350837999e-08
	3.459474330415828e-06
	4.433711565881885e-07
	2.069688551907518e-01

 5	5.000000000000000e-02
	-1.044166030056957e-14
	-8.240084959189405e-19
	-2.150772918433454e-14
	9.633116200730997e-08
	3.738024369441887e-06
	4.793404727799986e-07
	2.069688578361923e-01

 6	6.000000000000000e-02
	-1.033086659851709e-14
	-8.432051763904523e-19
	-2.178390164062040e-14
	1.037411237849698e-07
	4.039239914571240e-06
	5.182070722107619e-07
	2.069688606976419e-01

 7	7.000000000000001e-02
	-1.022168757173552e-14
	-8.628095444793200e-19
	-2.205930861912618e-14
	1.116883729088880e-07
	4.365048269795296e-06
	5.602071044739795e-07
	2.069688637931495e-01

 8	8.000000000000000e-02
	-1.011414350275807e-14
	-8.828290614132915e-19
	-2.233385690240606e-14
	1.202085161346420e-07
	4.717553713109411e-06
	6.055968630239672e-07
	2.069688671423763e-01

 9	9.000000000000000e-02
	-1.000825378048171e-14
	-9.032713046232617e-19
	-2.260745430566193e-14
	1.293392000038232e-07
	5.099054887590590e-06
	6.546546404805570e-07
	2.069688707667403e-01

 10	9.999999999999999e-02
	-9.904036867209235e-15
	-9.241439698144621e-19
	-2.288000978594073e-14
	1.391201997195024e-07
	5.512063881702799e-06
	7.076827661712129e-07
	2.069688746895884e-01

 11	1.100000000000000e-01
	-9.801510268066263e-15
	-9.454548731035113e-19
	-2.315143354850285e-14
	1.495935096715007e-07
	5.959327136845156e-06
	7.650098434866492e-07
	2.069688789363960e-01

 12	1.200000000000000e-01
	-9.700690502841500e-15
	-9.672119532226407e-19
	-2.342163715011349e-14
	1.608034354696983e-07
	6.443848325783220e-06
	8.269932060347476e-07
	2.069688835349757e-01

 13	1.300000000000000e-01
	-9.601593080291085e-15
	-9.894232737933622e-19
	-2.369053359902053e-14
	1.727966873290706e-07
	6.968913350418011e-06
	8.940216130384387e-07
	2.069688885157049e-01

 14	1.400000000000000e-01
	-9.504232474938510e-15
	-1.012097025671496e-18
	-2.395803745139562e-14
	1.856224746351438e-07
	7.538117611123125e-06
	9.665182059271822e-07
	2.069688939117887e-01

 15	1.500000000000000e-01
	-9.408622106394197e-15
	-1.035241529365386e-18
	-2.422406490402969e-14
	1.993326015031893e-07
	8.155395702362401e-06
	1.044943749607387e-06
	2.069688997595415e-01

 16	1.600000000000000e-01
	-9.314774321210011e-15
	-1.058865237529543e-18
	-2.448853388308742e-14
	2.139815631285222e-07
	8.825053690198140e-06
	1.129800183449422e-06
	2.069689060987111e-01

 17	1.700000000000000e-01
	-9.222700377275407e-15
	-1.082976737535504e-18
	-2.475136412874308e-14
	2.296266427089602e-07
	9.551804126304808e-06
	1.221634508581568e-06
	2.069689129728131e-01

 18	1.800000000000000e-01
	-9.132410430754193e-15
	-1.107584754122273e-18
	-2.501247727553249e-14
	2.463280087034779e-07
	1.034080394985808e-05
	1.321043039611973e-06
	2.069689204295175e-01

 19	1.900000000000000e-01
	-9.043913525552105e-15
	-1.132698152127901e-18
	-2.527179692827494e-14
	2.641488121736849e-07
	1.119769542281247e-05
	1.428676050386000e-06
	2.069689285210810e-01

 20	2.000000000000000e-01
	-8.957217585297737e-15
	-1.158325939304828e-18
	-2.552924873343528e-14
	2.831552839367198e-07
	1.212865023520002e-05
	1.545242844798997e-06
	2.069689373048047e-01

 21	2.100000000000000e-01
	-8.872329407811220e-15
	-1.184477269220803e-18
	-2.578476044581207e-14
	3.034168312393394e-07
	1.314041690474552e-05
	1.671517284990647e-06
	2.069689468435443e-01

 22	2.200000000000001e-01
	-8.789254662027655e-15
	-1.211161444247604e-18
	-2.603826199045661e-14
	3.250061336436943e-07
	1.424037157885555e-05
	1.808343810411248e-06
	2.069689572062836e-01

 23	2.300000000000001e-01
	-8.707997887334831e-15
	-1.238387918639579e-18
	-2.628968551974345e-14
	3.479992377951719e-07
	1.543657232641858e-05
	1.956643982230199e-06
	2.069689684687508e-01

 24	2.400000000000001e-01
	-8.628562495277393e-15
	-1.266166301704604e-18
	-2.653896546553241e-14
	3.724756507218091e-07
	1.673781698136561e-05
	2.117423588306140e-06
	2.069689807141004e-01

 25	2.500000000000001e-01
	-8.550950773573719e-15
	-1.294506361069076e-18
	-2.678603858637686e-14
	3.985184312931828e-07
	1.815370456909080e-05
	2.291780344406058e-06
	2.069689940336656e-01

 26	2.600000000000001e-01
	-8.475163892384181e-15
	-1.323418026039845e-18
	-2.703084400975268e-14
	4.262142794442726e-07
	1.969470031013196e-05
	2.480912227491229e-06
	2.069690085277662e-01

 27	2.700000000000001e-01
	-8.401201912764652e-15
	-1.352911391064925e-18
	-2.727332326929705e-14
	4.556536227464360e-07
	2.137220415246565e-05
	2.686126476618339e-06
	2.069690243066238e-01

 28	2.800000000000001e-01
	-8.329063797232751e-15
	-1.382996719295475e-18
	-2.751342033706433e-14
	4.869306998837491e-07
	2.319862273395194e-05
	2.908849296272533e-06
	2.069690414913314e-01

 29	2.900000000000001e-01
	-8.258747422369520e-15
	-1.413684446251443e-18
	-2.775108165082186e-14
	5.201436405679761e-07
	2.518744461942193e-05
	3.150636295680565e-06
	2.069690602149263e-01

 30	3.000000000000001e-01
	-8.190249593374234e-15
	-1.444985183593353e-18
	-2.798625613642370e-14
	5.553945413998103e-07
	2.735331859229993e-05
	3.413183695776461e-06
	2.069690806235624e-01

 31	3.100000000000001e-01
	-8.123566060486323e-15
	-1.476909723002514e-18
	-2.821889522531633e-14
	5.927895371579143e-07
	2.971213470820906e-05
	3.698340332931262e-06
	2.069691028777757e-01

 32	3.200000000000001e-01
	-8.058691537183967e-15
	-1.509469040172289e-18
	-2.844895286724370e-14
	6.324388669702179e-07
	3.228110773751325e-05
	4.008120485230278e-06
	2.069691271538702e-01

 33	3.300000000000001e-01
	-7.995619720066003e-15
	-1.542674298913186e-18
	-2.867638553823443e-14
	6.744569347947954e-07
	3.507886253517551e-05
	4.344717542909529e-06
	2.069691536454088e-01

 34	3.400000000000001e-01
	-7.934343310321034e-15
	-1.576536855373840e-18
	-2.890115224396469e-14
	7.189623636100158e-07
	3.812552077970243e-05
	4.710518539461999e-06
	2.069691825648433e-01

 35	3.500000000000001e-01
	-7.874854036684694e-15
	-1.611068262381204e-18
	-2.912321451860559e-14
	7.660780426861143e-07
	4.144278841859740e-05
	5.108119553819527e-06
	2.069692141452588e-01

 36	3.600000000000002e-01
	-7.817142679785059e-15
	-1.646280273902310e-18
	-2.934253641927223e-14
	8.159311672829725e-07
	4.505404304608314e-05
	5.540341986827825e-06
	2.069692486422618e-01

 37	3.700000000000002e-01
	-7.761199097773820e-15
	-1.682184849630475e-18
	-2.955908451620501e-14
	8.686532700921977e-07
	4.898442032060839e-05
	6.010249706894204e-06
	2.069692863360102e-01

 38	3.800000000000002e-01
	-7.707012253140827e-15
	-1.718794159698945e-18
	-2.977282787882131e-14
	9.243802437158309e-07
	5.326089840575339e-05
	6.521167050135883e-06
	2.069693275333924e-01

 39	3.900000000000002e-01
	-7.654570240608106e-15
	-1.756120589524677e-18
	-2.998373805778685e-14
	9.832523534497506e-07
	5.791237928986479e-05
	7.076697649542723e-06
	2.069693725703496e-01

 40	4.000000000000002e-01
	-7.603860316000285e-15
	-1.794176744785593e-18
	-3.019178906326153e-14
	1.045414239617528e-06
	6.296976570863025e-05
	7.680744055553491e-06
	2.069694218143659e-01

 41	4.100000000000002e-01
	-7.554868925988304e-15
	-1.832975456534127e-18
	-3.039695733948404e-14
	1.111014908681005e-06
	6.846603226278235e-05
	8.337528097013851e-06
	2.069694756671020e-01

 42	4.200000000000002e-01
	-7.507581738603906e-15
	-1.872529786450455e-18
	-3.059922173586392e-14
	1.180207712337390e-06
	7.443628919242191e-05
	9.051611916733259e-06
	2.069695345671945e-01

 43	4.300000000000002e-01
	-7.461983674423993e-15
	-1.912853032238398e-18
	-3.079856347475594e-14
	1.253150313800640e-06
	8.091783714276659e-05
	9.827919599820608e-06
	2.069695989932201e-01

 44	4.400000000000002e-01
	-7.418058938324687e-15
	-1.953958733167769e-18
	-3.099496611609685e-14
	1.330004640457880e-06
	8.795021113643456e-05
	1.067175929570501e-05
	2.069696694667752e-01

 45	4.500000000000002e-01
	-7.375791051708018e-15
	-1.995860675765959e-18
	-3.118841551908501e-14
	1.410936822089948e-06
	9.557521185802471e-05
	1.158884571632124e-05
	2.069697465557623e-01

 46	4.600000000000002e-01
	-7.335162885104691e-15
	-2.038572899663154e-18
	-3.137889980109066e-14
	1.496117113851612e-06
	1.038369222615822e-04
	1.258532287349784e-05
	2.069698308777546e-01

 47	4.700000000000003e-01
	-7.296156691060337e-15
	-2.082109703593855e-18
	-3.156640929398219e-14
	1.585719803220256e-06
	1.127817074344390e-04
	1.366778689826673e-05
	2.069699231035193e-01

 48	4.800000000000003e-01
	-7.258754137214329e-15
	-2.126485651559292e-18
	-3.175093649805725e-14
	1.679923100145215e-06
	1.224581955963437e-04
	1.484330876384288e-05
	2.069700239606389e-01

 49	4.900000000000003e-01
	-7.222936339483812e-15
	-2.171715579153951e-18
	-3.193247603376676e-14
	1.778909009663321e-06
	1.329172380851846e-04
	1.611945671263498e-05
	2.069701342372278e-01

 50	5.000000000000002e-01
	-7.188683895268430e-15
	-2.217814600060447e-18
	-3.211102459141974e-14
	1.882863186291310e-06
	1.442118461846234e-04
	1.750431816614103e-05
	2.069702547857058e-01

 51	5.100000000000002e-01
	-7.155976916594509e-15
	-2.264798112716851e-18
	-3.228658087905572e-14
	1.991974769563692e-06
	1.563971026892704e-04
	1.900652087529926e-05
	2.069703865266086e-01

 52	5.200000000000002e-01
	-7.124795063121570e-15
	-2.312681807160382e-18
	-3.245914556866878e-14
	2.106436200156285e-06
	1.695300461841482e-04
	2.063525304818436e-05
	2.069705304523992e-01

 53	5.300000000000002e-01
	-7.095117574936947e-15
	-2.361481672052180e-18
	-3.262872124096535e-14
	2.226443016122849e-06
	1.836695261414777e-04
	2.240028217230255e-05
	2.069706876312465e-01

 54	5.400000000000003e-01
	-7.066923305068346e-15
	-2.411214001886978e-18
	-3.279531232883543e-14
	2.352193628874810e-06
	1.988760271131325e-04
	2.431197223061050e-05
	2.069708592107094e-01

 55	5.500000000000003e-01
	-7.040190751648460e-15
	-2.461895404393508e-18
	-3.295892505971108e-14
	2.483889078654147e-06
	2.152114605247753e-04
	2.638129899427571e-05
	2.069710464212969e-01

 56	5.600000000000003e-01
	-7.014898089668836e-15
	-2.513542808127932e-18
	-3.311956739698422e-14
	2.621732769386228e-06
	2.327389228602768e-04
	2.861986306164546e-05
	2.069712505798339e-01

 57	5.700000000000003e-01
	-6.991023202264872e-15
	-2.566173470268991e-18
	-3.327724898064938e-14
	2.765930182954785e-06
	2.515224193641377e-04
	3.103990030246225e-05
	2.069714730925774e-01

 58	5.800000000000003e-01
	-6.968543711477599e-15
	-2.619804984615070e-18
	-3.343198106733249e-14
	2.916688573113508e-06
	2.716265527856658e-04
	3.365428935961365e-05
	2.069717154580222e-01

 59	5.900000000000003e-01
	-6.947437008441625e-15
	-2.674455289793318e-18
	-3.358377646986172e-14
	3.074216639439253e-06
	2.931161771408333e-04
	3.647655585822046e-05
	2.069719792693095e-01

 60	6.000000000000003e-01
	-6.927680282952962e-15
	-2.730142677682039e-18
	-3.373264949652987e-14
	3.238724181938289e-06
	3.160560169734600e-04
	3.952087297417080e-05
	2.069722662161955e-01

 61	6.100000000000003e-01
	-6.909250552374190e-15
	-2.786885802054777e-18
	-3.387861589019237e-14
	3.410421737140039e-06
	3.405102531528185e-04
	4.280205802185862e-05
	2.069725780864625e-01

 62	6.200000000000003e-01
	-6.892124689838445e-15
	-2.844703687449939e-18
	-3.402169276733788e-14
	3.589520196747884e-06
	3.665420768436971e-04
	4.633556473429378e-05
	2.069729167667514e-01

 63	6.300000000000003e-01
	-6.876279451717228e-15
	-2.903615738273047e-18
	-3.416189855726286e-14
	3.776230410165377e-06
	3.942132139201574e-04
	5.013747092839190e-05
	2.069732842426671e-01

 64	6.400000000000003e-01
	-6.861691504321301e-15
	-2.963641748137023e-18
	-3.429925294147422e-14
	3.970762772471386e-06
	4.235834227554633e-04
	5.422446127435054e-05
	2.069736825981622e-01

 65	6.500000000000004e-01
	-6.848337449806917e-15
	-3.024801909446734e-18
	-3.443377679343760e-14
	4.173326799680313e-06
	4.547099689970618e-04
	5.861380492086981e-05
	2.069741140140482e-01

 66	6.600000000000004e-01
	-6.836193851263914e-15
	-3.087116823234801e-18
	-3.456549211878184e-14
	4.384130693386179e-06
	4.876470816133280e-04
	6.332332776758403e-05
	2.069745807656362e-01

 67	6.700000000000004e-01
	-6.825237256965072e-15
	-3.150607509254535e-18
	-3.469442199606404e-14
	4.603380897150077e-06
	5.224453951635954e-04
	6.837137922243919e-05
	2.069750852193771e-01

 68	6.800000000000004e-01
	-6.815444223759938e-15
	-3.215295416337560e-18
	-3.482059051819112e-14
	4.831281647242842e-06
	5.591513838784167e-04
	7.377679333461096e-05
	2.069756298285384e-01

 69	6.900000000000004e-01
	-6.806791339598708e-15
	-3.281202433022142e-18
	-3.494402273458990e-14
	5.068034520595610e-06
	5.978067937262363e-04
	7.955884425259687e-05
	2.069762171277605e-01

 70	7.000000000000004e-01
	-6.799255245176494e-15
	-3.348350898460655e-18
	-3.506474459420717e-14
	5.313837983031547e-06
	6.384480791675894e-04
	8.573719602167290e-05
	2.069768497265996e-01

 71	7.100000000000004e-01
	-6.792812654689045e-15
	-3.416763613612246e-18
	-3.518278288941846e-14
	5.568886941051980e-06
	6.811058517415896e-04
	9.233184680440045e-05
	2.069775303019089e-01

 72	7.200000000000004e-01
	-6.787440375695803e-15
	-3.486463852728713e-18
	-3.529816520091514e-14
	5.833372300617521e-06
	7.258043479735842e-04
	9.936306768119591e-05
	2.069782615891740e-01

 73	7.300000000000004e-01
	-6.783115328087728e-15
	-3.557475375142124e-18
	-3.541091984363414e-14
	6.107480536501202e-06
	7.725609243223795e-04
	1.068513362642723e-04
	2.069790463727554e-01

 74	7.400000000000004e-01
	-6.779814562160273e-15
	-3.629822437359767e-18
	-3.552107581378853e-14
	6.391393275885123e-06
	8.213855869848545e-04
	1.148172654361104e-04
	2.069798874750983e-01

 75	7.500000000000004e-01
	-6.777515275794112e-15
	-3.703529805477588e-18
	-3.562866273705114e-14
	6.685286899924239e-06
	8.722805643335218e-04
	1.232815276017741e-04
	2.069807877449698e-01

 76	7.600000000000005e-01
	-6.776194830749067e-15
	-3.778622767916661e-18
	-3.573371081793750e-14
	6.989332167005034e-06
	9.252399295689890e-04
	1.322647749213206e-04
	2.069817500448103e-01

 77	7.700000000000005e-01
	-6.775830768077680e-15
	-3.855127148494824e-18
	-3.583625079042959e-14
	7.303693861380844e-06
	9.802492808185343e-04
	1.417875560627440e-04
	2.069827772372657e-01

 78	7.800000000000005e-01
	-6.776400822668418e-15
	-3.933069319838651e-18
	-3.593631386987537e-14
	7.628530470766617e-06
	1.037285485401940e-03
	1.518702300857196e-04
	2.069838721710662e-01

 79	7.900000000000005e-01
	-6.777882936928898e-15
	-4.012476217146794e-18
	-3.603393170619569e-14
	7.963993896325133e-06
	1.096316494318724e-03
	1.625328781303433e-04
	2.069850376663321e-01

 80	8.000000000000005e-01
	-6.780255273622358e-15
	-4.093375352312355e-18
	-3.612913633842398e-14
	8.310229198271153e-06
	1.157301232193219e-03
	1.737952136414617e-04
	2.069862764995065e-01

 81	8.100000000000005e-01
	-6.783496227871162e-15
	-4.175794828414717e-18
	-3.622196015060090e-14
	8.667374380065994e-06
	1.220189566957354e-03
	1.856764919067367e-04
	2.069875913880213e-01

 82	8.200000000000005e-01
	-6.787584438343974e-15
	-4.259763354588596e-18
	-3.631243582904009e-14
	9.035560213869969e-06
	1.284922362470204e-03
	1.981954197238029e-04
	2.069889849749327e-01

 83	8.300000000000005e-01
	-6.792498797642739e-15
	-4.345310261281794e-18
	-3.640059632097970e-14
	9.414910109573779e-06
	1.351431616089293e-03
	2.113700660378050e-04
	2.069904598136371e-01

 84	8.400000000000005e-01
	-6.798218461908736e-15
	-4.432465515911019e-18
	-3.648647479462761e-14
	9.805540029342284e-06
	1.419640681943546e-03
	2.252177744041293e-04
	2.069920183529286e-01

 85	8.500000000000005e-01
	-6.804722859666159e-15
	-4.521259738926249e-18
	-3.657010460060732e-14
	1.020755844918710e-05
	1.489464579339737e-03
	2.397550781318206e-04
	2.069936629224897e-01

 86	8.600000000000005e-01
	-6.811991699924291e-15
	-4.611724220294567e-18
	-3.665151923480629e-14
	1.062106636863844e-05
	1.560810384390947e-03
	2.549976189503577e-04
	2.069953957190859e-01

 87	8.700000000000006e-01
	-6.820004979558514e-15
	-4.703890936415426e-18
	-3.673075230262641e-14
	1.104615736912767e-05
	1.633577701618947e-03
	2.709600700163509e-04
	2.069972187935643e-01

 88	8.800000000000006e-01
	-6.828742989992782e-15
	-4.797792567479212e-18
	-3.680783748463234e-14
	1.148291772122045e-05
	1.707659210982729e-03
	2.876560640372745e-04
	2.069991340388687e-01

 89	8.900000000000006e-01
	-6.838186323204950e-15
	-4.893462515280674e-18
	-3.688280850359233e-14
	1.193142654037169e-05
	1.782941284554314e-03
	3.050981272373248e-04
	2.070011431791833e-01

 90	9.000000000000006e-01
	-6.848315877078240e-15
	-4.990934921502648e-18
	-3.695569909290101e-14
	1.239175599041098e-05
	1.859304665929285e-03
	3.232976198265612e-04
	2.070032477603495e-01

 91	9.100000000000006e-01
	-6.859112860121605e-15
	-5.090244686481382e-18
	-3.702654296637420e-14
	1.286397153352297e-05
	1.936625204450826e-03
	3.422646835598874e-04
	2.070054491416783e-01

 92	9.200000000000006e-01
	-6.870558795582310e-15
	-5.191427488470319e-18
	-3.709537378940054e-14
	1.334813222506767e-05
	2.014774635466120e-03
	3.620081968885165e-04
	2.070077484892046e-01

 93	9.300000000000006e-01
	-6.882635524974175e-15
	-5.294519803416733e-18
	-3.716222515143479e-14
	1.384429105119621e-05
	2.093621397141993e-03
	3.825357381148297e-04
	2.070101467705169e-01

 94	9.400000000000006e-01
	-6.895325211044662e-15
	-5.399558925267560e-18
	-3.722713053981480e-14
	1.435249530687006e-05
	2.173031473859118e-03
	4.038535568639964e-04
	2.070126447511249e-01

 95	9.500000000000006e-01
	-6.908610340204397e-15
	-5.506582986821573e-18
	-3.729012331488223e-14
	1.487278701158298e-05
	2.252869255888988e-03
	4.259665540839307e-04
	2.070152429924437e-01

 96	9.600000000000006e-01
	-6.922473724442227e-15
	-5.615630981146219e-18
	-3.735123668638527e-14
	1.540520335982835e-05
	2.332998404941838e-03
	4.488782706814417e-04
	2.070179418513556e-01

 97	9.700000000000006e-01
	-6.936898502748940e-15
	-5.726742783577622e-18
	-3.741050369114075e-14
	1.594977720314418e-05
	2.413282715254145e-03
	4.725908847984611e-04
	2.070207414813295e-01

 98	9.800000000000006e-01
	-6.951868142072261e-15
	-5.839959174324033e-18
	-3.746795717193062e-14
	1.650653756041367e-05
	2.493586960156411e-03
	4.971052176302078e-04
	2.070236418350310e-01

 99	9.900000000000007e-01
	-6.967366437826059e-15
	-5.955321861691630e-18
	-3.752362975760698e-14
	1.707551015299271e-05
	2.573777714513330e-03
	5.224207475886761e-04
	2.070266426683898e-01

 100	1.000000000000001e+00
	-6.983377513975453e-15
	-6.072873505957478e-18
	-3.757755384437829e-14
	1.765671796118579e-05
	2.653724144044914e-03
	5.485356325219481e-04
	2.070297435459851e-01

 101	1.010000000000001e+00
	-6.999885822719532e-15
	-6.192657743909017e-18
	-3.762976157824915e-14
