Title: ** sch_path: /home/andylithia/openmpw/project-yatsuhashi-chip1/xschem/gmid_test/nmos_test.sch
Date: Sun Jul 17 22:51:45  2022
Plotname: DC transfer characteristic
Flags: real
No. Variables: 8
No. Points: 181
Variables:
	0	v(v-sweep)	voltage
	1	@m.xm1.msky130_fd_pr__nfet_01v8[cgb]	capacitance
	2	@m.xm1.msky130_fd_pr__nfet_01v8[cgd]	capacitance
	3	@m.xm1.msky130_fd_pr__nfet_01v8[cgs]	capacitance
	4	@m.xm1.msky130_fd_pr__nfet_01v8[gds]	admittance
	5	@m.xm1.msky130_fd_pr__nfet_01v8[gm]	admittance
	6	i(@m.xm1.msky130_fd_pr__nfet_01v8[id])	current
	7	v(@m.xm1.msky130_fd_pr__nfet_01v8[vth])	voltage
Values:
 0	0.000000000000000e+00
	-5.259650564714009e-15
	-5.379012074620238e-19
	-4.259647952863701e-15
	1.124415353399472e-09
	5.748087036265795e-08
	4.491684506251409e-09
	3.553030827248347e-01

 1	1.000000000000000e-02
	-5.199168383991229e-15
	-5.591090837832954e-19
	-4.391454581361599e-15
	1.276556905010534e-09
	6.520925134557493e-08
	5.104336383382790e-09
	3.553030827933749e-01

 2	2.000000000000000e-02
	-5.138585224754498e-15
	-5.811249685298823e-19
	-4.525350825252513e-15
	1.448781374904314e-09
	7.395712628209044e-08
	5.799266151992384e-09
	3.553030828711208e-01

 3	3.000000000000000e-02
	-5.077930342400439e-15
	-6.039771868444548e-19
	-4.661261117965974e-15
	1.643637177182218e-09
	8.385636223894917e-08
	6.587314859006797e-09
	3.553030829592830e-01

 4	4.000000000000000e-02
	-5.017234320951887e-15
	-6.276949254364312e-19
	-4.799104624224095e-15
	1.863975609031289e-09
	9.505571609412246e-08
	7.480724944098070e-09
	3.553030830592321e-01

 5	5.000000000000000e-02
	-4.956528975203961e-15
	-6.523082557376043e-19
	-4.938795397139385e-15
	2.112982845544361e-09
	1.077230505489117e-07
	8.493319972785091e-09
	3.553030831725177e-01

 6	6.000000000000000e-02
	-4.895847245372832e-15
	-6.778481579163028e-19
	-5.080242563096998e-15
	2.394214548691350e-09
	1.220478673962244e-07
	9.640708076250551e-09
	3.553030833008806e-01

 7	7.000000000000001e-02
	-4.835223084781639e-15
	-7.043465458060197e-19
	-5.223350533829159e-15
	2.711633157493979e-09
	1.382442096713061e-07
	1.094051252170512e-08
	3.553030834462948e-01

 8	8.000000000000000e-02
	-4.774691341190513e-15
	-7.318362928070193e-19
	-5.368019244847315e-15
	3.069647896595954e-09
	1.565539931226911e-07
	1.241263339646648e-08
	3.553030836109883e-01

 9	9.000000000000000e-02
	-4.714287632445556e-15
	-7.603512588222194e-19
	-5.514144419154946e-15
	3.473157503356625e-09
	1.772508374604644e-07
	1.407954504236816e-08
	3.553030837974737e-01

 10	9.999999999999999e-02
	-4.654048217183380e-15
	-7.899263182911601e-19
	-5.661617854929097e-15
	3.927595628639442e-09
	2.006444790702817e-07
	1.596663463684354e-08
	3.553030840085931e-01

 11	1.100000000000000e-01
	-4.594009861382789e-15
	-8.205973893891697e-19
	-5.810327735632885e-15
	4.438978813022823e-09
	2.270858592546135e-07
	1.810258819488530e-08
	3.553030842475516e-01

 12	1.200000000000000e-01
	-4.534209701602708e-15
	-8.524014644610764e-19
	-5.960158960805612e-15
	5.013956877757697e-09
	2.569729954029254e-07
	2.051983127267835e-08
	3.553030845179824e-01

 13	1.300000000000000e-01
	-4.474685105784089e-15
	-8.853766417619977e-19
	-6.110993495579946e-15
	5.659865498171835e-09
	2.907577564879956e-07
	2.325503279733924e-08
	3.553030848239843e-01

 14	1.400000000000000e-01
	-4.415473532523673e-15
	-9.195621585806931e-19
	-6.262710736792134e-15
	6.384780646335808e-09
	3.289536784447241e-07
	2.634968173204984e-08
	3.553030851702004e-01

 15	1.500000000000000e-01
	-4.356612389747400e-15
	-9.549984258236590e-19
	-6.415187893393001e-15
	7.197574499977922e-09
	3.721449685998755e-07
	2.985074771033286e-08
	3.553030855618843e-01

 16	1.600000000000000e-01
	-4.298138893721762e-15
	-9.917270641414343e-19
	-6.568300378728468e-15
	8.107972316515425e-09
	4.209968604076182e-07
	3.381143832704946e-08
	3.553030860049885e-01

 17	1.700000000000000e-01
	-4.240089929341241e-15
	-1.029790941681368e-18
	-6.721922212147117e-15
	9.126609665813096e-09
	4.762674890228381e-07
	3.829206743559320e-08
	3.553030865062635e-01

 18	1.800000000000000e-01
	-4.182501912619974e-15
	-1.069234213554553e-18
	-6.875926427306417e-15
	1.026508930451121e-08
	5.388214630851862e-07
	4.336105053472024e-08
	3.553030870733613e-01

 19	1.900000000000000e-01
	-4.125410656295362e-15
	-1.110102363107459e-18
	-7.030185484491542e-15
	1.153603686069046e-08
	6.096453065039743e-07
	4.909604508049917e-08
	3.553030877149724e-01

 20	2.000000000000000e-01
	-4.068851239421180e-15
	-1.152442245092504e-18
	-7.184571684233131e-15
	1.295315438307873e-08
	6.898649336814430e-07
	5.558525525336313e-08
	3.553030884409621e-01

 21	2.100000000000000e-01
	-4.012857881788101e-15
	-1.196302130834489e-18
	-7.338957579509904e-15
	1.453127069733570e-08
	7.807652998176114e-07
	6.292892224627503e-08
	3.553030892625498e-01

 22	2.200000000000001e-01
	-3.957463823960973e-15
	-1.241731755494557e-18
	-7.493216383853516e-15
	1.628638740722944e-08
	8.838123317881641e-07
	7.124102238889295e-08
	3.553030901924834e-01

 23	2.300000000000001e-01
	-3.902701213665597e-15
	-1.288782367535370e-18
	-7.647222372729979e-15
	1.823571928524378e-08
	1.000677191541541e-06
	8.065119622541414e-08
	3.553030912452690e-01

 24	2.400000000000001e-01
	-3.848600999193664e-15
	-1.337506780496105e-18
	-7.800851275659809e-15
	2.039772772039100e-08
	1.133262850067011e-06
	9.130693183183212e-08
	3.553030924374092e-01

 25	2.500000000000001e-01
	-3.795192830424143e-15
	-1.387959427189390e-18
	-7.953980656650640e-15
	2.279214583603905e-08
	1.283732853117457e-06
	1.033760249744327e-07
	3.553030937876775e-01

 26	2.600000000000001e-01
	-3.742504967983705e-15
	-1.440196416436080e-18
	-8.106490280652818e-15
	2.543999386290037e-08
	1.454542038072024e-06
	1.170493369353621e-07
	3.553030953174288e-01

 27	2.700000000000001e-01
	-3.690564200988898e-15
	-1.494275592458497e-18
	-8.258262463907870e-15
	2.836358335737783e-08
	1.648468813690518e-06
	1.325438677081300e-07
	3.553030970509416e-01

 28	2.800000000000001e-01
	-3.639395773729610e-15
	-1.550256597056825e-18
	-8.409182406237745e-15
	3.158650889830157e-08
	1.868648441628172e-06
	1.501061575390436e-07
	3.553030990158019e-01

 29	2.900000000000001e-01
	-3.589023321568563e-15
	-1.608200934698062e-18
	-8.559138503518649e-15
	3.513362598019621e-08
	2.118606562973770e-06
	1.700160232182137e-07
	3.553031012433155e-01

 30	3.000000000000001e-01
	-3.539468816245929e-15
	-1.668172040651992e-18
	-8.708022638791504e-15
	3.903101395214955e-08
	2.402291999642649e-06
	1.925906269009284e-07
	3.553031037689758e-01

 31	3.100000000000001e-01
	-3.490752520692874e-15
	-1.730235352313777e-18
	-8.855730450682393e-15
	4.330592303049433e-08
	2.724107636823762e-06
	2.181888644245748e-07
	3.553031066329321e-01

 32	3.200000000000001e-01
	-3.442892953374374e-15
	-1.794458383857807e-18
	-9.002161578031521e-15
	4.798670464163888e-08
	3.088937969403835e-06
	2.472160470256888e-07
	3.553031098805418e-01

 33	3.300000000000001e-01
	-3.395906862100189e-15
	-1.860910804374135e-18
	-9.147219879863621e-15
	5.310272462773965e-08
	3.502171685896447e-06
	2.801288351257817e-07
	3.553031135628998e-01

 34	3.400000000000001e-01
	-3.349809207165908e-15
	-1.929664519643811e-18
	-9.290813630062611e-15
	5.868425916946550e-08
	3.969717484082979e-06
	3.174403656598952e-07
	3.553031177374257e-01

 35	3.500000000000001e-01
	-3.304613153612324e-15
	-2.000793757716830e-18
	-9.432855686346481e-15
	6.476237364217981e-08
	4.498011181655414e-06
	3.597254956606501e-07
	3.553031224684413e-01

 36	3.600000000000002e-01
	-3.260330072324081e-15
	-2.074375158463022e-18
	-9.573263633362496e-15
	7.136878501725872e-08
	5.094012122103698e-06
	4.076260650626464e-07
	3.553031278277645e-01

 37	3.700000000000002e-01
	-3.216969549626038e-15
	-2.150487867272865e-18
	-9.711959899942282e-15
	7.853570884010808e-08
	5.765186900261729e-06
	4.618560617345365e-07
	3.553031338952937e-01

 38	3.800000000000002e-01
	-3.174539404980346e-15
	-2.229213633094423e-18
	-9.848871850764602e-15
	8.629569224977210e-08
	6.519478560889750e-06
	5.232065525409076e-07
	3.553031407595489e-01

 39	3.900000000000002e-01
	-3.133045716338427e-15
	-2.310636910999148e-18
	-9.983931852868979e-15
	9.468143493937285e-08
	7.365259671388454e-06
	5.925502269046334e-07
	3.553031485181817e-01

 40	4.000000000000002e-01
	-3.092492852659971e-15
	-2.394844969479281e-18
	-1.011707731764634e-14
	1.037256003784201e-07
	8.311268044629041e-06
	6.708453851183392e-07
	3.553031572784287e-01

 41	4.100000000000002e-01
	-3.052883513076586e-15
	-2.481928002688239e-18
	-1.024825071909906e-14
	1.134606200128515e-07
	9.366524390954797e-06
	7.591391938244655e-07
	3.553031671574718e-01

 42	4.200000000000002e-01
	-3.014218772150200e-15
	-2.571979247845967e-18
	-1.037739958931241e-14
	1.239184935119565e-07
	1.054023180174588e-05
	8.585700268971068e-07
	3.553031782827004e-01

 43	4.300000000000002e-01
	-2.976498130655956e-15
	-2.665095108040678e-18
	-1.050447649221149e-14
	1.351305884290654e-07
	1.184165769271617e-05
	9.703687125381610e-07
	3.553031907918473e-01

 44	4.400000000000002e-01
	-2.939719571306196e-15
	-2.761375280670242e-18
	-1.062943897679144e-14
	1.471274428718412e-07
	1.327999963532624e-05
	1.095858517637233e-06
	3.553032048329944e-01

 45	4.500000000000002e-01
	-2.903879618825026e-15
	-2.860922891779152e-18
	-1.075224951110410e-14
	1.599385749269589e-07
	1.486423734188015e-05
	1.236453718904768e-06
	3.553032205644095e-01

 46	4.600000000000002e-01
	-2.868973403782967e-15
	-2.963844636557658e-18
	-1.087287539836102e-14
	1.735923026435596e-07
	1.660297389869754e-05
	1.393656637118295e-06
	3.553032381542118e-01

 47	4.700000000000003e-01
	-2.834994729606367e-15
	-3.070250926284890e-18
	-1.099128867657128e-14
	1.881155783439218e-07
	1.850427011171989e-05
	1.569053045690370e-06
	3.553032577798590e-01

 48	4.800000000000003e-01
	-2.801936142187227e-15
	-3.180256042011767e-18
	-1.110746600317380e-14
	2.035338408950395e-07
	2.057547648776705e-05
	1.764305906822984e-06
	3.553032796274523e-01

 49	4.900000000000003e-01
	-2.769789001534843e-15
	-3.293978295293608e-18
	-1.122138852614823e-14
	2.198708893418302e-07
	2.282306787247062e-05
	1.981147436392895e-06
	3.553033038908388e-01

 50	5.000000000000002e-01
	-2.738543554930578e-15
	-3.411540196299986e-18
	-1.133304174309671e-14
	2.371487809755043e-07
	2.525248605926729e-05
	2.221369550579054e-06
	3.553033307705444e-01

 51	5.100000000000002e-01
	-2.708189011071061e-15
	-3.533068629645765e-18
	-1.144241534978258e-14
	2.553877564973757e-07
	2.786799573996792e-05
	2.486812800880044e-06
	3.553033604725401e-01

 52	5.200000000000002e-01
	-2.678713614711875e-15
	-3.658695038305634e-18
	-1.154950307959278e-14
	2.746061944505060e-07
	3.067255896752534e-05
	2.779353957095014e-06
	3.553033932068496e-01

 53	5.300000000000002e-01
	-2.650104721353231e-15
	-3.788555615994017e-18
	-1.165430253535833e-14
	2.948205965439720e-07
	3.366773284330487e-05
	3.100892447470147e-06
	3.553034291860266e-01

 54	5.400000000000003e-01
	-2.622348871541241e-15
	-3.922791508412964e-18
	-1.175681501492435e-14
	3.160456049047426e-07
	3.685359443938124e-05
	3.453335909018688e-06
	3.553034686235466e-01

 55	5.500000000000003e-01
	-2.595431864390598e-15
	-4.061549023792417e-18
	-1.185704533180989e-14
	3.382940516799149e-07
	4.022869605303753e-05
	3.838585136720260e-06
	3.553035117321087e-01

 56	5.600000000000003e-01
	-2.569338829969491e-15
	-4.204979853170145e-18
	-1.195500163223600e-14
	3.615770407979680e-07
	4.379005281240476e-05
	4.258518745995146e-06
	3.553035587219356e-01

 57	5.700000000000003e-01
	-2.544054300221364e-15
	-4.353241300884503e-18
	-1.205069520973539e-14
	3.859040611032998e-07
	4.753316346736859e-05
	4.714977877175480e-06
	3.553036097990475e-01

 58	5.800000000000003e-01
	-2.519562278133437e-15
	-4.506496525777594e-18
	-1.214414031848323e-14
	4.112831295234370e-07
	5.145206397369953e-05
	5.209751272902183e-06
	3.553036651636031e-01

 59	5.900000000000003e-01
	-2.495846304895808e-15
	-4.664914793635611e-18
	-1.223535398641336e-14
	4.377209624325106e-07
	5.553941227839829e-05
	5.744561049403007e-06
	3.553037250082948e-01

 60	6.000000000000003e-01
	-2.472889524829223e-15
	-4.828671741421769e-18
	-1.232435582910401e-14
	4.652231729533410e-07
	5.978660160483179e-05
	6.321049461027191e-06
	3.553037895168829e-01

 61	6.100000000000003e-01
	-2.450674747891749e-15
	-4.997949653887871e-18
	-1.241116786533729e-14
	4.937944916076738e-07
	6.418389857431931e-05
	6.940766925439918e-06
	3.553038588628386e-01

 62	6.200000000000003e-01
	-2.429184509606895e-15
	-5.172937753184375e-18
	-1.249581433515353e-14
	5.234390074882307e-07
	6.872060173162983e-05
	7.605161536211867e-06
	3.553039332081914e-01

 63	6.300000000000003e-01
	-2.408401128285204e-15
	-5.353832502122614e-18
	-1.257832152114123e-14
	5.541604269933238e-07
	7.338521549666914e-05
	8.315570242288840e-06
	3.553040127025218e-01

 64	6.400000000000003e-01
	-2.388306759440458e-15
	-5.540837921779320e-18
	-1.265871757362158e-14
	5.859623471350996e-07
	7.816563425899409e-05
	9.073211822306871e-06
	3.553040974821933e-01

 65	6.500000000000004e-01
	-2.368883447327913e-15
	-5.734165924174046e-18
	-1.273703234030872e-14
	6.188485405041150e-07
	8.304933126599067e-05
	9.879181728360562e-06
	3.553041876697587e-01

 66	6.600000000000004e-01
	-2.350113173557566e-15
	-5.934036660787325e-18
	-1.281329720094913e-14
	6.528232491384737e-07
	8.802354711531816e-05
	1.073444882095024e-05
	3.553042833736115e-01

 67	6.700000000000004e-01
	-2.331977902757702e-15
	-6.140678887735856e-18
	-1.288754490737104e-14
	6.878914847969606e-07
	9.307547302163489e-05
	1.163985396658894e-05
	3.553043846878218e-01

 68	6.800000000000004e-01
	-2.314459625285848e-15
	-6.354330348460844e-18
	-1.295980942930352e-14
	7.240593334598438e-07
	9.819242455137393e-05
	1.259611042374357e-05
	3.553044916921804e-01

 69	6.900000000000004e-01
	-2.297540397002816e-15
	-6.575238174839017e-18
	-1.303012580625863e-14
	7.613342622660814e-07
	1.033620021667012e-04
	1.360380590287829e-05
	3.553046044524308e-01

 70	7.000000000000004e-01
	-2.281202376142919e-15
	-6.803659307672758e-18
	-1.309853000570723e-14
	7.997254275274658e-07
	1.085722356474665e-04
	1.466340615337257e-05
	3.553047230206677e-01

 71	7.100000000000004e-01
	-2.265427857328747e-15
	-7.039860937572594e-18
	-1.316505878772053e-14
	8.392439829252571e-07
	1.138117102254188e-04
	1.577525990458951e-05
	3.553048474358981e-01

 72	7.200000000000004e-01
	-2.250199302792044e-15
	-7.284120967300314e-18
	-1.322974957619511e-14
	8.799033874807580e-07
	1.190696730290303e-04
	1.693960497055993e-05
	3.553049777247171e-01

 73	7.300000000000004e-01
	-2.235499370874124e-15
	-7.536728496701991e-18
	-1.329264033672939e-14
	9.217197133860431e-07
	1.243361191659013e-04
	1.815657531741613e-05
	3.553051139021001e-01

 74	7.400000000000004e-01
	-2.221310941888935e-15
	-7.797984331423713e-18
	-1.335376946117374e-14
	9.647119542760694e-07
	1.296018574356499e-04
	1.942620888938159e-05
	3.553052559722825e-01

 75	7.500000000000004e-01
	-2.207617141440234e-15
	-8.068201516669925e-18
	-1.341317565883549e-14
	1.008902335010628e-06
	1.348585562491488e-04
	2.074845599204678e-05
	3.553054039296963e-01

 76	7.600000000000005e-01
	-2.194401361291065e-15
	-8.347705897335421e-18
	-1.347089785428274e-14
	1.054316624509442e-06
	1.400987708170680e-04
	2.212318803994454e-05
	3.553055577599417e-01

 77	7.700000000000005e-01
	-2.181647277889209e-15
	-8.636836705917145e-18
	-1.352697509165829e-14
	1.100984453643314e-06
	1.453159530557064e-04
	2.355020648808288e-05
	3.553057174407991e-01

 78	7.800000000000005e-01
	-2.169338868655951e-15
	-8.935947179692349e-18
	-1.358144644538590e-14
	1.148939640628575e-06
	1.505044459408806e-04
	2.502925178307999e-05
	3.553058829432190e-01

 79	7.900000000000005e-01
	-2.157460426148833e-15
	-9.245405208732006e-18
	-1.363435093712585e-14
	1.198220526802412e-06
	1.556594642257416e-04
	2.656001218785455e-05
	3.553060542323169e-01

 80	8.000000000000005e-01
	-2.145996570210320e-15
	-9.565594016409086e-18
	-1.368572745881529e-14
	1.248870326077673e-06
	1.607770635343582e-04
	2.814213235354209e-05
	3.553062312683253e-01

 81	8.100000000000005e-01
	-2.134932258215510e-15
	-9.896912874153824e-18
	-1.373561470161060e-14
	1.300937491792202e-06
	1.658540998605937e-04
	2.977522153257157e-05
	3.553064140075214e-01

 82	8.200000000000005e-01
	-2.124252793531501e-15
	-1.023977785230993e-17
	-1.378405109053373e-14
	1.354476105087830e-06
	1.708881814538160e-04
	3.145886134694812e-05
	3.553066024030866e-01

 83	8.300000000000005e-01
	-2.113943832300437e-15
	-1.059462260904691e-17
	-1.383107472461256e-14
	1.409546289385566e-06
	1.758776149722632e-04
	3.319261304513070e-05
	3.553067964059263e-01

 84	8.400000000000005e-01
	-2.103991388656522e-15
	-1.096189921939883e-17
	-1.387672332229548e-14
	1.466214655977322e-06
	1.808213476444033e-04
	3.497602419903599e-05
	3.553069959654112e-01

 85	8.500000000000005e-01
	-2.094381838485228e-15
	-1.134207904661491e-17
	-1.392103417191358e-14
	1.524554786240648e-06
	1.857189070102812e-04
	3.680863480926925e-05
	3.553072010300706e-01

 86	8.600000000000005e-01
	-2.085101921830088e-15
	-1.173565365813249e-17
	-1.396404408695891e-14
	1.584647756514996e-06
	1.905703396295993e-04
	3.868998280149722e-05
	3.553074115481957e-01

 87	8.700000000000006e-01
	-2.076138744049641e-15
	-1.214313578861238e-17
	-1.400578936594437e-14
	1.646582712267864e-06
	1.953761499503253e-04
	4.061960890976916e-05
	3.553076274683941e-01

 88	8.800000000000006e-01
	-2.067479775823373e-15
	-1.256506035261891e-17
	-1.404630575660985e-14
	1.710457498843047e-06
	2.001372403388719e-04
	4.259706095357205e-05
	3.553078487400685e-01

 89	8.900000000000006e-01
	-2.059112852101943e-15
	-1.300198550966824e-17
	-1.408562842423987e-14
	1.776379356835799e-06
	2.048548530863806e-04
	4.462189752447327e-05
	3.553080753138197e-01

 90	9.000000000000006e-01
	-2.051026170093082e-15
	-1.345449378452668e-17
	-1.412379192385957e-14
	1.844465690998931e-06
	2.095305150300431e-04
	4.669369110544960e-05
	3.553083071418085e-01

 91	9.100000000000006e-01
	-2.043208286370224e-15
	-1.392319324580385e-17
	-1.416083017607983e-14
	1.914844922569868e-06
	2.141659852670309e-04
	4.881203065158569e-05
	3.553085441780365e-01

 92	9.200000000000006e-01
	-2.035648113186964e-15
	-1.440871874605399e-17
	-1.419677644636548e-14
	1.987657436041454e-06
	2.187632062933785e-04
	5.097652366484388e-05
	3.553087863785782e-01

 93	9.300000000000006e-01
	-2.028334914076029e-15
	-1.491173322678470e-17
	-1.423166332750687e-14
	2.063056632704626e-06
	2.233242587722213e-04
	5.318679779828333e-05
	3.553090337017650e-01

 94	9.400000000000006e-01
	-2.021258298807073e-15
	-1.543292909196013e-17
	-1.426552272507997e-14
	2.141210104795052e-06
	2.278513200252602e-04
	5.544250202658091e-05
	3.553092861083140e-01

 95	9.500000000000006e-01
	-2.014408217773409e-15
	-1.597302965379016e-17
	-1.429838584568747e-14
	2.222300945809784e-06
	2.323466262477201e-04
	5.774330742016091e-05
	3.553095435614093e-01

 96	9.600000000000006e-01
	-2.007774955873565e-15
	-1.653279065480632e-17
	-1.433028318777968e-14
	2.306529214558587e-06
	2.368124383694634e-04
	6.008890755983846e-05
	3.553098060267610e-01

 97	9.700000000000006e-01
	-2.001349125949095e-15
	-1.711300187045302e-17
	-1.436124453486202e-14
	2.394113572818638e-06
	2.412510114220700e-04
	6.247901862779228e-05
	3.553100734726019e-01

 98	9.800000000000006e-01
	-1.995121661836193e-15
	-1.771448879665107e-17
	-1.439129895090333e-14
	2.485293119114827e-06
	2.456645672219434e-04
	6.491337920900363e-05
	3.553103458696746e-01

 99	9.900000000000007e-01
	-1.989083811084657e-15
	-1.833811442704776e-17
	-1.442047477776683e-14
	2.580329444205073e-06
	2.500552701414531e-04
	6.739174983521784e-05
	3.553106231911766e-01

 100	1.000000000000001e+00
	-1.983227127393534e-15
	-1.898478112491681e-17
	-1.444879963449433e-14
	2.679508937368262e-06
	2.544252057118952e-04
	6.991391230104160e-05
	3.553109054126792e-01

 101	1.010000000000001e+00
	-1.977543462809483e-15
	-1.965543259495136e-17
	-1.447630041828149e-14
