Title: ** sch_path: /home/andylithia/openmpw/project-yatsuhashi-chip1/xschem/gmid_test/nmos_test.sch
Date: Sun Jul 17 22:51:45  2022
Plotname: DC transfer characteristic
Flags: real
No. Variables: 8
No. Points: 181
Variables:
	0	v(v-sweep)	voltage
	1	@m.xm1.msky130_fd_pr__nfet_01v8[cgb]	capacitance
	2	@m.xm1.msky130_fd_pr__nfet_01v8[cgd]	capacitance
	3	@m.xm1.msky130_fd_pr__nfet_01v8[cgs]	capacitance
	4	@m.xm1.msky130_fd_pr__nfet_01v8[gds]	admittance
	5	@m.xm1.msky130_fd_pr__nfet_01v8[gm]	admittance
	6	i(@m.xm1.msky130_fd_pr__nfet_01v8[id])	current
	7	v(@m.xm1.msky130_fd_pr__nfet_01v8[vth])	voltage
Values:
 0	0.000000000000000e+00
	-3.232130666635602e-15
	-5.247920942746361e-25
	-4.555177051575864e-18
	9.060794139105144e-26
	3.306800928694515e-23
	3.598395800198575e-25
	6.220981428608493e-01

 1	1.000000000000000e-02
	-3.218491081225834e-15
	-6.874408880175191e-25
	-4.544533080076485e-18
	2.271305710728339e-25
	8.289201400655359e-23
	9.020243491192975e-25
	6.220981428608493e-01

 2	2.000000000000000e-02
	-3.205020400321113e-15
	-9.004941163291428e-25
	-4.537199355231621e-18
	5.693182592656916e-25
	2.077787122675395e-22
	2.260985521091888e-24
	6.220981428608493e-01

 3	3.000000000000000e-02
	-3.191714995103600e-15
	-1.179568229327811e-24
	-4.534132857144293e-18
	1.427182003960305e-24
	5.208463660396744e-22
	5.667898045648648e-24
	6.220981428608493e-01

 4	4.000000000000000e-02
	-3.178571261786113e-15
	-1.545115341638262e-24
	-4.536592204658063e-18
	3.577353230666113e-24
	1.305551482053583e-21
	1.420706913466288e-23
	6.220981428608493e-01

 5	5.000000000000000e-02
	-3.165585597023006e-15
	-2.023918702649883e-24
	-4.546231726003535e-18
	8.967258196619034e-24
	3.272508844379715e-21
	3.561249030135190e-23
	6.220981428608493e-01

 6	6.000000000000000e-02
	-3.152754366682134e-15
	-2.651049298029082e-24
	-4.565224601625702e-18
	2.247664121821328e-23
	8.202502435605482e-21
	8.926353522626210e-23
	6.220981428608493e-01

 7	7.000000000000001e-02
	-3.140073865895401e-15
	-3.472424810660224e-24
	-4.596423868878744e-18
	5.633745225830688e-23
	2.055871408464536e-20
	2.237380624935980e-22
	6.220981428608493e-01

 8	8.000000000000000e-02
	-3.127540267698107e-15
	-4.548154739055648e-24
	-4.643572598970647e-18
	1.412058515136997e-22
	5.152522134708299e-20
	5.607836773732364e-22
	6.220981428608493e-01

 9	9.000000000000000e-02
	-3.115149556804808e-15
	-5.956910395395232e-24
	-4.711577703101848e-18
	3.538883636745555e-22
	1.291190794152705e-19
	1.405429137421651e-21
	6.220981428608493e-01

 10	9.999999999999999e-02
	-3.102897444128494e-15
	-7.801629027060898e-24
	-4.806865681501616e-18
	8.868071202635670e-22
	3.235075198121265e-19
	3.521858006215318e-21
	6.220981428608493e-01

 11	1.100000000000000e-01
	-3.090779256516854e-15
	-1.021695129474871e-23
	-4.937843235151736e-18
	2.221839237551201e-21
	8.103219521468935e-19
	8.823792833484688e-21
	6.220981428608493e-01

 12	1.200000000000000e-01
	-3.078789794863632e-15
	-1.337890522338158e-23
	-5.115490952720327e-18
	5.565037487180801e-21
	2.028797822995351e-18
	2.210094101322910e-20
	6.220981428608493e-01

 13	1.300000000000000e-01
	-3.066923152308306e-15
	-1.751749231009693e-23
	-5.354124007398436e-18
	1.393221963121436e-20
	5.075934835057644e-18
	5.533029474947772e-20
	6.220981428608493e-01

 14	1.400000000000000e-01
	-3.055172482796639e-15
	-2.293300740675762e-23
	-5.672359356644016e-18
	3.485401606929387e-20
	1.268569638513708e-17
	1.384189335693652e-19
	6.220981428608493e-01

 15	1.500000000000000e-01
	-3.043529709097996e-15
	-3.001713702926428e-23
	-6.094333205685458e-18
	8.709261372838170e-20
	3.164885501783406e-17
	3.458788421458993e-19
	6.220981428608493e-01

 16	1.600000000000000e-01
	-3.031985158907329e-15
	-3.928013234182696e-23
	-6.651213585558984e-18
	2.172285393296740e-19
	7.874376374940669e-17
	8.626995160580455e-19
	6.220981428608493e-01

 17	1.700000000000000e-01
	-3.020527118575887e-15
	-5.138564062196379e-23
	-7.383047993340571e-18
	5.402698186263360e-19
	1.950835083342339e-16
	2.145622821165173e-18
	6.220981428608493e-01

 18	1.800000000000000e-01
	-3.009141297197875e-15
	-6.719509411436832e-23
	-8.340971547952050e-18
	1.337736504994801e-18
	4.801157694239981e-16
	5.312675031852380e-18
	6.220981428608493e-01

 19	1.900000000000000e-01
	-2.997810200105625e-15
	-8.782388325989774e-23
	-9.589773624780229e-18
	3.289625431740787e-18
	1.169631045662130e-15
	1.306438961874491e-17
	6.220981428608493e-01

 20	2.000000000000000e-01
	-2.986512420533969e-15
	-1.147118659955110e-22
	-1.121077994646898e-17
	8.005418224791507e-18
	2.805898396218142e-15
	3.179264782704822e-17
	6.220981428608493e-01

 21	2.100000000000000e-01
	-2.975221869580146e-15
	-1.497110830872611e-22
	-1.330496066599299e-17
	1.918080852909043e-17
	6.580523479357605e-15
	7.617449507789377e-17
	6.220981428608493e-01

 22	2.200000000000001e-01
	-2.963906971680419e-15
	-1.951939057765949e-22
	-1.599614892377498e-17
	4.493791878816139e-17
	1.494552800600849e-14
	1.784660574742367e-16
	6.220981428608493e-01

 23	2.300000000000001e-01
	-2.952529842774650e-15
	-2.541853893934938e-22
	-1.943430333391001e-17
	1.020820840846402e-16
	3.251369397189546e-14
	4.054078961375438e-16
	6.220981428608493e-01

 24	2.400000000000001e-01
	-2.941045419938624e-15
	-3.305246888172927e-22
	-2.379895991360622e-17
	2.228077163798359e-16
	6.704729744162851e-14
	8.848566186064320e-16
	6.220981428608493e-01

 25	2.500000000000001e-01
	-2.929400399035796e-15
	-4.290626085533547e-22
	-2.930349694783766e-17
	4.636173147541199e-16
	1.301819824056983e-13
	1.841205760765899e-15
	6.220981428608493e-01

 26	2.600000000000001e-01
	-2.917531645330678e-15
	-5.559065265356545e-22
	-3.620163655513650e-17
	9.157957753003572e-16
	2.380655347944120e-13
	3.636983377515193e-15
	6.220981428608493e-01

 27	2.700000000000001e-01
	-2.905363489679563e-15
	-7.187308114021866e-22
	-4.479863846579265e-17
	1.718770697586151e-15
	4.133407970589800e-13
	6.825911068747695e-15
	6.220981428608493e-01

 28	2.800000000000001e-01
	-2.892803083210962e-15
	-9.271806334136575e-22
	-5.547058671110476e-17
	3.082197186975902e-15
	6.903394505908470e-13
	1.224061142620883e-14
	6.220981428608503e-01

 29	2.900000000000001e-01
	-2.879732874446357e-15
	-1.193408754495152e-21
	-6.869553481116812e-17
	5.326103299005431e-15
	1.124262878055716e-12
	2.115204144179236e-14
	6.220981428608503e-01

 30	3.000000000000001e-01
	-2.865999402996031e-15
	-1.532796060618400e-21
	-8.509962618603128e-17
	8.949421230854328e-15
	1.804688163782686e-12
	3.554165703879234e-14
	6.220981428608516e-01

 31	3.100000000000001e-01
	-2.851398006254517e-15
	-1.964913888487065e-21
	-1.055195425339974e-16
	1.473981368871625e-14
	2.875406687080662e-12
	5.853757744563847e-14
	6.220981428608540e-01

 32	3.200000000000001e-01
	-2.835653660173012e-15
	-2.514786075797890e-21
	-1.310799999568893e-16
	2.394592972483377e-14
	4.565137879907085e-12
	9.509868278223782e-14
	6.220981428608575e-01

 33	3.300000000000001e-01
	-2.818398965838806e-15
	-3.214497798467236e-21
	-1.632817728823998e-16
	3.854788674450140e-14
	7.236277357852612e-12
	1.530888096196989e-13
	6.220981428608636e-01

 34	3.400000000000001e-01
	-2.799151271182414e-15
	-4.105172833011805e-21
	-2.040918088962248e-16
	6.168399023245084e-14
	1.146244524041145e-11
	2.449714362347959e-13
	6.220981428608733e-01

 35	3.500000000000001e-01
	-2.777292174287640e-15
	-5.239295566846925e-21
	-2.560220366336731e-16
	9.832566698059855e-14
	1.815154639255664e-11
	3.904901423169866e-13
	6.220981428608865e-01

 36	3.600000000000002e-01
	-2.752054269811093e-15
	-6.683281941170644e-21
	-3.221771654574705e-16
	1.563459034591948e-13
	2.874074538153429e-11
	6.209118855309605e-13
	6.220981428609093e-01

 37	3.700000000000002e-01
	-2.722521965470473e-15
	-8.520097639067417e-21
	-4.062441883820925e-16
	2.482109075184247e-13
	4.550520385721737e-11
	9.857454770749286e-13
	6.220981428609453e-01

 38	3.800000000000002e-01
	-2.687655361322635e-15
	-1.085157891405447e-20
	-5.123880617108184e-16
	3.936584947103158e-13
	7.204688114004482e-11
	1.563379065983985e-12
	6.220981428610024e-01

 39	3.900000000000002e-01
	-2.646348021541569e-15
	-1.379993850633955e-20
	-6.450112959815011e-16
	6.239385658082055e-13
	1.140683873224441e-10
	2.477922149100040e-12
	6.220981428610920e-01

 40	4.000000000000002e-01
	-2.597529492466068e-15
	-1.750776568201394e-20
	-8.083359086267628e-16
	9.885264150438972e-13
	1.805981003992842e-10
	3.925870290861874e-12
	6.220981428612337e-01

 41	4.100000000000002e-01
	-2.540318653098455e-15
	-2.213572436606709e-20
	-1.005786179121594e-15
	1.565750323967288e-12
	2.859296423745628e-10
	6.218320345573835e-12
	6.220981428614586e-01

 42	4.200000000000002e-01
	-2.474220639511944e-15
	-2.785723286145891e-20
	-1.239204641621284e-15
	2.479614444853205e-12
	4.526921009793761e-10
	9.847802989576615e-12
	6.220981428618144e-01

 43	4.300000000000002e-01
	-2.399336805146932e-15
	-3.484980806189829e-20
	-1.508026330913712e-15
	3.926425414576658e-12
	7.167098427722936e-10
	1.559408326379818e-11
	6.220981428623779e-01

 44	4.400000000000002e-01
	-2.316530255910580e-15
	-4.328354084092052e-20
	-1.808641379778244e-15
	6.216928346794688e-12
	1.134694039077204e-09
	2.469163902580996e-11
	6.220981428632709e-01

 45	4.500000000000002e-01
	-2.227475430527349e-15
	-5.330820203920269e-20
	-2.134227689030719e-15
	9.842967099404946e-12
	1.796413351413914e-09
	3.909474560063577e-11
	6.220981428646836e-01

 46	4.600000000000002e-01
	-2.134538401739483e-15
	-6.504136273543988e-20
	-2.475257864038538e-15
	1.558289517425246e-11
	2.843945857340275e-09
	6.189698210660208e-11
	6.220981428669207e-01

 47	4.700000000000003e-01
	-2.040489632460514e-15
	-7.856013011602775e-20
	-2.820663019488854e-15
	2.466814486133429e-11
	4.502116337429025e-09
	9.799494233900772e-11
	6.220981428704613e-01

 48	4.800000000000003e-01
	-1.948119258750807e-15
	-9.389835573050575e-20
	-3.159366865451860e-15
	3.904614089046940e-11
	7.126577644603845e-09
	1.551378727111740e-10
	6.220981428760651e-01

 49	4.900000000000003e-01
	-1.859865943377882e-15
	-1.110496862521119e-19
	-3.481747613488234e-15
	6.179454204850694e-11
	1.127966395121417e-08
	2.455865520132647e-10
	6.220981428849376e-01

 50	5.000000000000002e-01
	-1.777558372076993e-15
	-1.299752633299410e-19
	-3.780640185497203e-15
	9.777205791976052e-11
	1.784980547969096e-08
	3.887323036381271e-10
	6.220981428989782e-01

 51	5.100000000000002e-01
	-1.702314502248787e-15
	-1.506139173717975e-19
	-4.051709127617111e-15
	1.546363311965008e-10
	2.823889029864932e-08
	6.152249997250918e-10
	6.220981429211943e-01

 52	5.200000000000002e-01
	-1.634583291275680e-15
	-1.728926118934400e-19
	-4.293261059096448e-15
	2.444244510787594e-10
	4.465464989967652e-08
	9.734623148122035e-10
	6.220981429563333e-01

 53	5.300000000000002e-01
	-1.574276991271977e-15
	-1.967354775236848e-19
	-4.505706740653305e-15
	3.859788053293581e-10
	7.056295425399056e-08
	1.539747809727810e-09
	6.220981430118792e-01

 54	5.400000000000003e-01
	-1.520936528515207e-15
	-2.220706024350604e-19
	-4.690900794379306e-15
	6.086012185016876e-10
	1.113774513223136e-07
	2.434084106326274e-09
	6.220981430996014e-01

 55	5.500000000000003e-01
	-1.473887298354725e-15
	-2.488344618121858e-19
	-4.851525910848816e-15
	9.573903635154722e-10
	1.754858903151784e-07
	3.844456706458177e-09
	6.220981432379414e-01

 56	5.600000000000003e-01
	-1.432363167287183e-15
	-2.769743134267794e-19
	-4.990606629836646e-15
	1.500643145006081e-09
	2.757142166211607e-07
	6.063497885410586e-09
	6.220981434556014e-01

 57	5.700000000000003e-01
	-1.395593027207393e-15
	-3.064490668301837e-19
	-5.111172673110890e-15
	2.339211644696748e-09
	4.312573799472717e-07
	9.542169208099802e-09
	6.220981437968156e-01

 58	5.800000000000003e-01
	-1.362853923935975e-15
	-3.372291346400399e-19
	-5.216054344885420e-15
	3.616325848063868e-09
	6.698378278293648e-07
	1.496428937618235e-08
	6.220981443286570e-01

 59	5.900000000000003e-01
	-1.333498612038684e-15
	-3.692956861802478e-19
	-5.307778144961349e-15
	5.523602920627927e-09
	1.029181797801168e-06
	2.334042124755859e-08
	6.220981451502504e-01

 60	6.000000000000003e-01
	-1.306965624809321e-15
	-4.026396105310588e-19
	-5.388530353579975e-15
	8.295120327919822e-09
	1.555697923689176e-06
	3.610488988022289e-08
	6.220981464022864e-01

 61	6.100000000000003e-01
	-1.282778547767146e-15
	-4.372603924219780e-19
	-5.460162199565925e-15
	1.217968955309950e-08
	2.297136118177864e-06
	5.517224036595615e-08
	6.220981482725568e-01

 62	6.200000000000003e-01
	-1.260539370276044e-15
	-4.731650234607507e-19
	-5.524217534123315e-15
	1.738845636054471e-08
	3.287430925641770e-06
	8.288076861429953e-08
	6.220981509904229e-01

 63	6.300000000000003e-01
	-1.239919156411861e-15
	-5.103670140746467e-19
	-5.581970424165923e-15
	2.403383135318800e-08
	4.528629818760791e-06
	1.217618673787802e-07
	6.220981548041840e-01

 64	6.400000000000003e-01
	-1.220648021674574e-15
	-5.488855342855428e-19
	-5.634465018850680e-15
	3.209292594351794e-08
	5.982719729372124e-06
	1.741662344234875e-07
	6.220981599444182e-01

 65	6.500000000000004e-01
	-1.202505528268976e-15
	-5.887446889089877e-19
	-5.682553457587269e-15
	4.141983609055971e-08
	7.582845895269586e-06
	2.419032363595950e-07
	6.220981665886075e-01

 66	6.600000000000004e-01
	-1.185312045662995e-15
	-6.299729203527239e-19
	-5.726929782773690e-15
	5.179757187173694e-08
	9.257258499720879e-06
	3.260684245836962e-07
	6.220981748442135e-01

 67	6.700000000000004e-01
	-1.168921279568719e-15
	-6.726025262673191e-19
	-5.768159141412989e-15
	6.299696253281095e-08
	1.094947231997380e-05
	4.271044374318004e-07
	6.220981847546579e-01

 68	6.800000000000004e-01
	-1.153213978276547e-15
	-7.166692772275899e-19
	-5.806702298131528e-15
	7.481676262412261e-08
	1.262544380273108e-05
	5.450006179712067e-07
	6.220981963188983e-01

 69	6.900000000000004e-01
	-1.138092725755258e-15
	-7.622121196614073e-19
	-5.842935853880515e-15
	8.709970963714507e-08
	1.427037772577582e-05
	6.795072634463437e-07
	6.220982095124422e-01

 70	7.000000000000004e-01
	-1.123477688357321e-15
	-8.092729503708204e-19
	-5.877168717743366e-15
	9.973207904593043e-08
	1.588184552393198e-05
	8.302943842493369e-07
	6.220982243029229e-01

 71	7.100000000000004e-01
	-1.109303171713614e-15
	-8.578964506129055e-19
	-5.909655409614084e-15
	1.126359206251102e-07
	1.746365185284242e-05
	9.970431366503040e-07
	6.220982406590643e-01

 72	7.200000000000004e-01
	-1.095514851143213e-15
	-9.081299694707280e-19
	-5.940606738264836e-15
	1.257599050217888e-07
	1.902181968716431e-05
	1.179486286261582e-06
	6.220982585546554e-01

 73	7.300000000000004e-01
	-1.082067553505587e-15
	-9.600234479416462e-19
	-5.970198337526554e-15
	1.390714095141236e-07
	2.056244918464166e-05
	1.377418390878300e-06
	6.220982779695434e-01

 74	7.400000000000004e-01
	-1.068923485678548e-15
	-1.013629376701085e-18
	-5.998577472740987e-15
	1.525505242229745e-07
	2.209079649729247e-05
	1.590691210991728e-06
	6.220982988891868e-01

 75	7.500000000000004e-01
	-1.056050821960948e-15
	-1.069002781825581e-18
	-6.025868460769032e-15
	1.661858213516121e-07
	2.361101784593559e-05
	1.819203612631470e-06
	6.220983213036634e-01

 76	7.600000000000005e-01
	-1.043422578315707e-15
	-1.126201233880724e-18
	-6.052176984619739e-15
	1.799714887261970e-07
	2.512622404454091e-05
	2.062890682739697e-06
	6.220983452066070e-01

 77	7.700000000000005e-01
	-1.031015714947907e-15
	-1.185284876712886e-18
	-6.077593530041163e-15
	1.939054360535327e-07
	2.663865054696104e-05
	2.321714079872718e-06
	6.220983705942550e-01

 78	7.800000000000005e-01
	-1.018810420165085e-15
	-1.246316473050798e-18
	-6.102196126354220e-15
	2.079880643332639e-07
	2.814984806038447e-05
	2.595654239045817e-06
	6.220983974646860e-01

 79	7.900000000000005e-01
	-1.006789537927738e-15
	-1.309361464650732e-18
	-6.126052536754623e-15
	2.222214758236903e-07
	2.966085371760473e-05
	2.884704404342335e-06
	6.220984258172386e-01

 80	8.000000000000005e-01
	-9.949381092016569e-16
	-1.374488045228746e-18
	-6.149222013253345e-15
	2.366089722615699e-07
	3.117233025600747e-05
	3.188866216973789e-06
	6.220984556520710e-01

 81	8.100000000000005e-01
	-9.832430034309249e-16
	-1.441767244836681e-18
	-6.171756707293097e-15
	2.511547400532086e-07
	3.268467303837984e-05
	3.508146531719157e-06
	6.220984869698564e-01

 82	8.200000000000005e-01
	-9.716926214140783e-16
	-1.511273024673776e-18
	-6.193702807841275e-15
	2.658636562173144e-07
	3.419808948580908e-05
	3.842555161000786e-06
	6.220985197715538e-01

 83	8.300000000000005e-01
	-9.602766548126831e-16
	-1.583082381596925e-18
	-6.215101463507934e-15
	2.807411722398286e-07
	3.571265662420600e-05
	4.192103299132070e-06
	6.220985540582619e-01

 84	8.400000000000005e-01
	-9.489858906467023e-16
	-1.657275461813055e-18
	-6.235989533193166e-15
	2.957932483172697e-07
	3.722836205147373e-05
	4.556802435054424e-06
	6.220985898311071e-01

 85	8.500000000000005e-01
	-9.378120515981263e-16
	-1.733935683417117e-18
	-6.256400200283641e-15
	3.110263203935609e-07
	3.874513271972027e-05
	4.936663610571869e-06
	6.220986270911709e-01

 86	8.600000000000005e-01
	-9.267476648874871e-16
	-1.813149867586452e-18
	-6.276363477965388e-15
	3.264472887911103e-07
	4.026285495032514e-05
	5.331696920103235e-06
	6.220986658394431e-01

 87	8.700000000000006e-01
	-9.157859540162745e-16
	-1.895008378364420e-18
	-6.295906627370387e-15
	3.420635213425989e-07
	4.178138823910163e-05
	5.741911177717414e-06
	6.220987060767870e-01

 88	8.800000000000006e-01
	-9.049207488691667e-16
	-1.979605271068038e-18
	-6.315054505687950e-15
	3.578828665612515e-07
	4.330057471539288e-05
	6.167313699178960e-06
	6.220987478039208e-01

 89	8.900000000000006e-01
	-8.941464106131307e-16
	-2.067038449440644e-18
	-6.333829857776152e-15
	3.739136740739710e-07
	4.482024558813638e-05
	6.607910162590142e-06
	6.220987910213994e-01

 90	9.000000000000006e-01
	-8.834577685712545e-16
	-2.157409831744201e-18
	-6.352253561989261e-15
	3.901648206246192e-07
	4.634022551876875e-05
	7.063704522476032e-06
	6.220988357296113e-01

 91	9.100000000000006e-01
	-8.728500668310187e-16
	-2.250825526051596e-18
	-6.370344838725729e-15
	4.066457406529997e-07
	4.786033557626175e-05
	7.534698960057787e-06
	6.220988819287694e-01

 92	9.200000000000006e-01
	-8.623189188041969e-16
	-2.347396015055048e-18
	-6.388121428465267e-15
	4.233664609087190e-07
	4.938039522703020e-05
	8.020893857939664e-06
	6.220989296189107e-01

 93	9.300000000000006e-01
	-8.518602683156190e-16
	-2.447236350761082e-18
	-6.405599744698578e-15
	4.403376388577209e-07
	5.090022367015640e-05
	8.522287791209082e-06
	6.220989787998951e-01

 94	9.400000000000006e-01
	-8.414703560815099e-16
	-2.550466359489423e-18
	-6.422795006079422e-15
	4.575706048402094e-07
	5.241964072942882e-05
	9.038877529528777e-06
	6.220990294714047e-01

 95	9.500000000000006e-01
	-8.311456906620926e-16
	-2.657210857639774e-18
	-6.439721351281208e-15
	4.750774080784282e-07
	5.393846744545699e-05
	9.570658046552073e-06
	6.220990816329460e-01

 96	9.600000000000006e-01
	-8.208830231500189e-16
	-2.767599878734631e-18
	-6.456391939370848e-15
	4.928708667349510e-07
	5.545652646438880e-05
	1.011762253417661e-05
	6.220991352838515e-01

 97	9.700000000000006e-01
	-8.106793249964534e-16
	-2.881768912289658e-18
	-6.472819037982137e-15
	5.109646223018938e-07
	5.697364228798559e-05
	1.067976241994819e-05
	6.220991904232794e-01

 98	9.800000000000006e-01
	-8.005317684880732e-16
	-2.999859155106082e-18
	-6.489014101149336e-15
	5.293731986685395e-07
	5.848964142808746e-05
	1.125706738645822e-05
	6.220992470502158e-01

 99	9.900000000000007e-01
	-7.904377094769646e-16
	-3.122017775623841e-18
	-6.504987838325765e-15
	5.481120662758522e-07
	6.000435249421600e-05
	1.184952539193137e-05
	6.220993051634814e-01

 100	1.000000000000001e+00
	-7.803946720362630e-16
	-3.248398192017389e-18
	-6.520750275843752e-15
	5.671977118256784e-07
	6.151760623298078e-05
	1.245712269143655e-05
	6.220993647617260e-01

 101	1.010000000000001e+00
	-7.704003347714465e-16
	-3.379160364763787e-18
	-6.536310811856135e-15
