Title: ** sch_path: /home/andylithia/openmpw/project-yatsuhashi-chip1/xschem/gmid_test/nmos_test.sch
Date: Tue Jul 19 23:15:45  2022
Plotname: DC transfer characteristic
Flags: real
No. Variables: 8
No. Points: 181
Variables:
	0	v(v-sweep)	voltage
	1	@m.xm1.msky130_fd_pr__nfet_01v8[cgb]	capacitance
	2	@m.xm1.msky130_fd_pr__nfet_01v8[cgd]	capacitance
	3	@m.xm1.msky130_fd_pr__nfet_01v8[cgs]	capacitance
	4	@m.xm1.msky130_fd_pr__nfet_01v8[gds]	admittance
	5	@m.xm1.msky130_fd_pr__nfet_01v8[gm]	admittance
	6	i(@m.xm1.msky130_fd_pr__nfet_01v8[id])	current
	7	v(@m.xm1.msky130_fd_pr__nfet_01v8[vth])	voltage
Values:
 0	0.000000000000000e+00
	-1.673582522637577e-14
	-1.480361725081704e-18
	-3.500382450720978e-14
	3.404746730525927e-08
	1.271821043431010e-06
	1.716746559864981e-07
	1.580477190329473e-01

 1	1.000000000000000e-02
	-1.655919632844928e-14
	-1.513597489846262e-18
	-3.542958615247071e-14
	3.652936561556997e-08
	1.369116127740120e-06
	1.848732795025446e-07
	1.580477200220074e-01

 2	2.000000000000000e-02
	-1.638513605393831e-14
	-1.547524550918811e-18
	-3.585411370885851e-14
	3.918198399240683e-08
	1.473970804443075e-06
	1.990821574485129e-07
	1.580477210878715e-01

 3	3.000000000000000e-02
	-1.621367236147312e-14
	-1.582155756817719e-18
	-3.627727676255301e-14
	4.201608439514537e-08
	1.587002934409117e-06
	2.143799312901983e-07
	1.580477222366771e-01

 4	4.000000000000000e-02
	-1.604483199888546e-14
	-1.617504172993860e-18
	-3.669894631501924e-14
	4.504301964928248e-08
	1.708885149826955e-06
	2.308516907978995e-07
	1.580477234750840e-01

 5	5.000000000000000e-02
	-1.587864045885784e-14
	-1.653583085957068e-18
	-3.711899492064270e-14
	4.827475879689647e-08
	1.840350047461386e-06
	2.485895473314510e-07
	1.580477248103305e-01

 6	6.000000000000000e-02
	-1.571512193757103e-14
	-1.690406007517616e-18
	-3.753729682096298e-14
	5.172391302577576e-08
	1.982195869083392e-06
	2.676932614610340e-07
	1.580477262502806e-01

 7	7.000000000000001e-02
	-1.555429929640784e-14
	-1.727986679145746e-18
	-3.795372807522042e-14
	5.540376215747098e-08
	2.135292708373770e-06
	2.882709299902121e-07
	1.580477278034863e-01

 8	8.000000000000000e-02
	-1.539619402675980e-14
	-1.766339076452909e-18
	-3.836816668694679e-14
	5.932828167221570e-08
	2.300589285509254e-06
	3.104397378502857e-07
	1.580477294792518e-01

 9	9.000000000000000e-02
	-1.524082621797688e-14
	-1.805477413798215e-18
	-3.878049272634178e-14
	6.351217024626181e-08
	2.479120332437897e-06
	3.343267807561793e-07
	1.580477312877159e-01

 10	9.999999999999999e-02
	-1.508821452848842e-14
	-1.845416149023349e-18
	-3.919058844819619e-14
	6.797087777472968e-08
	2.672014633497335e-06
	3.600699649525615e-07
	1.580477332399153e-01

 11	1.100000000000000e-01
	-1.493837616011661e-14
	-1.886169988319903e-18
	-3.959833840513192e-14
	7.272063385053626e-08
	2.880503767476943e-06
	3.878189908326696e-07
	1.580477353478918e-01

 12	1.200000000000000e-01
	-1.479132683559226e-14
	-1.927753891232929e-18
	-4.000362955595291e-14
	7.777847666738073e-08
	3.105931598424537e-06
	4.177364276797451e-07
	1.580477376247673e-01

 13	1.300000000000000e-01
	-1.464708077927539e-14
	-1.970183075804145e-18
	-4.040635136890991e-14
	8.316228231201764e-08
	3.349764563386271e-06
	4.499988872583030e-07
	1.580477400848766e-01

 14	1.400000000000000e-01
	-1.450565070107184e-14
	-2.013473023858632e-18
	-4.080639591970826e-14
	8.889079440833265e-08
	3.613602805789808e-06
	4.847983044677149e-07
	1.580477427438620e-01

 15	1.500000000000000e-01
	-1.436704778352973e-14
	-2.057639486439609e-18
	-4.120365798409694e-14
	9.498365407271172e-08
	3.899192203253549e-06
	5.223433337578272e-07
	1.580477456188200e-01

 16	1.600000000000000e-01
	-1.423128167208990e-14
	-2.102698489394501e-18
	-4.159803512490301e-14
	1.014614301372364e-07
	4.208437338165331e-06
	5.628608704928203e-07
	1.580477487284292e-01

 17	1.700000000000000e-01
	-1.409836046845577e-14
	-2.148666339116828e-18
	-4.198942777338837e-14
	1.083456495939934e-07
	4.543415458328106e-06
	6.065977069278173e-07
	1.580477520931189e-01

 18	1.800000000000000e-01
	-1.396829072703943e-14
	-2.195559628447616e-18
	-4.237773930482891e-14
	1.156588282104330e-07
	4.906391473237052e-06
	6.538223329277353e-07
	1.580477557352376e-01

 19	1.900000000000000e-01
	-1.384107745443341e-14
	-2.243395242742024e-18
	-4.276287610823196e-14
	1.234245012622079e-07
	5.299834029033380e-06
	7.048268920014803e-07
	1.580477596792352e-01

 20	2.000000000000000e-01
	-1.371672411184856e-14
	-2.292190366102972e-18
	-4.314474765012777e-14
	1.316672543261055e-07
	5.726432701773753e-06
	7.599293036383934e-07
	1.580477639518802e-01

 21	2.100000000000000e-01
	-1.359523262045203e-14
	-2.341962487789281e-18
	-4.352326653239028e-14
	1.404127540718252e-07
	6.189116344261453e-06
	8.194755633093484e-07
	1.580477685824783e-01

 22	2.200000000000001e-01
	-1.347660336953156e-14
	-2.392729408799972e-18
	-4.389834854405928e-14
	1.496877789870608e-07
	6.691072616187738e-06
	8.838422318201727e-07
	1.580477736031279e-01

 23	2.300000000000001e-01
	-1.336083522740586e-14
	-2.444509248641608e-18
	-4.426991270715594e-14
	1.595202499659822e-07
	7.235768720628254e-06
	9.534391259702338e-07
	1.580477790489865e-01

 24	2.400000000000001e-01
	-1.324792555499477e-14
	-2.497320452282362e-18
	-4.463788131650019e-14
	1.699392606863989e-07
	7.826973361905976e-06
	1.028712222659781e-06
	1.580477849585758e-01

 25	2.500000000000001e-01
	-1.313787022195633e-14
	-2.551181797297793e-18
	-4.500217997355769e-14
	1.809751076959641e-07
	8.468779930366121e-06
	1.110146788693690e-06
	1.580477913740942e-01

 26	2.600000000000001e-01
	-1.303066362529407e-14
	-2.606112401212890e-18
	-4.536273761435827e-14
	1.926593201223852e-07
	9.165630908588827e-06
	1.198270748530082e-06
	1.580477983417896e-01

 27	2.700000000000001e-01
	-1.292629871033092e-14
	-2.662131729047076e-18
	-4.571948653154787e-14
	2.050246889170722e-07
	9.922343480898047e-06
	1.293658302105772e-06
	1.580478059123271e-01

 28	2.800000000000001e-01
	-1.282476699394380e-14
	-2.719259601065074e-18
	-4.607236239064808e-14
	2.181052955356130e-07
	1.074413631359714e-05
	1.396933804617142e-06
	1.580478141412261e-01

 29	2.900000000000001e-01
	-1.272605858994775e-14
	-2.777516200740999e-18
	-4.642130424061533e-14
	2.319365399523399e-07
	1.163665745710243e-05
	1.508775919729746e-06
	1.580478230893131e-01

 30	3.000000000000001e-01
	-1.263016223651571e-14
	-2.836922082939875e-18
	-4.676625451880454e-14
	2.465551678995745e-07
	1.260601330296581e-05
	1.629922057111166e-06
	1.580478328232143e-01

 31	3.100000000000001e-01
	-1.253706532551709e-14
	-2.897498182322992e-18
	-4.710715905045609e-14
	2.619992972153597e-07
	1.365879850863414e-05
	1.761173104411860e-06
	1.580478434158996e-01

 32	3.200000000000001e-01
	-1.244675393365618e-14
	-2.959265821981754e-18
	-4.744396704283738e-14
	2.783084431762796e-07
	1.480212678064638e-05
	1.903398462837147e-06
	1.580478549472771e-01

 33	3.300000000000001e-01
	-1.235921285528896e-14
	-3.022246722308049e-18
	-4.777663107418411e-14
	2.955235426846659e-07
	1.604366238282409e-05
	2.057541394240800e-06
	1.580478675048101e-01

 34	3.400000000000001e-01
	-1.227442563679652e-14
	-3.086463010104191e-18
	-4.810510707759333e-14
	3.136869771717870e-07
	1.739165220988030e-05
	2.224624686205368e-06
	1.580478811842076e-01

 35	3.500000000000001e-01
	-1.219237461239189e-14
	-3.151937227941632e-18
	-4.842935432003507e-14
	3.328425940709103e-07
	1.885495823884235e-05
	2.405756639839228e-06
	1.580478960901655e-01

 36	3.600000000000002e-01
	-1.211304094123639e-14
	-3.218692343772913e-18
	-4.874933537665560e-14
	3.530357267063159e-07
	2.044309014085243e-05
	2.602137382995275e-06
	1.580479123371508e-01

 37	3.700000000000002e-01
	-1.203640464574271e-14
	-3.286751760803867e-18
	-4.906501610055443e-14
	3.743132124363491e-07
	2.216623780443484e-05
	2.815065509283282e-06
	1.580479300502629e-01

 38	3.800000000000002e-01
	-1.196244465094155e-14
	-3.356139327633531e-18
	-4.937636558822517e-14
	3.967234088809995e-07
	2.403530348843433e-05
	3.045945040595048e-06
	1.580479493661320e-01

 39	3.900000000000002e-01
	-1.189113882479018e-14
	-3.426879348667514e-18
	-4.968335614085469e-14
	4.203162080567480e-07
	2.606193328878019e-05
	3.296292707870558e-06
	1.580479704339124e-01

 40	4.000000000000002e-01
	-1.182246401930194e-14
	-3.498996594813225e-18
	-4.998596322168498e-14
	4.451430482343215e-07
	2.825854756839533e-05
	3.567745541500780e-06
	1.580479934163054e-01

 41	4.100000000000002e-01
	-1.175639611237900e-14
	-3.572516314463327e-18
	-5.028416540963966e-14
	4.712569233281836e-07
	3.063836996431891e-05
	3.862068759075816e-06
	1.580480184906808e-01

 42	4.200000000000002e-01
	-1.169291005023042e-14
	-3.647464244775289e-18
	-5.057794434942876e-14
	4.987123896206277e-07
	3.321545455097200e-05
	4.181163934151061e-06
	1.580480458502463e-01

 43	4.300000000000002e-01
	-1.163197989026254e-14
	-3.723866623255100e-18
	-5.086728469834155e-14
	5.275655696181251e-07
	3.600471070398819e-05
	4.527077425316058e-06
	1.580480757052826e-01

 44	4.400000000000002e-01
	-1.157357884432990e-14
	-3.801750199652827e-18
	-5.115217406994235e-14
	5.578741528335208e-07
	3.902192517582289e-05
	4.902009040124921e-06
	1.580481082844760e-01

 45	4.500000000000002e-01
	-1.151767932223793e-14
	-3.881142248177959e-18
	-5.143260297488610e-14
	5.896973932852449e-07
	4.228378086315464e-05
	5.308320903399922e-06
	1.580481438362758e-01

 46	4.600000000000002e-01
	-1.146425297539309e-14
	-3.962070580044359e-18
	-5.170856475906778e-14
	6.230961035034084e-07
	4.580787171765995e-05
	5.748546494069510e-06
	1.580481826303506e-01

 47	4.700000000000003e-01
	-1.141327074049874e-14
	-4.044563556351693e-18
	-5.198005553932147e-14
	6.581326448340075e-07
	4.961271322699041e-05
	6.225399809090609e-06
	1.580482249590859e-01

 48	4.800000000000003e-01
	-1.136470288319892e-14
	-4.128650101313999e-18
	-5.224707413688353e-14
	6.948709138355216e-07
	5.371774787255750e-05
	6.741784607162207e-06
	1.580482711391582e-01

 49	4.900000000000003e-01
	-1.131851904157637e-14
	-4.214359715843484e-18
	-5.250962200883168e-14
	7.333763245683839e-07
	5.814334495607217e-05
	7.300803678924466e-06
	1.580483215131447e-01

 50	5.000000000000002e-01
	-1.127468826941513e-14
	-4.301722491499985e-18
	-5.276770317770936e-14
	7.737157865867025e-07
	6.291079417863852e-05
	7.905768084205707e-06
	1.580483764511885e-01

 51	5.100000000000002e-01
	-1.123317907914259e-14
	-4.390769124815826e-18
	-5.302132415954192e-14
	8.159576784541659e-07
	6.804229235563445e-05
	8.560206290706461e-06
	1.580484363527065e-01

 52	5.200000000000002e-01
	-1.119395948436908e-14
	-4.481530932005696e-18
	-5.327049389044744e-14
	8.601718166222922e-07
	7.356092265862647e-05
	9.267873142372382e-06
	1.580485016481042e-01

 53	5.300000000000002e-01
	-1.115699704194941e-14
	-4.574039864073619e-18
	-5.351522365204008e-14
	9.064294195296423e-07
	7.949062579316741e-05
	1.003275857969704e-05
	1.580485728005292e-01

 54	5.400000000000003e-01
	-1.112225889349358e-14
	-4.668328522325149e-18
	-5.375552699581923e-14
	9.548030668057611e-07
	8.585616254947360e-05
	1.085909602841529e-05
	1.580486503076209e-01

 55	5.500000000000003e-01
	-1.108971180625865e-14
	-4.764430174299620e-18
	-5.399141966673397e-14
	1.005366653493608e-06
	9.268306720254111e-05
	1.175137036760561e-05
	1.580487347032317e-01

 56	5.600000000000003e-01
	-1.105932221335966e-14
	-4.862378770130846e-18
	-5.422291952610377e-14
	1.058195339239438e-06
	9.999759128997289e-05
	1.271432538323189e-05
	1.580488265591337e-01

 57	5.700000000000003e-01
	-1.103105625324002e-14
	-4.962208959350499e-18
	-5.445004647407330e-14
	1.113365492440207e-06
	1.078266373603071e-04
	1.375297060875282e-05
	1.580489264866624e-01

 58	5.800000000000003e-01
	-1.100487980834797e-14
	-5.063956108145579e-18
	-5.467282237177072e-14
	1.170954629385102e-06
	1.161976823623347e-04
	1.487258745073304e-05
	1.580490351382954e-01

 59	5.900000000000003e-01
	-1.098075854296913e-14
	-5.167656317082735e-18
	-5.489127096333461e-14
	1.231041348480623e-06
	1.251386904370243e-04
	1.607873449454394e-05
	1.580491532091279e-01

 60	6.000000000000003e-01
	-1.095865794016985e-14
	-5.273346439313653e-18
	-5.510541779796463e-14
	1.293705259707545e-06
	1.346780149781502e-04
	1.737725188337427e-05
	1.580492814382148e-01

 61	6.100000000000003e-01
	-1.093854333781126e-14
	-5.381064099274278e-18
	-5.531529015214701e-14
	1.359026909522776e-06
	1.448442899452295e-04
	1.877426466301351e-05
	1.580494206097911e-01

 62	6.200000000000003e-01
	-1.092037996359631e-14
	-5.490847711892500e-18
	-5.552091695219755e-14
	1.427087701490496e-06
	1.556663105422661e-04
	2.027618498535809e-05
	1.580495715542798e-01

 63	6.300000000000003e-01
	-1.090413296911815e-14
	-5.602736502319659e-18
	-5.572232869725750e-14
	1.497969813003214e-06
	1.671729035170322e-04
	2.188971306542771e-05
	1.580497351491073e-01

 64	6.400000000000003e-01
	-1.088976746288138e-14
	-5.716770526199645e-18
	-5.591955738286968e-14
	1.571756108535885e-06
	1.793927874868922e-04
	2.362183678998940e-05
	1.580499123192811e-01

 65	6.500000000000004e-01
	-1.087724854227160e-14
	-5.832990690493140e-18
	-5.611263642525690e-14
	1.648530049963274e-06
	1.923544238567176e-04
	2.547982988075256e-05
	1.580501040376963e-01

 66	6.600000000000004e-01
	-1.086654132445194e-14
	-5.951438774872557e-18
	-5.630160058641576e-14
	1.728375604562055e-06
	2.060858590601208e-04
	2.747124852158965e-05
	1.580503113251245e-01

 67	6.700000000000004e-01
	-1.085761097617122e-14
	-6.072157453703644e-18
	-5.648648590013045e-14
	1.811377151414375e-06
	2.206145590246554e-04
	2.960392636741428e-05
	1.580505352498965e-01

 68	6.800000000000004e-01
	-1.085042274246868e-14
	-6.195190318633348e-18
	-5.666732959900690e-14
	1.897619387026890e-06
	2.359672369318792e-04
	3.188596786222059e-05
	1.580507769272215e-01

 69	6.900000000000004e-01
	-1.084494197426576e-14
	-6.320581901800051e-18
	-5.684417004261824e-14
	1.987187231079145e-06
	2.521696755112624e-04
	3.432573980536788e-05
	1.580510375181030e-01

 70	7.000000000000004e-01
	-1.084113415483863e-14
	-6.448377699686126e-18
	-5.701704664684492e-14
	2.080165733314121e-06
	2.692465452692817e-04
	3.693186111841075e-05
	1.580513182278780e-01

 71	7.100000000000004e-01
	-1.083896492516704e-14
	-6.578624197631426e-18
	-5.718599981448778e-14
	2.176639982683254e-06
	2.872212202083250e-04
	3.971319077959566e-05
	1.580516203043082e-01

 72	7.200000000000004e-01
	-1.083840010815874e-14
	-6.711368895028803e-18
	-5.735107086722457e-14
	2.276695019954723e-06
	3.061155927303785e-04
	4.267881390942216e-05
	1.580519450352378e-01

 73	7.300000000000004e-01
	-1.083940573175244e-14
	-6.846660331219803e-18
	-5.751230197897173e-14
	2.380415755086689e-06
	3.259498895441798e-04
	4.583802600826914e-05
	1.580522937458127e-01

 74	7.400000000000004e-01
	-1.084194805090225e-14
	-6.984548112114677e-18
	-5.766973611071161e-14
	2.487886890755819e-06
	3.467424904980736e-04
	4.920031536583974e-05
	1.580526677952215e-01

 75	7.500000000000004e-01
	-1.084599356845249e-14
	-7.125082937557681e-18
	-5.782341694683309e-14
	2.599192853512461e-06
	3.685097523404425e-04
	5.277534368182713e-05
	1.580530685730123e-01

 76	7.600000000000005e-01
	-1.085150905491148e-14
	-7.268316629458019e-18
	-5.797338883303173e-14
	2.714417734108152e-06
	3.912658394623916e-04
	5.657292495754023e-05
	1.580534974949546e-01

 77	7.700000000000005e-01
	-1.085846156713562e-14
	-7.414302160713225e-18
	-5.811969671580852e-14
	2.833645238605876e-06
	4.150225637002654e-04
	6.060300273892758e-05
	1.580539559984757e-01

 78	7.800000000000005e-01
	-1.086681846593856e-14
	-7.563093684946666e-18
	-5.826238608359931e-14
	2.956958651937709e-06
	4.397892352663087e-04
	6.487562581220294e-05
	1.580544455377029e-01

 79	7.900000000000005e-01
	-1.087654743264026e-14
	-7.714746567083841e-18
	-5.840150290956333e-14
	3.084440815618603e-06
	4.655725268327218e-04
	6.940092247379662e-05
	1.580549675781349e-01

 80	8.000000000000005e-01
	-1.088761648457362e-14
	-7.869317414793712e-18
	-5.853709359605375e-14
	3.216174121355858e-06
	4.923763527161550e-04
	7.418907351623896e-05
	1.580555235909976e-01

 81	8.100000000000005e-01
	-1.089999398956747e-14
	-8.026864110819977e-18
	-5.866920492078672e-14
	3.352240522313718e-06
	5.202017649963796e-04
	7.925028409053395e-05
	1.580561150472881e-01

 82	8.200000000000005e-01
	-1.091364867942737e-14
	-8.187445846230794e-18
	-5.879788398472252e-14
	3.492721563798808e-06
	5.490468682546094e-04
	8.459475462318925e-05
	1.580567434116457e-01

 83	8.300000000000005e-01
	-1.092854966243436e-14
	-8.351123154610901e-18
	-5.892317816166805e-14
	3.637698435127073e-06
	5.789067544353852e-04
	9.023265098205557e-05
	1.580574101360032e-01

 84	8.400000000000005e-01
	-1.094466643488658e-14
	-8.517957947230363e-18
	-5.904513504960284e-14
	3.787252044415089e-06
	6.097734591229296e-04
	9.617407409909504e-05
	1.580581166531793e-01

 85	8.500000000000005e-01
	-1.096196889170679e-14
	-8.688013549210907e-18
	-5.916380242373105e-14
	3.941463118011247e-06
	6.416359402817874e-04
	1.024290292699291e-04
	1.580588643704235e-01

 86	8.600000000000005e-01
	-1.098042733614119e-14
	-8.861354736728323e-18
	-5.927922819125502e-14
	4.100412326244125e-06
	6.744800802458425e-04
	1.090073953591666e-04
	1.580596546630284e-01

 87	8.700000000000006e-01
	-1.100001248857559e-14
	-9.038047775275623e-18
	-5.939146034786336e-14
	4.264180437120917e-06
	7.082887114542325e-04
	1.159188941469336e-04
	1.580604888680377e-01

 88	8.800000000000006e-01
	-1.102069549449556e-14
	-9.218160459021199e-18
	-5.950054693592375e-14
	4.432848499557099e-06
	7.430416661320554e-04
	1.231730600554655e-04
	1.580613682781873e-01

 89	8.900000000000006e-01
	-1.104244793161785e-14
	-9.401762151294960e-18
	-5.960653600436749e-14
	4.606498057665222e-06
	7.787158498040242e-04
	1.307792104950481e-04
	1.580622941361061e-01

 90	9.000000000000006e-01
	-1.106524181622031e-14
	-9.588923826235535e-18
	-5.970947557024937e-14
	4.785211397575895e-06
	8.152853382158974e-04
	1.387464170658561e-04
	1.580632676288705e-01

 91	9.100000000000006e-01
	-1.108904960869914e-14
	-9.779718111633712e-18
	-5.980941358196455e-14
	4.969071828212472e-06
	8.527214969279677e-04
	1.470834778463883e-04
	1.580642898829908e-01

 92	9.200000000000006e-01
	-1.111384421838123e-14
	-9.974219333010304e-18
	-5.990639788410110e-14
	5.158163997395617e-06
	8.909931225431672e-04
	1.557988909902876e-04
	1.580653619598839e-01

 93	9.300000000000006e-01
	-1.113959900761954e-14
	-1.017250355896256e-17
	-6.000047618390640e-14
	5.352574244618245e-06
	9.300666042453704e-04
	1.649008298414644e-04
	1.580664848518841e-01

 94	9.400000000000006e-01
	-1.116628779520112e-14
	-1.037464864782205e-17
	-6.009169601933977e-14
	5.552390991808796e-06
	9.699061040568134e-04
	1.743971197627829e-04
	1.580676594788618e-01

 95	9.500000000000006e-01
	-1.119388485909469e-14
	-1.058073429566177e-17
	-6.018010472868710e-14
	5.757705173396861e-06
	1.010473753982702e-03
	1.842952168564106e-04
	1.580688866854761e-01

 96	9.600000000000006e-01
	-1.122236493856713e-14
	-1.079084208569716e-17
	-6.026574942170658e-14
	5.968610707011774e-06
	1.051729868000142e-03
	1.946021887344686e-04
	1.580701672391039e-01

 97	9.700000000000006e-01
	-1.125170323569555e-14
	-1.100505553912315e-17
	-6.034867695227732e-14
	6.185205006187425e-06
	1.093633166671742e-03
	2.053246974772353e-04
	1.580715018284453e-01

 98	9.800000000000006e-01
	-1.128187541630342e-14
	-1.122346016743473e-17
	-6.042893389251781e-14
	6.407589536519645e-06
	1.136141012024383e-03
	2.164689848932019e-04
	1.580728910628424e-01

 99	9.900000000000007e-01
	-1.131285761034758e-14
	-1.144614352627788e-17
	-6.050656650834233e-14
	6.635870416828458e-06
	1.179209650232869e-03
	2.280408601710876e-04
	1.580743354722986e-01

 100	1.000000000000001e+00
	-1.134462641178213e-14
	-1.167319527088225e-17
	-6.058162073642264e-14
	6.870159067023074e-06
	1.222794459587790e-03
	2.400456899889722e-04
	1.580758355081638e-01

 101	1.010000000000001e+00
	-1.137715887792636e-14
	-1.190470721312524e-17
	-6.065414216251834e-14
