Title: ** sch_path: /home/andylithia/openmpw/project-yatsuhashi-chip1/xschem/gmid_test/nmos_test.sch
Date: Tue Jul 19 23:15:45  2022
Plotname: DC transfer characteristic
Flags: real
No. Variables: 8
No. Points: 181
Variables:
	0	v(v-sweep)	voltage
	1	@m.xm1.msky130_fd_pr__nfet_01v8[cgb]	capacitance
	2	@m.xm1.msky130_fd_pr__nfet_01v8[cgd]	capacitance
	3	@m.xm1.msky130_fd_pr__nfet_01v8[cgs]	capacitance
	4	@m.xm1.msky130_fd_pr__nfet_01v8[gds]	admittance
	5	@m.xm1.msky130_fd_pr__nfet_01v8[gm]	admittance
	6	i(@m.xm1.msky130_fd_pr__nfet_01v8[id])	current
	7	v(@m.xm1.msky130_fd_pr__nfet_01v8[vth])	voltage
Values:
 0	0.000000000000000e+00
	-2.417937731885339e-15
	-7.054764223377260e-26
	-3.404170201182462e-18
	1.072432126187918e-25
	4.621205475014620e-23
	5.118256923609254e-25
	6.295497919216794e-01

 1	1.000000000000000e-02
	-2.407672870452141e-15
	-9.198504736035564e-26
	-3.395983441984279e-18
	2.645652311547041e-25
	1.139982788136165e-22
	1.262656178610057e-24
	6.295497919216794e-01

 2	2.000000000000000e-02
	-2.397535915604726e-15
	-1.199360569878566e-25
	-3.390185482780318e-18
	6.524812642264222e-25
	2.811748684986137e-22
	3.114013247994105e-24
	6.295497919216794e-01

 3	3.000000000000000e-02
	-2.387524124637551e-15
	-1.563793275247679e-25
	-3.387451243331076e-18
	1.609658562003965e-24
	6.936149596655416e-22
	7.682211263055393e-24
	6.295497919216794e-01

 4	4.000000000000000e-02
	-2.377634781028019e-15
	-2.038942498238818e-25
	-3.388664521852163e-18
	3.970505430427057e-24
	1.710926226207759e-21
	1.894952587462631e-23
	6.295497919216794e-01

 5	5.000000000000000e-02
	-2.367865178031484e-15
	-2.658431052263298e-25
	-3.394981920023282e-18
	9.794040193176919e-24
	4.220293125920517e-21
	4.674277669404635e-23
	6.295497919216794e-01

 6	6.000000000000000e-02
	-2.358212598016724e-15
	-3.466082934195740e-25
	-3.407916154302466e-18
	2.415848792218031e-23
	1.040984691987015e-20
	1.152981783152528e-22
	6.295497919216794e-01

 7	7.000000000000001e-02
	-2.348674286218394e-15
	-4.519011693481382e-25
	-3.429444504603082e-18
	5.959031902361945e-23
	2.567654180861131e-20
	2.843992714137259e-22
	6.295497919216794e-01

 8	8.000000000000000e-02
	-2.339247417202204e-15
	-5.891639140244024e-25
	-3.462149769715595e-18
	1.469817145101022e-22
	6.332950581567763e-20
	7.014813833270685e-22
	6.295497919216794e-01

 9	9.000000000000000e-02
	-2.329929051861318e-15
	-7.680921424937840e-25
	-3.509403111488726e-18
	3.625191194096451e-22
	1.561869031597950e-19
	1.730150285900173e-21
	6.295497919216794e-01

 10	9.999999999999999e-02
	-2.320716082174103e-15
	-1.001313979899259e-24
	-3.575600629391839e-18
	8.940544154855507e-22
	3.851525939200562e-19
	4.266943935933354e-21
	6.295497919216794e-01

 11	1.100000000000000e-01
	-2.311605160244479e-15
	-1.305271539518024e-24
	-3.666468438962364e-18
	2.204688379064056e-21
	9.496080130763853e-19
	1.052204776665624e-20
	6.295497919216794e-01

 12	1.200000000000000e-01
	-2.302592607320234e-15
	-1.701363602576123e-24
	-3.789454396836269e-18
	5.435609289136831e-21
	2.340634385880752e-18
	2.594187486671489e-20
	6.295497919216794e-01

 13	1.300000000000000e-01
	-2.293674297570295e-15
	-2.217424355994353e-24
	-3.954228272067263e-18
	1.339745509953900e-20
	5.766761435995435e-18
	6.394042375987720e-20
	6.295497919216794e-01

 14	1.400000000000000e-01
	-2.284845510472646e-15
	-2.889632811890450e-24
	-4.173315760902907e-18
	3.300621235539541e-20
	1.419810945970575e-17
	1.575248089657410e-19
	6.295497919216794e-01

 15	1.500000000000000e-01
	-2.276100744865600e-15
	-3.764971437427618e-24
	-4.462894620683678e-18
	8.125622508067190e-20
	3.491890070076108e-17
	3.878019484998133e-19
	6.295497919216794e-01

 16	1.600000000000000e-01
	-2.267433487297860e-15
	-4.904380759253712e-24
	-4.843782250358661e-18
	1.998150132130751e-19
	8.573497169969711e-17
	9.536335748900379e-19
	6.295497919216794e-01

 17	1.700000000000000e-01
	-2.258835927663344e-15
	-6.386789046766458e-24
	-5.342641606972104e-18
	4.904966046617596e-19
	2.099489639052294e-16
	2.340935756041365e-18
	6.295497919216794e-01

 18	1.800000000000000e-01
	-2.250298616742573e-15
	-8.314231778186740e-24
	-5.993424253277776e-18
	1.200762854250182e-18
	5.120328805876920e-16
	5.730741348925896e-18
	6.295497919216794e-01

 19	1.900000000000000e-01
	-2.241810063740872e-15
	-1.081831291228077e-23
	-6.839053400786957e-18
	2.927144085525093e-18
	1.240940284246217e-15
	1.397004281807741e-17
	6.295497919216794e-01

 20	2.000000000000000e-01
	-2.233356277479509e-15
	-1.406829713461112e-23
	-7.933325268218926e-18
	7.089579821121935e-18
	2.978771670500489e-15
	3.383562531876522e-17
	6.295497919216794e-01

 21	2.100000000000000e-01
	-2.224920261852589e-15
	-1.828115831169574e-23
	-9.342977564830291e-18
	1.700390479354347e-17
	7.048010526974526e-15
	8.115260202571508e-17
	6.295497919216794e-01

 22	2.200000000000001e-01
	-2.216481481627515e-15
	-2.373394762863748e-23
	-1.114985264931739e-17
	4.019609620917978e-17
	1.632759107320061e-14
	1.918393682235860e-16
	6.295497919216794e-01

 23	2.300000000000001e-01
	-2.208015311978396e-15
	-3.077889862614167e-23
	-1.345309929968290e-17
	9.306172128791439e-17
	3.671100046660858e-14
	4.441452400289059e-16
	6.295497919216794e-01

 24	2.400000000000001e-01
	-2.199492462683406e-15
	-3.986178747944697e-23
	-1.637146092472291e-17
	2.093579795730374e-16
	7.928938693831554e-14
	9.991795095498041e-16
	6.295497919216794e-01

 25	2.500000000000001e-01
	-2.190878310367197e-15
	-5.154427397712615e-23
	-2.004595310359962e-17
	4.537224215756800e-16
	1.628414808489323e-13
	2.165430788518389e-15
	6.295497919216794e-01

 26	2.600000000000001e-01
	-2.182131967011754e-15
	-6.653134691628769e-23
	-2.464368756099874e-17
	9.399538257240894e-16
	3.157552382511403e-13
	4.486014211192563e-15
	6.295497919216799e-01

 27	2.700000000000001e-01
	-2.173204763405676e-15
	-8.570567803696517e-23
	-3.036422969538924e-17
	1.852591168707990e-15
	5.774765180144756e-13
	8.841659118942230e-15
	6.295497919216805e-01

 28	2.800000000000001e-01
	-2.164037665291910e-15
	-1.101716984898658e-22
	-3.745053033983472e-17
	3.473384635115675e-15
	1.002480607464277e-12
	1.657704450943363e-14
	6.295497919216810e-01

 29	2.900000000000001e-01
	-2.154557032133651e-15
	-1.413134878575966e-22
	-4.620686887336127e-17
	6.222894426589983e-15
	1.671431321843054e-12
	2.969933345565683e-14
	6.295497919216821e-01

 30	3.000000000000001e-01
	-2.144668145770017e-15
	-1.808718893950514e-22
	-5.702608451538379e-17
	1.073542844763290e-14
	2.711975055273678e-12
	5.123582075026689e-14
	6.295497919216846e-01

 31	3.100000000000001e-01
	-2.134246118305624e-15
	-2.310472847710138e-22
	-7.042751140413799e-17
	1.798802126195254e-14
	4.329719066010845e-12
	8.584949829760228e-14
	6.295497919216881e-01

 32	3.200000000000001e-01
	-2.123124121600415e-15
	-2.946347760040912e-22
	-8.710556189080568e-17
	2.950761728064459e-14
	6.852965500020602e-12
	1.408278592292386e-13
	6.295497919216924e-01

 33	3.300000000000001e-01
	-2.111079326164885e-15
	-3.751977475165764e-22
	-1.079870125076450e-16
	4.769412383067015e-14
	1.080065199860160e-11
	2.276247059699746e-13
	6.295497919217011e-01

 34	3.400000000000001e-01
	-2.097817487342065e-15
	-4.772835174153741e-22
	-1.342927876895719e-16
	7.632307660524649e-14
	1.698897042602215e-11
	3.642591851189005e-13
	6.295497919217141e-01

 35	3.500000000000001e-01
	-2.082957816600182e-15
	-6.066805045007346e-22
	-1.675972280801495e-16
	1.213314448867392e-13
	2.669967444144668e-11
	5.790661574274695e-13
	6.295497919217343e-01

 36	3.600000000000002e-01
	-2.066020688377551e-15
	-7.707093078148635e-22
	-2.098742253914123e-16
	1.920499492371472e-13
	4.194520647421022e-11
	9.165776488218030e-13
	6.295497919217663e-01

 37	3.700000000000002e-01
	-2.046421888921905e-15
	-9.785294864149421e-22
	-2.635150989240889e-16
	3.031379403651199e-13
	6.588553936697393e-11
	1.446757483313301e-12
	6.295497919218156e-01

 38	3.800000000000002e-01
	-2.023478485518736e-15
	-1.241428998532346e-21
	-3.312978165731209e-16
	4.776222852067364e-13
	1.034830194755924e-10
	2.279505243773732e-12
	6.295497919218938e-01

 39	3.900000000000002e-01
	-1.996432829341262e-15
	-1.573044325207809e-21
	-4.162817714673556e-16
	7.516702662333977e-13
	1.625308448503822e-10
	3.587436832535059e-12
	6.295497919220169e-01

 40	4.000000000000002e-01
	-1.964502176881086e-15
	-1.989438177707040e-21
	-5.215989713093350e-16
	1.182085593865083e-12
	2.552682514442938e-10
	5.641663456782723e-12
	6.295497919222103e-01

 41	4.100000000000002e-01
	-1.926960609807299e-15
	-2.508943789741260e-21
	-6.501164964288940e-16
	1.858080486957775e-12
	4.009170092448949e-10
	8.867983747709891e-12
	6.295497919225136e-01

 42	4.200000000000002e-01
	-1.883255104863131e-15
	-3.151680790197077e-21
	-8.039653758148049e-16
	2.919761771614936e-12
	6.296645474713528e-10
	1.393513196203685e-11
	6.295497919229902e-01

 43	4.300000000000002e-01
	-1.833146535116229e-15
	-3.938672973923748e-21
	-9.839761300048493e-16
	4.587157343606908e-12
	9.889182372979187e-10
	2.189336259285906e-11
	6.295497919237385e-01

 44	4.400000000000002e-01
	-1.776849484823890e-15
	-4.890567026006523e-21
	-1.189128677386357e-15
	7.205786034841770e-12
	1.553124510760453e-09
	3.439206763969307e-11
	6.295497919249143e-01

 45	4.500000000000002e-01
	-1.715128220697953e-15
	-6.026063088304492e-21
	-1.416188424116062e-15
	1.131818300398901e-11
	2.439181415407430e-09
	5.402146057062485e-11
	6.295497919267596e-01

 46	4.600000000000002e-01
	-1.649301993518698e-15
	-7.360294358133154e-21
	-1.659712999707460e-15
	1.777612337268915e-11
	3.830622736052159e-09
	8.484896843620176e-11
	6.295497919296585e-01

 47	4.700000000000003e-01
	-1.581131973109350e-15
	-8.903476925967305e-21
	-1.912533137403420e-15
	2.791660079676434e-11
	6.015545619590385e-09
	1.332610631270668e-10
	6.295497919342120e-01

 48	4.800000000000003e-01
	-1.512602784962387e-15
	-1.066013466603663e-20
	-2.166646567764417e-15
	4.383753234556233e-11
	9.446042325862276e-09
	2.092839089114343e-10
	6.295497919413613e-01

 49	4.900000000000003e-01
	-1.445654410234976e-15
	-1.262907083494222e-20
	-2.414295171654730e-15
	6.882909324665834e-11
	1.483120616675429e-08
	3.286538121664016e-10
	6.295497919525875e-01

 50	5.000000000000002e-01
	-1.381939585331213e-15
	-1.480405700855615e-20
	-2.648924248057333e-15
	1.080470292999411e-10
	2.328237705873482e-08
	5.160598383321992e-10
	6.295497919702127e-01

 51	5.100000000000002e-01
	-1.322666529969802e-15
	-1.717503027469020e-20
	-2.865790044014378e-15
	1.695600088349341e-10
	3.653922686476127e-08
	8.102139912563329e-10
	6.295497919978752e-01

 52	5.200000000000002e-01
	-1.268548670578897e-15
	-1.972950331425693e-20
	-3.062137016420250e-15
	2.659697766256246e-10
	5.731985356976919e-08
	1.271758773908214e-09
	6.295497920412819e-01

 53	5.300000000000002e-01
	-1.219845431698568e-15
	-2.245391353228019e-20
	-3.237015319042748e-15
	4.168953837719575e-10
	8.985842536755102e-08
	1.995550376421216e-09
	6.295497921093528e-01

 54	5.400000000000003e-01
	-1.176457862374874e-15
	-2.533472887642719e-20
	-3.390886696352197e-15
	6.527290857397276e-10
	1.407198839521064e-07
	3.129617258828310e-09
	6.295497922160126e-01

 55	5.500000000000003e-01
	-1.138041930775683e-15
	-2.835923513948498e-20
	-3.525167324666261e-15
	1.020187288193210e-09
	2.200077586131218e-07
	4.904125807931331e-09
	6.295497923829113e-01

 56	5.600000000000003e-01
	-1.104112995967787e-15
	-3.151601349379323e-20
	-3.641811504586300e-15
	1.590213429625570e-09
	3.430900895970281e-07
	7.674918443551767e-09
	6.295497926435297e-01

 57	5.700000000000003e-01
	-1.074128189126372e-15
	-3.479516418779828e-20
	-3.742986766339149e-15
	2.468534962601957e-09
	5.329107840222243e-07
	1.198724043051437e-08
	6.295497930491801e-01

 58	5.800000000000003e-01
	-1.047543746328037e-15
	-3.818834755909131e-20
	-3.830850162543142e-15
	3.808212661774633e-09
	8.227193995419999e-07
	1.866498890318525e-08
	6.295497936774270e-01

 59	5.900000000000003e-01
	-1.023850237915460e-15
	-4.168870865984402e-20
	-3.907412658631873e-15
	5.821203955668120e-09
	1.258445178331239e-06
	2.892652273463619e-08
	6.295497946430365e-01

 60	6.000000000000003e-01
	-1.002590917047650e-15
	-4.529073796356512e-20
	-3.974470092950379e-15
	8.781874290165422e-09
	1.898758381252003e-06
	4.451492454436577e-08
	6.295497961103445e-01

 61	6.100000000000003e-01
	-9.833684862677337e-16
	-4.899010519001103e-20
	-4.033579336738527e-15
	1.301087957382529e-08
	2.809351076350102e-06
	6.780335380545448e-08
	6.295497983033655e-01

 62	6.200000000000003e-01
	-9.658446585139587e-16
	-5.278348993552772e-20
	-4.086062232109439e-15
	1.882834794979451e-08
	4.047865129636616e-06
	1.017984515326518e-07
	6.295498015064345e-01

 63	6.300000000000003e-01
	-9.497357172604055e-16
	-5.666842272373683e-20
	-4.133024683064156e-15
	2.647899384781933e-08
	5.640666424882715e-06
	1.499474691365683e-07
	6.295498060464308e-01

 64	6.400000000000003e-01
	-9.348062244394479e-16
	-6.064314317465206e-20
	-4.175382520195326e-15
	3.605758831860212e-08
	7.562863695867608e-06
	2.157155765175050e-07
	6.295498122532756e-01

 65	6.500000000000004e-01
	-9.208622085423295e-16
	-6.470647759982504e-20
	-4.213889002514650e-15
	4.747775152024465e-08
	9.738400605689625e-06
	3.020518166700624e-07
	6.295498204096261e-01

 66	6.600000000000004e-01
	-9.077445913386133e-16
	-6.885773576828860e-20
	-4.249161077450611e-15
	6.050485180643513e-08
	1.206476237097989e-05
	4.109846522661049e-07
	6.295498307123792e-01

 67	6.700000000000004e-01
	-8.953232355114287e-16
	-7.309662525884386e-20
	-4.281702985163497e-15
	7.483042838084676e-08
	1.444617521673114e-05
	5.435260478321867e-07
	6.295498432629938e-01

 68	6.800000000000004e-01
	-8.834917639178818e-16
	-7.742318125682809e-20
	-4.311926685463537e-15
	9.014545701210423e-08
	1.681499746454151e-05
	6.998609158058931e-07
	6.295498580847568e-01

 69	6.900000000000004e-01
	-8.721631678743525e-16
	-8.183770953446123e-20
	-4.340169091936282e-15
	1.061855319338641e-07
	1.913523898650220e-05
	8.796591887356314e-07
	6.295498751518400e-01

 70	7.000000000000004e-01
	-8.612661517210994e-16
	-8.634074046194812e-20
	-4.366706358595391e-15
	1.227462371546398e-07
	2.139502517863670e-05
	1.082359835919573e-06
	6.295498944159594e-01

 71	7.100000000000004e-01
	-8.507421293458423e-16
	-9.093299211330356e-20
	-4.391765576684448e-15
	1.396797243109847e-07
	2.359663181032943e-05
	1.307361598223248e-06
	6.295499158244037e-01

 72	7.200000000000004e-01
	-8.405427790894079e-16
	-9.561534079035901e-20
	-4.415534266774225e-15
	1.568836455158308e-07
	2.574867024511642e-05
	1.554122846065221e-06
	6.295499393295503e-01

 73	7.300000000000004e-01
	-8.306280662607885e-16
	-1.003887975509871e-19
	-4.438168033866687e-15
	1.742891630067801e-07
	2.786134418372514e-05
	1.822198832253281e-06
	6.295499648924825e-01

 74	7.400000000000004e-01
	-8.209646511355406e-16
	-1.052544895710860e-19
	-4.459796714736331e-15
	1.918508543624506e-07
	2.994410057353263e-05
	2.111244280739258e-06
	6.295499924833244e-01

 75	7.500000000000004e-01
	-8.115246111813565e-16
	-1.102136453838058e-19
	-4.480529300961200e-15
	2.095391399413135e-07
	3.200474218709278e-05
	2.421000503492235e-06
	6.295500220800808e-01

 76	7.600000000000005e-01
	-8.022844173533031e-16
	-1.152675832214925e-19
	-4.500457875468642e-15
	2.273349488951367e-07
	3.404929602636268e-05
	2.751277886833481e-06
	6.295500536670335e-01

 77	7.700000000000005e-01
	-7.932241146153821e-16
	-1.204177018371978e-19
	-4.519660758619723e-15
	2.452260982518415e-07
	3.608220986405840e-05
	3.101938961004498e-06
	6.295500872331649e-01

 78	7.800000000000005e-01
	-7.843266659369250e-16
	-1.256654733066912e-19
	-4.538205023372619e-15
	2.632048895624436e-07
	3.810665127611334e-05
	3.472884074686632e-06
	6.295501227708302e-01

 79	7.900000000000005e-01
	-7.755774267649922e-16
	-1.310124374128360e-19
	-4.556148508190116e-15
	2.812665358748928e-07
	4.012480428796438e-05
	3.864040101927645e-06
	6.295501602746989e-01

 80	8.000000000000005e-01
	-7.669637234393802e-16
	-1.364601972952401e-19
	-4.573541430766604e-15
	2.994081412670208e-07
	4.213812306567101e-05
	4.275351917961647e-06
	6.295501997409635e-01

 81	8.100000000000005e-01
	-7.584745143254039e-16
	-1.420104161133387e-19
	-4.590427684749143e-15
	3.176280426472572e-07
	4.414753316964577e-05
	4.706776150230625e-06
	6.295502411667555e-01

 82	8.200000000000005e-01
	-7.501001167500604e-16
	-1.476648145229942e-19
	-4.606845884735515e-15
	3.359253868786180e-07
	4.615358421981030e-05
	5.158276693011830e-06
	6.295502845497283e-01

 83	8.300000000000005e-01
	-7.418319862981504e-16
	-1.534251688080723e-19
	-4.622830211286243e-15
	3.542998598837705e-07
	4.815656235346027e-05
	5.629821540069745e-06
	6.295503298877676e-01

 84	8.400000000000005e-01
	-7.336625378034165e-16
	-1.592933095414148e-19
	-4.638411096886267e-15
	3.727515135508149e-07
	5.015657138190530e-05
	6.121380578263999e-06
	6.295503771787888e-01

 85	8.500000000000005e-01
	-7.255849995835242e-16
	-1.652711206756156e-19
	-4.653615785216105e-15
	3.912806554332372e-07
	5.215359048282456e-05
	6.632924069477545e-06
	6.295504264205959e-01

 86	8.600000000000005e-01
	-7.175932942258294e-16
	-1.713605389847143e-19
	-4.668468789304082e-15
	4.098877787133926e-07
	5.414751474566908e-05
	7.164421619101685e-06
	6.295504776107994e-01

 87	8.700000000000006e-01
	-7.096819406235707e-16
	-1.775635537943569e-19
	-4.682992268770412e-15
	4.285735179644055e-07
	5.613818341330321e-05
	7.715841484974522e-06
	6.295505307467506e-01

 88	8.800000000000006e-01
	-7.018459730635769e-16
	-1.838822069507848e-19
	-4.697206342146406e-15
	4.473386214382741e-07
	5.812539941513908e-05
	8.287150122641388e-06
	6.295505858255094e-01

 89	8.900000000000006e-01
	-6.940808740365211e-16
	-1.903185929894476e-19
	-4.711129346922022e-15
	4.661839339430559e-07
	6.010894280165498e-05
	8.878311893619467e-06
	6.295506428438209e-01

 90	9.000000000000006e-01
	-6.863825181275419e-16
	-1.968748594720442e-19
	-4.724778057352501e-15
	4.851103865102255e-07
	6.208857994409090e-05
	9.489288885532124e-06
	6.295507017981097e-01

 91	9.100000000000006e-01
	-6.787471248869436e-16
	-2.035532074672573e-19
	-4.738167867990418e-15
	5.041189904229660e-07
	6.406406981373897e-05
	1.012004080872637e-05
	6.295507626844715e-01

 92	9.200000000000006e-01
	-6.711712190084476e-16
	-2.103558921556680e-19
	-4.751312949283221e-15
	5.232108340527638e-07
	6.603516825864968e-05
	1.077052494503545e-05
	6.295508254986794e-01

 93	9.300000000000006e-01
	-6.636515964801635e-16
	-2.172852235432326e-19
	-4.764226380294815e-15
	5.423870815126861e-07
	6.800163091350693e-05
	1.144069613203682e-05
	6.295508902361845e-01

 94	9.400000000000006e-01
	-6.561852956402870e-16
	-2.243435672710536e-19
	-4.776920262598841e-15
	5.616489724945079e-07
	6.996321518009447e-05
	1.213050677146107e-05
	6.295509568921281e-01

 95	9.500000000000006e-01
	-6.487695722806195e-16
	-2.315333455117582e-19
	-4.789405818592660e-15
	5.809978228864265e-07
	7.191968157762210e-05
	1.283990685404946e-05
	6.295510254613478e-01

 96	9.600000000000006e-01
	-6.414018781081697e-16
	-2.388570379447354e-19
	-4.801693476849320e-15
	6.004350259149613e-07
	7.387079466666558e-05
	1.356884399564373e-05
	6.295510959383851e-01

 97	9.700000000000006e-01
	-6.340798420076820e-16
	-2.463171828043645e-19
	-4.813792946624037e-15
	6.199620536485355e-07
	7.581632368485722e-05
	1.431726348097880e-05
	6.295511683174987e-01

 98	9.800000000000006e-01
	-6.268012536533778e-16
	-2.539163779963666e-19
	-4.825713283233939e-15
	6.395804587604563e-07
	7.775604298763880e-05
	1.508510831279410e-05
	6.295512425926736e-01

 99	9.900000000000007e-01
	-6.195640491021140e-16
	-2.616572822788257e-19
	-4.837462945713066e-15
	6.592918764874823e-07
	7.968973235689430e-05
	1.587231926464848e-05
	6.295513187576318e-01

 100	1.000000000000001e+00
	-6.123662980672080e-16
	-2.695426165050666e-19
	-4.849049847891601e-15
	6.790980267449397e-07
	8.161717721969611e-05
	1.667883493634326e-05
	6.295513968058429e-01

 101	1.010000000000001e+00
	-6.052061926258491e-16
	-2.775751649263407e-19
	-4.860481403845737e-15
