Title: ** sch_path: /home/andylithia/openmpw/project-yatsuhashi-chip1/xschem/gmid_test/nmos_test.sch
Date: Tue Jul 19 23:15:45  2022
Plotname: DC transfer characteristic
Flags: real
No. Variables: 8
No. Points: 181
Variables:
	0	v(v-sweep)	voltage
	1	@m.xm1.msky130_fd_pr__nfet_01v8[cgb]	capacitance
	2	@m.xm1.msky130_fd_pr__nfet_01v8[cgd]	capacitance
	3	@m.xm1.msky130_fd_pr__nfet_01v8[cgs]	capacitance
	4	@m.xm1.msky130_fd_pr__nfet_01v8[gds]	admittance
	5	@m.xm1.msky130_fd_pr__nfet_01v8[gm]	admittance
	6	i(@m.xm1.msky130_fd_pr__nfet_01v8[id])	current
	7	v(@m.xm1.msky130_fd_pr__nfet_01v8[vth])	voltage
Values:
 0	0.000000000000000e+00
	-9.294430275218056e-15
	-6.144472317297879e-19
	-1.690539846878764e-14
	3.775091564312254e-08
	1.480037549051229e-06
	1.858361126653285e-07
	2.066465078161255e-01

 1	1.000000000000000e-02
	-9.192733729572382e-15
	-6.291023676763788e-19
	-1.714430914216935e-14
	4.076261211146655e-08
	1.601272617104380e-06
	2.012346982877689e-07
	2.066465090061969e-01

 2	2.000000000000000e-02
	-9.092296174861299e-15
	-6.440773756112292e-19
	-1.738300527095424e-14
	4.400258672871324e-08
	1.732453459338983e-06
	2.178946901349925e-07
	2.066465102946686e-01

 3	3.000000000000000e-02
	-8.993139353353501e-15
	-6.593782672709078e-19
	-1.762140138579400e-14
	4.748684055555449e-08
	1.874422342444882e-06
	2.359196960832608e-07
	2.066465116897666e-01

 4	4.000000000000000e-02
	-8.895284395547027e-15
	-6.750111481372729e-19
	-1.785941240048537e-14
	5.123236328958879e-08
	2.028098245148085e-06
	2.554221241450009e-07
	2.066465132004403e-01

 5	5.000000000000000e-02
	-8.798751780304909e-15
	-6.909822189954817e-19
	-1.809695372117471e-14
	5.525718176521028e-08
	2.194484484907458e-06
	2.765239870911819e-07
	2.066465148364277e-01

 6	6.000000000000000e-02
	-8.703561296814447e-15
	-7.072977775416556e-19
	-1.833394135426050e-14
	5.958040974047062e-08
	2.374677128365874e-06
	2.993577871991784e-07
	2.066465166083288e-01

 7	7.000000000000001e-02
	-8.609732008452801e-15
	-7.239642200420017e-19
	-1.857029201271477e-14
	6.422229891463532e-08
	2.569874258561911e-06
	3.240674893245468e-07
	2.066465185276999e-01

 8	8.000000000000000e-02
	-8.517282218633767e-15
	-7.409880430452928e-19
	-1.880592322055328e-14
	6.920429111161702e-08
	2.781386176502108e-06
	3.508095912483281e-07
	2.066465206071385e-01

 9	9.000000000000000e-02
	-8.426229438704481e-15
	-7.583758451498998e-19
	-1.904075341519006e-14
	7.454907155556284e-08
	3.010646619152376e-06
	3.797543010497145e-07
	2.066465228603813e-01

 10	9.999999999999999e-02
	-8.336590357953752e-15
	-7.761343288275291e-19
	-1.927470204741981e-14
	8.028062315573185e-08
	3.259225080138307e-06
	4.110868320958525e-07
	2.066465253024384e-01

 11	1.100000000000000e-01
	-8.248380815785855e-15
	-7.942703023055046e-19
	-1.950768967878495e-14
	8.642428170840680e-08
	3.528840323337009e-06
	4.450088271233783e-07
	2.066465279496959e-01

 12	1.200000000000000e-01
	-8.161615776106308e-15
	-8.127906815086825e-19
	-1.973963807608993e-14
	9.300679191383963e-08
	3.821375182965299e-06
	4.817399238052226e-07
	2.066465308200694e-01

 13	1.300000000000000e-01
	-8.076309303958574e-15
	-8.317024920636598e-19
	-1.997047030284130e-14
	1.000563640962896e-07
	4.138892746583256e-06
	5.215194751470575e-07
	2.066465339331575e-01

 14	1.400000000000000e-01
	-7.992474544442254e-15
	-8.510128713664468e-19
	-2.020011080740236e-14
	1.076027315050325e-07
	4.483654019468969e-06
	5.646084390326951e-07
	2.066465373104072e-01

 15	1.500000000000000e-01
	-7.910123703935862e-15
	-8.707290707157749e-19
	-2.042848550766542e-14
	1.156772080636750e-07
	4.858137169897986e-06
	6.112914522282617e-07
	2.066465409753032e-01

 16	1.600000000000000e-01
	-7.829268033639265e-15
	-8.908584575134237e-19
	-2.065552187205782e-14
	1.243127464244084e-07
	5.265058454779572e-06
	6.618791051508802e-07
	2.066465449535871e-01

 17	1.700000000000000e-01
	-7.749917815442297e-15
	-9.114085175340554e-19
	-2.088114899671494e-14
	1.335439961728062e-07
	5.707394923637015e-06
	7.167104346958813e-07
	2.066465492734744e-01

 18	1.800000000000000e-01
	-7.672082350119130e-15
	-9.323868572660128e-19
	-2.110529767866574e-14
	1.434073620174396e-07
	6.188408995827577e-06
	7.761556533819549e-07
	2.066465539659149e-01

 19	1.900000000000000e-01
	-7.595769947839357e-15
	-9.538012063247137e-19
	-2.132790048489417e-14
	1.539410617870126e-07
	6.711675000922446e-06
	8.406191339992574e-07
	2.066465590648771e-01

 20	2.000000000000000e-01
	-7.520987920979542e-15
	-9.756594199413837e-19
	-2.154889181715564e-14
	1.651851840457953e-07
	7.281107765026785e-06
	9.105426698105880e-07
	2.066465646076495e-01

 21	2.100000000000000e-01
	-7.447742579211374e-15
	-9.979694815281238e-19
	-2.176820797244321e-14
	1.771817451258679e-07
	7.900993316219194e-06
	9.864090311370063e-07
	2.066465706351893e-01

 22	2.200000000000001e-01
	-7.376039226835315e-15
	-1.020739505321917e-18
	-2.198578719901615e-14
	1.899747453621468e-07
	8.576021769927726e-06
	1.068745839831504e-06
	2.066465771924934e-01

 23	2.300000000000001e-01
	-7.305882162321809e-15
	-1.043977739109208e-18
	-2.220156974791880e-14
	2.036102243032160e-07
	9.311322439611362e-06
	1.158129783677094e-06
	2.066465843290110e-01

 24	2.400000000000001e-01
	-7.237274680015081e-15
	-1.067692567033124e-18
	-2.241549791993550e-14
	2.181363146576528e-07
	1.011250119926792e-05
	1.255191193107441e-06
	2.066465920990988e-01

 25	2.500000000000001e-01
	-7.170219073948725e-15
	-1.091892512485569e-18
	-2.262751610794295e-14
	2.336032947219417e-07
	1.098568010171844e-05
	1.360619002803019e-06
	2.066466005625146e-01

 26	2.600000000000001e-01
	-7.104716643715815e-15
	-1.116586241085699e-18
	-2.283757083463864e-14
	2.500636390219846e-07
	1.193753923001272e-05
	1.475166120624537e-06
	2.066466097849664e-01

 27	2.700000000000001e-01
	-7.040767702330634e-15
	-1.141782563747774e-18
	-2.304561078563963e-14
	2.675720668858326e-07
	1.297536072836959e-05
	1.599655225966961e-06
	2.066466198387003e-01

 28	2.800000000000001e-01
	-6.978371586014505e-15
	-1.167490439839334e-18
	-2.325158683796145e-14
	2.861855886506437e-07
	1.410707492353589e-05
	1.734985018906456e-06
	2.066466308031523e-01

 29	2.900000000000001e-01
	-6.917526665832570e-15
	-1.193718980432914e-18
	-2.345545208390273e-14
	3.059635491916866e-07
	1.534130840709264e-05
	1.882136940421967e-06
	2.066466427656672e-01

 30	3.000000000000001e-01
	-6.858230361104451e-15
	-1.220477451652794e-18
	-2.365716185037628e-14
	3.269676684462117e-07
	1.668743390388129e-05
	2.042182382454787e-06
	2.066466558222581e-01

 31	3.100000000000001e-01
	-6.800479154507763e-15
	-1.247775278119293e-18
	-2.385667371374077e-14
	3.492620785894405e-07
	1.815562170123982e-05
	2.216290404570354e-06
	2.066466700784461e-01

 32	3.200000000000001e-01
	-6.744268608789999e-15
	-1.275622046492804e-18
	-2.405394751020103e-14
	3.729133575045026e-07
	1.975689235810739e-05
	2.405735971457319e-06
	2.066466856501806e-01

 33	3.300000000000001e-01
	-6.689593385000925e-15
	-1.304027509119975e-18
	-2.424894534185896e-14
	3.979905581729090e-07
	2.150317035234386e-05
	2.611908722388272e-06
	2.066467026648189e-01

 34	3.400000000000001e-01
	-6.636447262155474e-15
	-1.333001587784042e-18
	-2.444163157850828e-14
	4.245652335968452e-07
	2.340733825897961e-05
	2.836322280021948e-06
	2.066467212621863e-01

 35	3.500000000000001e-01
	-6.584823158235064e-15
	-1.362554377562327e-18
	-2.463197285527766e-14
	4.527114568498962e-07
	2.548329098189853e-05
	3.080624101503464e-06
	2.066467415957294e-01

 36	3.600000000000002e-01
	-6.534713152433128e-15
	-1.392696150792686e-18
	-2.481993806623839e-14
	4.825058358388169e-07
	2.774598948712436e-05
	3.346605869672227e-06
	2.066467638337551e-01

 37	3.700000000000002e-01
	-6.486108508549819e-15
	-1.423437361151801e-18
	-2.500549835410273e-14
	5.140275223458179e-07
	3.021151340807088e-05
	3.636214416278550e-06
	2.066467881607454e-01

 38	3.800000000000002e-01
	-6.438999699440179e-15
	-1.454788647848039e-18
	-2.518862709614631e-14
	5.473582149088248e-07
	3.289711181265349e-05
	3.951563162407584e-06
	2.066468147787743e-01

 39	3.900000000000002e-01
	-6.393376432419450e-15
	-1.486760839930916e-18
	-2.536929988649824e-14
	5.825821550870731e-07
	3.582125134011197e-05
	4.294944053794950e-06
	2.066468439090298e-01

 40	4.000000000000002e-01
	-6.349227675529348e-15
	-1.519364960720529e-18
	-2.554749451494923e-14
	6.197861166510948e-07
	3.900366083299729e-05
	4.668839960379498e-06
	2.066468757934018e-01

 41	4.100000000000002e-01
	-6.306541684569866e-15
	-1.552612232359220e-18
	-2.572319094243269e-14
	6.590593872302741e-07
	4.246537150852027e-05
	5.075937500277847e-06
	2.066469106962032e-01

 42	4.200000000000002e-01
	-6.265306030801479e-15
	-1.586514080488468e-18
	-2.589637127334304e-14
	7.004937419487286e-07
	4.622875163512533e-05
	5.519140238409734e-06
	2.066469489059477e-01

 43	4.300000000000002e-01
	-6.225507629224646e-15
	-1.621082139054274e-18
	-2.606701972485536e-14
	7.441834085806719e-07
	5.031753460661981e-05
	6.001582199279301e-06
	2.066469907372541e-01

 44	4.400000000000002e-01
	-6.187132767344010e-15
	-1.656328255243247e-18
	-2.623512259341881e-14
	7.902250237619605e-07
	5.475683923975759e-05
	6.526641621999275e-06
	2.066470365328074e-01

 45	4.500000000000002e-01
	-6.150167134327780e-15
	-1.692264494553136e-18
	-2.640066821859560e-14
	8.387175798039119e-07
	5.957318106415618e-05
	7.097954873599873e-06
	2.066470866654284e-01

 46	4.600000000000002e-01
	-6.114595850473739e-15
	-1.728903146000841e-18
	-2.656364694442168e-14
	8.897623616714050e-07
	6.479447332851438e-05
	7.719430424114867e-06
	2.066471415402067e-01

 47	4.700000000000003e-01
	-6.080403496896733e-15
	-1.766256727470778e-18
	-2.672405107846560e-14
	9.434628737086491e-07
	7.045001641694989e-05
	8.395262774003481e-06
	2.066472015966949e-01

 48	4.800000000000003e-01
	-6.047574145354445e-15
	-1.804337991207334e-18
	-2.688187484876268e-14
	9.999247557250503e-07
	7.657047435685374e-05
	9.129946211324467e-06
	2.066472673111677e-01

 49	4.900000000000003e-01
	-6.016091388131786e-15
	-1.843159929454753e-18
	-2.703711435880157e-14
	1.059255688089949e-06
	8.318783710776896e-05
	9.928288262908383e-06
	2.066473391989010e-01

 50	5.000000000000002e-01
	-5.985938367906561e-15
	-1.882735780247884e-18
	-2.718976754073905e-14
	1.121565285530144e-06
	9.033536735241496e-05
	1.079542269080433e-05
	2.066474178164896e-01

 51	5.100000000000002e-01
	-5.957097807523243e-15
	-1.923079033357352e-18
	-2.733983410701789e-14
	1.186964979378408e-06
	9.804753056881020e-05
	1.173682187275298e-05
	2.066475037641510e-01

 52	5.200000000000002e-01
	-5.929552039604202e-15
	-1.964203436393478e-18
	-2.748731550055943e-14
	1.255567888085096e-06
	1.063599072490995e-04
	1.275830839363513e-05
	2.066475976880096e-01

 53	5.300000000000002e-01
	-5.903283035931908e-15
	-2.006123001071847e-18
	-2.763221484370104e-14
	1.327488675879624e-06
	1.153090862484241e-04
	1.386606566406642e-05
	2.066477002823190e-01

 54	5.400000000000003e-01
	-5.878272436538770e-15
	-2.048852009645405e-18
	-2.777453688604397e-14
	1.402843399553442e-06
	1.249325383978071e-04
	1.506664737287027e-05
	2.066478122916192e-01

 55	5.500000000000003e-01
	-5.854501578445328e-15
	-2.092405021506973e-18
	-2.791428795137415e-14
	1.481749343432803e-06
	1.352684696999162e-04
	1.636698557240856e-05
	2.066479345127516e-01

 56	5.600000000000003e-01
	-5.831951523991009e-15
	-2.136796879966018e-18
	-2.805147588381378e-14
	1.564324842716485e-06
	1.463556536462520e-04
	1.777439719001412e-05
	2.066480677967346e-01

 57	5.700000000000003e-01
	-5.810603088705681e-15
	-2.182042719204462e-18
	-2.818610999335679e-14
	1.650689095472242e-06
	1.582332424487594e-04
	1.929658875541810e-05
	2.066482130504553e-01

 58	5.800000000000003e-01
	-5.790436868673570e-15
	-2.228157971416232e-18
	-2.831820100093650e-14
	1.740961963714607e-06
	1.709405572669407e-04
	2.094165913342733e-05
	2.066483712381004e-01

 59	5.900000000000003e-01
	-5.771433267345211e-15
	-2.275158374134714e-18
	-2.844776098316854e-14
	1.835263764125046e-06
	1.845168578312539e-04
	2.271810005351394e-05
	2.066485433823204e-01

 60	6.000000000000003e-01
	-5.753572521757318e-15
	-2.323059977753352e-18
	-2.857480331690477e-14
	1.933715049123327e-06
	1.990010922118000e-04
	2.463479423373663e-05
	2.066487305650747e-01

 61	6.100000000000003e-01
	-5.736834728122583e-15
	-2.371879153244443e-18
	-2.869934262373141e-14
	2.036436379153805e-06
	2.144316278537854e-04
	2.670101090578192e-05
	2.066489339280839e-01

 62	6.200000000000003e-01
	-5.721199866757308e-15
	-2.421632600080372e-18
	-2.882139471453425e-14
	2.143548087211064e-06
	2.308459653925513e-04
	2.892639856110829e-05
	2.066491546728956e-01

 63	6.300000000000003e-01
	-5.706647826316172e-15
	-2.472337354364815e-18
	-2.894097653425134e-14
	2.255170036794131e-06
	2.482804371645899e-04
	3.132097475536275e-05
	2.066493940604491e-01

 64	6.400000000000003e-01
	-5.693158427308558e-15
	-2.524010797176123e-18
	-2.905810610692455e-14
	2.371421374643923e-06
	2.667698927391578e-04
	3.389511282948337e-05
	2.066496534101648e-01

 65	6.500000000000004e-01
	-5.680711444873310e-15
	-2.576670663131788e-18
	-2.917280248115633e-14
	2.492420279783403e-06
	2.863473741993408e-04
	3.665952543123449e-05
	2.066499340984792e-01

 66	6.600000000000004e-01
	-5.669286630792345e-15
	-2.630335049178072e-18
	-2.928508567607153e-14
	2.618283710539746e-06
	3.070437842920584e-04
	3.962524475022603e-05
	2.066502375567823e-01

 67	6.700000000000004e-01
	-5.658863734727163e-15
	-2.685022423610681e-18
	-2.939497662787604e-14
	2.749127151379990e-06
	3.288875509334495e-04
	4.280359941257513e-05
	2.066505652687745e-01

 68	6.800000000000004e-01
	-5.649422524664626e-15
	-2.740751635334145e-18
	-2.950249713710028e-14
	2.885064361532993e-06
	3.519042918887876e-04
	4.620618801798817e-05
	2.066509187671660e-01

 69	6.900000000000004e-01
	-5.640942806561653e-15
	-2.797541923364252e-18
	-2.960766981660674e-14
	3.026207127496588e-06
	3.761164837337393e-04
	4.984484934175902e-05
	2.066512996297289e-01

 70	7.000000000000004e-01
	-5.633404443181826e-15
	-2.855412926582623e-18
	-2.971051804043560e-14
	3.172665021637077e-06
	4.015431394360474e-04
	5.373162926651404e-05
	2.066517094747144e-01

 71	7.100000000000004e-01
	-5.626787372118640e-15
	-2.914384693747426e-18
	-2.981106589355607e-14
	3.324545169174082e-06
	4.281994990634830e-04
	5.787874455285655e-05
	2.066521499555981e-01

 72	7.200000000000004e-01
	-5.621071623003198e-15
	-2.974477693769586e-18
	-2.990933812258553e-14
	3.481952025905065e-06
	4.560967382163228e-04
	6.229854360369219e-05
	2.066526227551958e-01

 73	7.300000000000004e-01
	-5.616237333897017e-15
	-3.035712826260190e-18
	-3.000536008753106e-14
	3.644987169056300e-06
	4.852416987927830e-04
	6.700346442314543e-05
	2.066531295791833e-01

 74	7.400000000000004e-01
	-5.612264766871537e-15
	-3.098111432357288e-18
	-3.009915771460490e-14
	3.813749103649336e-06
	5.156366466178284e-04
	7.200599001676957e-05
	2.066536721490224e-01

 75	7.500000000000004e-01
	-5.609134322780065e-15
	-3.161695305838938e-18
	-3.019075745015673e-14
	3.988333086741114e-06
	5.472790602954585e-04
	7.731860152428968e-05
	2.066542521943865e-01

 76	7.600000000000005e-01
	-5.606826555227686e-15
	-3.226486704530507e-18
	-3.028018621576302e-14
	4.168830971830643e-06
	5.801614553800722e-04
	8.295372941846496e-05
	2.066548714451167e-01

 77	7.700000000000005e-01
	-5.605322183748485e-15
	-3.292508362014987e-18
	-3.036747136450687e-14
	4.355331075625434e-06
	6.142712476046951e-04
	8.892370314288943e-05
	2.066555316227913e-01

 78	7.800000000000005e-01
	-5.604602106199769e-15
	-3.359783499653193e-18
	-3.045264063847773e-14
	4.547918069225451e-06
	6.495906584557523e-04
	9.524069959671338e-05
	2.066562344319937e-01

 79	7.900000000000005e-01
	-5.604647410385429e-15
	-3.428335838923490e-18
	-3.053572212751518e-14
	4.746672895613816e-06
	6.860966658520247e-04
	1.019166909045341e-04
	2.066569815513604e-01

 80	8.000000000000005e-01
	-5.605439384921638e-15
	-3.498189614088732e-18
	-3.061674422921686e-14
	4.951672715141747e-06
	7.237610020777492e-04
	1.089633919342197e-04
	2.066577746245301e-01

 81	8.100000000000005e-01
	-5.606959529359531e-15
	-3.569369585200987e-18
	-3.069573561022628e-14
	5.162990880465171e-06
	7.625502004480541e-04
	1.163922080435604e-04
	2.066586152510674e-01

 82	8.200000000000005e-01
	-5.609189563580496e-15
	-3.641901051451032e-18
	-3.077272516881245e-14
	5.380696942132588e-06
	8.024256914620379e-04
	1.242141835477323e-04
	2.066595049774924e-01

 83	8.300000000000005e-01
	-5.612111436481484e-15
	-3.715809864874981e-18
	-3.084774199874846e-14
	5.604856685745540e-06
	8.433439484405602e-04
	1.324399514032547e-04
	2.066604452885164e-01

 84	8.400000000000005e-01
	-5.615707333967586e-15
	-3.791122444425720e-18
	-3.092081535449468e-14
	5.835532201316442e-06
	8.852566818686714e-04
	1.410796846000912e-04
	2.066614375986054e-01

 85	8.500000000000005e-01
	-5.619959686271072e-15
	-3.867865790420572e-18
	-3.099197461768638e-14
	6.072781985140872e-06
	9.281110808845872e-04
	1.501430497417363e-04
	2.066624832439595e-01

 86	8.600000000000005e-01
	-5.624851174615860e-15
	-3.946067499376376e-18
	-3.106124926492446e-14
	6.316661074187561e-06
	9.718500995962761e-04
	1.596391632735984e-04
	2.066635834750161e-01

 87	8.700000000000006e-01
	-5.630364737247807e-15
	-4.025755779242325e-18
	-3.112866883686395e-14
	6.567221212694943e-06
	1.016412785181097e-03
	1.695765507929962e-04
	2.066647394495887e-01

 88	8.800000000000006e-01
	-5.636483574850948e-15
	-4.106959465042449e-18
	-3.119426290859247e-14
	6.824511050355880e-06
	1.061734644051001e-03
	1.799631098401303e-04
	2.066659522266939e-01

 89	8.900000000000006e-01
	-5.643191155370776e-15
	-4.189708034940795e-18
	-3.125806106128839e-14
	7.088576371175419e-06
	1.107748041761161e-03
	1.908060765289826e-04
	2.066672227611693e-01

 90	9.000000000000006e-01
	-5.650471218265724e-15
	-4.274031626740909e-18
	-3.132009285514607e-14
	7.359460351808736e-06
	1.154382631818132e-03
	2.021119963311095e-04
	2.066685518991293e-01

 91	9.100000000000006e-01
	-5.658307778207919e-15
	-4.359961054833744e-18
	-3.138038780355312e-14
	7.637203847930602e-06
	1.201565808116104e-03
	2.138866992745260e-04
	2.066699403743021e-01

 92	9.200000000000006e-01
	-5.666685128255208e-15
	-4.447527827607306e-18
	-3.143897534850266e-14
	7.921845706959475e-06
	1.249223175405927e-03
	2.261352797653664e-04
	2.066713888053125e-01

 93	9.300000000000006e-01
	-5.675587842515229e-15
	-4.536764165333596e-18
	-3.149588483722231e-14
	8.213423105263676e-06
	1.297279031987670e-03
	2.388620811828543e-04
	2.066728976938711e-01

 94	9.400000000000006e-01
	-5.685000778323645e-15
	-4.627703018546206e-18
	-3.155114549999875e-14
	8.511971907813670e-06
	1.345656858716041e-03
	2.520706853393192e-04
	2.066744674239417e-01

 95	9.500000000000006e-01
	-5.694909077957524e-15
	-4.720378086927007e-18
	-3.160478642917601e-14
	8.817527048121250e-06
	1.394279808420017e-03
	2.657639068378984e-04
	2.066760982618265e-01

 96	9.600000000000006e-01
	-5.705298169905003e-15
	-4.814823838715408e-18
	-3.165683655930454e-14
	9.130122926218045e-06
	1.443071189959401e-03
	2.799437923020163e-04
	2.066777903571635e-01

 97	9.700000000000006e-01
	-5.716153769712245e-15
	-4.911075530660777e-18
	-3.170732464841552e-14
	9.449793822378943e-06
	1.491954941366627e-03
	2.946116243940635e-04
	2.066795437447963e-01

 98	9.800000000000006e-01
	-5.727461880428453e-15
	-5.009169228532189e-18
	-3.175627926039496e-14
	9.776574324285782e-06
	1.540856086843016e-03
	3.097679304867076e-04
	2.066813583474851e-01

 99	9.900000000000007e-01
	-5.739208792669090e-15
	-5.109141828208245e-18
	-3.180372874843070e-14
	1.011049976535517e-05
	1.589701172784496e-03
	3.254124958000017e-04
	2.066832339793599e-01

 100	1.000000000000001e+00
	-5.751381084317270e-15
	-5.211031077362523e-18
	-3.184970123950443e-14
	1.045160667201657e-05
	1.638418678489714e-03
	3.415443807715802e-04
	2.066851703500862e-01

 101	1.010000000000001e+00
	-5.763965619883098e-15
	-5.314875597767422e-18
	-3.189422461990049e-14
