Title: ** sch_path: /home/andylithia/openmpw/project-yatsuhashi-chip1/xschem/gmid_test/nmos_test.sch
Date: Sun Jul 17 22:51:45  2022
Plotname: DC transfer characteristic
Flags: real
No. Variables: 8
No. Points: 181
Variables:
	0	v(v-sweep)	voltage
	1	@m.xm1.msky130_fd_pr__nfet_01v8[cgb]	capacitance
	2	@m.xm1.msky130_fd_pr__nfet_01v8[cgd]	capacitance
	3	@m.xm1.msky130_fd_pr__nfet_01v8[cgs]	capacitance
	4	@m.xm1.msky130_fd_pr__nfet_01v8[gds]	admittance
	5	@m.xm1.msky130_fd_pr__nfet_01v8[gm]	admittance
	6	i(@m.xm1.msky130_fd_pr__nfet_01v8[id])	current
	7	v(@m.xm1.msky130_fd_pr__nfet_01v8[vth])	voltage
Values:
 0	0.000000000000000e+00
	-7.938152136461954e-15
	-3.009055811794984e-18
	-1.353107137727765e-14
	4.024640921043956e-08
	1.338533673736975e-06
	1.624053347936816e-07
	2.266042130977547e-01

 1	1.000000000000000e-02
	-7.850831113485031e-15
	-3.092509958871837e-18
	-1.373413582892038e-14
	4.357514502928738e-08
	1.452557983978968e-06
	1.763529827900256e-07
	2.266042147205275e-01

 2	2.000000000000000e-02
	-7.764514467973512e-15
	-3.178304340376282e-18
	-1.393720687801486e-14
	4.716653166661538e-08
	1.576354421132090e-06
	1.914890417163725e-07
	2.266042164815756e-01

 3	3.000000000000000e-02
	-7.679222750387338e-15
	-3.266506053426841e-18
	-1.414020786464458e-14
	5.103986406049572e-08
	1.710791709002189e-06
	2.079155101757936e-07
	2.266042183927699e-01

 4	4.000000000000000e-02
	-7.594976040725401e-15
	-3.357184232925894e-18
	-1.434306223926230e-14
	5.521570297517089e-08
	1.856821895887329e-06
	2.257434836824028e-07
	2.266042204670355e-01

 5	5.000000000000000e-02
	-7.511793908516596e-15
	-3.450410120055602e-18
	-1.454569366729263e-14
	5.971594321883325e-08
	2.015489086109761e-06
	2.450940308033659e-07
	2.266042227184622e-01

 6	6.000000000000000e-02
	-7.429695374328495e-15
	-3.546257133360217e-18
	-1.474802613309688e-14
	6.456388423802315e-08
	2.187939119649308e-06
	2.660991612793548e-07
	2.266042251624124e-01

 7	7.000000000000001e-02
	-7.348698872886897e-15
	-3.644800942521709e-18
	-1.494998404301448e-14
	6.978430307238423e-08
	2.375430294314237e-06
	2.889028960707203e-07
	2.266042278156470e-01

 8	8.000000000000000e-02
	-7.268822217893474e-15
	-3.746119544942660e-18
	-1.515149232719929e-14
	7.540352964647068e-08
	2.579345231577290e-06
	3.136624502545234e-07
	2.266042306964594e-01

 9	9.000000000000000e-02
	-7.190082568623029e-15
	-3.850293345254432e-18
	-1.535247653997378e-14
	8.144952436826817e-08
	2.801203993822013e-06
	3.405495407418798e-07
	2.266042338248356e-01

 10	9.999999999999999e-02
	-7.112496398375110e-15
	-3.957405237873993e-18
	-1.555286295843092e-14
	8.795195799724285e-08
	3.042678567164571e-06
	3.697518318948866e-07
	2.266042372226133e-01

 11	1.100000000000000e-01
	-7.036079464847862e-15
	-4.067540692738861e-18
	-1.575257867902073e-14
	9.494229373802537e-08
	3.305608830086427e-06
	4.014745332945021e-07
	2.266042409136771e-01

 12	1.200000000000000e-01
	-6.960846782495084e-15
	-4.180787844356047e-18
	-1.595155171186760e-14
	1.024538715095009e-07
	3.592020133662975e-06
	4.359421651414219e-07
	2.266042449241568e-01

 13	1.300000000000000e-01
	-6.886812596919642e-15
	-4.297237584305633e-18
	-1.614971107257407e-14
	1.105219943329980e-07
	3.904142623996454e-06
	4.734005080543449e-07
	2.266042492826573e-01

 14	1.400000000000000e-01
	-6.813990361349387e-15
	-4.416983657348171e-18
	-1.634698687127773e-14
	1.191840167777355e-07
	4.244432441331387e-06
	5.141187553563047e-07
	2.266042540205083e-01

 15	1.500000000000000e-01
	-6.742392715233273e-15
	-4.540122761289597e-18
	-1.654331039874005e-14
	1.284794353965703e-07
	4.615594932983519e-06
	5.583918872986346e-07
	2.266042591720423e-01

 16	1.600000000000000e-01
	-6.672031464987906e-15
	-4.666754650767945e-18
	-1.673861420925866e-14
	1.384499810806190e-07
	5.020610018357086e-06
	6.065432880503173e-07
	2.266042647749050e-01

 17	1.700000000000000e-01
	-6.602917566916644e-15
	-4.796982245129888e-18
	-1.693283220020881e-14
	1.491397132575049e-07
	5.462759843636603e-06
	6.589276276612909e-07
	2.266042708703720e-01

 18	1.800000000000000e-01
	-6.535061112315484e-15
	-4.930911740575966e-18
	-1.712589968803251e-14
	1.605951158547799e-07
	5.945658860854689e-06
	7.159340325709242e-07
	2.266042775037377e-01

 19	1.900000000000000e-01
	-6.468471314771771e-15
	-5.068652726760494e-18
	-1.731775348051148e-14
	1.728651949478603e-07
	6.473286460579662e-06
	7.779895695550789e-07
	2.266042847247182e-01

 20	2.000000000000000e-01
	-6.403156499653958e-15
	-5.210318308041677e-18
	-1.750833194517420e-14
	1.860015780102272e-07
	7.050022279002042e-06
	8.455630692570770e-07
	2.266042925878824e-01

 21	2.100000000000000e-01
	-6.339124095783211e-15
	-5.356025229585540e-18
	-1.769757507370257e-14
	2.000586146830890e-07
	7.680684288289760e-06
	9.191693165985269e-07
	2.266043011531596e-01

 22	2.200000000000001e-01
	-6.276380629269306e-15
	-5.505894008538468e-18
	-1.788542454222309e-14
	2.150934789821373e-07
	8.370569763258967e-06
	9.993736363787465e-07
	2.266043104863574e-01

 23	2.300000000000001e-01
	-6.214931719486661e-15
	-5.660049070491750e-18
	-1.807182376738088e-14
	2.311662728603948e-07
	9.125499197170727e-06
	1.086796903203258e-06
	2.266043206597578e-01

 24	2.400000000000001e-01
	-6.154782077158471e-15
	-5.818618891474816e-18
	-1.825671795811432e-14
	2.483401310487314e-07
	9.951863214328563e-06
	1.182121005488104e-06
	2.266043317527417e-01

 25	2.500000000000001e-01
	-6.095935504510458e-15
	-5.981736145720986e-18
	-1.844005416306373e-14
	2.666813270992888e-07
	1.085667249659978e-05
	1.286094793613744e-06
	2.266043438524926e-01

 26	2.600000000000001e-01
	-6.038394897449042e-15
	-6.149537859466112e-18
	-1.862178131356470e-14
	2.862593805620736e-07
	1.184761070453471e-05
	1.399540542295508e-06
	2.266043570547454e-01

 27	2.700000000000001e-01
	-5.982162249712290e-15
	-6.322165571050104e-18
	-1.880185026219423e-14
	3.071471652312277e-07
	1.293309033092795e-05
	1.523360956833691e-06
	2.266043714646021e-01

 28	2.800000000000001e-01
	-5.927238658936529e-15
	-6.499765497604782e-18
	-1.898021381685286e-14
	3.294210184053119e-07
	1.412231137502841e-05
	1.658546752040781e-06
	2.266043871974137e-01

 29	2.900000000000001e-01
	-5.873624334575576e-15
	-6.682488708625712e-18
	-1.915682677038410e-14
	3.531608511152640e-07
	1.542532266877671e-05
	1.806184831245088e-06
	2.266044043797361e-01

 30	3.000000000000001e-01
	-5.821318607604875e-15
	-6.870491306740981e-18
	-1.933164592574680e-14
	3.784502592848316e-07
	1.685308562213040e-05
	1.967467090766193e-06
	2.266044231503537e-01

 31	3.100000000000001e-01
	-5.770319941937972e-15
	-7.063934616003223e-18
	-1.950463011677233e-14
	4.053766358012263e-07
	1.841754008252239e-05
	2.143699872571479e-06
	2.266044436613859e-01

 32	3.200000000000001e-01
	-5.720625947478484e-15
	-7.262985378049446e-18
	-1.967574022455336e-14
	4.340312834890132e-07
	2.013167192372060e-05
	2.336314084378189e-06
	2.266044660794596e-01

 33	3.300000000000001e-01
	-5.672233394727495e-15
	-7.467815956489101e-18
	-1.984493918952432e-14
	4.645095289975925e-07
	2.200958189187944e-05
	2.546876002182689e-06
	2.266044905869700e-01

 34	3.400000000000001e-01
	-5.625138230862395e-15
	-7.678604549896583e-18
	-2.001219201930832e-14
	4.969108376328909e-07
	2.406655514167727e-05
	2.777098765004095e-06
	2.266045173834275e-01

 35	3.500000000000001e-01
	-5.579335597200910e-15
	-7.895535413809583e-18
	-2.017746579241755e-14
	5.313389291870850e-07
	2.631913079359069e-05
	3.028854565450310e-06
	2.266045466868694e-01

 36	3.600000000000002e-01
	-5.534819847961496e-15
	-8.118799092145455e-18
	-2.034072965790597e-14
	5.679018948464712e-07
	2.878517073528012e-05
	3.304187532483008e-06
	2.266045787353666e-01

 37	3.700000000000002e-01
	-5.491584570229667e-15
	-8.348592658476136e-18
	-2.050195483108484e-14
	6.067123152881181e-07
	3.148392677678990e-05
	3.605327294420555e-06
	2.266046137886026e-01

 38	3.800000000000002e-01
	-5.449622605037965e-15
	-8.585119967620597e-18
	-2.066111458542187e-14
	6.478873801103059e-07
	3.443610515207876e-05
	3.934703200724147e-06
	2.266046521295314e-01

 39	3.900000000000002e-01
	-5.408926069467224e-15
	-8.828591918035480e-18
	-2.081818424075337e-14
	6.915490087812043e-07
	3.766392723997803e-05
	4.294959170434875e-06
	2.266046940661127e-01

 40	4.000000000000002e-01
	-5.369486379675110e-15
	-9.079226725514427e-18
	-2.097314114794939e-14
	7.378239733349925e-07
	4.119118525802006e-05
	4.688969123253900e-06
	2.266047399331042e-01

 41	4.100000000000002e-01
	-5.331294274759128e-15
	-9.337250208724226e-18
	-2.112596467017663e-14
	7.868440230953904e-07
	4.504329156507981e-05
	5.119852936193239e-06
	2.266047900939246e-01

 42	4.200000000000002e-01
	-5.294339841360523e-15
	-9.602896087139208e-18
	-2.127663616091351e-14
	8.387460117641037e-07
	4.924732009620579e-05
	5.590992854507566e-06
	2.266048449425721e-01

 43	4.300000000000002e-01
	-5.258612538917157e-15
	-9.876406291961642e-18
	-2.142513893887533e-14
	8.936720272768927e-07
	5.383203834854176e-05
	6.106050270312480e-06
	2.266049049055706e-01

 44	4.400000000000002e-01
	-5.224101225473819e-15
	-1.015803129064406e-17
	-2.157145826001370e-14
	9.517695249031093e-07
	5.882792824435675e-05
	6.668982765997801e-06
	2.266049704439607e-01

 45	4.500000000000002e-01
	-5.190794183960489e-15
	-1.044803042566129e-17
	-2.171558128675782e-14
	1.013191464147202e-06
	6.426719411979840e-05
	7.284061302395091e-06
	2.266050420553076e-01

 46	4.600000000000002e-01
	-5.158679148850431e-15
	-1.074667226821652e-17
	-2.185749705466839e-14
	1.078096450103076e-06
	7.018375603019644e-05
	7.955887413829556e-06
	2.266051202756973e-01

 47	4.700000000000003e-01
	-5.127743333112331e-15
	-1.105423498759352e-17
	-2.199719643667733e-14
	1.146648880015405e-06
	7.661322652892914e-05
	8.689410253894900e-06
	2.266052056817290e-01

 48	4.800000000000003e-01
	-5.097973455373132e-15
	-1.137100673691138e-17
	-2.213467210508730e-14
	1.219019095916904e-06
	8.359286907157558e-05
	9.489943317302365e-06
	2.266052988924603e-01

 49	4.900000000000003e-01
	-5.069355767210400e-15
	-1.169728605606882e-17
	-2.226991849150666e-14
	1.295383544337752e-06
	9.116153622481483e-05
	1.036318064477552e-05
	2.266054005712973e-01

 50	5.000000000000002e-01
	-5.041876080496600e-15
	-1.203338229271297e-17
	-2.240293174489388e-14
	1.375924944223899e-06
	9.935958592479560e-05
	1.131521230004917e-05
	2.266055114277938e-01

 51	5.100000000000002e-01
	-5.015519794720046e-15
	-1.237961604210324e-17
	-2.253370968788601e-14
	1.460832464354724e-06
	1.082287741366250e-04
	1.235253889097333e-05
	2.266056322193427e-01

 52	5.200000000000002e-01
	-4.990271924210982e-15
	-1.273631960679056e-17
	-2.266225177158274e-14
	1.550301911718962e-06
	1.178121224190902e-04
	1.348208489096793e-05
	2.266057637527318e-01

 53	5.300000000000002e-01
	-4.966117125204313e-15
	-1.310383747707732e-17
	-2.278855902895647e-14
	1.644535932490377e-06
	1.281537590998520e-04
	1.471121050308638e-05
	2.266059068855085e-01

 54	5.400000000000003e-01
	-4.943039722674365e-15
	-1.348252683327147e-17
	-2.291263402705488e-14
	1.743744227441411e-06
	1.392987330185448e-04
	1.604772179722369e-05
	2.266060625271802e-01

 55	5.500000000000003e-01
	-4.921023736879946e-15
	-1.387275807080404e-17
	-2.303448081816046e-14
	1.848143783845013e-06
	1.512927990999759e-04
	1.749987884208464e-05
	2.266062316401311e-01

 56	5.600000000000003e-01
	-4.900052909562783e-15
	-1.427491534932988e-17
	-2.315410489006520e-14
	1.957959126139084e-06
	1.641821753769293e-04
	1.907640154790267e-05
	2.266064152403235e-01

 57	5.700000000000003e-01
	-4.880110729744763e-15
	-1.468939716699237e-17
	-2.327151311561700e-14
	2.073422587867003e-06
	1.780132714910648e-04
	2.078647293414187e-05
	2.266066143976537e-01

 58	5.800000000000003e-01
	-4.861180459074369e-15
	-1.511661696109308e-17
	-2.338671370168698e-14
	2.194774607656903e-06
	1.928323891579573e-04
	2.263973953897254e-05
	2.266068302360024e-01

 59	5.900000000000003e-01
	-4.843245156675571e-15
	-1.555700373646709e-17
	-2.349971613770340e-14
	2.322264052262996e-06
	2.086853955842502e-04
	2.464630869469688e-05
	2.266070639329102e-01

 60	6.000000000000003e-01
	-4.826287703456737e-15
	-1.601100272294327e-17
	-2.361053114389123e-14
	2.456148569960933e-06
	2.256173713647454e-04
	2.681674240590128e-05
	2.266073167188516e-01

 61	6.100000000000003e-01
	-4.810290825840488e-15
	-1.647907606332206e-17
	-2.371917061935107e-14
	2.596694977863990e-06
	2.436722349568619e-04
	2.916204758527293e-05
	2.266075898760951e-01

 62	6.200000000000003e-01
	-4.795237118879257e-15
	-1.696170353339679e-17
	-2.382564759010541e-14
	2.744179687005906e-06
	2.628923464192976e-04
	3.169366242599663e-05
	2.266078847371099e-01

 63	6.300000000000003e-01
	-4.781109068724813e-15
	-1.745938329561391e-17
	-2.392997615723279e-14
	2.898889169315738e-06
	2.833180936989602e-04
	3.442343871956991e-05
	2.266082026824932e-01

 64	6.400000000000003e-01
	-4.767889074423513e-15
	-1.797263268804761e-17
	-2.403217144520573e-14
	3.061120470888037e-06
	3.049874653418933e-04
	3.736361996376082e-05
	2.266085451384072e-01

 65	6.500000000000004e-01
	-4.755559469012693e-15
	-1.850198905045847e-17
	-2.413224955053999e-14
	3.231181776224087e-06
	3.279356140750540e-04
	4.052681514714365e-05
	2.266089135735368e-01

 66	6.600000000000004e-01
	-4.744102539896420e-15
	-1.904801058930233e-17
	-2.423022749085783e-14
	3.409393028385683e-06
	3.521944162405762e-04
	4.392596814392238e-05
	2.266093094954968e-01

 67	6.700000000000004e-01
	-4.733500548482596e-15
	-1.961127728363740e-17
	-2.432612315446038e-14
	3.596086610255785e-06
	3.777920325456380e-04
	4.757432270508674e-05
	2.266097344467676e-01

 68	6.800000000000004e-01
	-4.723735749066123e-15
	-2.019239183399862e-17
	-2.441995525049791e-14
	3.791608092342431e-06
	4.047524760028364e-04
	5.148538308879930e-05
	2.266101900000916e-01

 69	6.900000000000004e-01
	-4.714790406945827e-15
	-2.079198065640911e-17
	-2.451174325982054e-14
	3.996317052787020e-06
	4.330951932611523e-04
	5.567287043341903e-05
	2.266106777533992e-01

 70	7.000000000000004e-01
	-4.706646815765780e-15
	-2.141069492380818e-17
	-2.460150738658553e-14
	4.210587975448102e-06
	4.628346657510580e-04
	6.015067503985408e-05
	2.266111993242463e-01

 71	7.100000000000004e-01
	-4.699287314074191e-15
	-2.204921165731368e-17
	-2.468926851069043e-14
	4.434811232123749e-06
	4.939800371747977e-04
	6.493280479485045e-05
	2.266117563438033e-01

 72	7.200000000000004e-01
	-4.692694301095678e-15
	-2.270823486984312e-17
	-2.477504814109616e-14
	4.669394155152400e-06
	5.265347738529188e-04
	7.003333003218524e-05
	2.266123504504540e-01

 73	7.300000000000004e-01
	-4.686850251714814e-15
	-2.338849676477619e-17
	-2.485886837009737e-14
	4.914762206794814e-06
	5.604963642817211e-04
	7.546632519320510e-05
	2.266129832829787e-01

 74	7.400000000000004e-01
	-4.681737730671668e-15
	-2.409075899246402e-17
	-2.494075182859159e-14
	5.171360251950618e-06
	5.958560639577113e-04
	8.124580771029856e-05
	2.266136564734675e-01

 75	7.500000000000004e-01
	-4.677339405971303e-15
	-2.481581396755835e-17
	-2.502072164239391e-14
	5.439653940910504e-06
	6.325986910831296e-04
	8.738567459537101e-05
	2.266143716399261e-01

 76	7.600000000000005e-01
	-4.673638061511961e-15
	-2.556448625028654e-17
	-2.509880138963715e-14
	5.720131208990629e-06
	6.707024781828830e-04
	9.389963726864954e-05
	2.266151303787050e-01

 77	7.700000000000005e-01
	-4.670616608937750e-15
	-2.633763399496027e-17
	-2.517501505929356e-14
	6.013303900052336e-06
	7.101389839452165e-04
	1.008011552099152e-04
	2.266159342567753e-01

 78	7.800000000000005e-01
	-4.668258098723691e-15
	-2.713615046920601e-17
	-2.524938701084828e-14
	6.319709521084398e-06
	7.508730687568604e-04
	1.081033690531649e-04
	2.266167848039524e-01

 79	7.900000000000005e-01
	-4.666545730502482e-15
	-2.796096564756349e-17
	-2.532194193515006e-14
	6.639913135229196e-06
	7.928629364539373e-04
	1.158190337756325e-04
	2.266176835051154e-01

 80	8.000000000000005e-01
	-4.665462862643246e-15
	-2.881304788332135e-17
	-2.539270481646082e-14
	6.974509400880963e-06
	8.360602437717941e-04
	1.239604526520358e-04
	2.266186317925376e-01

 81	8.100000000000005e-01
	-4.664993021094418e-15
	-2.969340566265601e-17
	-2.546170089572047e-14
	7.324124764788015e-06
	8.804102778732347e-04
	1.325394126541234e-04
	2.266196310383679e-01

 82	8.200000000000005e-01
	-4.665119907503278e-15
	-3.060308944536581e-17
	-2.552895563503999e-14
	7.689419817465155e-06
	9.258522011907260e-04
	1.415671219735054e-04
	2.266206825473550e-01

 83	8.300000000000005e-01
	-4.665827406626303e-15
	-3.154319359671637e-17
	-2.559449468343131e-14
	8.071091819684312e-06
	9.723193616619889e-04
	1.510541503321329e-04
	2.266217875499134e-01

 84	8.400000000000005e-01
	-4.667099593044660e-15
	-3.251485841516469e-17
	-2.565834384377955e-14
	8.469877409377524e-06
	1.019739665298716e-03
	1.610103727196840e-04
	2.266229471955672e-01

 85	8.500000000000005e-01
	-4.668920737200562e-15
	-3.351927226098517e-17
	-2.572052904105889e-14
	8.886555498969893e-06
	1.068036006933637e-03
	1.714449171607632e-04
	2.266241625468775e-01

 86	8.600000000000005e-01
	-4.671275310770060e-15
	-3.455767379108658e-17
	-2.578107629179109e-14
	9.321950373982246e-06
	1.117126753970322e-03
	1.823661170679317e-04
	2.266254345738942e-01

 87	8.700000000000006e-01
	-4.674147991388976e-15
	-3.563135430559526e-17
	-2.584001167474170e-14
	9.776935004715121e-06
	1.166926277038704e-03
	1.937814686799423e-04
	2.266267641491847e-01

 88	8.800000000000006e-01
	-4.677523666748799e-15
	-3.674166021207108e-17
	-2.589736130284672e-14
	1.025243458396382e-05
	1.217345520660717e-03
	2.056975940192769e-04
	2.266281520435428e-01

 89	8.900000000000006e-01
	-4.681387438079378e-15
	-3.788999561355093e-17
	-2.595315129635995e-14
	1.074943030503728e-05
	1.268292606375167e-03
	2.181202097306517e-04
	2.266295989223295e-01

 90	9.000000000000006e-01
	-4.685724623036291e-15
	-3.907782502691022e-17
	-2.600740775720772e-14
	1.126896339586480e-05
	1.319673460273087e-03
	2.310541020838186e-04
	2.266311053425813e-01

 91	9.100000000000006e-01
	-4.690520758009348e-15
	-4.030667623841549e-17
	-2.606015674453748e-14
	1.181213942669883e-05
	1.371392456566642e-03
	2.445031083416927e-04
	2.266326717508168e-01

 92	9.200000000000006e-01
	-4.695761599870741e-15
	-4.157814330365352e-17
	-2.611142425144174e-14
	1.238013291085850e-05
	1.423353068660360e-03
	2.584701046100507e-04
	2.266342984816258e-01

 93	9.300000000000006e-01
	-4.701433127179091e-15
	-4.289388969943883e-17
	-2.616123618283999e-14
	1.297419222012585e-05
	1.475458519214402e-03
	2.729570001996826e-04
	2.266359857569983e-01

 94	9.400000000000006e-01
	-4.707521540857461e-15
	-4.425565163565263e-17
	-2.620961833449655e-14
	1.359564483880791e-05
	1.527612420880377e-03
	2.879647384475937e-04
	2.266377336864257e-01

 95	9.500000000000006e-01
	-4.714013264361593e-15
	-4.566524153540813e-17
	-2.625659637315288e-14
	1.424590298312510e-05
	1.579719399741950e-03
	3.034933038623322e-04
	2.266395422677176e-01

 96	9.600000000000006e-01
	-4.720894943355417e-15
	-4.712455169232953e-17
	-2.630219581774997e-14
	1.492646961548324e-05
	1.631685693990764e-03
	3.195417353812880e-04
	2.266414113885427e-01

 97	9.700000000000006e-01
	-4.728153444910016e-15
	-4.863555811419628e-17
	-2.634644202171560e-14
	1.563894488634265e-05
	1.683419720996121e-03
	3.361081454562463e-04
	2.266433408286510e-01

 98	9.800000000000006e-01
	-4.735775856241826e-15
	-5.020032456264703e-17
	-2.638936015629015e-14
	1.638503303981840e-05
	1.734832606663720e-03
	3.531897446188098e-04
	2.266453302627257e-01

 99	9.900000000000007e-01
	-4.743749483005681e-15
	-5.182100679912070e-17
	-2.643097519486287e-14
	1.716654982283575e-05
	1.785838671802082e-03
	3.707828711204311e-04
	2.266473792638386e-01

 100	1.000000000000001e+00
	-4.752061847157357e-15
	-5.349985704770097e-17
	-2.647131189829066e-14
	1.798543044163288e-05
	1.836355871101601e-03
	3.888830251935634e-04
	2.266494873074430e-01

 101	1.010000000000001e+00
	-4.760700684399888e-15
	-5.523922868604606e-17
	-2.651039480116945e-14
