Title: ** sch_path: /home/andylithia/openmpw/project-yatsuhashi-chip1/xschem/gmid_test/nmos_test.sch
Date: Tue Jul 19 23:15:45  2022
Plotname: DC transfer characteristic
Flags: real
No. Variables: 8
No. Points: 181
Variables:
	0	v(v-sweep)	voltage
	1	@m.xm1.msky130_fd_pr__nfet_01v8[cgb]	capacitance
	2	@m.xm1.msky130_fd_pr__nfet_01v8[cgd]	capacitance
	3	@m.xm1.msky130_fd_pr__nfet_01v8[cgs]	capacitance
	4	@m.xm1.msky130_fd_pr__nfet_01v8[gds]	admittance
	5	@m.xm1.msky130_fd_pr__nfet_01v8[gm]	admittance
	6	i(@m.xm1.msky130_fd_pr__nfet_01v8[id])	current
	7	v(@m.xm1.msky130_fd_pr__nfet_01v8[vth])	voltage
Values:
 0	0.000000000000000e+00
	-1.131414159312449e-15
	1.271338113843057e-19
	-9.328684334407817e-18
	6.620687850757962e-14
	1.955296972525390e-12
	6.483402488891048e-14
	7.534250458657110e-01

 1	1.000000000000000e-02
	-1.125985798015030e-15
	1.352630002618668e-19
	-9.933988995069913e-18
	8.873654087070485e-14
	2.643535984073048e-12
	8.765549516959034e-14
	7.534250458657120e-01

 2	2.000000000000000e-02
	-1.120624750254482e-15
	1.438827501106639e-19
	-1.058763317390757e-17
	1.189234316370104e-13
	3.574011682969505e-12
	1.185097610622306e-13
	7.534250458657133e-01

 3	3.000000000000000e-02
	-1.115328740037723e-15
	1.530304249126053e-19
	-1.129408443269254e-17
	1.593665371173661e-13
	4.831974954801473e-12
	1.602240567912514e-13
	7.534250458657160e-01

 4	4.000000000000000e-02
	-1.110095464217355e-15
	1.627472649119572e-19
	-1.205832235826531e-17
	2.135456689539766e-13
	6.532674572011407e-12
	2.166205907374434e-13
	7.534250458657188e-01

 5	5.000000000000000e-02
	-1.104922582343997e-15
	1.730786486867456e-19
	-1.288589358872670e-17
	2.861194866046120e-13
	8.831910137899404e-12
	2.928666429605387e-13
	7.534250458657229e-01

 6	6.000000000000000e-02
	-1.099807706059564e-15
	1.840743378784639e-19
	-1.378297062480038e-17
	3.833241607936007e-13
	1.194029593915114e-11
	3.959478167393781e-13
	7.534250458657283e-01

 7	7.000000000000001e-02
	-1.094748388022665e-15
	1.957887000731014e-19
	-1.475641451579000e-17
	5.135065871421756e-13
	1.614253977408002e-11
	5.353077469609958e-13
	7.534250458657356e-01

 8	8.000000000000000e-02
	-1.089742110355929e-15
	2.082809053477001e-19
	-1.581384151784752e-17
	6.878374529824705e-13
	2.182349860282332e-11
	7.237127834069108e-13
	7.534250458657454e-01

 9	9.000000000000000e-02
	-1.084786272603363e-15
	2.216150920310774e-19
	-1.696369383151882e-17
	9.212646690379313e-13
	2.950339105802041e-11
	9.784207218279702e-13
	7.534250458657588e-01

 10	9.999999999999999e-02
	-1.079878179183985e-15
	2.358604972678980e-19
	-1.821531453527276e-17
	1.233787972973181e-12
	3.988538151845866e-11
	1.322760421003230e-12
	7.534250458657761e-01

 11	1.100000000000000e-01
	-1.075015026326050e-15
	2.510915480139492e-19
	-1.957902684119267e-17
	1.652162586295027e-12
	5.391987712930678e-11
	1.788266643264388e-12
	7.534250458658005e-01

 12	1.200000000000000e-01
	-1.070193888464463e-15
	2.673879081151657e-19
	-2.106621780699356e-17
	2.212175911671172e-12
	7.289139962209657e-11
	2.417565093120581e-12
	7.534250458658333e-01

 13	1.300000000000000e-01
	-1.065411704082467e-15
	2.848344771157264e-19
	-2.268942664325415e-17
	2.961689388435051e-12
	9.853594505583630e-11
	3.268270992624952e-12
	7.534250458658779e-01

 14	1.400000000000000e-01
	-1.060665260978390e-15
	3.035213363747699e-19
	-2.446243775317402e-17
	3.964701757934343e-12
	1.331995109968471e-10
	4.418256807320276e-12
	7.534250458659376e-01

 15	1.500000000000000e-01
	-1.055951180939250e-15
	3.235436379109098e-19
	-2.640037863010293e-17
	5.306775408328513e-12
	1.800521999561648e-10
	5.972769252120737e-12
	7.534250458660190e-01

 16	1.600000000000000e-01
	-1.051265903806860e-15
	3.450014310930509e-19
	-2.851982270964605e-17
	7.102281174817176e-12
	2.433773328649277e-10
	8.074043673724980e-12
	7.534250458661282e-01

 17	1.700000000000000e-01
	-1.046605670929619e-15
	3.679994218015288e-19
	-3.083889722056587e-17
	9.504068246444100e-12
	3.289617733565996e-10
	1.091429040445450e-11
	7.534250458662769e-01

 18	1.800000000000000e-01
	-1.041966508006314e-15
	3.926466579378942e-19
	-3.337739599237069e-17
	1.271636695694863e-11
	4.446227706442851e-10
	1.475323297763608e-11
	7.534250458664772e-01

 19	1.900000000000000e-01
	-1.037344207348689e-15
	4.190561341088414e-19
	-3.615689704578330e-17
	1.701199944577556e-11
	6.009188756877453e-10
	1.994178939163984e-11
	7.534250458667476e-01

 20	2.000000000000000e-01
	-1.032734309619574e-15
	4.473443069030239e-19
	-3.920088460204252e-17
	2.275532788823437e-11
	8.121089401752614e-10
	2.695404139412501e-11
	7.534250458671129e-01

 21	2.100000000000000e-01
	-1.028132085145197e-15
	4.776305103897721e-19
	-4.253487488361031e-17
	3.043284042570339e-11
	1.097445293488214e-09
	3.643038188182973e-11
	7.534250458676073e-01

 22	2.200000000000001e-01
	-1.023532514956575e-15
	5.100362592936836e-19
	-4.618654472696548e-17
	4.069389817483450e-11
	1.482916800403196e-09
	4.923573229606341e-11
	7.534250458682754e-01

 23	2.300000000000001e-01
	-1.018930271787745e-15
	5.446844247735685e-19
	-5.018586157258839e-17
	5.440499141047711e-11
	2.003597137539318e-09
	6.653806750140383e-11
	7.534250458691776e-01

 24	2.400000000000001e-01
	-1.014319701350493e-15
	5.816982649377565e-19
	-5.456521282332282e-17
	7.272194284364584e-11
	2.706806598058506e-09
	8.991429112715443e-11
	7.534250458703964e-01

 25	2.500000000000001e-01
	-1.009694804317811e-15
	6.212002892942058e-19
	-5.935953185786656e-17
	9.718593383910085e-11
	3.656366391980837e-09
	1.214929238550931e-10
	7.534250458720433e-01

 26	2.600000000000001e-01
	-1.005049219582839e-15
	6.633109334562342e-19
	-6.460641714198508e-17
	1.298511232614113e-10
	4.938318444690830e-09
	1.641463047157433e-10
	7.534250458742682e-01

 27	2.700000000000001e-01
	-1.000376209516868e-15
	7.081470178616490e-19
	-7.034623989226323e-17
	1.734541178958639e-10
	6.668608508696538e-09
	2.217493302805815e-10
	7.534250458772719e-01

 28	2.800000000000001e-01
	-9.956686481281945e-16
	7.558199623410971e-19
	-7.662223461882285e-17
	2.316388176362932e-10
	9.003395545246414e-09
	2.995275222469066e-10
	7.534250458813282e-01

 29	2.900000000000001e-01
	-9.909190132208592e-16
	8.064337274857359e-19
	-8.348056561681845e-17
	3.092544276724773e-10
	1.215286802167584e-08
	4.045248822312633e-10
	7.534250458868041e-01

 30	3.000000000000001e-01
	-9.861193838640058e-16
	8.600824543764553e-19
	-9.097036111653885e-17
	4.127499957957736e-10
	1.639973346468664e-08
	5.462321634406336e-10
	7.534250458941943e-01

 31	3.100000000000001e-01
	-9.812614447019055e-16
	9.168477768674430e-19
	-9.914370537883506e-17
	5.506960637091759e-10
	2.212392059141887e-08
	7.374296353055899e-10
	7.534250459041654e-01

 32	3.200000000000001e-01
	-9.763364988513730e-16
	9.767957858309554e-19
	-1.080555775959910e-16
	7.344733760147311e-10
	2.983551723604425e-08
	9.953161263590909e-10
	7.534250459176149e-01

 33	3.300000000000001e-01
	-9.713354913338160e-16
	1.039973633153851e-18
	-1.177637251102132e-16
	9.791806350457418e-10
	4.021859037430625e-08
	1.343019349230178e-09
	7.534250459357477e-01

 34	3.400000000000001e-01
	-9.662490451555190e-16
	1.106405775398725e-18
	-1.283284573008343e-16
	1.304828710204586e-09
	5.418932958569428e-08
	1.811612791809546e-09
	7.534250459601861e-01

 35	3.500000000000001e-01
	-9.610675122601840e-16
	1.176089873402020e-18
	-1.398123456529135e-16
	1.737908323346325e-09
	7.297295852264851e-08
	2.442803699005495e-09
	7.534250459931032e-01

 36	3.600000000000002e-01
	-9.557810416056859e-16
	1.248992385033390e-18
	-1.522798151673496e-16
	2.313442983462425e-09
	9.820510763554027e-08
	3.292507138931317e-09
	7.534250460374166e-01

 37	3.700000000000002e-01
	-9.503796665330742e-16
	1.325043914004118e-18
	-1.657966125933620e-16
	3.077669893871536e-09
	1.320648690502495e-07
	4.435585473828066e-09
	7.534250460970300e-01

 38	3.800000000000002e-01
	-9.448534133679369e-16
	1.404134407763492e-18
	-1.804291381615601e-16
	4.091529830334282e-09
	1.774485826716830e-07
	5.972113651532256e-09
	7.534250461771619e-01

 39	3.900000000000002e-01
	-9.391924327909015e-16
	1.486108331473842e-18
	-1.962436297762666e-16
	5.435193694606627e-09
	2.381955277158160e-07
	8.035631613222078e-09
	7.534250462847778e-01

 40	4.000000000000002e-01
	-9.333871549069457e-16
	1.570759981545414e-18
	-2.133051921791168e-16
	7.213909515745695e-09
	3.193790673762834e-07
	1.080396855189157e-08
	7.534250464291513e-01

 41	4.100000000000002e-01
	-9.274284681116155e-16
	1.657829139312843e-18
	-2.316766685699528e-16
	9.565519612861138e-09
	4.276792943719878e-07
	1.451337170308307e-08
	7.534250466226035e-01

 42	4.200000000000002e-01
	-9.213079207881477e-16
	1.746997300504601e-18
	-2.514173586405875e-16
	1.267007317520535e-08
	5.718556189109155e-07
	1.947684501651113e-08
	7.534250468814579e-01

 43	4.300000000000002e-01
	-9.150179435825540e-16
	1.837884745874398e-18
	-2.725815949100599e-16
	1.676204308092618e-08
	7.633396380043913e-07
	2.610779758258325e-08
	7.534250472272765e-01

 44	4.400000000000002e-01
	-9.085520885266423e-16
	1.930048738855412e-18
	-2.952171984748562e-16
	2.214574377903336e-08
	1.016969427855075e-06
	3.495031030941986e-08
	7.534250476884337e-01

 45	4.500000000000002e-01
	-9.019052796713347e-16
	2.022983143192626e-18
	-3.193638454650310e-16
	2.921463300825031e-08
	1.351885258486360e-06
	4.671753708620141e-08
	7.534250483021250e-01

 46	4.600000000000002e-01
	-8.950740682429303e-16
	2.116119743111884e-18
	-3.450513861060123e-16
	3.847525355074562e-08
	1.792602520632349e-06
	6.233993868573587e-08
	7.534250491168806e-01

 47	4.700000000000003e-01
	-8.880568837591213e-16
	2.208831517179998e-18
	-3.722981686252206e-16
	5.057661650550670e-08
	2.370269028213005e-06
	8.302516667905850e-08
	7.534250501956887e-01

 48	4.800000000000003e-01
	-8.808542711779285e-16
	2.300438062225915e-18
	-4.011094294603599e-16
	6.634582288966351e-08
	3.124099379420747e-06
	1.103314192698955e-07
	7.534250516198259e-01

 49	4.900000000000003e-01
	-8.734691031525550e-16
	2.390213284888135e-18
	-4.314758183732607e-16
	8.683063704434289e-08
	4.102957504193346e-06
	1.462559162025100e-07
	7.534250534934741e-01

 50	5.000000000000002e-01
	-8.659067559783759e-16
	2.477395377125070e-18
	-4.633721311862945e-16
	1.133495280558928e-07
	5.367029384636698e-06
	1.933397115859442e-07
	7.534250559491953e-01

 51	5.100000000000002e-01
	-8.581752379769009e-16
	2.561198972533285e-18
	-4.967563230649170e-16
	1.475493442761847e-07
	6.989492094760037e-06
	2.547893086851962e-07
	7.534250591542824e-01

 52	5.200000000000002e-01
	-8.502852599605504e-16
	2.640829249347415e-18
	-5.315688709041700e-16
	1.914702409615828e-07
	9.058045834067446e-06
	3.346144056614018e-07
	7.534250633179641e-01

 53	5.300000000000002e-01
	-8.422502391021009e-16
	2.715497612646786e-18
	-5.677325440945371e-16
	2.476167098041261e-07
	1.167613840860132e-05
	4.377795764869611e-07
	7.534250686993406e-01

 54	5.400000000000003e-01
	-8.340862299659205e-16
	2.784438463328122e-18
	-6.051526288122407e-16
	3.190325492962802e-07
	1.496368541867794e-05
	5.703658410049564e-07
	7.534250756158574e-01

 55	5.500000000000003e-01
	-8.258117795417804e-16
	2.846926456214937e-18
	-6.437176325382945e-16
	4.093763894589916e-07
	1.905708492431608e-05
	7.397360652244667e-07
	7.534250844519977e-01

 56	5.600000000000003e-01
	-8.174477066793759e-16
	2.902293575051147e-18
	-6.833004737650067e-16
	5.229930185981762e-07
	2.410835269381982e-05
	9.546962270359245e-07
	7.534250956677908e-01

 57	5.700000000000003e-01
	-8.090168101143677e-16
	2.949945316910670e-18
	-7.237601382127624e-16
	6.649743933460337e-07
	3.028326894885540e-05
	1.225643135743399e-06
	7.534251098066632e-01

 58	5.800000000000003e-01
	-8.005435130251370e-16
	2.989375288437314e-18
	-7.649437590573584e-16
	8.412030516173423e-07
	3.775852651564894e-05
	1.564688573682757e-06
	7.534251275021162e-01

 59	5.900000000000003e-01
	-7.920534554709939e-16
	3.020177572955708e-18
	-8.066890564844175e-16
	1.058369941756661e-06
	4.671798805714500e-05
	1.985750310256208e-06
	7.534251494827554e-01

 60	6.000000000000003e-01
	-7.835730488631027e-16
	3.042056328045788e-18
	-8.488270530964909e-16
	1.323958679343674e-06
	5.734826948789578e-05
	2.504602083378343e-06
	7.534251765752725e-01

 61	6.100000000000003e-01
	-7.751290085837042e-16
	3.054832210531339e-18
	-8.911849677896941e-16
	1.646189126097995e-06
	6.983393482592783e-05
	3.138877203489625e-06
	7.534252097051228e-01

 62	6.200000000000003e-01
	-7.667478818463399e-16
	3.058445389293960e-18
	-9.335891827492501e-16
	2.033914994234399e-06
	8.435258679125672e-05
	3.908023349425117e-06
	7.534252498947799e-01

 63	6.300000000000003e-01
	-7.584555878189324e-16
	3.052955082796395e-18
	-9.758681767038951e-16
	2.496472775561747e-06
	1.010700574192266e-04
	4.833208632930084e-06
	7.534252982595854e-01

 64	6.400000000000003e-01
	-7.502769859470204e-16
	3.038535733688329e-18
	-1.017855322457712e-15
	3.043482377248906e-06
	1.201357605373804e-04
	5.937180378244420e-06
	7.534253560012610e-01

 65	6.500000000000004e-01
	-7.422354864383506e-16
	3.015470094023052e-18
	-1.059391457355629e-15
	3.684603041522271e-06
	1.416781063797748e-04
	7.244077868278247e-06
	7.534254243991360e-01

 66	6.600000000000004e-01
	-7.343527141953837e-16
	2.984139630130620e-18
	-1.100327150643208e-15
	4.429251117418069e-06
	1.657997564235747e-04
	8.779198645106844e-06
	7.534255047990353e-01

 67	6.700000000000004e-01
	-7.266482343479528e-16
	2.945012757855533e-18
	-1.140524610239229e-15
	5.286288892225073e-06
	1.925724686738105e-04
	1.056871550015205e-05
	7.534255985996203e-01

 68	6.800000000000004e-01
	-7.191393442015992e-16
	2.898631482140710e-18
	-1.179859191686420e-15
	6.263696033189065e-06
	2.220313818995956e-04
	1.263933917689968e-05
	7.534257072358568e-01

 69	6.900000000000004e-01
	-7.118409331258305e-16
	2.845597039044838e-18
	-1.218220492435944e-15
	7.368237408722934e-06
	2.541688076597215e-04
	1.501792130951281e-05
	7.534258321592138e-01

 70	7.000000000000004e-01
	-7.047654088767503e-16
	2.786555125844357e-18
	-1.255513033774434e-15
	8.605143268257192e-06
	2.889278996517247e-04
	1.773099427480155e-05
	7.534259748143134e-01

 71	7.100000000000004e-01
	-6.979226862474141e-16
	2.722181261199946e-18
	-1.291656549514832e-15
	9.977819834266641e-06
	3.261968807015497e-04
	2.080424991187837e-05
	7.534261366119986e-01

 72	7.200000000000004e-01
	-6.913202318773171e-16
	2.653166749558595e-18
	-1.326585914277047e-15
	1.148760983221625e-05
	3.658047461025346e-04
	2.426196715307055e-05
	7.534263188992294e-01

 73	7.300000000000004e-01
	-6.849631575817933e-16
	2.580205639939397e-18
	-1.360250754370617e-15
	1.313362260835754e-05
	4.075194527582959e-04
	2.812640839588167e-05
	7.534265229267348e-01

 74	7.400000000000004e-01
	-6.788543536822059e-16
	2.503982976901387e-18
	-1.392614790877090e-15
	1.491265146254829e-05
	4.510494973769341e-04
	3.241721417673719e-05
	7.534267498159225e-01

 75	7.500000000000004e-01
	-6.729946534850051e-16
	2.425164547954226e-18
	-1.423654967710760e-15
	1.681919112474390e-05
	4.960494751330191e-04
	3.715083333191549e-05
	7.534270005269778e-01

 76	7.600000000000005e-01
	-6.673830201972898e-16
	2.344388242874620e-18
	-1.453360417614081e-15
	1.884556096919978e-05
	5.421297318172957e-04
	4.234002944960698e-05
	7.534272758303914e-01

 77	7.700000000000005e-01
	-6.620167480853062e-16
	2.262257060765297e-18
	-1.481731316751787e-15
	2.098213034180436e-05
	5.888696603525000e-04
	4.799350274861972e-05
	7.534275762841014e-01

 78	7.800000000000005e-01
	-6.568916704802262e-16
	2.179333733161235e-18
	-1.508777674397428e-15
	2.321763264506948e-05
	6.358336566699259e-04
	5.411565926640918e-05
	7.534279022181473e-01

 79	7.900000000000005e-01
	-6.520023682148215e-16
	2.096136877524072e-18
	-1.534518098750601e-15
	2.553954625253931e-05
	6.825883509019498e-04
	6.070654723205656e-05
	7.534282537281264e-01

 80	8.000000000000005e-01
	-6.473423731470410e-16
	2.013138555342087e-18
	-1.558978573729571e-15
	2.793451443297043e-05
	7.287195495513826e-04
	6.776196555322455e-05
	7.534286306779572e-01

 81	8.100000000000005e-01
	-6.429043625172609e-16
	1.930763082082254e-18
	-1.582191275124680e-15
	3.038877421941003e-05
	7.738473939172248e-04
	7.527373385146055e-05
	7.534290327116286e-01

 82	8.200000000000005e-01
	-6.386803409363837e-16
	1.849386921058324e-18
	-1.604193448154066e-15
	3.288856573439615e-05
	8.176385332506691e-04
	8.323009984983714e-05
	7.534294592728036e-01

 83	8.300000000000005e-01
	-6.346618077690288e-16
	1.769339488119720e-18
	-1.625026362521051e-15
	3.542049828223142e-05
	8.598145547545354e-04
	9.161625004896404e-05
	7.534299096305865e-01

 84	8.400000000000005e-01
	-6.308399085320145e-16
	1.690904696967263e-18
	-1.644734355727411e-15
	3.797185640536188e-05
	9.001564101620842e-04
	1.004148845491937e-04
	7.534303829093868e-01

 85	8.500000000000005e-01
	-6.272055696581548e-16
	1.614323083910795e-18
	-1.663363970763248e-15
	4.053083673989273e-05
	9.385050374204331e-04
	1.096068166479619e-04
	7.534308781207484e-01

 86	8.600000000000005e-01
	-6.237496165747947e-16
	1.539794364169175e-18
	-1.680963190419667e-15
	4.308671369018951e-05
	9.747587280477005e-04
	1.191715617050957e-04
	7.534313941951674e-01

 87	8.700000000000006e-01
	-6.204628755193017e-16
	1.467480287765216e-18
	-1.697580767349749e-15
	4.562993781736345e-05
	1.008868003111488e-03
	1.290878864625635e-04
	7.534319300122340e-01

 88	8.800000000000006e-01
	-6.173362598693283e-16
	1.397507680339622e-18
	-1.713265646592464e-15
	4.815217497069293e-05
	1.040828834153697e-03
	1.393342981104829e-04
	7.534324844278694e-01

 89	8.900000000000006e-01
	-6.143608420171663e-16
	1.329971571729723e-18
	-1.728066475504873e-15
	5.064629653956373e-05
	1.070675004685516e-03
	1.498894606286207e-04
	7.534330562978602e-01

 90	9.000000000000006e-01
	-6.115279119797426e-16
	1.264938332125929e-18
	-1.742031194836717e-15
	5.310633199552876e-05
	1.098470290034007e-03
	1.607325333422961e-04
	7.534336444973116e-01

 91	9.100000000000006e-01
	-6.088290240240890e-16
	1.202448751470863e-18
	-1.755206703940554e-15
	5.552739450362021e-05
	1.124300976341539e-03
	1.718434326362108e-04
	7.534342479359865e-01

 92	9.200000000000006e-01
	-6.062560326171766e-16
	1.142521012140122e-18
	-1.767638592752376e-15
	5.790558921687374e-05
	1.148269075119104e-03
	1.832030221448180e-04
	7.534348655697382e-01

 93	9.300000000000006e-01
	-6.038011189923251e-16
	1.085153517652958e-18
	-1.779370933121347e-15
	6.023791229426244e-05
	1.170486440023114e-03
	1.947932395287808e-04
	7.534354964084388e-01

 94	9.400000000000006e-01
	-6.014568095739499e-16
	1.030327551135598e-18
	-1.790446122239536e-15
	6.252214698594876e-05
	1.191069869768771e-03
	2.065971693701417e-04
	7.534361395208855e-01

 95	9.500000000000006e-01
	-5.992159874283575e-16
	9.780097465327961e-19
	-1.800904771260588e-15
	6.475676150754520e-05
	1.210137189586617e-03
	2.185990720709471e-04
	7.534367940372015e-01

 96	9.600000000000006e-01
	-5.970718978189685e-16
	9.281543632296282e-19
	-1.810785632647049e-15
	6.694081199294450e-05
	1.227804242098626e-03
	2.307843782308646e-04
	7.534374591492471e-01

 97	9.700000000000006e-01
	-5.950181488466667e-16
	8.807053609399348e-19
	-1.820125560306410e-15
	6.907385262607933e-05
	1.244182682507303e-03
	2.431396570879779e-04
	7.534381341095052e-01

 98	9.800000000000006e-01
	-5.930487080549876e-16
	8.355982766008679e-19
	-1.828959497131746e-15
	7.115585411456616e-05
	1.259378456863592e-03
	2.556525664607069e-04
	7.534388182288542e-01

 99	9.900000000000007e-01
	-5.911578957796990e-16
	7.927619087518580e-19
	-1.837320485127692e-15
	7.318713096433309e-05
	1.273490840220752e-03
	2.683117903971210e-04
	7.534395108735761e-01

 100	1.000000000000001e+00
	-5.893403759257616e-16
	7.521198176362039e-19
	-1.845239693857097e-15
	7.516827751188333e-05
	1.286611918726553e-03
	2.811069695367974e-04
	7.534402114618880e-01

 101	1.010000000000001e+00
	-5.875911447636888e-16
	7.135916512011408e-19
	-1.852746463473949e-15
	7.710011233277504e-05
	1.298826412207458e-03
	2.940286280909776e-04
	7.534409194602120e-01

