Title: ** sch_path: /home/andylithia/openmpw/project-yatsuhashi-chip1/xschem/gmid_test/nmos_test.sch
Date: Tue Jul 19 23:15:45  2022
Plotname: DC transfer characteristic
Flags: real
No. Variables: 8
No. Points: 181
Variables:
	0	v(v-sweep)	voltage
	1	@m.xm1.msky130_fd_pr__nfet_01v8[cgb]	capacitance
	2	@m.xm1.msky130_fd_pr__nfet_01v8[cgd]	capacitance
	3	@m.xm1.msky130_fd_pr__nfet_01v8[cgs]	capacitance
	4	@m.xm1.msky130_fd_pr__nfet_01v8[gds]	admittance
	5	@m.xm1.msky130_fd_pr__nfet_01v8[gm]	admittance
	6	i(@m.xm1.msky130_fd_pr__nfet_01v8[id])	current
	7	v(@m.xm1.msky130_fd_pr__nfet_01v8[vth])	voltage
Values:
 0	0.000000000000000e+00
	-3.269741778638873e-15
	-7.337934160846260e-20
	-3.283005176165040e-15
	6.422401671070341e-09
	3.296742540115188e-07
	3.043056812994099e-08
	3.403318480733858e-01

 1	1.000000000000000e-02
	-3.233083376077260e-15
	-7.580033070611643e-20
	-3.363392323938639e-15
	7.149618648485254e-09
	3.667516585554166e-07
	3.390946601265637e-08
	3.403318483814700e-01

 2	2.000000000000000e-02
	-3.196549589997772e-15
	-7.829440101149211e-20
	-3.444561329987535e-15
	7.956885882645420e-09
	4.079130402924246e-07
	3.777920873967842e-08
	3.403318487242079e-01

 3	3.000000000000000e-02
	-3.160155307540471e-15
	-8.086328814312264e-20
	-3.526470366804820e-15
	8.852631039782232e-09
	4.535992837123025e-07
	4.208280309702976e-08
	3.403318491054245e-01

 4	4.000000000000000e-02
	-3.123915680289802e-15
	-8.350874694701341e-20
	-3.609076121148053e-15
	9.846106368690034e-09
	5.042985725595207e-07
	4.686789707463632e-08
	3.403318495293585e-01

 5	5.000000000000000e-02
	-3.087846081018903e-15
	-8.623255108805258e-20
	-3.692333877787045e-15
	1.094745944988768e-08
	5.605516443112080e-07
	5.218727862613916e-08
	3.403318500007078e-01

 6	6.000000000000000e-02
	-3.051962059431132e-15
	-8.903649265321294e-20
	-3.776197609056610e-15
	1.216780848615098e-08
	6.229576903885918e-07
	5.809943013185693e-08
	3.403318505246772e-01

 7	7.000000000000001e-02
	-3.016279297090217e-15
	-9.192238176967664e-20
	-3.860620069873883e-15
	1.351932219146700e-08
	6.921809920360522e-07
	6.466914546175357e-08
	3.403318511070486e-01

 8	8.000000000000000e-02
	-2.980813561738260e-15
	-9.489204624092494e-20
	-3.945552897842569e-15
	1.501530429494394e-08
	7.689583945702670e-07
	7.196821749733364e-08
	3.403318517542192e-01

 9	9.000000000000000e-02
	-2.945580661207362e-15
	-9.794733120387471e-20
	-4.030946718029315e-15
	1.667028262869346e-08
	8.541077368532323e-07
	8.007620506790053e-08
	3.403318524732935e-01

 10	9.999999999999999e-02
	-2.910596397135446e-15
	-1.010900988100665e-19
	-4.116751251966196e-15
	1.850010271383735e-08
	9.485373683617959e-07
	8.908128950171958e-08
	3.403318532721512e-01

 11	1.100000000000000e-01
	-2.875876518700231e-15
	-1.043222279338586e-19
	-4.202915430401705e-15
	2.052202569614113e-08
	1.053256903026190e-06
	9.908123239920972e-08
	3.403318541595373e-01

 12	1.200000000000000e-01
	-2.841436676587076e-15
	-1.076456139105067e-19
	-4.289387509296473e-15
	2.275483041217619e-08
	1.169389376929747e-06
	1.101844478157996e-07
	3.403318551451585e-01

 13	1.300000000000000e-01
	-2.807292377406329e-15
	-1.110621683069141e-19
	-4.376115188536540e-15
	2.521891928815476e-08
	1.298184995729660e-06
	1.225112038061873e-07
	3.403318562397964e-01

 14	1.400000000000000e-01
	-2.773458938774231e-15
	-1.145738187277419e-19
	-4.463045732817461e-15
	2.793642768672118e-08
	1.441036676878631e-06
	1.361949702362402e-07
	3.403318574554341e-01

 15	1.500000000000000e-01
	-2.739951445267995e-15
	-1.181825086593988e-19
	-4.550126094137487e-15
	3.093133622215544e-08
	1.599497610846238e-06
	1.513839319154389e-07
	3.403318588053924e-01

 16	1.600000000000000e-01
	-2.706784705460784e-15
	-1.218901973543611e-19
	-4.637303035326440e-15
	3.422958546201911e-08
	1.775301083823600e-06
	1.682426884371271e-07
	3.403318603044888e-01

 17	1.700000000000000e-01
	-2.673973210235463e-15
	-1.256988597580507e-19
	-4.724523254030619e-15
	3.785919232381034e-08
	1.970382820902950e-06
	1.869541646230298e-07
	3.403318619692236e-01

 18	1.800000000000000e-01
	-2.641531092567988e-15
	-1.296104864803868e-19
	-4.811733506571813e-15
	4.185036735949992e-08
	2.186906122277883e-06
	2.077217581290955e-07
	3.403318638179667e-01

 19	1.900000000000000e-01
	-2.609472088961453e-15
	-1.336270838139219e-19
	-4.898880731100173e-15
	4.623563199989534e-08
	2.427290074175727e-06
	2.307717535450502e-07
	3.403318658711994e-01

 20	2.000000000000000e-01
	-2.577809502700793e-15
	-1.377506738002926e-19
	-4.985912169468254e-15
	5.104993470598361e-08
	2.694241119308118e-06
	2.563560351582870e-07
	3.403318681517669e-01

 21	2.100000000000000e-01
	-2.546556169085717e-15
	-1.419832943465953e-19
	-5.072775487264014e-15
	5.633076484725428e-08
	2.990788266622371e-06
	2.847551333828562e-07
	3.403318706851595e-01

 22	2.200000000000001e-01
	-2.515724422785961e-15
	-1.463269993929462e-19
	-5.159418891456116e-15
	6.211826299933025e-08
	3.320322204799676e-06
	3.162816425846476e-07
	3.403318734998540e-01

 23	2.300000000000001e-01
	-2.485326067448397e-15
	-1.507838591324820e-19
	-5.245791245124703e-15
	6.845532622722197e-08
	3.686638555774812e-06
	3.512840505490302e-07
	3.403318766276657e-01

 24	2.400000000000001e-01
	-2.455372347670111e-15
	-1.553559602846905e-19
	-5.331842178773705e-15
	7.538770679839701e-08
	4.093985460828467e-06
	3.901510219946934e-07
	3.403318801041738e-01

 25	2.500000000000001e-01
	-2.425873923435471e-15
	-1.600454064228805e-19
	-5.417522197748331e-15
	8.296410265435288e-08
	4.547115629689342e-06
	4.333161801684512e-07
	3.403318839691789e-01

 26	2.600000000000001e-01
	-2.396840847098589e-15
	-1.648543183563551e-19
	-5.502782785311280e-15
	9.123623786322530e-08
	5.051342899686693e-06
	4.812634314611714e-07
	3.403318882672235e-01

 27	2.700000000000001e-01
	-2.368282542975504e-15
	-1.697848345676453e-19
	-5.587576500964936e-15
	1.002589311821847e-07
	5.612603244525243e-06
	5.345328779382793e-07
	3.403318930481701e-01

 28	2.800000000000001e-01
	-2.340207789593262e-15
	-1.748391117049700e-19
	-5.671857073642475e-15
	1.100901507801188e-07
	6.237520038174844e-06
	5.937273614254877e-07
	3.403318983678556e-01

 29	2.900000000000001e-01
	-2.312624704625789e-15
	-1.800193251300375e-19
	-5.755579489429349e-15
	1.207910531116494e-07
	6.933473216600125e-06
	6.595196800548652e-07
	3.403319042888000e-01

 30	3.000000000000001e-01
	-2.285540732529368e-15
	-1.853276695208765e-19
	-5.838700073516323e-15
	1.324260038960816e-07
	7.708671787207019e-06
	7.326605136627654e-07
	3.403319108810101e-01

 31	3.100000000000001e-01
	-2.258962634873698e-15
	-1.907663595295095e-19
	-5.921176566126868e-15
	1.450625791429032e-07
	8.572228912533230e-06
	8.139870878367416e-07
	3.403319182228501e-01

 32	3.200000000000001e-01
	-2.232896483348260e-15
	-1.963376304939059e-19
	-6.002968192203972e-15
	1.587715441820077e-07
	9.534238541664149e-06
	9.044325974299821e-07
	3.403319264020086e-01

 33	3.300000000000001e-01
	-2.207347655407776e-15
	-2.020437392036522e-19
	-6.084035724684488e-15
	1.736268087051371e-07
	1.060585228248395e-05
	1.005036398713467e-06
	3.403319355165531e-01

 34	3.400000000000001e-01
	-2.182320832505721e-15
	-2.078869647185986e-19
	-6.164341541232209e-15
	1.897053559080219e-07
	1.179935490437184e-05
	1.116954964763483e-06
	3.403319456760674e-01

 35	3.500000000000001e-01
	-2.157820000850586e-15
	-2.138696092396068e-19
	-6.243849674343282e-15
	2.070871439428428e-07
	1.312823654063872e-05
	1.241473580983490e-06
	3.403319570028956e-01

 36	3.600000000000002e-01
	-2.133848454606313e-15
	-2.199939990304683e-19
	-6.322525854780239e-15
	2.258549780505624e-07
	1.460725933153326e-05
	1.380018736708965e-06
	3.403319696334624e-01

 37	3.700000000000002e-01
	-2.110408801446320e-15
	-2.262624853900124e-19
	-6.400337548331314e-15
	2.460943519437535e-07
	1.625251592314639e-05
	1.534171144611731e-06
	3.403319837196966e-01

 38	3.800000000000002e-01
	-2.087502970359293e-15
	-2.326774456732254e-19
	-6.477253985931893e-15
	2.678932572546963e-07
	1.808147692869195e-05
	1.705679292205095e-06
	3.403319994305230e-01

 39	3.900000000000002e-01
	-2.065132221595266e-15
	-2.392412843602584e-19
	-6.553246187222267e-15
	2.913419601508275e-07
	2.011302418249145e-05
	1.896473399394688e-06
	3.403320169534490e-01

 40	4.000000000000002e-01
	-2.043297158631689e-15
	-2.459564341721992e-19
	-6.628286977652412e-15
	3.165327445507367e-07
	2.236746639180915e-05
	2.108679623142827e-06
	3.403320364961826e-01

 41	4.100000000000002e-01
	-2.021997742031961e-15
	-2.528253572322694e-19
	-6.702350999277432e-15
	3.435596217472976e-07
	2.486653363734055e-05
	2.344634315519989e-06
	3.403320582883319e-01

 42	4.200000000000002e-01
	-2.001233305062728e-15
	-2.598505462713377e-19
	-6.775414715419087e-15
	3.725180066592504e-07
	2.763334711061663e-05
	2.606898105524400e-06
	3.403320825831025e-01

 43	4.300000000000002e-01
	-1.981002570931429e-15
	-2.670345258764060e-19
	-6.847456409396889e-15
	4.035043613849431e-07
	3.069236052678389e-05
	2.898269539076757e-06
	3.403321096590164e-01

 44	4.400000000000002e-01
	-1.961303671501987e-15
	-2.743798537809813e-19
	-6.918456177558287e-15
	4.366158072188698e-07
	3.406926983416658e-05
	3.221797976777215e-06
	3.403321398215986e-01

 45	4.500000000000002e-01
	-1.942134167344170e-15
	-2.818891221959821e-19
	-6.988395916860200e-15
	4.719497068073955e-07
	3.779088817526387e-05
	3.580795416759872e-06
	3.403321734050009e-01

 46	4.600000000000002e-01
	-1.923491068971024e-15
	-2.895649591801730e-19
	-7.057259307274000e-15
	5.096032186583064e-07
	4.188498355117236e-05
	3.978846881874364e-06
	3.403322107735354e-01

 47	4.700000000000003e-01
	-1.905370859118579e-15
	-2.974100300488985e-19
	-7.125031789303177e-15
	5.496728267718696e-07
	4.638007731126576e-05
	4.419818988153960e-06
	3.403322523230632e-01

 48	4.800000000000003e-01
	-1.887769515923278e-15
	-3.054270388201100e-19
	-7.191700536916621e-15
	5.922538487193063e-07
	5.130520243385193e-05
	4.907866296832786e-06
	3.403322984822040e-01

 49	4.900000000000003e-01
	-1.870682536854325e-15
	-3.136187296966744e-19
	-7.257254426211872e-15
	6.374399260477215e-07
	5.668962157478423e-05
	5.447435046768887e-06
	3.403323497133118e-01

 50	5.000000000000002e-01
	-1.854104963261281e-15
	-3.219878885839459e-19
	-7.321684000130536e-15
	6.853225014263483e-07
	6.256250602357172e-05
	6.043263869614129e-06
	3.403324065131657e-01

 51	5.100000000000002e-01
	-1.838031405400865e-15
	-3.305373446418799e-19
	-7.384981429553921e-15
	7.359902874545920e-07
	6.895257799433252e-05
	6.700381107841534e-06
	3.403324694133168e-01

 52	5.200000000000002e-01
	-1.822456067811581e-15
	-3.392699718707379e-19
	-7.447140471109181e-15
	7.895287325135010e-07
	7.588772005557121e-05
	7.424098386868264e-06
	3.403325389800706e-01

 53	5.300000000000002e-01
	-1.807372774909787e-15
	-3.481886907297664e-19
	-7.508156422017379e-15
	8.460194894450078e-07
	8.339455692218603e-05
	8.220000137674891e-06
	3.403326158140037e-01

 54	5.400000000000003e-01
	-1.792774996686786e-15
	-3.572964697881889e-19
	-7.568026072312132e-15
	9.055398931716705e-07
	9.149801624043019e-05
	9.093928825661562e-06
	3.403327005490325e-01

 55	5.500000000000003e-01
	-1.778655874392615e-15
	-3.665963274078806e-19
	-7.626747654753916e-15
	9.681624536106790e-07
	1.002208763304780e-04
	1.005196571459516e-05
	3.403327938509325e-01

 56	5.600000000000003e-01
	-1.765008246098894e-15
	-3.760913334574948e-19
	-7.684320792758636e-15
	1.033954370374337e-06
	1.095833100461072e-04
	1.110040708030617e-05
	3.403328964153306e-01

 57	5.700000000000003e-01
	-1.751824672040190e-15
	-3.857846110572719e-19
	-7.740746446651282e-15
	1.102977075774401e-06
	1.196024349006907e-04
	1.224573588558315e-05
	3.403330089651251e-01

 58	5.800000000000003e-01
	-1.739097459640225e-15
	-3.956793383547256e-19
	-7.796026858546367e-15
	1.175285812548668e-06
	1.302918803298544e-04
	1.349458903310365e-05
	3.403331322472972e-01

 59	5.900000000000003e-01
	-1.726818688137059e-15
	-4.057787503305635e-19
	-7.850165496145127e-15
	1.250929252497614e-06
	1.416613833574836e-04
	1.485372042424529e-05
	3.403332670291980e-01

 60	6.000000000000003e-01
	-1.714980232728357e-15
	-4.160861406350214e-19
	-7.903166995728554e-15
	1.329949161854507e-06
	1.537164239582666e-04
	1.632996016478610e-05
	3.403334140942348e-01

 61	6.100000000000003e-01
	-1.703573788165583e-15
	-4.266048634545392e-19
	-7.955037104611432e-15
	1.412380118711774e-06
	1.664579110357483e-04
	1.793017036991167e-05
	3.403335742370567e-01

 62	6.200000000000003e-01
	-1.692590891733310e-15
	-4.373383354087621e-19
	-8.005782623309055e-15
	1.498249287196466e-06
	1.798819291474757e-04
	1.966119812655497e-05
	3.403337482582760e-01

 63	6.300000000000003e-01
	-1.682022945556952e-15
	-4.482900374781694e-19
	-8.055411347653985e-15
	1.587576252335950e-06
	1.939795549151075e-04
	2.152982626676154e-05
	3.403339369587733e-01

 64	6.400000000000003e-01
	-1.671861238189588e-15
	-4.594635169626119e-19
	-8.103932011085088e-15
	1.680372918695268e-06
	2.087367504852269e-04
	2.354272268755907e-05
	3.403341411336792e-01

 65	6.500000000000004e-01
	-1.662096965435347e-15
	-4.708623894709875e-19
	-8.151354227315837e-15
	1.776643474918055e-06
	2.241343395043251e-04
	2.570638901716018e-05
	3.403343615661344e-01

 66	6.600000000000004e-01
	-1.652721250373449e-15
	-4.824903409427935e-19
	-8.197688433573867e-15
	1.876384425285210e-06
	2.401480689059884e-04
	2.802710947126341e-05
	3.403345990209086e-01

 67	6.700000000000004e-01
	-1.643725162553610e-15
	-4.943511297018836e-19
	-8.242945834587707e-15
	1.979584688344327e-06
	2.567487574620873e-04
	3.051090076449531e-05
	3.403348542380250e-01

 68	6.800000000000004e-01
	-1.635099736339398e-15
	-5.064485885433763e-19
	-8.287138347482186e-15
	2.086225761586062e-06
	2.739025296167715e-04
	3.316346393934156e-05
	3.403351279264488e-01

 69	6.900000000000004e-01
	-1.626835988382140e-15
	-5.187866268544011e-19
	-8.330278547727833e-15
	2.196281950078492e-06
	2.915711307020041e-04
	3.599013894783128e-05
	3.403354207580264e-01

 70	7.000000000000004e-01
	-1.618924934213279e-15
	-5.313692327696101e-19
	-8.372379616275733e-15
	2.309720655947751e-06
	3.097123173273012e-04
	3.899586277047780e-05
	3.403357333617344e-01

 71	7.100000000000004e-01
	-1.611357603948272e-15
	-5.442004753625698e-19
	-8.413455287994044e-15
	2.426502724637745e-06
	3.282803146391724e-04
	4.218513178408344e-05
	3.403360663183730e-01

 72	7.200000000000004e-01
	-1.604125057099835e-15
	-5.572845068741443e-19
	-8.453519801508883e-15
	2.546582843021423e-06
	3.472263303429235e-04
	4.556196899759730e-05
	3.403364201557884e-01

 73	7.300000000000004e-01
	-1.597218396502785e-15
	-5.706255649792998e-19
	-8.492587850538227e-15
	2.669909983690787e-06
	3.664991139401957e-04
	4.912989666651461e-05
	3.403367953447199e-01

 74	7.400000000000004e-01
	-1.590628781356735e-15
	-5.842279750934525e-19
	-8.530674536794787e-15
	2.796427889141921e-06
	3.860455486111065e-04
	5.289191467528936e-05
	3.403371922953464e-01

 75	7.500000000000004e-01
	-1.584347439396516e-15
	-5.980961527200938e-19
	-8.567795324521275e-15
	2.926075589107198e-06
	4.058112625896087e-04
	5.685048494818439e-05
	3.403376113545672e-01

 76	7.600000000000005e-01
	-1.578365678203655e-15
	-6.122346058414060e-19
	-8.603965996709382e-15
	3.058787943977189e-06
	4.257412467524687e-04
	6.100752201641874e-05
	3.403380528040599e-01

 77	7.700000000000005e-01
	-1.572674895675093e-15
	-6.266479373532101e-19
	-8.639202613042990e-15
	3.194496207102145e-06
	4.457804654522690e-04
	6.536438973785070e-05
	3.403385168591516e-01

 78	7.800000000000005e-01
	-1.567266589668113e-15
	-6.413408475465468e-19
	-8.673521469595000e-15
	3.333128598765058e-06
	4.658744483397636e-04
	6.992190403901299e-05
	3.403390036684763e-01

 79	7.900000000000005e-01
	-1.562132366842543e-15
	-6.563181366375099e-19
	-8.706939060297971e-15
	3.474610884766780e-06
	4.859698519906168e-04
	7.468034143187675e-05
	3.403395133144012e-01

 80	8.000000000000005e-01
	-1.557263950723632e-15
	-6.715847073475068e-19
	-8.739472040198722e-15
	3.618866952846469e-06
	5.060149815130871e-04
	7.963945295250031e-05
	3.403400458142101e-01

 81	8.100000000000005e-01
	-1.552653189010376e-15
	-6.871455675358994e-19
	-8.771137190499244e-15
	3.765819380563946e-06
	5.259602638953952e-04
	8.479848307833276e-05
	3.403406011219547e-01

 82	8.200000000000005e-01
	-1.548292060155857e-15
	-7.030058328875244e-19
	-8.801951385377692e-15
	3.915389988773316e-06
	5.457586665781874e-04
	9.015619310712248e-05
	3.403411791309566e-01

 83	8.300000000000005e-01
	-1.544172679246936e-15
	-7.191707296570216e-19
	-8.831931560576760e-15
	4.067500375403294e-06
	5.653660565337969e-04
	9.571088842430968e-05
	3.403417796768461e-01

 84	8.400000000000005e-01
	-1.540287303211976e-15
	-7.356455974724801e-19
	-8.861094683739451e-15
	4.222072424904514e-06
	5.847414969276731e-04
	1.014604490476592e-04
	3.403424025410925e-01

 85	8.500000000000005e-01
	-1.536628335385609e-15
	-7.524358922008126e-19
	-8.889457726466905e-15
	4.379028789410333e-06
	6.038474801645275e-04
	1.074023628174752e-04
	3.403430474549200e-01

 86	8.600000000000005e-01
	-1.533188329460245e-15
	-7.695471888772571e-19
	-8.917037638067448e-15
	4.538293338362806e-06
	6.226500977271336e-04
	1.135337605969901e-04
	3.403437141035319e-01

 87	8.700000000000006e-01
	-1.529959992854250e-15
	-7.869851847016404e-19
	-8.943851320961295e-15
	4.699791574062491e-06
	6.411191486557864e-04
	1.198514528590367e-04
	3.403444021305662e-01

 88	8.800000000000006e-01
	-1.526936189526744e-15
	-8.047557021037858e-19
	-8.969915607701497e-15
	4.863451011292247e-06
	6.592281897592113e-04
	1.263519670600613e-04
	3.403451111426897e-01

 89	8.900000000000006e-01
	-1.524109942268981e-15
	-8.228646918808658e-19
	-8.995247239567955e-15
	5.029201519826883e-06
	6.769545316731864e-04
	1.330315852388102e-04
	3.403458407142663e-01

 90	9.000000000000006e-01
	-1.521474434501948e-15
	-8.413182364095415e-19
	-9.019862846688630e-15
	5.196975629260791e-06
	6.942791856826793e-04
	1.398863813224391e-04
	3.403465903919977e-01

 91	9.100000000000006e-01
	-1.519023011609650e-15
	-8.601225529349997e-19
	-9.043778929639176e-15
	5.366708796153919e-06
	7.111867667978334e-04
	1.469122576750173e-04
	3.403473596995346e-01

 92	9.200000000000006e-01
	-1.516749181836748e-15
	-8.792839969406835e-19
	-9.067011842470764e-15
	5.538339634008837e-06
	7.276653589342033e-04
	1.541049804803551e-04
	3.403481481419054e-01

 93	9.300000000000006e-01
	-1.514646616779066e-15
	-8.988090656005570e-19
	-9.089577777113742e-15
	5.711810107038234e-06
	7.437063482088437e-04
	1.614602136104804e-04
	3.403489552098319e-01

 94	9.400000000000006e-01
	-1.512709151494287e-15
	-9.187044013176680e-19
	-9.111492749104142e-15
	5.887065689069051e-06
	7.593042303493664e-04
	1.689735506913822e-04
	3.403497803837690e-01

 95	9.500000000000006e-01
	-1.510930784259984e-15
	-9.389767953513865e-19
	-9.132772584578720e-15
	6.064055489246131e-06
	7.744563980462189e-04
	1.766405451367683e-04
	3.403506231377442e-01

 96	9.600000000000006e-01
	-1.509305676004768e-15
	-9.596331915368728e-19
	-9.153432908484314e-15
	6.242732346456804e-06
	7.891629137876237e-04
	1.844567379776131e-04
	3.403514829428892e-01

 97	9.700000000000006e-01
	-1.507828149437868e-15
	-9.806806900994257e-19
	-9.173489133946731e-15
	6.423052894592055e-06
	8.034262733273327e-04
	1.924176833686939e-04
	3.403523592707078e-01

 98	9.800000000000006e-01
	-1.506492687901362e-15
	-1.002126551567461e-18
	-9.192956452744692e-15
	6.604977600900296e-06
	8.172511644748329e-04
	2.005189717025864e-04
	3.403532515960198e-01

 99	9.900000000000007e-01
	-1.505293933968284e-15
	-1.023978200786966e-18
	-9.211849826834976e-15
	6.788470779776697e-06
	8.306442253893842e-04
	2.087562503059124e-04
	3.403541593996154e-01

 100	1.000000000000001e+00
	-1.504226687809088e-15
	-1.046243231041182e-18
	-9.230183980874972e-15
	6.973500584372798e-06
	8.436138060256543e-04
	2.171252417317822e-04
	3.403550821706001e-01

 101	1.010000000000001e+00
	-1.503285905347623e-15
	-1.068929408278618e-18
	-9.247973395690359e-15
