Title: ** sch_path: /home/andylithia/openmpw/project-yatsuhashi-chip1/xschem/gmid_test/nmos_test.sch
Date: Sun Jul 17 22:51:45  2022
Plotname: DC transfer characteristic
Flags: real
No. Variables: 8
No. Points: 181
Variables:
	0	v(v-sweep)	voltage
	1	@m.xm1.msky130_fd_pr__nfet_01v8[cgb]	capacitance
	2	@m.xm1.msky130_fd_pr__nfet_01v8[cgd]	capacitance
	3	@m.xm1.msky130_fd_pr__nfet_01v8[cgs]	capacitance
	4	@m.xm1.msky130_fd_pr__nfet_01v8[gds]	admittance
	5	@m.xm1.msky130_fd_pr__nfet_01v8[gm]	admittance
	6	i(@m.xm1.msky130_fd_pr__nfet_01v8[id])	current
	7	v(@m.xm1.msky130_fd_pr__nfet_01v8[vth])	voltage
Values:
 0	0.000000000000000e+00
	-1.342238102147978e-14
	-7.257213632307336e-18
	-2.689367407337927e-14
	3.048561297647027e-08
	9.800888316882206e-07
	1.275822151886060e-07
	1.736375442337208e-01

 1	1.000000000000000e-02
	-1.327785245535233e-14
	-7.451303918703296e-18
	-2.723886003805952e-14
	3.278601223463835e-08
	1.058350135836696e-06
	1.377692971287553e-07
	1.736375454655365e-01

 2	2.000000000000000e-02
	-1.313531153650565e-14
	-7.650754163710028e-18
	-2.758326348848921e-14
	3.525067333673438e-08
	1.143002535617020e-06
	1.487705067559821e-07
	1.736375467958077e-01

 3	3.000000000000000e-02
	-1.299478399164589e-14
	-7.855720284146952e-18
	-2.792677207794947e-14
	3.789039380615929e-08
	1.234598577085883e-06
	1.606524764357742e-07
	1.736375482325892e-01

 4	4.000000000000000e-02
	-1.285629457317579e-14
	-8.066363128929242e-18
	-2.826927446274158e-14
	4.071659461042715e-08
	1.333742691581481e-06
	1.734876192799865e-07
	1.736375497846408e-01

 5	5.000000000000000e-02
	-1.271986701623341e-14
	-8.282848652735482e-18
	-2.861066042992391e-14
	4.374134893913459e-08
	1.441096382768326e-06
	1.873546735235113e-07
	1.736375514614886e-01

 6	6.000000000000000e-02
	-1.258552399829876e-14
	-8.505348096490910e-18
	-2.895082102239357e-14
	4.697741178733746e-08
	1.557383924073019e-06
	2.023393012877208e-07
	1.736375532734901e-01

 7	7.000000000000001e-02
	-1.245328710143600e-14
	-8.734038174958852e-18
	-2.928964866102585e-14
	5.043825033618235e-08
	1.683398609695190e-06
	2.185347470484449e-07
	1.736375552319251e-01

 8	8.000000000000000e-02
	-1.232317677722988e-14
	-8.969101271752135e-18
	-2.962703726359822e-14
	5.413807512131335e-08
	1.820009604612357e-06
	2.360425615694374e-07
	1.736375573490807e-01

 9	9.000000000000000e-02
	-1.219521231446685e-14
	-9.210725642088231e-18
	-2.996288236023573e-14
	5.809187197826308e-08
	1.968169441108078e-06
	2.549733975270348e-07
	1.736375596383385e-01

 10	9.999999999999999e-02
	-1.206941180960260e-14
	-9.459105623625188e-18
	-3.029708120512745e-14
	6.231543475285977e-08
	2.128922211291206e-06
	2.754478835368246e-07
	1.736375621142926e-01

 11	1.100000000000000e-01
	-1.194579214004881e-14
	-9.714441855736975e-18
	-3.062953288427917e-14
	6.682539876363558e-08
	2.303412506783313e-06
	2.975975837966454e-07
	1.736375647928583e-01

 12	1.200000000000000e-01
	-1.182436894030307e-14
	-9.976941507598595e-18
	-3.096013841908097e-14
	7.163927500223707e-08
	2.492895158165329e-06
	3.215660510791903e-07
	1.736375676914005e-01

 13	1.300000000000000e-01
	-1.170515658093701e-14
	-1.024681851547156e-17
	-3.128880086548386e-14
	7.677548505703315e-08
	2.698745827823796e-06
	3.475099813389917e-07
	1.736375708288787e-01

 14	1.400000000000000e-01
	-1.158816815044871e-14
	-1.052429382959968e-17
	-3.161542540859688e-14
	8.225339674444344e-08
	2.922472510441069e-06
	3.756004787383700e-07
	1.736375742259924e-01

 15	1.500000000000000e-01
	-1.147341543997653e-14
	-1.080959567114365e-17
	-3.193991945253134e-14
	8.809336043194003e-08
	3.165727995443665e-06
	4.060244404400164e-07
	1.736375779053517e-01

 16	1.600000000000000e-01
	-1.136090893086330e-14
	-1.110295979960294e-17
	-3.226219270533686e-14
	9.431674603632436e-08
	3.430323345165758e-06
	4.389860710548333e-07
	1.736375818916674e-01

 17	1.700000000000000e-01
	-1.125065778505007e-14
	-1.140462979119874e-17
	-3.258215725889236e-14
	1.009459806806510e-07
	3.718242441194061e-06
	4.747085371653140e-07
	1.736375862119358e-01

 18	1.800000000000000e-01
	-1.114266983827167e-14
	-1.171485732870807e-17
	-3.289972766363058e-14
	1.080045869930963e-07
	4.031657649224635e-06
	5.134357728592027e-07
	1.736375908956757e-01

 19	1.900000000000000e-01
	-1.103695159601712e-14
	-1.203390250327329e-17
	-3.321482099799567e-14
	1.155172220312686e-07
	4.372946649665902e-06
	5.554344476970170e-07
	1.736375959751539e-01

 20	2.000000000000000e-01
	-1.093350823221013e-14
	-1.236203412872555e-17
	-3.352735693254983e-14
	1.235097168157005e-07
	4.744710477032975e-06
	6.009961089888804e-07
	1.736376014856490e-01

 21	2.100000000000000e-01
	-1.083234359055831e-14
	-1.269953006899553e-17
	-3.383725778866310e-14
	1.320091164568885e-07
	5.149792805771572e-06
	6.504395106606480e-07
	1.736376074657325e-01

 22	2.200000000000001e-01
	-1.073346018851113e-14
	-1.304667757920872e-17
	-3.414444859173975e-14
	1.410437208609468e-07
	5.591300513383983e-06
	7.041131413326973e-07
	1.736376139575766e-01

 23	2.300000000000001e-01
	-1.063685922376066e-14
	-1.340377366109500e-17
	-3.444885711895179e-14
	1.506431260000026e-07
	6.072625543467844e-06
	7.623979645032710e-07
	1.736376210072869e-01

 24	2.400000000000001e-01
	-1.054254058321251e-14
	-1.377112543337058e-17
	-3.475041394146809e-14
	1.608382657347628e-07
	6.597468081380408e-06
	8.257103839060224e-07
	1.736376286652564e-01

 25	2.500000000000001e-01
	-1.045050285434831e-14
	-1.414905051778482e-17
	-3.504905246118433e-14
	1.716614541782432e-07
	7.169861043565432e-06
	8.945054471811824e-07
	1.736376369865568e-01

 26	2.600000000000001e-01
	-1.036074333889518e-14
	-1.453787744155838e-17
	-3.534470894197748e-14
	1.831464285917055e-07
	7.794195867996867e-06
	9.692803009436524e-07
	1.736376460313639e-01

 27	2.700000000000001e-01
	-1.027325806871308e-14
	-1.493794605697760e-17
	-3.563732253552349e-14
	1.953283928062044e-07
	8.475249577571906e-06
	1.050577910129024e-06
	1.736376558653900e-01

 28	2.800000000000001e-01
	-1.018804182380573e-14
	-1.534960797894253e-17
	-3.592683530173295e-14
	2.082440611659720e-07
	9.218213070510365e-06
	1.138991054128921e-06
	1.736376665603920e-01

 29	2.900000000000001e-01
	-1.010508815235665e-14
	-1.577322704131585e-17
	-3.621319222387644e-14
	2.219317029934102e-07
	1.002872057179736e-05
	1.235166611669454e-06
	1.736376781946687e-01

 30	3.000000000000001e-01
	-1.002438939268878e-14
	-1.620917977295200e-17
	-3.649634121848272e-14
	2.364311875794132e-07
	1.091288015734846e-05
	1.339810145615585e-06
	1.736376908536366e-01

 31	3.100000000000001e-01
	-9.945936697041810e-15
	-1.665785589433967e-17
	-3.677623314011086e-14
	2.517840297077520e-07
	1.187730523785126e-05
	1.453690797879456e-06
	1.736377046303986e-01

 32	3.200000000000001e-01
	-9.869720057060051e-15
	-1.711965883583063e-17
	-3.705282178110611e-14
	2.680334357278672e-07
	1.292914686210330e-05
	1.577646503344659e-06
	1.736377196263993e-01

 33	3.300000000000001e-01
	-9.795728330880007e-15
	-1.759500627848426e-17
	-3.732606386646544e-14
	2.852243501973662e-07
	1.407612667017073e-05
	1.712589530170950e-06
	1.736377359520875e-01

 34	3.400000000000001e-01
	-9.723949271706084e-15
	-1.808433071860489e-17
	-3.759591904394824e-14
	3.034035031235700e-07
	1.532657029488284e-05
	1.859512351988350e-06
	1.736377537276204e-01

 35	3.500000000000001e-01
	-9.654369557761602e-15
	-1.858808005710606e-17
	-3.786234986957723e-14
	3.226194578429553e-07
	1.668944097618697e-05
	2.019493855304938e-06
	1.736377730836321e-01

 36	3.600000000000002e-01
	-9.586974823500560e-15
	-1.910671821489601e-17
	-3.812532178868760e-14
	3.429226595887368e-07
	1.817437311690795e-05
	2.193705882919002e-06
	1.736377941620086e-01

 37	3.700000000000002e-01
	-9.521749691966680e-15
	-1.964072577553496e-17
	-3.838480311268694e-14
	3.643654848099491e-07
	1.979170547071506e-05
	2.383420111221219e-06
	1.736378171167401e-01

 38	3.800000000000002e-01
	-9.458677808184990e-15
	-2.019060065648862e-17
	-3.864076499170043e-14
	3.870022913212341e-07
	2.155251361396247e-05
	2.590015255985820e-06
	1.736378421147733e-01

 39	3.900000000000002e-01
	-9.397741873472951e-15
	-2.075685881035938e-17
	-3.889318138327901e-14
	4.108894693806546e-07
	2.346864131290408e-05
	2.814984597562374e-06
	1.736378693369436e-01

 40	4.000000000000002e-01
	-9.338923680558260e-15
	-2.134003495755955e-17
	-3.914202901735709e-14
	4.360854938145676e-07
	2.555273035713422e-05
	3.059943812291192e-06
	1.736378989789166e-01

 41	4.100000000000002e-01
	-9.282204149391967e-15
	-2.194068335196231e-17
	-3.938728735765012e-14
	4.626509773336332e-07
	2.781824838952921e-05
	3.326639092467688e-06
	1.736379312521611e-01

 42	4.200000000000002e-01
	-9.227563363548138e-15
	-2.255937858114225e-17
	-3.962893855968531e-14
	4.906487252133365e-07
	3.027951422316118e-05
	3.616955532280642e-06
	1.736379663849883e-01

 43	4.300000000000002e-01
	-9.174980607101401e-15
	-2.319671640291319e-17
	-3.986696742566562e-14
	5.201437915466518e-07
	3.295172009743051e-05
	3.932925751860466e-06
	1.736380046235785e-01

 44	4.400000000000002e-01
	-9.124434401878435e-15
	-2.385331461994977e-17
	-4.010136135636506e-14
	5.512035373159972e-07
	3.585095028985552e-05
	4.276738725910072e-06
	1.736380462330548e-01

 45	4.500000000000002e-01
	-9.075902544980287e-15
	-2.452981399437828e-17
	-4.033211030025835e-14
	5.838976905775038e-07
	3.899419546758252e-05
	4.650748777388000e-06
	1.736380914985815e-01

 46	4.600000000000002e-01
	-9.029362146476420e-15
	-2.522687920432322e-17
	-4.055920670008674e-14
	6.182984091036977e-07
	4.239936213478501e-05
	5.057484690408646e-06
	1.736381407264580e-01

 47	4.700000000000003e-01
	-8.984789667173670e-15
	-2.594519984449825e-17
	-4.078264543706336e-14
	6.544803458914896e-07
	4.608527650981563e-05
	5.499658889964644e-06
	1.736381942452349e-01

 48	4.800000000000003e-01
	-8.942160956367845e-15
	-2.668549147304261e-17
	-4.100242377291841e-14
	6.925207180125782e-07
	5.007168215050322e-05
	5.980176629330758e-06
	1.736382524068229e-01

 49	4.900000000000003e-01
	-8.901451289488100e-15
	-2.744849670691969e-17
	-4.121854128998528e-14
	7.324993793634016e-07
	5.437923063854004e-05
	6.502145119144156e-06
	1.736383155876080e-01

 50	5.000000000000002e-01
	-8.862635405548650e-15
	-2.823498636832155e-17
	-4.143099982952548e-14
	7.744988979634289e-07
	5.902946463577133e-05
	7.068882525265291e-06
	1.736383841895282e-01

 51	5.100000000000002e-01
	-8.825687544326216e-15
	-2.904576068465055e-17
	-4.163980342848702e-14
	8.186046385547505e-07
	6.404479263760301e-05
	7.683926755701366e-06
	1.736384586411460e-01

 52	5.200000000000002e-01
	-8.790581483185290e-15
	-2.988165054478297e-17
	-4.184495825488828e-14
	8.649048513743422e-07
	6.944845477291539e-05
	8.351043950236757e-06
	1.736385393986682e-01

 53	5.300000000000002e-01
	-8.757290573477670e-15
	-3.074351881447914e-17
	-4.204647254201518e-14
	9.134907681043902e-07
	7.526447903691261e-05
	9.074236580080760e-06
	1.736386269469294e-01

 54	5.400000000000003e-01
	-8.725787776446928e-15
	-3.163226171393364e-17
	-4.224435652161459e-14
	9.644567061574462e-07
	8.151762739428897e-05
	9.857751058950706e-06
	1.736387218003117e-01

 55	5.500000000000003e-01
	-8.696045698572053e-15
	-3.254881026065040e-17
	-4.243862235626325e-14
	1.017900182623789e-06
	8.823333125578514e-05
	1.070608476169889e-05
	1.736388245035871e-01

 56	5.600000000000003e-01
	-8.668036626290086e-15
	-3.349413178097167e-17
	-4.262928407108375e-14
	1.073922039399908e-06
	9.543761591228835e-05
	1.162399234201578e-05
	1.736389356326833e-01

 57	5.700000000000003e-01
	-8.641732560039644e-15
	-3.446923149378239e-17
	-4.281635748497719e-14
	1.132626581231964e-06
	1.031570136075057e-04
	1.261649123705878e-05
	1.736390557953428e-01

 58	5.800000000000003e-01
	-8.617105247574096e-15
	-3.547515417010682e-17
	-4.299986014153150e-14
	1.194121728648426e-06
	1.114184650429790e-04
	1.368886624422003e-05
	1.736391856316801e-01

 59	5.900000000000003e-01
	-8.594126216494785e-15
	-3.651298587250125e-17
	-4.317981123976243e-14
	1.258519188024430e-06
	1.202492092375756e-04
	1.484667305381956e-05
	1.736393258145988e-01

 60	6.000000000000003e-01
	-8.572766805960389e-15
	-3.758385577836919e-17
	-4.335623156483512e-14
	1.325934641319541e-06
	1.296766618069428e-04
	1.609574062144414e-05
	1.736394770500673e-01

 61	6.100000000000003e-01
	-8.552998197532426e-15
	-3.868893809153993e-17
	-4.352914341890767e-14
	1.396487958363223e-06
	1.397282818856625e-04
	1.744217226508811e-05
	1.736396400772652e-01

 62	6.200000000000003e-01
	-8.534791445119731e-15
	-3.982945404670009e-17
	-4.369857055223273e-14
	1.470303434932522e-06
	1.504314280845617e-04
	1.889234537533538e-05
	1.736398156685270e-01

 63	6.300000000000003e-01
	-8.518117503990045e-15
	-4.100667401150092e-17
	-4.386453809464451e-14
	1.547510060276848e-06
	1.618132040557267e-04
	2.045290963164645e-05
	1.736400046291225e-01

 64	6.400000000000003e-01
	-8.502947258819969e-15
	-4.222191969143725e-17
	-4.402707248755183e-14
	1.628241818200447e-06
	1.739002944258814e-04
	2.213078362448968e-05
	1.736402077968523e-01

 65	6.500000000000004e-01
	-8.489251550757446e-15
	-4.347656644286840e-17
	-4.418620141655258e-14
	1.712638026318895e-06
	1.867187920520292e-04
	2.393314979164715e-05
	1.736404260414172e-01

 66	6.600000000000004e-01
	-8.477001203476077e-15
	-4.477204569984265e-17
	-4.434195374477419e-14
	1.800843718666357e-06
	2.002940177481355e-04
	2.586744758754887e-05
	1.736406602635954e-01

 67	6.700000000000004e-01
	-8.466167048202301e-15
	-4.610984752068927e-17
	-4.449435944704169e-14
	1.893010077453047e-06
	2.146503338245970e-04
	2.794136481696971e-05
	1.736409113941942e-01

 68	6.800000000000004e-01
	-8.456719947700541e-15
	-4.749152326068918e-17
	-4.464344954496484e-14
	1.989294920463928e-06
	2.298109529690834e-04
	3.016282707880268e-05
	1.736411803927544e-01

 69	6.900000000000004e-01
	-8.448630819204457e-15
	-4.891868837744411e-17
	-4.478925604303049e-14
	2.089863251358603e-06
	2.457977441736940e-04
	3.253998528181419e-05
	1.736414682460514e-01

 70	7.000000000000004e-01
	-8.441870656284908e-15
	-5.039302537595530e-17
	-4.493181186577861e-14
	2.194887880990066e-06
	2.626310375748953e-04
	3.508120121218962e-05
	1.736417759663408e-01

 71	7.100000000000004e-01
	-8.436410549648563e-15
	-5.191628690079497e-17
	-4.507115079613414e-14
	2.304550128816975e-06
	2.803294302146212e-04
	3.779503115208471e-05
	1.736421045893778e-01

 72	7.200000000000004e-01
	-8.432221706862802e-15
	-5.349029898314277e-17
	-4.520730741496064e-14
	2.419040614555671e-06
	2.989095948488567e-04
	4.069020756911616e-05
	1.736424551722040e-01

 73	7.300000000000004e-01
	-8.429275471006323e-15
	-5.511696445091160e-17
	-4.534031704189333e-14
	2.538560151421081e-06
	3.183860940196735e-04
	4.377561891848315e-05
	1.736428287907061e-01

 74	7.400000000000004e-01
	-8.427543338245206e-15
	-5.679826651060412e-17
	-4.547021567750648e-14
	2.663320753659485e-06
	3.387712016640140e-04
	4.706028762190225e-05
	1.736432265369555e-01

 75	7.500000000000004e-01
	-8.426996974338266e-15
	-5.853627251003351e-17
	-4.559703994685945e-14
	2.793546772605512e-06
	3.600747345541278e-04
	5.055334631042931e-05
	1.736436495163290e-01

 76	7.600000000000005e-01
	-8.427608230076139e-15
	-6.033313789152228e-17
	-4.572082704446400e-14
	2.929476177227919e-06
	3.823038958474736e-04
	5.426401244114354e-05
	1.736440988444609e-01

 77	7.700000000000005e-01
	-8.429349155660185e-15
	-6.219111034573134e-17
	-4.584161468070774e-14
	3.071361997099053e-06
	4.054631329661837e-04
	5.820156142021900e-05
	1.736445756439845e-01

 78	7.800000000000005e-01
	-8.432192014030167e-15
	-6.411253417680758e-17
	-4.595944102976273e-14
	3.219473947968848e-06
	4.295540119262543e-04
	6.237529838663179e-05
	1.736450810411222e-01

 79	7.900000000000005e-01
	-8.436109293149402e-15
	-6.609985489011259e-17
	-4.607434467900517e-14
	3.374100262695701e-06
	4.545751100945170e-04
	6.679452883129172e-05
	1.736456161621525e-01

 80	8.000000000000005e-01
	-8.441073717258528e-15
	-6.815562401442859e-17
	-4.618636457996514e-14
	3.535549753238060e-06
	4.805219291675695e-04
	7.146852824527676e-05
	1.736461821297231e-01

 81	8.100000000000005e-01
	-8.447058257109760e-15
	-7.028250417113745e-17
	-4.629554000082146e-14
	3.704154132809104e-06
	5.073868299430266e-04
	7.640651100768757e-05
	1.736467800591088e-01

 82	8.200000000000005e-01
	-8.454036139194308e-15
	-7.248327440356547e-17
	-4.640191048045248e-14
	3.880270631222190e-06
	5.351589901925486e-04
	8.161759873806632e-05
	1.736474110543831e-01

 83	8.300000000000005e-01
	-8.461980853976305e-15
	-7.476083578039554e-17
	-4.650551578404950e-14
	4.064284940999077e-06
	5.638243866516944e-04
	8.711078834994145e-05
	1.736480762045496e-01

 84	8.400000000000005e-01
	-8.470866163148062e-15
	-7.711821728775378e-17
	-4.660639586029422e-14
	4.256614537089042e-06
	5.933658018186666e-04
	9.289492005060310e-05
	1.736487765796720e-01

 85	8.500000000000005e-01
	-8.480666105920826e-15
	-7.955858202537114e-17
	-4.670459080010018e-14
	4.457712419184819e-06
	6.237628559077824e-04
	9.897864553737881e-05
	1.736495132270385e-01

 86	8.600000000000005e-01
	-8.491355004366452e-15
	-8.208523372304678e-17
	-4.680014079691216e-14
	4.668071332779694e-06
	6.549920639404732e-04
	1.053703966423198e-04
	1.736502871673527e-01

 87	8.700000000000006e-01
	-8.502907467825253e-15
	-8.470162359443689e-17
	-4.689308610855614e-14
	4.888228533471621e-06
	6.870269175831763e-04
	1.120783546751162e-04
	1.736510993910207e-01

 88	8.800000000000006e-01
	-8.515298396395725e-15
	-8.741135754611603e-17
	-4.698346702062818e-14
	5.118771168809590e-06
	7.198379909649807e-04
	1.191104207082451e-04
	1.736519508545650e-01

 89	8.900000000000006e-01
	-8.528502983521056e-15
	-9.021820376077189e-17
	-4.707132381140855e-14
	5.360342363454462e-06
	7.533930693352156e-04
	1.264741870387724e-04
	1.736528424771400e-01

 90	9.000000000000006e-01
	-8.542496717688933e-15
	-9.312610067431642e-17
	-4.715669671828360e-14
	5.613648106905804e-06
	7.876572990592645e-04
	1.341769100479529e-04
	1.736537751372663e-01

 91	9.100000000000006e-01
	-8.557255383258313e-15
	-9.613916536775953e-17
	-4.723962590565718e-14
	5.879465058901891e-06
	8.225933571066012e-04
	1.422254846630018e-04
	1.736547496697104e-01

 92	9.200000000000006e-01
	-8.572755060429476e-15
	-9.926170239565286e-17
	-4.732015143432899e-14
	6.158649406275224e-06
	8.581616378638962e-04
	1.506264206052516e-04
	1.736557668626109e-01

 93	9.300000000000006e-01
	-8.588972124370618e-15
	-1.024982130740288e-16
	-4.739831323231765e-14
	6.452146927075505e-06
	8.943204548137266e-04
	1.593858205857298e-04
	1.736568274548311e-01

 94	9.400000000000006e-01
	-8.605883243515723e-15
	-1.058534052518616e-16
	-4.747415106710129e-14
	6.761004443790362e-06
	9.310262543597422e-04
	1.685093605832348e-04
	1.736579321335599e-01

 95	9.500000000000006e-01
	-8.623465377046363e-15
	-1.093322035912061e-16
	-4.754770451925004e-14
	7.086382878260807e-06
	9.682338388551908e-04
	1.780022723116013e-04
	1.736590815321832e-01

 96	9.600000000000006e-01
	-8.641695771570329e-15
	-1.129397603823451e-16
	-4.761901295742081e-14
	7.429572157313644e-06
	1.005896595705336e-03
	1.878693279524422e-04
	1.736602762284241e-01

 97	9.700000000000006e-01
	-8.660551957009251e-15
	-1.166814669214995e-16
	-4.768811551468380e-14
	7.792008261300345e-06
	1.043966729265479e-03
	1.981148271975423e-04
	1.736615167427836e-01

 98	9.800000000000006e-01
	-8.680011741705342e-15
	-1.205629654798839e-16
	-4.775505106614999e-14
	8.175292758940177e-06
	1.082395492144330e-03
	2.087425866117307e-04
	1.736628035372295e-01

 99	9.900000000000007e-01
	-8.700053206757900e-15
	-1.245901618941152e-16
	-4.781985820786660e-14
	8.581215232654112e-06
	1.121133412443905e-03
	2.197559312926763e-04
	1.736641370141945e-01

 100	1.000000000000001e+00
	-8.720654699599112e-15
	-1.287692388092935e-16
	-4.788257523694597e-14
	9.011779070789752e-06
	1.160130513418672e-03
	2.311576887691499e-04
	1.736655175158371e-01

 101	1.010000000000001e+00
	-8.741794826816034e-15
	-1.331066696073555e-16
	-4.794324013289472e-14
