Title: ** sch_path: /home/andylithia/openmpw/project-yatsuhashi-chip1/xschem/gmid_test/nmos_test.sch
Date: Tue Jul 19 23:15:45  2022
Plotname: DC transfer characteristic
Flags: real
No. Variables: 8
No. Points: 181
Variables:
	0	v(v-sweep)	voltage
	1	@m.xm1.msky130_fd_pr__nfet_01v8[cgb]	capacitance
	2	@m.xm1.msky130_fd_pr__nfet_01v8[cgd]	capacitance
	3	@m.xm1.msky130_fd_pr__nfet_01v8[cgs]	capacitance
	4	@m.xm1.msky130_fd_pr__nfet_01v8[gds]	admittance
	5	@m.xm1.msky130_fd_pr__nfet_01v8[gm]	admittance
	6	i(@m.xm1.msky130_fd_pr__nfet_01v8[id])	current
	7	v(@m.xm1.msky130_fd_pr__nfet_01v8[vth])	voltage
Values:
 0	0.000000000000000e+00
	-3.232130668080964e-15
	-9.355768347839305e-26
	-4.555171066429800e-18
	9.022052217021284e-26
	3.971099627541532e-23
	4.321272582085731e-25
	6.220981428388712e-01

 1	1.000000000000000e-02
	-3.218491083123814e-15
	-1.225540466229316e-25
	-4.544525230999619e-18
	2.261594116838702e-25
	9.954407689281323e-23
	1.083230779602431e-24
	6.220981428388712e-01

 2	2.000000000000000e-02
	-3.205020402814817e-15
	-1.605363155061960e-25
	-4.537189061892118e-18
	5.668839819420879e-25
	2.495190924783206e-22
	2.715191791566098e-24
	6.220981428388712e-01

 3	3.000000000000000e-02
	-3.191714998381333e-15
	-2.102885312273722e-25
	-4.534119358624672e-18
	1.421079693178374e-24
	6.254784772884258e-22
	6.806514285211741e-24
	6.220981428388712e-01

 4	4.000000000000000e-02
	-3.178571266095615e-15
	-2.754568180917997e-25
	-4.536574503316703e-18
	3.562057268306959e-24
	1.567821926348955e-21
	1.706110770358078e-23
	6.220981428388712e-01

 5	5.000000000000000e-02
	-3.165585602690199e-15
	-3.608159891473393e-25
	-4.546208513937454e-18
	8.928916204250367e-24
	3.929918651552336e-21
	4.276663447084825e-23
	6.220981428388712e-01

 6	6.000000000000000e-02
	-3.152754374135730e-15
	-4.726183593436897e-25
	-4.565194164373912e-18
	2.238053611813271e-23
	9.850291883329011e-21
	1.071955639732825e-22
	6.220981428388712e-01

 7	7.000000000000001e-02
	-3.140073875699240e-15
	-6.190499426953119e-25
	-4.596383959359914e-18
	5.609656587813759e-23
	2.468872591621109e-20
	2.686844939416881e-22
	6.220981428388712e-01

 8	8.000000000000000e-02
	-3.127540280593603e-15
	-8.108267986299242e-25
	-4.643520272565021e-18
	1.406020867592920e-22
	6.187605227872201e-20
	6.734387384809936e-22
	6.220981428388712e-01

 9	9.000000000000000e-02
	-3.115149573766640e-15
	-1.061974082594914e-24
	-4.711509102052013e-18
	3.523752158217747e-22
	1.550576338813504e-19
	1.687763862351756e-21
	6.220981428388712e-01

 10	9.999999999999999e-02
	-3.102897466437591e-15
	-1.390842926241483e-24
	-4.806775753334517e-18
	8.830153302791482e-22
	3.884965009594474e-19
	4.229359213184084e-21
	6.220981428388712e-01

 11	1.100000000000000e-01
	-3.090779285855943e-15
	-1.821436310898922e-24
	-4.937725365388196e-18
	2.212339146750431e-21
	9.731064156139556e-19
	1.059639242899356e-20
	6.220981428388712e-01

 12	1.200000000000000e-01
	-3.078789833442148e-15
	-2.385135393825684e-24
	-5.115336486546869e-18
	5.541242622527061e-21
	2.436360229553061e-18
	2.654076862750917e-20
	6.220981428388712e-01

 13	1.300000000000000e-01
	-3.066923203025327e-15
	-3.122943150510003e-24
	-5.353921628056720e-18
	1.387264855069842e-20
	6.095632407790511e-18
	6.644552148525902e-20
	6.220981428388712e-01

 14	1.400000000000000e-01
	-3.055172549452943e-15
	-4.088393539994336e-24
	-5.672094279755763e-18
	3.470498802121088e-20
	1.523410849540702e-17
	1.662257225533749e-19
	6.220981428388712e-01

 15	1.500000000000000e-01
	-3.043529796671139e-15
	-5.351312343293789e-24
	-6.093986138571759e-18
	8.672022499619506e-20
	3.800674999704877e-17
	4.153619664958788e-19
	6.220981428388712e-01

 16	1.600000000000000e-01
	-3.031985273907064e-15
	-7.002660617527690e-24
	-6.650759388796567e-18
	2.162997181486525e-19
	9.456249019617759e-17
	1.036006033893718e-18
	6.220981428388712e-01

 17	1.700000000000000e-01
	-3.020527269501096e-15
	-9.160742871106017e-24
	-7.382453968541179e-18
	5.379597442786000e-19
	2.342735661083685e-16
	2.576654034974817e-18
	6.220981428388712e-01

 18	1.800000000000000e-01
	-3.009141495120482e-15
	-1.197911806990232e-23
	-8.340195261671491e-18
	1.332016639034508e-18
	5.765655661831997e-16
	6.379931002419478e-18
	6.220981428388712e-01

 19	1.900000000000000e-01
	-2.997810459411382e-15
	-1.565660979084273e-23
	-9.588760164276389e-18
	3.275559718890151e-18
	1.404596618020505e-15
	1.568887685570599e-17
	6.220981428388712e-01

 20	2.000000000000000e-01
	-2.986512759854603e-15
	-2.044986926517619e-23
	-1.120945848940053e-17
	7.971188820026740e-18
	3.369571466116217e-15
	3.817942905733436e-17
	6.220981428388712e-01

 21	2.100000000000000e-01
	-2.975222312956090e-15
	-2.668900104406256e-23
	-1.330324023243417e-17
	1.909879561230832e-17
	7.902475789844503e-15
	9.147708445923248e-17
	6.220981428388712e-01

 22	2.200000000000001e-01
	-2.963907549999187e-15
	-3.479682334146142e-23
	-1.599391316135157e-17
	4.474577412301433e-17
	1.794791456653694e-14
	2.143178578791033e-16
	6.220981428388712e-01

 23	2.300000000000001e-01
	-2.952530595539487e-15
	-4.531243078736641e-23
	-1.943140415467218e-17
	1.016456034968793e-16
	3.904532521287038e-14
	4.868497297329327e-16
	6.220981428388712e-01

 24	2.400000000000001e-01
	-2.941046397440374e-15
	-5.891991725484760e-23
	-2.379520973351942e-17
	2.218550414935721e-16
	8.051633701763797e-14
	1.062614254943534e-15
	6.220981428388712e-01

 25	2.500000000000001e-01
	-2.929401665036479e-15
	-7.648350690665179e-23
	-2.929865914338910e-17
	4.616349913118667e-16
	1.563340618049228e-13
	2.211083059830427e-15
	6.220981428388712e-01

 26	2.600000000000001e-01
	-2.917533280430145e-15
	-9.909107684481781e-23
	-3.619541350799514e-17
	9.118800361165507e-16
	2.858901918858335e-13
	4.367611964296305e-15
	6.220981428388724e-01

 27	2.700000000000001e-01
	-2.905365595634469e-15
	-1.281092692761517e-22
	-4.479065619004713e-17
	1.711421617255484e-15
	4.963762584447836e-13
	8.197158946450170e-15
	6.220981428388724e-01

 28	2.800000000000001e-01
	-2.892805788606160e-15
	-1.652551148354403e-22
	-5.546037456420114e-17
	3.069018392553763e-15
	8.290207837738029e-13
	1.469961093889840e-14
	6.220981428388724e-01

 29	2.900000000000001e-01
	-2.879736342265277e-15
	-2.126911388713558e-22
	-6.868249825956508e-17
	5.303330054658555e-15
	1.350114473789710e-12
	2.540124569801595e-14
	6.220981428388737e-01

 30	3.000000000000001e-01
	-2.866003840764916e-15
	-2.731528601204730e-22
	-8.508301017039124e-17
	8.911155473756534e-15
	2.167229411838582e-12
	4.268157090899634e-14
	6.220981428388761e-01

 31	3.100000000000001e-01
	-2.851403679503660e-15
	-3.501187994054964e-22
	-1.054983828226640e-16
	1.467678947587625e-14
	3.453042983688310e-12
	7.029710887134857e-14
	6.220981428388784e-01

 32	3.200000000000001e-01
	-2.835660909924013e-15
	-4.480329456112360e-22
	-1.310530601489025e-16
	2.384354214583560e-14
	5.482221637629288e-12
	1.142029210512022e-13
	6.220981428388820e-01

 33	3.300000000000001e-01
	-2.818408230644808e-15
	-5.725874527438865e-22
	-1.632474655813614e-16
	3.838306431488308e-14
	8.689961854829092e-12
	1.838425962427682e-13
	6.220981428388893e-01

 34	3.400000000000001e-01
	-2.799163113858533e-15
	-7.310684444012392e-22
	-2.040481012321883e-16
	6.142024264437715e-14
	1.376511677940797e-11
	2.941833757090755e-13
	6.220981428389001e-01

 35	3.500000000000001e-01
	-2.777307312787992e-15
	-9.327591830685943e-22
	-2.559663430532147e-16
	9.790524696294863e-14
	2.179797719808282e-11
	4.689350798436373e-13
	6.220981428389168e-01

 36	3.600000000000002e-01
	-2.752073610637556e-15
	-1.189381247061116e-21
	-3.221062348705609e-16
	1.556773999408812e-13
	3.451441307968392e-11
	7.456457923019980e-13
	6.220981428389433e-01

 37	3.700000000000002e-01
	-2.722546636451909e-15
	-1.515534523067116e-21
	-4.061539986083024e-16
	2.471496050682573e-13
	5.464662860193921e-11
	1.183769955509926e-12
	6.220981428389842e-01

 38	3.800000000000002e-01
	-2.687686738572229e-15
	-1.929070302962203e-21
	-5.122737416549892e-16
	3.919752793570481e-13
	8.652014673452897e-11
	1.877442690570569e-12
	6.220981428390502e-01

 39	3.900000000000002e-01
	-2.646387743064830e-15
	-2.451300180455646e-21
	-6.448671042851566e-16
	6.212706958619480e-13
	1.369830943478122e-10
	2.975704889352099e-12
	6.220981428391555e-01

 40	4.000000000000002e-01
	-2.597579448818569e-15
	-3.106912771433427e-21
	-8.081553044039400e-16
	9.842995782960154e-13
	2.168773655692644e-10
	4.714523856684153e-12
	6.220981428393212e-01

 41	4.100000000000002e-01
	-2.540380944837449e-15
	-3.923453923769504e-21
	-1.005562021304947e-15
	1.559055230872867e-12
	3.433675514752189e-10
	7.467487293483395e-12
	6.220981428395839e-01

 42	4.200000000000002e-01
	-2.474297493655884e-15
	-4.930245997298829e-21
	-1.238929542006317e-15
	2.469011434012569e-12
	5.436275206242040e-10
	1.182605722137393e-11
	6.220981428399998e-01

 43	4.300000000000002e-01
	-2.399430450018942e-15
	-6.156702575399042e-21
	-1.507693156687945e-15
	3.909635066154452e-12
	8.606754762967623e-10
	1.872661336321732e-11
	6.220981428406582e-01

 44	4.400000000000002e-01
	-2.316642765534129e-15
	-7.630146402201102e-21
	-1.808243855331856e-15
	6.190341574822139e-12
	1.362608023980464e-09
	2.965154782494158e-11
	6.220981428417002e-01

 45	4.500000000000002e-01
	-2.227608562937243e-15
	-9.373431389137781e-21
	-2.133760997637866e-15
	9.800869325080902e-12
	2.157209299334511e-09
	4.694753136033956e-11
	6.220981428433515e-01

 46	4.600000000000002e-01
	-2.134693463945293e-15
	-1.140282642275412e-20
	-2.474719121962398e-15
	1.551623754516005e-11
	3.415054084790249e-09
	7.432911619364222e-11
	6.220981428459638e-01

 47	4.700000000000003e-01
	-2.040667402338066e-15
	-1.372664243083202e-20
	-2.820051510433523e-15
	2.456259764751986e-11
	5.406018799015739e-09
	1.176753342526388e-10
	6.220981428500997e-01

 48	4.800000000000003e-01
	-1.948319979767903e-15
	-1.634492488487942e-20
	-3.158683983960670e-15
	3.887900867893128e-11
	8.556919833916463e-09
	1.862890827040917e-10
	6.220981428566471e-01

 49	4.900000000000003e-01
	-1.860089387664632e-15
	-1.925024194848857e-20
	-3.480996546853731e-15
	6.152987262234868e-11
	1.354235006485929e-08
	2.948864715957573e-10
	6.220981428670090e-01

 50	5.000000000000002e-01
	-1.777803950314853e-15
	-2.242930541722418e-20
	-3.779825427891295e-15
	9.735288072033796e-11
	2.142744779749028e-08
	4.667350197102654e-10
	6.220981428834065e-01

 51	5.100000000000002e-01
	-1.702581391825034e-15
	-2.586499441562844e-20
	-4.050835942863561e-15
	1.539723251284315e-10
	3.389132116653990e-08
	7.385936261956167e-10
	6.220981429093471e-01

 52	5.200000000000002e-01
	-1.634870557509902e-15
	-2.953835450356439e-20
	-4.292334990466643e-15
	2.433723121498307e-10
	5.357427869821397e-08
	1.168462505032529e-09
	6.220981429503653e-01

 53	5.300000000000002e-01
	-1.574583685841292e-15
	-3.343027080760024e-20
	-4.504733226198136e-15
	3.843109032509497e-10
	8.461145993080776e-08
	1.847675978811284e-09
	6.220981430151775e-01

 54	5.400000000000003e-01
	-1.521261759193586e-15
	-3.752267815869626e-20
	-4.689884905802115e-15
	6.059553533877409e-10
	1.334380262590359e-07
	2.919609354538108e-09
	6.220981431174668e-01

 55	5.500000000000003e-01
	-1.474230271517776e-15
	-4.179930674892856e-20
	-4.850472205371158e-15
	9.531887963829138e-10
	2.099673934034937e-07
	4.608217113915297e-09
	6.220981432786101e-01

 56	5.600000000000003e-01
	-1.432723208469016e-15
	-4.624604133335297e-20
	-4.989519090505436e-15
	1.493961318605409e-09
	3.292257901928703e-07
	7.260592581692158e-09
	6.220981435317444e-01

 57	5.700000000000003e-01
	-1.395969586029720e-15
	-5.085100012717024e-20
	-5.110054710184680e-15
	2.328564311344450e-09
	5.134046690603659e-07
	1.140809470409266e-08
	6.220981439276153e-01

 58	5.800000000000003e-01
	-1.363246569119574e-15
	-5.560443440673022e-20
	-5.214908834418066e-15
	3.599319052500154e-09
	7.939297913793585e-07
	1.784866755863576e-08
	6.220981445424610e-01

 59	5.900000000000003e-01
	-1.333907020929268e-15
	-6.049852936089781e-20
	-5.306607486515007e-15
	5.496376623759326e-09
	1.212354504874037e-06
	2.774543188841900e-08
	6.220981454874941e-01

 60	6.000000000000003e-01
	-1.307389570505573e-15
	-6.552716311463615e-20
	-5.387336534787150e-15
	8.251493976120982e-09
	1.817670433081563e-06
	4.271881690497391e-08
	6.220981469178168e-01

 61	6.100000000000003e-01
	-1.283217885809997e-15
	-7.068566023149865e-20
	-5.458946859978641e-15
	1.210996341069281e-08
	2.656928440213123e-06
	6.488067085200255e-08
	6.220981490358919e-01

 62	6.200000000000003e-01
	-1.260994026025876e-15
	-7.597056044577772e-20
	-5.522982024192949e-15
	1.727797087629545e-08
	3.758453139234610e-06
	9.673575672700127e-08
	6.220981520824158e-01

 63	6.300000000000003e-01
	-1.240389113684708e-15
	-8.137941274145227e-20
	-5.580715857433036e-15
	2.386162994790670e-08
	5.114316567497768e-06
	1.409022949332632e-07
	6.220981563098791e-01

 64	6.400000000000003e-01
	-1.221133312865095e-15
	-8.691059819672350e-20
	-5.633192316783935e-15
	3.183101380940069e-08
	6.675468484184965e-06
	1.997092090795903e-07
	6.220981619441615e-01

 65	6.500000000000004e-01
	-1.203006225982739e-15
	-9.256318113889898e-20
	-5.681263387299867e-15
	4.103334143874666e-08
	8.366986585876970e-06
	2.748457513628157e-07
	6.220981691508273e-01

 66	6.600000000000004e-01
	-1.185828255757030e-15
	-9.833678616610693e-20
	-5.725622988285100e-15
	5.124566722195121e-08
	1.011397679944581e-05
	3.672309264967385e-07
	6.220981780221896e-01

 67	6.700000000000004e-01
	-1.169453135432939e-15
	-1.042314977775432e-19
	-5.766836169323835e-15
	6.223407848273766e-08
	1.186097748741746e-05
	4.771216566394736e-07
	6.220981885871923e-01

 68	6.800000000000004e-01
	-1.153761636167808e-15
	-1.102477792051971e-19
	-5.805363618606580e-15
	7.379365152287747e-08
	1.357715018889982e-05
	6.043444101277963e-07
	6.220982008332550e-01

 69	6.900000000000004e-01
	-1.138656361005431e-15
	-1.163864072313271e-19
	-5.841581877759797e-15
	8.576414926222185e-08
	1.525137658242000e-05
	7.485221225287983e-07
	6.220982147278521e-01

 70	7.000000000000004e-01
	-1.124057492299107e-15
	-1.226484201226502e-19
	-5.875799810489277e-15
	9.802921449877190e-08
	1.688445608217417e-05
	9.092324245813873e-07
	6.220982302336651e-01

 71	7.100000000000004e-01
	-1.109899349192129e-15
	-1.290350762135651e-19
	-5.908271902689753e-15
	1.105083370358719e-07
	1.848268040241981e-05
	1.086092733580748e-06
	6.220982473167895e-01

 72	7.200000000000004e-01
	-1.096127618503149e-15
	-1.355478210697442e-19
	-5.939208938438632e-15
	1.231475328279072e-07
	2.005385242430807e-05
	1.278793312665365e-06
	6.220982659499792e-01

 73	7.300000000000004e-01
	-1.082697136962673e-15
	-1.421882615288096e-19
	-5.968786534510866e-15
	1.359113388113390e-07
	2.160529149996320e-05
	1.487101077587540e-06
	6.220982861130691e-01

 74	7.400000000000004e-01
	-1.069570119999993e-15
	-1.489581452334746e-19
	-5.997151945499933e-15
	1.487767756711897e-07
	2.314306726924549e-05
	1.710850190290881e-06
	6.220983077921280e-01

 75	7.500000000000004e-01
	-1.056714749393228e-15
	-1.558593445414118e-19
	-6.024429482767557e-15
	1.617290991953567e-07
	2.467187055993775e-05
	1.949928567445907e-06
	6.220983309781905e-01

 76	7.600000000000005e-01
	-1.044104047709402e-15
	-1.628938439184676e-19
	-6.050724828234855e-15
	1.747589276559761e-07
	2.619516084061613e-05
	2.204264698494175e-06
	6.220983556660190e-01

 77	7.700000000000005e-01
	-1.031714981038853e-15
	-1.700637301032643e-19
	-6.076128470313440e-15
	1.878603458390829e-07
	2.771540053473720e-05
	2.473816478964460e-06
	6.220983818530498e-01

 78	7.800000000000005e-01
	-1.019527742978844e-15
	-1.773711844775812e-19
	-6.100718444222944e-15
	2.010296721696168e-07
	2.923428863981840e-05
	2.758562428294461e-06
	6.220984095385519e-01

 79	7.900000000000005e-01
	-1.007525182280808e-15
	-1.848184771943028e-19
	-6.124562521891676e-15
	2.142646645099620e-07
	3.075296012064690e-05
	3.058495086809089e-06
	6.220984387230091e-01

 80	8.000000000000005e-01
	-9.956923442779696e-16
	-1.924079627083027e-19
	-6.147719966588404e-15
	2.275640116531460e-07
	3.227214338986988e-05
	3.373616197363530e-06
	6.220984694076606e-01

 81	8.100000000000005e-01
	-9.840161024163540e-16
	-2.001420764302076e-19
	-6.170242943304432e-15
	2.409270090983611e-07
	3.379227911357191e-05
	3.703933263479494e-06
	6.220985015941711e-01

 82	8.200000000000005e-01
	-9.724848611749810e-16
	-2.080233322816856e-19
	-6.192177656672028e-15
	2.543533529884534e-07
	3.531360720151830e-05
	4.049457130289259e-06
	6.220985352844097e-01

 83	8.300000000000005e-01
	-9.610883156071613e-16
	-2.160543209777000e-19
	-6.213565272956354e-15
	2.678430095344193e-07
	3.683622919022052e-05
	4.410200306618063e-06
	6.220985704802897e-01

 84	8.400000000000005e-01
	-9.498172558593833e-16
	-2.242377088979485e-19
	-6.234442670615968e-15
	2.813961325564673e-07
	3.836015230421993e-05
	4.786175814559836e-06
	6.220986071836619e-01

 85	8.500000000000005e-01
	-9.386634074909257e-16
	-2.325762374387329e-19
	-6.254843054444692e-15
	2.950130116562351e-07
	3.988532022022988e-05
	5.177396409514134e-06
	6.220986453962476e-01

 86	8.600000000000005e-01
	-9.276193003601245e-16
	-2.410727227594284e-19
	-6.274796460856090e-15
	3.086940398776243e-07
	4.141163435591860e-05
	5.583874057752671e-06
	6.220986851195897e-01

 87	8.700000000000006e-01
	-9.166781603713824e-16
	-2.497300558557488e-19
	-6.294330176023758e-15
	3.224396937672158e-07
	4.293896849873168e-05
	6.005619591585361e-06
	6.220987263550246e-01

 88	8.800000000000006e-01
	-9.058338195775856e-16
	-2.585512029063326e-19
	-6.313469084004959e-15
	3.362505213290289e-07
	4.446717880328483e-05
	6.442642486238037e-06
	6.220987691036692e-01

 89	8.900000000000006e-01
	-8.950806410756886e-16
	-2.675392058503954e-19
	-6.332235958380043e-15
	3.501271350127748e-07
	4.599611059533254e-05
	6.894950719738268e-06
	6.220988133664072e-01

 90	9.000000000000006e-01
	-8.844134558737343e-16
	-2.766971831629295e-19
	-6.350651708121645e-15
	3.640702079201784e-07
	4.752560298908582e-05
	7.362550689211923e-06
	6.220988591438903e-01

 91	9.100000000000006e-01
	-8.738275094894191e-16
	-2.860283308012012e-19
	-6.368735586196613e-15
	3.780804720782242e-07
	4.905549201582879e-05
	7.845447165429632e-06
	6.220989064365336e-01

 92	9.200000000000006e-01
	-8.633184164977174e-16
	-2.955359233016714e-19
	-6.386505367667833e-15
	3.921587180500668e-07
	5.058561274381978e-05
	8.343643273266512e-06
	6.220989552445241e-01

 93	9.300000000000006e-01
	-8.528821216048825e-16
	-3.052233150109597e-19
	-6.403977502698863e-15
	4.063057954223347e-07
	5.211580071737633e-05
	8.857140489732993e-06
	6.220990055678224e-01

 94	9.400000000000006e-01
	-8.425148661097611e-16
	-3.150939414378507e-19
	-6.421167248790345e-15
	4.205226138777072e-07
	5.364589293787827e-05
	9.385938653954333e-06
	6.220990574061666e-01

 95	9.500000000000006e-01
	-8.322131588371997e-16
	-3.251513207164188e-19
	-6.438088785729809e-15
	4.348101446697456e-07
	5.517572853725155e-05
	9.930035985319471e-06
	6.220991107590819e-01

 96	9.600000000000006e-01
	-8.219737508050668e-16
	-3.353990551722220e-19
	-6.454755316067659e-15
	4.491694223857152e-07
	5.670514924527710e-05
	1.048942910726558e-05
	6.220991656258859e-01

 97	9.700000000000006e-01
	-8.117936130268473e-16
	-3.458408329855695e-19
	-6.471179153401155e-15
	4.636015469268090e-07
	5.823399971873038e-05
	1.106411307499803e-05
	6.220992220056965e-01

 98	9.800000000000006e-01
	-8.016699169629292e-16
	-3.564804299472277e-19
	-6.487371800327386e-15
	4.781076856630837e-07
	5.976212777766187e-05
	1.165408140600688e-05
	6.220992798974386e-01

 99	9.900000000000007e-01
	-7.916000172225893e-16
	-3.673217113030503e-19
	-6.503344017589944e-15
	4.926890757382126e-07
	6.128938457925482e-05
	1.225932611261333e-05
	6.220993392998513e-01

 100	1.000000000000001e+00
	-7.815814361894832e-16
	-3.783686336851228e-19
	-6.519105885675812e-15
	5.073470265106174e-07
	6.281562474924626e-05
	1.287983773602848e-05
	6.220994002114961e-01

 101	1.010000000000001e+00
	-7.716118503003608e-16
	-3.896252471275445e-19
	-6.534666859903166e-15
