Title: ** sch_path: /home/andylithia/openmpw/project-yatsuhashi-chip1/xschem/gmid_test/nmos_test.sch
Date: Tue Jul 19 23:15:45  2022
Plotname: DC transfer characteristic
Flags: real
No. Variables: 8
No. Points: 181
Variables:
	0	v(v-sweep)	voltage
	1	@m.xm1.msky130_fd_pr__nfet_01v8[cgb]	capacitance
	2	@m.xm1.msky130_fd_pr__nfet_01v8[cgd]	capacitance
	3	@m.xm1.msky130_fd_pr__nfet_01v8[cgs]	capacitance
	4	@m.xm1.msky130_fd_pr__nfet_01v8[gds]	admittance
	5	@m.xm1.msky130_fd_pr__nfet_01v8[gm]	admittance
	6	i(@m.xm1.msky130_fd_pr__nfet_01v8[id])	current
	7	v(@m.xm1.msky130_fd_pr__nfet_01v8[vth])	voltage
Values:
 0	0.000000000000000e+00
	-1.603598242468311e-15
	4.836233960425771e-26
	-2.257817446906466e-18
	3.596516434086686e-25
	1.441571823529665e-22
	1.696323163306851e-24
	6.442809416405865e-01

 1	1.000000000000000e-02
	-1.596708777585583e-15
	5.961742635995275e-26
	-2.253403659985809e-18
	8.412359569237578e-25
	3.372157628337436e-22
	3.967956999372072e-24
	6.442809416405865e-01

 2	2.000000000000000e-02
	-1.589906198622157e-15
	7.333659697606735e-26
	-2.250810743052186e-18
	1.967780513073157e-24
	7.888426715795752e-22
	9.282146393872722e-24
	6.442809416405865e-01

 3	3.000000000000000e-02
	-1.583188638465200e-15
	9.000333194388810e-26
	-2.250526591295238e-18
	4.602942416026753e-24
	1.845321643625701e-21
	2.171350494529064e-23
	6.442809416405865e-01

 4	4.000000000000000e-02
	-1.576554254154197e-15
	1.101742013470190e-25
	-2.253180747630110e-18
	1.076720183324201e-23
	4.316747764090619e-21
	5.079487475150716e-23
	6.442809416405865e-01

 5	5.000000000000000e-02
	-1.570001217622061e-15
	1.344802988310419e-25
	-2.259585010351667e-18
	2.518609776682197e-23
	1.009798375098666e-20
	1.188230139962481e-22
	6.442809416405865e-01

 6	6.000000000000000e-02
	-1.563527704234118e-15
	1.636231072800674e-25
	-2.270785535656268e-18
	5.891358263541210e-23
	2.362152698060419e-20
	2.779570887234504e-22
	6.442809416405865e-01

 7	7.000000000000001e-02
	-1.557131878466225e-15
	1.983612783020254e-25
	-2.288129592156373e-18
	1.378046302938668e-22
	5.525527000445169e-20
	6.502027055431857e-22
	6.442809416405865e-01

 8	8.000000000000000e-02
	-1.550811875885206e-15
	2.394831382353291e-25
	-2.313350930235844e-18
	3.223352865977360e-22
	1.292499751775354e-19
	1.520951836993244e-21
	6.442809416405865e-01

 9	9.000000000000000e-02
	-1.544565780375822e-15
	2.877573419854353e-25
	-2.348678700728113e-18
	7.539461656461018e-22
	3.023229245743832e-19
	3.557710443837691e-21
	6.442809416405865e-01

 10	9.999999999999999e-02
	-1.538391595294540e-15
	3.438506836832582e-25
	-2.396976002733277e-18
	1.763432789333210e-21
	7.071131507239462e-19
	8.321695741091809e-21
	6.442809416405865e-01

 11	1.100000000000000e-01
	-1.532287206920248e-15
	4.081972256308243e-25
	-2.461915446592987e-18
	4.124316035474625e-21
	1.653749841145403e-18
	1.946379501807175e-20
	6.442809416405865e-01

 12	1.200000000000000e-01
	-1.526250338222027e-15
	4.807960574997593e-25
	-2.548200534999885e-18
	9.645140171797219e-21
	3.867190928621567e-18
	4.552047686011939e-20
	6.442809416405865e-01

 13	1.300000000000000e-01
	-1.520278490591737e-15
	5.609053902654520e-25
	-2.661843080469681e-18
	2.255321561230851e-20
	9.041421579537116e-18
	1.064460171461118e-19
	6.442809416405865e-01

 14	1.400000000000000e-01
	-1.514368870832410e-15
	6.465873513633522e-25
	-2.810508081452065e-18
	5.272566046924561e-20
	2.113238768706151e-17
	2.488660600945468e-19
	6.442809416405865e-01

 15	1.500000000000000e-01
	-1.508518300418942e-15
	7.340396025694276e-25
	-3.003938125332535e-18
	1.232265212153060e-19
	4.937002107463470e-17
	5.816618089706130e-19
	6.442809416405865e-01

 16	1.600000000000000e-01
	-1.502723103961438e-15
	8.166254748298241e-25
	-3.254468953926251e-18
	2.878627042840380e-19
	1.152595959146851e-16
	1.358859333817323e-18
	6.442809416405865e-01

 17	1.700000000000000e-01
	-1.496978974052974e-15
	8.834826245806481e-25
	-3.577645622022524e-18
	6.719862714633451e-19
	2.688018339456115e-16
	3.172285494367200e-18
	6.442809416405865e-01

 18	1.800000000000000e-01
	-1.491280810451587e-15
	9.175510061732261e-25
	-3.992943934878580e-18
	1.567000145707021e-18
	6.258775715341070e-16
	7.397818801720484e-18
	6.442809416405865e-01

 19	1.900000000000000e-01
	-1.485622532982870e-15
	8.928159274832334e-25
	-4.524594042463755e-18
	3.648119941274064e-18
	1.453741472438821e-15
	1.722370453288706e-17
	6.442809416405865e-01

 20	2.000000000000000e-01
	-1.479996869642869e-15
	7.705165314872985e-25
	-5.202492621201685e-18
	8.472201795137068e-18
	3.364212724592266e-15
	4.000152532449454e-17
	6.442809416405865e-01

 21	2.100000000000000e-01
	-1.474395123692552e-15
	4.940355218198103e-25
	-6.063179636220702e-18
	1.960230646125569e-17
	7.742354624429616e-15
	9.255719594795159e-17
	6.442809416405865e-01

 22	2.200000000000001e-01
	-1.468806924790911e-15
	-1.781901523025229e-26
	-7.150851988371611e-18
	4.510262455177266e-17
	1.767171624721084e-14
	2.129744208218687e-16
	6.442809416405865e-01

 23	2.300000000000001e-01
	-1.463219966830865e-15
	-8.793800050900452e-25
	-8.518402188413432e-18
	1.029261582055581e-16
	3.984915932796054e-14
	4.860419072151635e-16
	6.442809416405865e-01

 24	2.400000000000001e-01
	-1.457619724995262e-15
	-2.248653268780175e-24
	-1.022852483479146e-17
	2.320928794249105e-16
	8.830348812931586e-14
	1.096052956881775e-15
	6.442809416405865e-01

 25	2.500000000000001e-01
	-1.451989121583975e-15
	-4.339739790572958e-24
	-1.235504893949698e-17
	5.145681304597094e-16
	1.909557300849809e-13
	2.430151948137887e-15
	6.442809416405876e-01

 26	2.600000000000001e-01
	-1.446308070577080e-15
	-7.436873761072993e-24
	-1.498484312387441e-17
	1.114680299396648e-15
	3.996301659687281e-13
	5.264537539049197e-15
	6.442809416405876e-01

 27	2.700000000000001e-01
	-1.440552776019349e-15
	-1.190974129789074e-23
	-1.822088943987145e-17
	2.342565502093891e-15
	8.023182116656483e-13
	1.106417282917277e-14
	6.442809416405876e-01

 28	2.800000000000001e-01
	-1.434694599519707e-15
	-1.823004001606581e-23
	-2.218737291244444e-17
	4.742820085580040e-15
	1.534003214775587e-12
	2.240157889197604e-14
	6.442809416405887e-01

 29	2.900000000000001e-01
	-1.428698267228067e-15
	-2.699009146765640e-23
	-2.703779101485964e-17
	9.201819175362457e-15
	2.783615962208760e-12
	4.346380480456642e-14
	6.442809416405905e-01

 30	3.000000000000001e-01
	-1.422519179295650e-15
	-3.892576611181554e-23
	-3.296704962839027e-17
	1.707099196959899e-14
	4.804595806818259e-12
	8.063479213536655e-14
	6.442809416405945e-01

 31	3.100000000000001e-01
	-1.416099629541631e-15
	-5.494779005120522e-23
	-4.022822930097456e-17
	3.033298265190596e-14
	7.948553095836230e-12
	1.432804063117385e-13
	6.442809416406002e-01

 32	3.200000000000001e-01
	-1.409363839220895e-15
	-7.618720731710018e-23
	-4.915420461272319e-17
	5.188020372500778e-14
	1.273968729070126e-11
	2.450645655133369e-13
	6.442809416406089e-01

 33	3.300000000000001e-01
	-1.402211846509547e-15
	-1.040618677527002e-22
	-6.018364749508644e-17
	8.599885491828821e-14
	1.999454420257328e-11
	4.062362028296383e-13
	6.442809416406239e-01

 34	3.400000000000001e-01
	-1.394512468763387e-15
	-1.403709469162615e-22
	-7.389017356390266e-17
	1.391565917000341e-13
	3.099100608622701e-11
	6.573509570813490e-13
	6.442809416406462e-01

 35	3.500000000000001e-01
	-1.386095780309370e-15
	-1.874234751231609e-22
	-9.101244979579707e-17
	2.212178758208012e-13
	4.770938684318224e-11
	1.045013718367417e-12
	6.442809416406821e-01

 36	3.600000000000002e-01
	-1.376745848601365e-15
	-2.482044158416633e-22
	-1.124818733627417e-16
	3.472857892650977e-13
	7.319333357633005e-11
	1.640581480888680e-12
	6.442809416407361e-01

 37	3.700000000000002e-01
	-1.366194868679373e-15
	-3.265775701255534e-22
	-1.394428700375851e-16
	5.404956264606307e-13
	1.121028221383258e-10
	2.553364007867377e-12
	6.442809416408194e-01

 38	3.800000000000002e-01
	-1.354120344255021e-15
	-4.275179616498720e-22
	-1.732589031846648e-16
	8.362704777600298e-13
	1.715640532772320e-10
	3.950733792645575e-12
	6.442809416409465e-01

 39	3.900000000000002e-01
	-1.340147583860547e-15
	-5.573569251182233e-22
	-2.154949467234700e-16
	1.288821132385821e-12
	2.624728210391251e-10
	6.088843246603559e-12
	6.442809416411416e-01

 40	4.000000000000002e-01
	-1.323860460335948e-15
	-7.240106643127732e-22
	-2.678646954553935e-16
	1.981083997315342e-12
	4.014898695093390e-10
	9.359592232905671e-12
	6.442809416414401e-01

 41	4.100000000000002e-01
	-1.304823907193573e-15
	-9.371478102090050e-22
	-3.321290852488958e-16
	3.039919256936668e-12
	6.140932989730477e-10
	1.436246197005165e-11
	6.442809416418965e-01

 42	4.200000000000002e-01
	-1.282621464919792e-15
	-1.208235011347774e-21
	-4.099339948600892e-16
	4.659353156752787e-12
	9.392466962988126e-10
	2.201438183689564e-11
	6.442809416425936e-01

 43	4.300000000000002e-01
	-1.256909448845195e-15
	-1.550386400645076e-21
	-5.025829243743791e-16
	7.136118476448149e-12
	1.436537349560824e-09
	3.371775680715863e-11
	6.442809416436607e-01

 44	4.400000000000002e-01
	-1.227485046240709e-15
	-1.977942450698300e-21
	-6.107585682598698e-16
	1.092399268897913e-11
	2.197090327526822e-09
	5.161742531354696e-11
	6.442809416452924e-01

 45	4.500000000000002e-01
	-1.194358740354796e-15
	-2.505730077659704e-21
	-7.342354308745879e-16
	1.671685919181885e-11
	3.360253022835310e-09
	7.899357761891619e-11
	6.442809416477890e-01

 46	4.600000000000002e-01
	-1.157813750250738e-15
	-3.148020199201236e-21
	-8.716556928730553e-16
	2.557563663093159e-11
	5.139094710518407e-09
	1.208624933914280e-10
	6.442809416516059e-01

 47	4.700000000000003e-01
	-1.118430896403754e-15
	-3.917297015862307e-21
	-1.020454881589672e-15
	3.912215743346669e-11
	7.859363299185131e-09
	1.848948350406586e-10
	6.442809416574435e-01

 48	4.800000000000003e-01
	-1.077061347523329e-15
	-4.823053864451755e-21
	-1.177003419010879e-15
	5.983510469330312e-11
	1.201896575756432e-08
	2.828189400128085e-10
	6.442809416663717e-01

 49	4.900000000000003e-01
	-1.034743737809703e-15
	-5.870881028905965e-21
	-1.336970098904633e-15
	9.150125694594250e-11
	1.837870175674317e-08
	4.325642870152040e-10
	6.442809416800245e-01

 50	5.000000000000002e-01
	-9.925813818890992e-16
	-7.062067614991802e-21
	-1.495835597186394e-15
	1.399024400319367e-10
	2.810047800162545e-08
	6.615332598024641e-10
	6.442809417009002e-01

 51	5.100000000000002e-01
	-9.516100460200187e-16
	-8.393804737708256e-21
	-1.649428216897679e-15
	2.138587286063592e-10
	4.295739598402244e-08
	1.011589793964338e-09
	6.442809417328152e-01

 52	5.200000000000002e-01
	-9.126888500953749e-16
	-9.859908025176603e-21
	-1.794351235707530e-15
	3.268066473487381e-10
	6.565202806078749e-08
	1.546653386461610e-09
	6.442809417815994e-01

 53	5.300000000000002e-01
	-8.764359178908258e-16
	-1.145185113746629e-20
	-1.928220248935253e-15
	4.991728259297160e-10
	1.002961195640107e-07
	2.364230042748755e-09
	6.442809418561413e-01

 54	5.400000000000003e-01
	-8.432133863194029e-16
	-1.315986556989879e-20
	-2.049699261908370e-15
	7.619118879701233e-10
	1.531278157097977e-07
	3.612853348206295e-09
	6.442809419699856e-01

 55	5.500000000000003e-01
	-8.131520714473060e-16
	-1.497390913674308e-20
	-2.158380661172150e-15
	1.161705823577855e-09
	2.335705768577545e-07
	5.518307071902208e-09
	6.442809421437231e-01

 56	5.600000000000003e-01
	-7.861993431787684e-16
	-1.688439400295997e-20
	-2.254578464082105e-15
	1.768437389315933e-09
	3.557653352240503e-07
	8.422684847447170e-09
	6.442809424085519e-01

 57	5.700000000000003e-01
	-7.621742920524523e-16
	-1.888265046714645e-20
	-2.339099295770760e-15
	2.685556126739933e-09
	5.407151881841860e-07
	1.284172698162427e-08
	6.442809428115167e-01

 58	5.800000000000003e-01
	-7.408188929602166e-16
	-2.096115985063083e-20
	-2.413035169268423e-15
	4.063630250614572e-09
	8.191217311482061e-07
	1.954705554649873e-08
	6.442809434230222e-01

 59	5.900000000000003e-01
	-7.218392976540125e-16
	-2.311361510551088e-20
	-2.477599675642951e-15
	6.116293805809769e-09
	1.234759200954864e-06
	2.967976379901852e-08
	6.442809443472247e-01

 60	6.000000000000003e-01
	-7.049356754626838e-16
	-2.533486960165937e-20
	-2.534012091062939e-15
	9.135326683694346e-09
	1.847640015726721e-06
	4.489771251414641e-08
	6.442809457355367e-01

 61	6.100000000000003e-01
	-6.898216053319053e-16
	-2.762082412318548e-20
	-2.583424010450001e-15
	1.349730360972544e-08
	2.735054096766199e-06
	6.754610627822697e-08
	6.442809478023230e-01

 62	6.200000000000003e-01
	-6.762351510155415e-16
	-2.996828797684285e-20
	-2.626879113256785e-15
	1.964916426433701e-08
	3.986902912766649e-06
	1.008135880462051e-07
	6.442809508393982e-01

 63	6.300000000000003e-01
	-6.639439371205551e-16
	-3.237483710962173e-20
	-2.665296347036419e-15
	2.805885703752811e-08
	5.690873618033663e-06
	1.487942088964293e-07
	6.442809552220741e-01

 64	6.400000000000003e-01
	-6.527462509016677e-16
	-3.483868212124542e-20
	-2.699468275708904e-15
	3.912807907735797e-08
	7.906108006101750e-06
	2.163416753519325e-07
	6.442809613963867e-01

 65	6.500000000000004e-01
	-6.424697365633728e-16
	-3.735855220424527e-20
	-2.730068341340871e-15
	5.309014009157836e-08
	1.063364449677930e-05
	3.086320298107641e-07
	6.442809698396673e-01

 66	6.600000000000004e-01
	-6.329687960755487e-16
	-3.993359678341435e-20
	-2.757662681061333e-15
	6.994057169763129e-08
	1.380221701301851e-05
	4.304904233695642e-07
	6.442809809992672e-01

 67	6.700000000000004e-01
	-6.241214353585386e-16
	-4.256330423064760e-20
	-2.782723668298775e-15
	8.944100184401141e-08
	1.728407664588719e-05
	5.857210883566298e-07
	6.442809952310520e-01

 68	6.800000000000004e-01
	-6.158260136360515e-16
	-4.524743586676450e-20
	-2.805643468723780e-15
	1.111935148553008e-07
	2.093405746837577e-05
	7.767274280106927e-07
	6.442810127639033e-01

 69	6.900000000000004e-01
	-6.079981574447012e-16
	-4.798597304899892e-20
	-2.826746669781537e-15
	1.347422474205614e-07
	2.462800286804193e-05
	1.004540646981759e-06
	6.442810337013992e-01

 70	7.000000000000004e-01
	-6.005679712642429e-16
	-5.077907514304558e-20
	-2.846301539901713e-15
	1.596565734027032e-07
	2.828223779600879e-05
	1.269145892945178e-06
	6.442810580508788e-01

 71	7.100000000000004e-01
	-5.934775957575672e-16
	-5.362704637318266e-20
	-2.864529777276980e-15
	1.855762682606610e-07
	3.185324051661469e-05
	1.569898589565617e-06
	6.442810857610979e-01

 72	7.200000000000004e-01
	-5.866791169381465e-16
	-5.653030981139693e-20
	-2.881614781602360e-15
	2.122234512296347e-07
	3.532695186323716e-05
	1.905876806133505e-06
	6.442811167543655e-01

 73	7.300000000000004e-01
	-5.801328037079150e-16
	-5.948938704646576e-20
	-2.897708571930789e-15
	2.393951698259283e-07
	3.870662796927896e-05
	2.276113861143517e-06
	6.442811509479008e-01

 74	7.400000000000004e-01
	-5.738056390053432e-16
	-6.250488233735099e-20
	-2.912937512116806e-15
	2.669485755521588e-07
	4.200352452960844e-05
	2.679721857826676e-06
	6.442811882652884e-01

 75	7.500000000000004e-01
	-5.676701057974682e-16
	-6.557747028815777e-20
	-2.927407013593082e-15
	2.947856179622470e-07
	4.523113957879253e-05
	3.115940149405892e-06
	6.442812286410715e-01

 76	7.600000000000005e-01
	-5.617031897822151e-16
	-6.870788627914291e-20
	-2.941205377134548e-15
	3.228401583881016e-07
	4.840223125591736e-05
	3.584140982096156e-06
	6.442812720213957e-01

 77	7.700000000000005e-01
	-5.558855636999498e-16
	-7.189691905041267e-20
	-2.954406919253754e-15
	3.510681510968512e-07
	5.152758572582587e-05
	4.083814855148157e-06
	6.442813183627663e-01

 78	7.800000000000005e-01
	-5.502009222264487e-16
	-7.514540496573979e-20
	-2.967074509944905e-15
	3.794405723780351e-07
	5.461573898194333e-05
	4.614548865896917e-06
	6.442813676301351e-01

 79	7.900000000000005e-01
	-5.446354407434937e-16
	-7.845422358774418e-20
	-2.979261629467898e-15
	4.079384991168332e-07
	5.767314781481174e-05
	5.176004833366224e-06
	6.442814197949472e-01

 80	8.000000000000005e-01
	-5.391773354274931e-16
	-8.182429427771492e-20
	-2.991014034197012e-15
	4.365497555076035e-07
	6.070452780454807e-05
	5.767900132140051e-06
	6.442814748334214e-01

 81	8.100000000000005e-01
	-5.338165058498370e-16
	-8.525657359736417e-20
	-3.002371105899531e-15
	4.652666589390903e-07
	6.371321678078973e-05
	6.389992110949721e-06
	6.442815327251438e-01

 82	8.200000000000005e-01
	-5.285442445642357e-16
	-8.875205333983298e-20
	-3.013366945338607e-15
	4.940845178934264e-07
	6.670150179394828e-05
	7.042065993458178e-06
	6.442815934519894e-01

 83	8.300000000000005e-01
	-5.233530009580968e-16
	-9.231175905612678e-20
	-3.024031259741158e-15
	5.230006366276147e-07
	6.967088903715566e-05
	7.723925770076298e-06
	6.442816569972959e-01

 84	8.400000000000005e-01
	-5.182361889980285e-16
	-9.593674897325764e-20
	-3.034390084240468e-15
	5.520136581143690e-07
	7.262231579475592e-05
	8.435387495300187e-06
	6.442817233452698e-01

 85	8.500000000000005e-01
	-5.131880304519845e-16
	-9.962811322368200e-20
	-3.044466369651617e-15
	5.811231313741704e-07
	7.555631156316603e-05
	9.176274442870852e-06
	6.442817924805536e-01

 86	8.600000000000005e-01
	-5.082034267761306e-16
	-1.033869733237223e-19
	-3.054280462616908e-15
	6.103292270727011e-07
	7.847311780878067e-05
	9.946413657296099e-06
	6.442818643879239e-01

 87	8.700000000000006e-01
	-5.032778541662858e-16
	-1.072144818525785e-19
	-3.063850499034010e-15
	6.396325508337317e-07
	8.137277552998170e-05
	1.074563353477665e-05
	6.442819390520839e-01

 88	8.800000000000006e-01
	-4.984072773398051e-16
	-1.111118222943055e-19
	-3.073192727543960e-15
	6.690340208469841e-07
	8.425518848256334e-05
	1.157376215214297e-05
	6.442820164575207e-01

 89	8.900000000000006e-01
	-4.935880784770032e-16
	-1.150802090135425e-19
	-3.082321776529463e-15
	6.985347877376648e-07
	8.712016838503690e-05
	1.243062613329360e-05
	6.442820965884153e-01

 90	9.000000000000006e-01
	-4.888169984479671e-16
	-1.191208873421930e-19
	-3.091250875404818e-15
	7.281361821985775e-07
	8.996746698279439e-05
	1.331604989844455e-05
	6.442821794285827e-01

 91	9.100000000000006e-01
	-4.840910880119314e-16
	-1.232351337592793e-19
	-3.099992038840883e-15
	7.578396808551012e-07
	9.279679864049058e-05
	1.422985518402945e-05
	6.442822649614421e-01

 92	9.200000000000006e-01
	-4.794076671277133e-16
	-1.274242561500850e-19
	-3.108556220858562e-15
	7.876468841047819e-07
	9.560785617005686e-05
	1.517186075277648e-05
	6.442823531700020e-01

 93	9.300000000000006e-01
	-4.747642908762819e-16
	-1.316895941337213e-19
	-3.116953444357396e-15
	8.175595018239051e-07
	9.840032186353113e-05
	1.614188223669700e-05
	6.442824440368536e-01

 94	9.400000000000006e-01
	-4.701587207875798e-16
	-1.360325194505767e-19
	-3.125192910553942e-15
	8.475793442462480e-07
	1.011738751470615e-04
	1.713973207251116e-05
	6.442825375441774e-01

 95	9.500000000000006e-01
	-4.655889005971460e-16
	-1.404544364030121e-19
	-3.133283091932186e-15
	8.777083162467634e-07
	1.039281978657395e-04
	1.816521950105960e-05
	6.442826336737516e-01

 96	9.600000000000006e-01
	-4.610529356454556e-16
	-1.449567823440322e-19
	-3.141231811611240e-15
	9.079484138717087e-07
	1.066629779137512e-04
	1.921815061079007e-05
	6.442827324069678e-01

 97	9.700000000000006e-01
	-4.565490752831495e-16
	-1.495410282098275e-19
	-3.149046311478242e-15
	9.383017223561862e-07
	1.093779117123666e-04
	2.029832841143353e-05
	6.442828337248431e-01

 98	9.800000000000006e-01
	-4.520756977659783e-16
	-1.542086790930092e-19
	-3.156733310988466e-15
	9.687704151321724e-07
	1.120727058873978e-04
	2.140555292821177e-05
	6.442829376080420e-01

 99	9.900000000000007e-01
	-4.476312972201696e-16
	-1.589612748540085e-19
	-3.164299058177654e-15
	9.993567535020371e-07
	1.147470783910862e-04
	2.253962130987101e-05
	6.442830440368904e-01

 100	1.000000000000001e+00
	-4.432144723368426e-16
	-1.638003907686938e-19
	-3.171749374145029e-15
	1.030063086765373e-06
	1.174007592384379e-04
	2.370032794588710e-05
	6.442831529913972e-01

 101	1.010000000000001e+00
	-4.388239165167460e-16
	-1.687276382107926e-19
	-3.179089692035621e-15
	1.060891852660972e-06
