Title: ** sch_path: /home/andylithia/openmpw/project-yatsuhashi-chip1/xschem/gmid_test/nmos_test.sch
Date: Tue Jul 19 23:15:45  2022
Plotname: DC transfer characteristic
Flags: real
No. Variables: 8
No. Points: 181
Variables:
	0	v(v-sweep)	voltage
	1	@m.xm1.msky130_fd_pr__nfet_01v8[cgb]	capacitance
	2	@m.xm1.msky130_fd_pr__nfet_01v8[cgd]	capacitance
	3	@m.xm1.msky130_fd_pr__nfet_01v8[cgs]	capacitance
	4	@m.xm1.msky130_fd_pr__nfet_01v8[gds]	admittance
	5	@m.xm1.msky130_fd_pr__nfet_01v8[gm]	admittance
	6	i(@m.xm1.msky130_fd_pr__nfet_01v8[id])	current
	7	v(@m.xm1.msky130_fd_pr__nfet_01v8[vth])	voltage
Values:
 0	0.000000000000000e+00
	-4.632345373145988e-15
	-1.520119509536161e-19
	-5.685184101031092e-15
	6.748863079147838e-09
	3.293678013193263e-07
	3.255878141332994e-08
	2.978454668846172e-01

 1	1.000000000000000e-02
	-4.578432306859336e-15
	-1.565238062621195e-19
	-5.806426949574022e-15
	7.455006987181320e-09
	3.638179985634594e-07
	3.602190024035288e-08
	2.978454671982008e-01

 2	2.000000000000000e-02
	-4.524842495145916e-15
	-1.611567545604536e-19
	-5.928393819762619e-15
	8.232429625792813e-09
	4.018093948340897e-07
	3.984694055239513e-08
	2.978454675446250e-01

 3	3.000000000000000e-02
	-4.471596570348671e-15
	-1.659134158595741e-19
	-6.051022170528698e-15
	9.087930019587118e-09
	4.437032508914055e-07
	4.407109085905972e-08
	2.978454679272825e-01

 4	4.000000000000000e-02
	-4.418715203770475e-15
	-1.707964449200041e-19
	-6.174248285449957e-15
	1.002889761805459e-08
	4.898985032360068e-07
	4.873533733099283e-08
	2.978454683499112e-01

 5	5.000000000000000e-02
	-4.366219050391316e-15
	-1.758085313535456e-19
	-6.298007397155740e-15
	1.106335537193527e-08
	5.408359924325851e-07
	5.388486128478540e-08
	2.978454688166364e-01

 6	6.000000000000000e-02
	-4.314128693686307e-15
	-1.809523997448075e-19
	-6.422233815625493e-15
	1.220000483944213e-08
	5.970032193603992e-07
	5.956948153602509e-08
	2.978454693320113e-01

 7	7.000000000000001e-02
	-4.262464590768707e-15
	-1.862308097945228e-19
	-6.546861059875798e-15
	1.344827326651396e-08
	6.589396985858515e-07
	6.584414723931955e-08
	2.978454699010640e-01

 8	8.000000000000000e-02
	-4.211247018081803e-15
	-1.916465564865688e-19
	-6.671821992510147e-15
	1.481836255976803e-08
	7.272429859342270e-07
	7.276948756508276e-08
	2.978454705293502e-01

 9	9.000000000000000e-02
	-4.160496017862085e-15
	-1.972024702805631e-19
	-6.797048956587279e-15
	1.632130004273902e-08
	8.025754656110609e-07
	8.041242537474218e-08
	2.978454712230042e-01

 10	9.999999999999999e-02
	-4.110231345593024e-15
	-2.029014173319202e-19
	-6.922473914248320e-15
	1.796899085532374e-08
	8.856719907566044e-07
	8.884686295198962e-08
	2.978454719888174e-01

 11	1.100000000000000e-01
	-4.060472418663903e-15
	-2.087462997412776e-19
	-7.048028586533037e-15
	1.977427182320529e-08
	9.773484799306280e-07
	9.815444882966666e-08
	2.978454728342950e-01

 12	1.200000000000000e-01
	-4.011238266442142e-15
	-2.147400558351025e-19
	-7.173644593806334e-15
	2.175096658847223e-08
	1.078511580479972e-06
	1.084254358192648e-07
	2.978454737677534e-01

 13	1.300000000000000e-01
	-3.962547481959826e-15
	-2.208856604792946e-19
	-7.299253596214572e-15
	2.391394175490834e-08
	1.190169517737755e-06
	1.197596415001076e-07
	2.978454747984003e-01

 14	1.400000000000000e-01
	-3.914418175406110e-15
	-2.271861254276086e-19
	-7.424787433589894e-15
	2.627916376167099e-08
	1.313444256162614e-06
	1.322675236513247e-07
	2.978454759364473e-01

 15	1.500000000000000e-01
	-3.866867929606739e-15
	-2.336444997065203e-19
	-7.550178264226984e-15
	2.886375615764202e-08
	1.449585104395383e-06
	1.460713844014636e-07
	2.978454771932201e-01

 16	1.600000000000000e-01
	-3.819913757660336e-15
	-2.402638700383954e-19
	-7.675358701963722e-15
	3.168605690592799e-08
	1.599983900245170e-06
	1.613067182122139e-07
	2.978454785812851e-01

 17	1.700000000000000e-01
	-3.773572062888545e-15
	-2.470473613044515e-19
	-7.800261951009777e-15
	3.476567530422057e-08
	1.766191913185982e-06
	1.781237201829135e-07
	2.978454801146121e-01

 18	1.800000000000000e-01
	-3.727858601242943e-15
	-2.539981370491366e-19
	-7.924821937984261e-15
	3.812354806251237e-08
	1.949938600328003e-06
	1.966889725332621e-07
	2.978454818087206e-01

 19	1.900000000000000e-01
	-3.682788446297470e-15
	-2.611194000275715e-19
	-8.048973440641086e-15
	4.178199403542009e-08
	2.153152346208863e-06
	2.171873284565899e-07
	2.978454836808815e-01

 20	2.000000000000000e-01
	-3.638375956939379e-15
	-2.684143927972873e-19
	-8.172652212785889e-15
	4.576476706280505e-08
	2.377983306245209e-06
	2.398240137915002e-07
	2.978454857503093e-01

 21	2.100000000000000e-01
	-3.594634747855843e-15
	-2.758863983559222e-19
	-8.295795104912681e-15
	5.009710633000137e-08
	2.626828457326593e-06
	2.648269680812535e-07
	2.978454880384051e-01

 22	2.200000000000001e-01
	-3.551577662896885e-15
	-2.835387408260139e-19
	-8.418340180118560e-15
	5.480578361854268e-08
	2.902358935820427e-06
	2.924494475150796e-07
	2.978454905690138e-01

 23	2.300000000000001e-01
	-3.509216751378340e-15
	-2.913747861882692e-19
	-8.540226824886319e-15
	5.991914678047193e-08
	3.207549712155198e-06
	3.229729128995020e-07
	2.978454933687087e-01

 24	2.400000000000001e-01
	-3.467563247371777e-15
	-2.993979430644588e-19
	-8.661395854358156e-15
	6.546715873489403e-08
	3.545711611145281e-06
	3.567102261068804e-07
	2.978454964671244e-01

 25	2.500000000000001e-01
	-3.426627552011146e-15
	-3.076116635510869e-19
	-8.781789611760724e-15
	7.148143125518856e-08
	3.920525637360697e-06
	3.940091782990493e-07
	2.978454998973086e-01

 26	2.600000000000001e-01
	-3.386419218829052e-15
	-3.160194441049436e-19
	-8.901352061678489e-15
	7.799525279001874e-08
	4.336079504283101e-06
	4.352563725228411e-07
	2.978455036961236e-01

 27	2.700000000000001e-01
	-3.346946942119034e-15
	-3.246248264814158e-19
	-9.020028876911857e-15
	8.504360954177589e-08
	4.796906194063931e-06
	4.808814819113153e-07
	2.978455079046805e-01

 28	2.800000000000001e-01
	-3.308218548303881e-15
	-3.334313987266395e-19
	-9.137767518696152e-15
	9.266319901323332e-08
	5.308024290994112e-06
	5.313619025833469e-07
	2.978455125688306e-01

 29	2.900000000000001e-01
	-3.270240990274362e-15
	-3.424427962242271e-19
	-9.254517310098179e-15
	1.008924352277675e-07
	5.874979736226351e-06
	5.872278172966643e-07
	2.978455177396965e-01

 30	3.000000000000001e-01
	-3.233020344647711e-15
	-3.516627027973916e-19
	-9.370229502447834e-15
	1.097714448313959e-07
	6.503888544191427e-06
	6.490676818578109e-07
	2.978455234742532e-01

 31	3.100000000000001e-01
	-3.196561811880962e-15
	-3.610948518673508e-19
	-9.484857334702449e-15
	1.193420532968330e-07
	7.201479903359939e-06
	7.175341411153118e-07
	2.978455298359630e-01

 32	3.200000000000001e-01
	-3.160869719160553e-15
	-3.707430276684303e-19
	-9.598356085682350e-15
	1.296477604717245e-07
	7.975138956956761e-06
	7.933503749595640e-07
	2.978455368954654e-01

 33	3.300000000000001e-01
	-3.125947525977580e-15
	-3.806110665207251e-19
	-9.710683119154591e-15
	1.407337047457781e-07
	8.832948425045156e-06
	8.773168670415021e-07
	2.978455447313266e-01

 34	3.400000000000001e-01
	-3.091797832285992e-15
	-3.907028581607813e-19
	-9.821797921781099e-15
	1.526466151556664e-07
	9.783728090926170e-06
	9.703185798449348e-07
	2.978455534308337e-01

 35	3.500000000000001e-01
	-3.058422389131160e-15
	-4.010223471308804e-19
	-9.931662133983464e-15
	1.654347508027421e-07
	1.083707103569495e-05
	1.073332509278205e-06
	2.978455630908471e-01

 36	3.600000000000002e-01
	-3.025822111626665e-15
	-4.115735342273194e-19
	-1.004023957381235e-14
	1.791478270277253e-07
	1.200337536955034e-05
	1.187435580106099e-06
	2.978455738187243e-01

 37	3.700000000000002e-01
	-2.993997094149001e-15
	-4.223604780082866e-19
	-1.014749625394316e-14
	1.938369278690090e-07
	1.329387008236208e-05
	1.313812830386893e-06
	2.978455857332645e-01

 38	3.800000000000002e-01
	-2.962946627613149e-15
	-4.333872963616474e-19
	-1.025340039195028e-14
	2.095544044275056e-07
	1.472063352510489e-05
	1.453765818731942e-06
	2.978455989657224e-01

 39	3.900000000000002e-01
	-2.932669218685998e-15
	-4.446581681330489e-19
	-1.035792241404220e-14
	2.263537588716020e-07
	1.629660294481111e-05
	1.608721172854080e-06
	2.978456136608516e-01

 40	4.000000000000002e-01
	-2.903162610790088e-15
	-4.561773348147385e-19
	-1.046103495246599e-14
	2.442895139407512e-07
	1.803557343586008e-05
	1.780239181768668e-06
	2.978456299779852e-01

 41	4.100000000000002e-01
	-2.874423806746772e-15
	-4.679491022954599e-19
	-1.056271283681426e-14
	2.634170679456634e-07
	1.995218464722119e-05
	1.970022317488070e-06
	2.978456480921314e-01

 42	4.200000000000002e-01
	-2.846449092905550e-15
	-4.799778426717513e-19
	-1.066293307948934e-14
	2.837925354167043e-07
	2.206189360616955e-05
	2.179923555509593e-06
	2.978456681950922e-01

 43	4.300000000000002e-01
	-2.819234064605136e-15
	-4.922679961209292e-19
	-1.076167485559869e-14
	3.054725737194531e-07
	2.438093209113118e-05
	2.411954347316579e-06
	2.978456904965587e-01

 44	4.400000000000002e-01
	-2.792773652811817e-15
	-5.048240728362850e-19
	-1.085891947757181e-14
	3.285141961364677e-07
	2.692624711604896e-05
	2.668292083035998e-06
	2.978457152252019e-01

 45	4.500000000000002e-01
	-2.767062151781427e-15
	-5.176506550245586e-19
	-1.095465036480296e-14
	3.529745721061710e-07
	2.971542328118794e-05
	2.951286868929389e-06
	2.978457426297186e-01

 46	4.600000000000002e-01
	-2.742093247593177e-15
	-5.307523989662935e-19
	-1.104885300863516e-14
	3.789108155114664e-07
	3.276658600411738e-05
	3.263467433182115e-06
	2.978457729798085e-01

 47	4.700000000000003e-01
	-2.717860047406234e-15
	-5.441340371393457e-19
	-1.114151493300958e-14
	4.063797621202100e-07
	3.609828497110909e-05
	3.607545965171678e-06
	2.978458065670718e-01

 48	4.800000000000003e-01
	-2.694355109293535e-15
	-5.578003804058797e-19
	-1.123262565111062e-14
	4.354377374943887e-07
	3.972935754220654e-05
	3.986421688713315e-06
	2.978458437057928e-01

 49	4.900000000000003e-01
	-2.671570472511557e-15
	-5.717563202632703e-19
	-1.132217661834058e-14
	4.661403169014067e-07
	4.367877229860797e-05
	4.403182969346306e-06
	2.978458847335936e-01

 50	5.000000000000002e-01
	-2.649497688069647e-15
	-5.860068311595231e-19
	-1.141016118195963e-14
	4.985420789757355e-07
	4.796545343142346e-05
	4.861107760128758e-06
	2.978459300119118e-01

 51	5.100000000000002e-01
	-2.628127849468033e-15
	-6.005569728734323e-19
	-1.149657452772585e-14
	5.326963550877760e-07
	5.260808722555526e-05
	5.363662200149874e-06
	2.978459799262827e-01

 52	5.200000000000002e-01
	-2.607451623479753e-15
	-6.154118929601890e-19
	-1.158141362386723e-14
	5.686549765744887e-07
	5.762491247729425e-05
	5.914497195422444e-06
	2.978460348864064e-01

 53	5.300000000000002e-01
	-2.587459280857936e-15
	-6.305768292628152e-19
	-1.166467716271328e-14
	6.064680221679628e-07
	6.303349728193724e-05
	6.517442833203628e-06
	2.978460953259550e-01

 54	5.400000000000003e-01
	-2.568140726856931e-15
	-6.460571124902146e-19
	-1.174636550030732e-14
	6.461835681179281e-07
	6.885050521821692e-05
	7.176500508135803e-06
	2.978461617021199e-01

 55	5.500000000000003e-01
	-2.549485531462541e-15
	-6.618581688623034e-19
	-1.182648059431268e-14
	6.878474436367940e-07
	7.509145451740218e-05
	7.895832671723369e-06
	2.978462344948341e-01

 56	5.600000000000003e-01
	-2.531482959234159e-15
	-6.779855228230757e-19
	-1.190502594051666e-14
	7.315029943951190e-07
	8.177047431300543e-05
	8.679750155149176e-06
	2.978463142056944e-01

 57	5.700000000000003e-01
	-2.514121998668781e-15
	-6.944447998221920e-19
	-1.198200650822567e-14
	7.771908568563285e-07
	8.890006249830268e-05
	9.532697058640639e-06
	2.978464013565556e-01

 58	5.800000000000003e-01
	-2.497391391004390e-15
	-7.112417291661199e-19
	-1.205742867483348e-14
	8.249487462569085e-07
	9.649085005033376e-05
	1.045923324763548e-05
	2.978464964877610e-01

 59	5.900000000000003e-01
	-2.481279658387818e-15
	-7.283821469394316e-19
	-1.213130015983135e-14
	8.748112610074385e-07
	1.045513768896965e-04
	1.146401454575485e-05
	2.978466001560570e-01

 60	6.000000000000003e-01
	-2.465775131339348e-15
	-7.458719989976207e-19
	-1.220362995851672e-14
	9.268097062083486e-07
	1.130878844178455e-04
	1.255177076578797e-05
	2.978467129321418e-01

 61	6.100000000000003e-01
	-2.450865975453890e-15
	-7.637173440319780e-19
	-1.227442827564197e-14
	9.809719388386781e-07
	1.221041297944313e-04
	1.372728177104543e-05
	2.978468353979143e-01

 62	6.200000000000003e-01
	-2.436540217285648e-15
	-7.819243567080650e-19
	-1.234370645923155e-14
	1.037322236986997e-06
	1.316012267791607e-04
	1.499535180902036e-05
	2.978469681434025e-01

 63	6.300000000000003e-01
	-2.422785769370220e-15
	-8.004993308786310e-19
	-1.241147693478021e-14
	1.095881195250798e-06
	1.415775175642702e-04
	1.636078240567745e-05
	2.978471117634215e-01

 64	6.400000000000003e-01
	-2.409590454344789e-15
	-8.194486828726393e-19
	-1.247775314003128e-14
	1.156665648137234e-06
	1.520284794707467e-04
	1.782834415030946e-05
	2.978472668539922e-01

 65	6.500000000000004e-01
	-2.396942028133779e-15
	-8.387789548613419e-19
	-1.254254946051803e-14
	1.219688622958163e-06
	1.629466696863395e-04
	1.940274773625650e-05
	2.978474340085754e-01

 66	6.600000000000004e-01
	-2.384828202173315e-15
	-8.584968183031899e-19
	-1.260588116603705e-14
	1.284959323332156e-06
	1.743217104055061e-04
	2.108861465055487e-05
	2.978476138141464e-01

 67	6.700000000000004e-01
	-2.373236664654199e-15
	-8.786090774692094e-19
	-1.266776434820764e-14
	1.352483143992792e-06
	1.861403158158788e-04
	2.289044792464958e-05
	2.978478068472012e-01

 68	6.800000000000004e-01
	-2.362155100768225e-15
	-8.991226730500478e-19
	-1.272821585925663e-14
	1.422261717165648e-06
	1.983863613930215e-04
	2.481260336785722e-05
	2.978480136697298e-01

 69	6.900000000000004e-01
	-2.351571211948551e-15
	-9.200446858471386e-19
	-1.278725325215409e-14
	1.494292990325587e-06
	2.110409949489483e-04
	2.685926170478358e-05
	2.978482348252271e-01

 70	7.000000000000004e-01
	-2.341472734099384e-15
	-9.413823405495689e-19
	-1.284489472221134e-14
	1.568571334692261e-06
	2.240827878660634e-04
	2.903440202723339e-05
	2.978484708348170e-01

 71	7.100000000000004e-01
	-2.331847454814978e-15
	-9.631430095985378e-19
	-1.290115905023973e-14
	1.645087683376589e-06
	2.374879239731282e-04
	3.134177695051229e-05
	2.978487221935302e-01

 72	7.200000000000004e-01
	-2.322683229592483e-15
	-9.853342171421186e-19
	-1.295606554735513e-14
	1.723829697665096e-06
	2.512304226181843e-04
	3.378488983396294e-05
	2.978489893668196e-01

 73	7.300000000000004e-01
	-2.313967997046677e-15
	-1.007963643081926e-18
	-1.300963400150138e-14
	1.804781959533576e-06
	2.652823916967195e-04
	3.636697438701150e-05
	2.978492727873657e-01

 74	7.400000000000004e-01
	-2.305689793138696e-15
	-1.031039127214916e-18
	-1.306188462575356e-14
	1.887926188125861e-06
	2.796143057285360e-04
	3.909097693610645e-05
	2.978495728522057e-01

 75	7.500000000000004e-01
	-2.297836764433712e-15
	-1.054568673472258e-18
	-1.311283800845116e-14
	1.973241477626280e-06
	2.941953035646735e-04
	4.195954157613891e-05
	2.978498899202573e-01

 76	7.600000000000005e-01
	-2.290397180405784e-15
	-1.078560454258400e-18
	-1.316251506520003e-14
	2.060704553702544e-06
	3.089934999605940e-04
	4.497499837385905e-05
	2.978502243102528e-01

 77	7.700000000000005e-01
	-2.283359444810493e-15
	-1.103022814893235e-18
	-1.321093699277261e-14
	2.150290045504074e-06
	3.239763050803754e-04
	4.813935473213725e-05
	2.978505762991161e-01

 78	7.800000000000005e-01
	-2.276712106148437e-15
	-1.127964278159953e-18
	-1.325812522492584e-14
	2.241970770072638e-06
	3.391107459986327e-04
	5.145428996442615e-05
	2.978509461208078e-01

 79	7.900000000000005e-01
	-2.270443867244531e-15
	-1.153393548962536e-18
	-1.330410139014787e-14
	2.335718025958314e-06
	3.543637844347836e-04
	5.492115307014460e-05
	2.978513339656304e-01

 80	8.000000000000005e-01
	-2.264543593969971e-15
	-1.179319519095576e-18
	-1.334888727133601e-14
	2.431501892833380e-06
	3.697026252745362e-04
	5.854096364553355e-05
	2.978517399800109e-01

 81	8.100000000000005e-01
	-2.259000323134968e-15
	-1.205751272130117e-18
	-1.339250476740135e-14
	2.529291533957182e-06
	3.850950108872631e-04
	6.231441581226128e-05
	2.978521642667327e-01

 82	8.200000000000005e-01
	-2.253803269581601e-15
	-1.232698088419403e-18
	-1.343497585678801e-14
	2.629055498461456e-06
	4.005094968122305e-04
	6.624188499889356e-05
	2.978526068855930e-01

 83	8.300000000000005e-01
	-2.248941832507517e-15
	-1.260169450227897e-18
	-1.347632256288855e-14
	2.730762020592294e-06
	4.159157050359255e-04
	7.032343736927316e-05
	2.978530678545001e-01

 84	8.400000000000005e-01
	-2.244405601051041e-15
	-1.288175046988156e-18
	-1.351656692133217e-14
	2.834379313255789e-06
	4.312845517901503e-04
	7.455884165762158e-05
	2.978535471509088e-01

 85	8.500000000000005e-01
	-2.240184359169909e-15
	-1.316724780688731e-18
	-1.355573094911550e-14
	2.939875853459620e-06
	4.465884475387631e-04
	7.894758314314264e-05
	2.978540447136258e-01

 86	8.600000000000005e-01
	-2.236268089845143e-15
	-1.345828771398476e-18
	-1.359383661554305e-14
	3.047220657517489e-06
	4.618014675647315e-04
	8.348887947738146e-05
	2.978545604448756e-01

 87	8.700000000000006e-01
	-2.232646978642628e-15
	-1.375497362930744e-18
	-1.363090581493823e-14
	3.156383544175221e-06
	4.768994922941871e-04
	8.818169806534208e-05
	2.978550942126580e-01

 88	8.800000000000006e-01
	-2.229311416664107e-15
	-1.405741128652435e-18
	-1.366696034108412e-14
	3.267335384122743e-06
	4.918603171805315e-04
	9.302477469628700e-05
	2.978556458532631e-01

 89	8.900000000000006e-01
	-2.226252002919961e-15
	-1.436570877442884e-18
	-1.370202186334841e-14
	3.380048334663182e-06
	5.066637326014319e-04
	9.801663312155521e-05
	2.978562151739754e-01

 90	9.000000000000006e-01
	-2.223459546155276e-15
	-1.467997659806719e-18
	-1.373611190444520e-14
	3.494496058615570e-06
	5.212915747821737e-04
	1.031556052841922e-04
	2.978568019558737e-01

 91	9.100000000000006e-01
	-2.220925066160432e-15
	-1.500032774146600e-18
	-1.376925181978411e-14
	3.610653926822483e-06
	5.357277492404676e-04
	1.084398519178037e-04
	2.978574059566915e-01

 92	9.200000000000006e-01
	-2.218639794597219e-15
	-1.532687773200328e-18
	-1.380146277835436e-14
	3.728499203914197e-06
	5.499582286451196e-04
	1.138673832490718e-04
	2.978580269137232e-01

 93	9.300000000000006e-01
	-2.216595175370379e-15
	-1.565974470648214e-18
	-1.383276574509136e-14
	3.848011217242434e-06
	5.639710272921510e-04
	1.194360795589616e-04
	2.978586645466862e-01

 94	9.400000000000006e-01
	-2.214782864574217e-15
	-1.599904947895762e-18
	-1.386318146467119e-14
	3.969171509135160e-06
	5.777561546278469e-04
	1.251437113808659e-04
	2.978593185605657e-01

 95	9.500000000000006e-01
	-2.213194730042909e-15
	-1.634491561038020e-18
	-1.389273044667803e-14
	4.091963972838389e-06
	5.913055503932216e-04
	1.309879591390636e-04
	2.978599886483499e-01

 96	9.600000000000006e-01
	-2.211822850532420e-15
	-1.669746948010755e-18
	-1.392143295208920e-14
	4.216374972698197e-06
	6.046130040340495e-04
	1.369664320569884e-04
	2.978606744936921e-01

 97	9.700000000000006e-01
	-2.210659514560939e-15
	-1.705684035935266e-18
	-1.394930898102215e-14
	4.342393449297943e-06
	6.176740610231380e-04
	1.430766861913600e-04
	2.978613757734155e-01

 98	9.800000000000006e-01
	-2.209697218934063e-15
	-1.742316048662415e-18
	-1.397637826168763e-14
	4.470011010399162e-06
	6.304859186850468e-04
	1.493162414744074e-04
	2.978620921599061e-01

 99	9.900000000000007e-01
	-2.208928666979647e-15
	-1.779656514523230e-18
	-1.400266024049422e-14
	4.599222008644129e-06
	6.430473140080282e-04
	1.556825976718849e-04
	2.978628233233037e-01

 100	1.000000000000001e+00
	-2.208346766516679e-15
	-1.817719274291749e-18
	-1.402817407324898e-14
	4.730023607060635e-06
	6.553584057822110e-04
	1.621732491886528e-04
	2.978635689335685e-01

 101	1.010000000000001e+00
	-2.207944627581231e-15
	-1.856518489368136e-18
	-1.405293861740062e-14
