Title: ** sch_path: /home/andylithia/openmpw/project-yatsuhashi-chip1/xschem/gmid_test/nmos_test.sch
Date: Sun Jul 17 22:51:45  2022
Plotname: DC transfer characteristic
Flags: real
No. Variables: 8
No. Points: 181
Variables:
	0	v(v-sweep)	voltage
	1	@m.xm1.msky130_fd_pr__nfet_01v8[cgb]	capacitance
	2	@m.xm1.msky130_fd_pr__nfet_01v8[cgd]	capacitance
	3	@m.xm1.msky130_fd_pr__nfet_01v8[cgs]	capacitance
	4	@m.xm1.msky130_fd_pr__nfet_01v8[gds]	admittance
	5	@m.xm1.msky130_fd_pr__nfet_01v8[gm]	admittance
	6	i(@m.xm1.msky130_fd_pr__nfet_01v8[id])	current
	7	v(@m.xm1.msky130_fd_pr__nfet_01v8[vth])	voltage
Values:
 0	0.000000000000000e+00
	-7.373488939637841e-15
	-1.649787520826324e-18
	-9.937061391903885e-15
	6.278071468011765e-08
	2.107630913053908e-06
	2.355344736486430e-07
	2.907915975642802e-01

 1	1.000000000000000e-02
	-7.293924923009477e-15
	-1.701461054802077e-18
	-1.011618263828921e-14
	6.853477445624171e-08
	2.302018357289125e-06
	2.575685538442708e-07
	2.907915999855674e-01

 2	2.000000000000000e-02
	-7.215060093747130e-15
	-1.754714621258142e-18
	-1.029592133356690e-14
	7.479719971444083e-08
	2.514149202858272e-06
	2.816339237796553e-07
	2.907916026300776e-01

 3	3.000000000000000e-02
	-7.136917801327806e-15
	-1.809593243753605e-18
	-1.047620120623758e-14
	8.161044590707093e-08
	2.745654274784746e-06
	3.079160466450173e-07
	2.907916055181910e-01

 4	4.000000000000000e-02
	-7.059521237838352e-15
	-1.866143166757275e-18
	-1.065694518958601e-14
	8.902021047080045e-08
	2.998321140227820e-06
	3.366174644285646e-07
	2.907916086721642e-01

 5	5.000000000000000e-02
	-6.982893384484892e-15
	-1.924411893746280e-18
	-1.083807554228267e-14
	9.707564501777600e-08
	3.274110631013333e-06
	3.679594464091215e-07
	2.907916121163172e-01

 6	6.000000000000000e-02
	-6.907056958881325e-15
	-1.984448226916982e-18
	-1.101951397098699e-14
	1.058295775862122e-07
	3.575175291557552e-06
	4.021838123142178e-07
	2.907916158772237e-01

 7	7.000000000000001e-02
	-6.832034363279018e-15
	-2.046302308575221e-18
	-1.120118175456721e-14
	1.153387450452882e-07
	3.903879981647733e-06
	4.395549505246426e-07
	2.907916199839443e-01

 8	8.000000000000000e-02
	-6.757847633896994e-15
	-2.110025664277114e-18
	-1.138299986954458e-14
	1.256640357119544e-07
	4.262824887155711e-06
	4.803620541181241e-07
	2.907916244682564e-01

 9	9.000000000000000e-02
	-6.684518391508373e-15
	-2.175671247790147e-18
	-1.156488911636027e-14
	1.368707421971663e-07
	4.654871216635076e-06
	5.249216001982786e-07
	2.907916293649476e-01

 10	9.999999999999999e-02
	-6.612067793434083e-15
	-2.243293487950870e-18
	-1.174677024606226e-14
	1.490288244568574e-07
	5.083169887690130e-06
	5.735801008636652e-07
	2.907916347120947e-01

 11	1.100000000000000e-01
	-6.540516487089766e-15
	-2.312948337493537e-18
	-1.192856408700257e-14
	1.622131829783633e-07
	5.551193533698608e-06
	6.267171573424953e-07
	2.907916405514261e-01

 12	1.200000000000000e-01
	-6.469884565225120e-15
	-2.384693323930041e-18
	-1.211019167113965e-14
	1.765039419871070e-07
	6.062772188561210e-06
	6.847488522601899e-07
	2.907916469286653e-01

 13	1.300000000000000e-01
	-6.400191522988518e-15
	-2.458587602560687e-18
	-1.229157435953743e-14
	1.919867425106443e-07
	6.622133034122405e-06
	7.481315187172001e-07
	2.907916538939733e-01

 14	1.400000000000000e-01
	-6.331456216941330e-15
	-2.534692011700867e-18
	-1.247263396666137e-14
	2.087530450891498e-07
	7.233944621184964e-06
	8.173659288337332e-07
	2.907916615023858e-01

 15	1.500000000000000e-01
	-6.263696826138603e-15
	-2.613069130209407e-18
	-1.265329288307391e-14
	2.269004418724771e-07
	7.903365999848738e-06
	8.930019486509111e-07
	2.907916698143437e-01

 16	1.600000000000000e-01
	-6.196930815383162e-15
	-2.693783337408762e-18
	-1.283347419614301e-14
	2.465329777956557e-07
	8.636101217385864e-06
	9.756437107499403e-07
	2.907916788962474e-01

 17	1.700000000000000e-01
	-6.131174900750953e-15
	-2.776900875488989e-18
	-1.301310180838549e-14
	2.677614804766636e-07
	9.438459660940768e-06
	1.065955360629657e-06
	2.907916888210986e-01

 18	1.800000000000000e-01
	-6.066445017475307e-15
	-2.862489914492406e-18
	-1.319210055308069e-14
	2.907038984339693e-07
	1.031742273681379e-05
	1.164667437731592e-06
	2.907916996691997e-01

 19	1.900000000000000e-01
	-6.002756290266844e-15
	-2.950620619978047e-18
	-1.337039630680370e-14
	3.154856471766040e-07
	1.128071738652865e-05
	1.272583956965109e-06
	2.907917115289241e-01

 20	2.000000000000000e-01
	-5.940123006135723e-15
	-3.041365223468880e-18
	-1.354791609854239e-14
	3.422399626773265e-07
	1.233689694070436e-05
	1.390590261595982e-06
	2.907917244975929e-01

 21	2.100000000000000e-01
	-5.878558589770927e-15
	-3.134798095790457e-18
	-1.372458821508166e-14
	3.711082617004454e-07
	1.349542980316807e-05
	1.519661723335612e-06
	2.907917386824252e-01

 22	2.200000000000001e-01
	-5.818075581520375e-15
	-3.230995823411917e-18
	-1.390034230235671e-14
	4.022405084202582e-07
	1.476679643775708e-05
	1.660873370299340e-06
	2.907917542015954e-01

 23	2.300000000000001e-01
	-5.758685618004222e-15
	-3.330037287905256e-18
	-1.407510946249710e-14
	4.357955867348215e-07
	1.616259509671223e-05
	1.815410528067591e-06
	2.907917711854058e-01

 24	2.400000000000001e-01
	-5.700399415382148e-15
	-3.432003748646079e-18
	-1.424882234630605e-14
	4.719416776531269e-07
	1.769565668011637e-05
	1.984580563235188e-06
	2.907917897775775e-01

 25	2.500000000000001e-01
	-5.643226755283878e-15
	-3.536978928879905e-18
	-1.442141524094201e-14
	5.108566411123441e-07
	1.938016904799975e-05
	2.169825822400419e-06
	2.907918101366775e-01

 26	2.600000000000001e-01
	-5.587176473401003e-15
	-3.645049105288355e-18
	-1.459282415259315e-14
	5.527284015659893e-07
	2.123181101792629e-05
	2.372737862329901e-06
	2.907918324376757e-01

 27	2.700000000000001e-01
	-5.532256450727180e-15
	-3.756303201192266e-18
	-1.476298688395941e-14
	5.977553366739423e-07
	2.326789616842927e-05
	2.595073068813657e-06
	2.907918568736707e-01

 28	2.800000000000001e-01
	-5.478473607422458e-15
	-3.870832883536319e-18
	-1.493184310638328e-14
	6.461466684218703e-07
	2.550752642993971e-05
	2.838769762249509e-06
	2.907918836577681e-01

 29	2.900000000000001e-01
	-5.425833899267528e-15
	-3.988732663807168e-18
	-1.509933442649417e-14
	6.981228560005567e-07
	2.797175527723938e-05
	3.105966886987743e-06
	2.907919130251343e-01

 30	3.000000000000001e-01
	-5.374342316663214e-15
	-4.110100003042237e-18
	-1.526540444725773e-14
	7.539159897855095e-07
	3.068376013857989e-05
	3.399024378627184e-06
	2.907919452352454e-01

 31	3.100000000000001e-01
	-5.324002886120846e-15
	-4.235035421097393e-18
	-1.542999882334761e-14
	8.137701857741272e-07
	3.366902340429932e-05
	3.720545298457925e-06
	2.907919805743107e-01

 32	3.200000000000001e-01
	-5.274818674180260e-15
	-4.363642610345329e-18
	-1.559306531078134e-14
	8.779419798611482e-07
	3.695552115029715e-05
	4.073399816747692e-06
	2.907920193579218e-01

 33	3.300000000000001e-01
	-5.226791793683288e-15
	-4.496028553989865e-18
	-1.575455381078849e-14
	9.467007213641408e-07
	4.057391838797169e-05
	4.460751116215517e-06
	2.907920619338975e-01

 34	3.400000000000001e-01
	-5.179923412322699e-15
	-4.632303649186872e-18
	-1.591441640790347e-14
	1.020328965248092e-06
	4.455776931169735e-05
	4.886083273455414e-06
	2.907921086853505e-01

 35	3.500000000000001e-01
	-5.134213763379358e-15
	-4.772581835173735e-18
	-1.607260740229936e-14
	1.099122862542443e-06
	4.894372063813328e-05
	5.353231158902788e-06
	2.907921600339841e-01

 36	3.600000000000002e-01
	-5.089662158553315e-15
	-4.916980726620340e-18
	-1.622908333640298e-14
	1.183392548494581e-06
	5.377171572017326e-05
	5.866412374819591e-06
	2.907922164436003e-01

 37	3.700000000000002e-01
	-5.046267002788943e-15
	-5.065621752423214e-18
	-1.638380301585349e-14
	1.273462528060067e-06
	5.908519667504897e-05
	6.430261225374516e-06
	2.907922784238390e-01

 38	3.800000000000002e-01
	-5.004025810988629e-15
	-5.218630300177920e-18
	-1.653672752488863e-14
	1.369672058391967e-06
	6.493130129543517e-05
	7.049864682919628e-06
	2.907923465341390e-01

 39	3.900000000000002e-01
	-4.962935226505146e-15
	-5.376135866575791e-18
	-1.668782023626284e-14
	1.472375528058087e-06
	7.136105102046967e-05
	7.730800279764378e-06
	2.907924213879052e-01

 40	4.000000000000002e-01
	-4.922991041298920e-15
	-5.538272213983834e-18
	-1.683704681582099e-14
	1.581942832785180e-06
	7.842952573847884e-05
	8.479175814951722e-06
	2.907925036568842e-01

 41	4.100000000000002e-01
	-4.884188217643215e-15
	-5.705177533480967e-18
	-1.698437522186924e-14
	1.698759747602254e-06
	8.619602068500761e-05
	9.301670720665964e-06
	2.907925940757119e-01

 42	4.200000000000002e-01
	-4.846520911257996e-15
	-5.876994614636186e-18
	-1.712977569950081e-14
	1.823228295329102e-06
	9.472418020080318e-05
	1.020557888297499e-05
	2.907926934466230e-01

 43	4.300000000000002e-01
	-4.809982495751499e-15
	-6.053871022329215e-18
	-1.727322077004989e-14
	1.955767111429885e-06
	1.040821026392958e-04
	1.119885265679737e-05
	2.907928026443075e-01

 44	4.400000000000002e-01
	-4.774565588247424e-15
	-6.235959280932476e-18
	-1.741468521586066e-14
	2.096811805323345e-06
	1.143424102787393e-04
	1.229014775561353e-05
	2.907929226208428e-01

 45	4.500000000000002e-01
	-4.740262076075437e-15
	-6.423417066184160e-18
	-1.755414606057019e-14
	2.246815318307254e-06
	1.255822777194206e-04
	1.348886863299954e-05
	2.907930544106899e-01

 46	4.600000000000002e-01
	-4.707063144402972e-15
	-6.616407405103859e-18
	-1.769158254511484e-14
	2.406248278313976e-06
	1.378834119523074e-04
	1.480521390626925e-05
	2.907931991356940e-01

 47	4.700000000000003e-01
	-4.674959304687191e-15
	-6.815098884316884e-18
	-1.782697609967914e-14
	2.575599351762119e-06
	1.513319770946748e-04
	1.625022130327649e-05
	2.907933580100319e-01

 48	4.800000000000003e-01
	-4.643940423827481e-15
	-7.019665867173068e-18
	-1.796031031181317e-14
	2.755375592803090e-06
	1.660184567244161e-04
	1.783581154291275e-05
	2.907935323450361e-01

 49	4.900000000000003e-01
	-4.613995753901088e-15
	-7.230288720064827e-18
	-1.809157089095111e-14
	2.946102790276019e-06
	1.820374468321239e-04
	1.957483048942542e-05
	2.907937235538441e-01

 50	5.000000000000002e-01
	-4.585113962366493e-15
	-7.447154048368540e-18
	-1.822074562956840e-14
	3.148325812676992e-06
	1.994873726727663e-04
	2.148108885203014e-05
	2.907939331557546e-01

 51	5.100000000000002e-01
	-4.557283162623046e-15
	-7.670454942454831e-18
	-1.834782436121721e-14
	3.362608951411110e-06
	2.184701232595595e-04
	2.356939863624662e-05
	2.907941627802443e-01

 52	5.200000000000002e-01
	-4.530490944817893e-15
	-7.900391234235225e-18
	-1.847279891568308e-14
	3.589536262526378e-06
	2.390905979222618e-04
	2.585560549407327e-05
	2.907944141705235e-01

 53	5.300000000000002e-01
	-4.504724406795716e-15
	-8.137169764733788e-18
	-1.859566307150505e-14
	3.829711907018185e-06
	2.614561602675569e-04
	2.835661606878723e-05
	2.907946891865356e-01

 54	5.400000000000003e-01
	-4.479970185090686e-15
	-8.381004663196465e-18
	-1.871641250610118e-14
	4.083760489638181e-06
	2.856759960429356e-04
	3.109041938925878e-05
	2.907949898073200e-01

 55	5.500000000000003e-01
	-4.456214485864386e-15
	-8.632117638277113e-18
	-1.883504474373972e-14
	4.352327395936032e-06
	3.118603728238549e-04
	3.407610134073331e-05
	2.907953181325809e-01

 56	5.600000000000003e-01
	-4.433443115698599e-15
	-8.890738281860074e-18
	-1.895155910159222e-14
	4.636079126999303e-06
	3.401198011155843e-04
	3.733385122658308e-05
	2.907956763834191e-01

 57	5.700000000000003e-01
	-4.411641512156099e-15
	-9.157104386111216e-18
	-1.906595663410205e-14
	4.935703631035082e-06
	3.705640983765058e-04
	4.088495944111075e-05
	2.907960669020496e-01

 58	5.800000000000003e-01
	-4.390794774028414e-15
	-9.431462274372329e-18
	-1.917824007589503e-14
	5.251910630547807e-06
	4.033013596085427e-04
	4.475180529938140e-05
	2.907964921504636e-01

 59	5.900000000000003e-01
	-4.370887691194052e-15
	-9.714067146544648e-18
	-1.928841378345448e-14
	5.585431943414666e-06
	4.384368404928902e-04
	4.895783411842980e-05
	2.907969547078931e-01

 60	6.000000000000003e-01
	-4.351904774016332e-15
	-1.000518343963967e-17
	-1.939648367577549e-14
	5.937021795638373e-06
	4.760717615332429e-04
	5.352752271671833e-05
	2.907974572669954e-01

 61	6.100000000000003e-01
	-4.333830282215245e-15
	-1.030508520420186e-17
	-1.950245717420540e-14
	6.307457122970850e-06
	5.163020442513465e-04
	5.848633259668206e-05
	2.907980026286892e-01

 62	6.200000000000003e-01
	-4.316648253152963e-15
	-1.061405649734609e-17
	-1.960634314167063e-14
	6.697537857957179e-06
	5.592169930969542e-04
	6.386065019926779e-05
	2.907985936955775e-01

 63	6.300000000000003e-01
	-4.300342529477901e-15
	-1.093239179318792e-17
	-1.970815182148053e-14
	7.108087198253623e-06
	6.048979393119384e-04
	6.967771376951362e-05
	2.907992334638668e-01

 64	6.400000000000003e-01
	-4.284896786077738e-15
	-1.126039641147725e-17
	-1.980789477589024e-14
	7.539951851339246e-06
	6.534168654437664e-04
	7.596552654758087e-05
	2.907999250138167e-01

 65	6.500000000000004e-01
	-4.270294556296485e-15
	-1.159838696529164e-17
	-1.990558482459592e-14
	7.994002249988573e-06
	7.048350314484712e-04
	8.275275619863618e-05
	2.908006714986528e-01

 66	6.600000000000004e-01
	-4.256519257376253e-15
	-1.194669182868296e-17
	-2.000123598332533e-14
	8.471132732118479e-06
	7.592016252649149e-04
	9.006862061489886e-05
	2.908014761319911e-01

 67	6.700000000000004e-01
	-4.243554215088640e-15
	-1.230565162521759e-17
	-2.009486340267848e-14
	8.972261677897229e-06
	8.165524622889949e-04
	9.794276046058184e-05
	2.908023421738061e-01

 68	6.800000000000004e-01
	-4.231382687526057e-15
	-1.267561973839705e-17
	-2.018648330736241e-14
	9.498331596336159e-06
	8.769087592402049e-04
	1.064050990809068e-04
	2.908032729150076e-01

 69	6.900000000000004e-01
	-4.219987888027391e-15
	-1.305696284499881e-17
	-2.027611293595479e-14
	1.005030915300734e-05
	9.402760084133759e-04
	1.154856906545763e-04
	2.908042716607325e-01

 70	7.000000000000004e-01
	-4.209353007216804e-15
	-1.345006147242691e-17
	-2.036377048132279e-14
	1.062918513008608e-05
	1.006642978178565e-03
	1.252145577291000e-04
	2.908053417124596e-01

 71	7.100000000000004e-01
	-4.199461234138946e-15
	-1.385531058122145e-17
	-2.044947503181233e-14
	1.123597430963778e-05
	1.075980864780158e-03
	1.356215195334794e-04
	2.908064863491372e-01

 72	7.200000000000004e-01
	-4.190295776477464e-15
	-1.427312017394362e-17
	-2.053324651331562e-14
	1.187171527100371e-05
	1.148242618962987e-03
	1.467360127061099e-04
	2.908077088074460e-01

 73	7.300000000000004e-01
	-4.181839879847662e-15
	-1.470391593170410e-17
	-2.061510563231490e-14
	1.253747009331733e-05
	1.223362468710915e-03
	1.585869062999738e-04
	2.908090122614769e-01

 74	7.400000000000004e-01
	-4.174076846157414e-15
	-1.514813987969061e-17
	-2.069507381999230e-14
	1.323432395465016e-05
	1.301255656442661e-03
	1.712023131253773e-04
	2.908103998019663e-01

 75	7.500000000000004e-01
	-4.166990051034311e-15
	-1.560625108311066e-17
	-2.077317317748689e-14
	1.396338462006078e-05
	1.381818405416318e-03
	1.846093996556086e-04
	2.908118744154157e-01

 76	7.600000000000005e-01
	-4.160562960319202e-15
	-1.607872637505303e-17
	-2.084942642237292e-14
	1.472578181193906e-05
	1.464928125924018e-03
	1.988341968470637e-04
	2.908134389632843e-01

 77	7.700000000000005e-01
	-4.154779145630190e-15
	-1.656606111785135e-17
	-2.092385683642460e-14
	1.552266645749843e-05
	1.550443867210468e-03
	2.139014143070541e-04
	2.908150961615766e-01

 78	7.800000000000005e-01
	-4.149622299002875e-15
	-1.706876999962992e-17
	-2.099648821472624e-14
	1.635520981008749e-05
	1.638207016049245e-03
	2.298342602758092e-04
	2.908168485610516e-01

 79	7.900000000000005e-01
	-4.145076246615902e-15
	-1.758738786779409e-17
	-2.106734481617911e-14
	1.722460244314393e-05
	1.728042237700337e-03
	2.466542698710811e-04
	2.908186985283524e-01

 80	8.000000000000005e-01
	-4.141124961612414e-15
	-1.812247060134324e-17
	-2.113645131544993e-14
	1.813205311808106e-05
	1.819758649709847e-03
	2.643811439731810e-04
	2.908206482283077e-01

 81	8.100000000000005e-01
	-4.137752576030660e-15
	-1.867459602397610e-17
	-2.120383275639950e-14
	1.907878753013264e-05
	1.913151213861521e-03
	2.830326010054053e-04
	2.908226996076445e-01

 82	8.200000000000005e-01
	-4.134943391858530e-15
	-1.924436486008116e-17
	-2.126951450702374e-14
	2.006604693913270e-05
	2.008002326715721e-03
	3.026242436917616e-04
	2.908248543803552e-01

 83	8.300000000000005e-01
	-4.132681891228656e-15
	-1.983240173581085e-17
	-2.133352221593368e-14
	2.109508669530229e-05
	2.104083584733145e-03
	3.231694426542718e-04
	2.908271140149067e-01

 84	8.400000000000005e-01
	-4.130952745772208e-15
	-2.043935622757280e-17
	-2.139588177039532e-14
	2.216717467327140e-05
	2.201157696122282e-03
	3.446792384509915e-04
	2.908294797234866e-01

 85	8.500000000000005e-01
	-4.129740825150861e-15
	-2.106590396038981e-17
	-2.145661925594499e-14
	2.328358963069697e-05
	2.298980508397216e-03
	3.671622633599205e-04
	2.908319524534095e-01

 86	8.600000000000005e-01
	-4.129031204787677e-15
	-2.171274775872066e-17
	-2.151576091759053e-14
	2.444561951084064e-05
	2.397303118283330e-03
	3.906246838905397e-04
	2.908345328808109e-01

 87	8.700000000000006e-01
	-4.128809172818678e-15
	-2.238061885247494e-17
	-2.157333312260377e-14
	2.565455971125904e-05
	2.495874029133153e-03
	4.150701646625463e-04
	2.908372214066823e-01

 88	8.800000000000006e-01
	-4.129060236287692e-15
	-2.307027814110260e-17
	-2.162936232490531e-14
	2.691171134322226e-05
	2.594441320447390e-03
	4.404998539391197e-04
	2.908400181552789e-01

 89	8.900000000000006e-01
	-4.129770126608178e-15
	-2.378251751878447e-17
	-2.168387503103730e-14
	2.821837950853909e-05
	2.692754794440267e-03
	4.669123907491104e-04
	2.908429229749264e-01

 90	9.000000000000006e-01
	-4.130924804315714e-15
	-2.451816126392901e-17
	-2.173689776771662e-14
	2.957587162204620e-05
	2.790568065811836e-03
	4.943039331878055e-04
	2.908459354411163e-01

 91	9.100000000000006e-01
	-4.132510463136085e-15
	-2.527806749632611e-17
	-2.178845705095599e-14
	3.098549580904183e-05
	2.887640562929663e-03
	5.226682071577185e-04
	2.908490548618882e-01

 92	9.200000000000006e-01
	-4.134513533393702e-15
	-2.606312970550495e-17
	-2.183857935673654e-14
	3.244855940738591e-05
	2.983739411389949e-03
	5.519965745072356e-04
	2.908522802853143e-01

 93	9.300000000000006e-01
	-4.136920684785575e-15
	-2.687427835400843e-17
	-2.188729109321232e-14
	3.396636760379887e-05
	3.078641174309426e-03
	5.822781192522093e-04
	2.908556105089859e-01

 94	9.400000000000006e-01
	-4.139718828546234e-15
	-2.771248255950127e-17
	-2.193461857442289e-14
	3.554022223308212e-05
	3.172133427566548e-03
	6.134997503294711e-04
	2.908590440913166e-01

 95	9.500000000000006e-01
	-4.142895119028711e-15
	-2.857875185981912e-17
	-2.198058799548750e-14
	3.717142076756654e-05
	3.264016152423595e-03
	6.456463191357680e-04
	2.908625793644732e-01

 96	9.600000000000006e-01
	-4.146436954726942e-15
	-2.947413806528237e-17
	-2.202522540925111e-14
	3.886125552210575e-05
	3.354102932376851e-03
	6.787007499534805e-04
	2.908662144487084e-01

 97	9.700000000000006e-01
	-4.150331978764600e-15
	-3.039973720280774e-17
	-2.206855670434920e-14
	4.061101309742125e-05
	3.442221945558136e-03
	7.126441812567836e-04
	2.908699472679186e-01

 98	9.800000000000006e-01
	-4.154568078874786e-15
	-3.135669155658972e-17
	-2.211060758465725e-14
	4.242197408167011e-05
	3.528216748416026e-03
	7.474561158290313e-04
	2.908737755661406e-01

 99	9.900000000000007e-01
	-4.159133386895291e-15
	-3.234619181034927e-17
	-2.215140355008629e-14
	4.429541302679062e-05
	3.611946850614667e-03
	7.831145776018757e-04
	2.908776969248161e-01

 100	1.000000000000001e+00
	-4.164016277802742e-15
	-3.336947929641303e-17
	-2.219096987868653e-14
	4.623259871262899e-05
	3.693288085001693e-03
	8.195962731474209e-04
	2.908817087805406e-01

 101	1.010000000000001e+00
	-4.169205368309284e-15
	-3.442784835712641e-17
	-2.222933161001685e-14
