Title: ** sch_path: /home/andylithia/openmpw/project-yatsuhashi-chip1/xschem/gmid_test/nmos_test.sch
Date: Sun Jul 17 22:51:45  2022
Plotname: DC transfer characteristic
Flags: real
No. Variables: 8
No. Points: 181
Variables:
	0	v(v-sweep)	voltage
	1	@m.xm1.msky130_fd_pr__nfet_01v8[cgb]	capacitance
	2	@m.xm1.msky130_fd_pr__nfet_01v8[cgd]	capacitance
	3	@m.xm1.msky130_fd_pr__nfet_01v8[cgs]	capacitance
	4	@m.xm1.msky130_fd_pr__nfet_01v8[gds]	admittance
	5	@m.xm1.msky130_fd_pr__nfet_01v8[gm]	admittance
	6	i(@m.xm1.msky130_fd_pr__nfet_01v8[id])	current
	7	v(@m.xm1.msky130_fd_pr__nfet_01v8[vth])	voltage
Values:
 0	0.000000000000000e+00
	-9.167767128253443e-15
	-3.453052774516815e-18
	-1.552552390115126e-14
	1.098989781496387e-08
	3.918651667495633e-07
	4.537050249368958e-08
	2.215214659146933e-01

 1	1.000000000000000e-02
	-9.062637485626263e-15
	-3.552949031293004e-18
	-1.577048675631366e-14
	1.194104157246381e-08
	4.269747834190415e-07
	4.946217366017997e-08
	2.215214664007820e-01

 2	2.000000000000000e-02
	-8.958648083258795e-15
	-3.655762783990121e-18
	-1.601552552372465e-14
	1.297057354894525e-08
	4.652582564270801e-07
	5.392057308821664e-08
	2.215214669304438e-01

 3	3.000000000000000e-02
	-8.855826638038750e-15
	-3.761580944160168e-18
	-1.626053980055141e-14
	1.408448548740711e-08
	5.070142469872558e-07
	5.877890863222759e-08
	2.215214675076168e-01

 4	4.000000000000000e-02
	-8.754200251556745e-15
	-3.870493159676576e-18
	-1.650542930157486e-14
	1.528917439663030e-08
	5.525717686852425e-07
	6.407352387260825e-08
	2.215214681366218e-01

 5	5.000000000000000e-02
	-8.653795354051116e-15
	-3.982591910062942e-18
	-1.675009400958467e-14
	1.659146444737195e-08
	6.022935370334234e-07
	6.984421808683396e-08
	2.215214688221924e-01

 6	6.000000000000000e-02
	-8.554637650492544e-15
	-4.097972605556685e-18
	-1.699443432481475e-14
	1.799862952246333e-08
	6.565796966903736e-07
	7.613460157358671e-08
	2.215214695695026e-01

 7	7.000000000000001e-02
	-8.456752068954723e-15
	-4.216733690069667e-18
	-1.723835121296806e-14
	1.951841639265271e-08
	7.158719644563627e-07
	8.299249029490243e-08
	2.215214703842404e-01

 8	8.000000000000000e-02
	-8.360162711407482e-15
	-4.338976748217014e-18
	-1.748174635139031e-14
	2.115906848536822e-08
	7.806582286777693e-07
	9.047034419521496e-08
	2.215214712726358e-01

 9	9.000000000000000e-02
	-8.264892807059684e-15
	-4.464806616589976e-18
	-1.772452227295540e-14
	2.292935020877641e-08
	8.514776481040569e-07
	9.862575397454563e-08
	2.215214722415302e-01

 10	9.999999999999999e-02
	-8.170964668368042e-15
	-4.594331499460387e-18
	-1.796658250724078e-14
	2.483857178872602e-08
	9.289262954751863e-07
	1.075219815349592e-07
	2.215214732984445e-01

 11	1.100000000000000e-01
	-8.078399649817200e-15
	-4.727663089111856e-18
	-1.820783171858265e-14
	2.689661457131992e-08
	1.013663393092380e-06
	1.172285597822620e-07
	2.215214744516399e-01

 12	1.200000000000000e-01
	-7.987218109565120e-15
	-4.864916691001028e-18
	-1.844817584061489e-14
	2.911395673905223e-08
	1.106418189249919e-06
	1.278219579458766e-07
	2.215214757102004e-01

 13	1.300000000000000e-01
	-7.897439374035350e-15
	-5.006211353964785e-18
	-1.868752220691450e-14
	3.150169938369698e-08
	1.207997525575293e-06
	1.393863190748745e-07
	2.215214770841295e-01

 14	1.400000000000000e-01
	-7.809081705525799e-15
	-5.151670005696688e-18
	-1.892577967739438e-14
	3.407159287447868e-08
	1.319294145921415e-06
	1.520142768721382e-07
	2.215214785844336e-01

 15	1.500000000000000e-01
	-7.722162272890892e-15
	-5.301419593728536e-18
	-1.916285876010443e-14
	3.683606345551316e-08
	1.441295797346001e-06
	1.658078595350705e-07
	2.215214802232329e-01

 16	1.600000000000000e-01
	-7.636697125341599e-15
	-5.455591232163020e-18
	-1.939867172812374e-14
	3.980824000214566e-08
	1.575095172756755e-06
	1.808794887726070e-07
	2.215214820138919e-01

 17	1.700000000000000e-01
	-7.552701169394503e-15
	-5.614320354418057e-18
	-1.963313273125165e-14
	4.300198086166444e-08
	1.721900742839816e-06
	1.973530826551928e-07
	2.215214839711367e-01

 18	1.800000000000000e-01
	-7.470188148988514e-15
	-5.777746872251618e-18
	-1.986615790222778e-14
	4.643190069990676e-08
	1.883048521753588e-06
	2.153652714157547e-07
	2.215214861112025e-01

 19	1.900000000000000e-01
	-7.389170628775600e-15
	-5.946015341352787e-18
	-2.009766545723723e-14
	5.011339727165457e-08
	2.060014806585719e-06
	2.350667357433505e-07
	2.215214884519986e-01

 20	2.000000000000000e-01
	-7.309659980578251e-15
	-6.119275133797446e-18
	-2.032757579048509e-14
	5.406267802934991e-08
	2.254429924549968e-06
	2.566236774823028e-07
	2.215214910132762e-01

 21	2.100000000000000e-01
	-7.231666372995137e-15
	-6.297680617680806e-18
	-2.055581156264884e-14
	5.829678648168490e-08
	2.468093014152304e-06
	2.802194329520672e-07
	2.215214938168248e-01

 22	2.200000000000001e-01
	-7.155198764123932e-15
	-6.481391344256203e-18
	-2.078229778304644e-14
	6.283362821099994e-08
	2.702987856891339e-06
	3.060562393186695e-07
	2.215214968866826e-01

 23	2.300000000000001e-01
	-7.080264897358341e-15
	-6.670572242922462e-18
	-2.100696188538575e-14
	6.769199645626927e-08
	2.961299764287903e-06
	3.343571645570440e-07
	2.215215002493614e-01

 24	2.400000000000001e-01
	-7.006871300206080e-15
	-6.865393824424541e-18
	-2.122973379698690e-14
	7.289159716675729e-08
	3.245433510983303e-06
	3.653682115230943e-07
	2.215215039340994e-01

 25	2.500000000000001e-01
	-6.935023286062775e-15
	-7.066032392643460e-18
	-2.145054600139967e-14
	7.845307343027109e-08
	3.558032288141901e-06
	3.993606064811284e-07
	2.215215079731357e-01

 26	2.600000000000001e-01
	-6.864724958867612e-15
	-7.272670265375974e-18
	-2.166933359436341e-14
	8.439802917940527e-08
	3.901997632299097e-06
	4.366332820812391e-07
	2.215215124020039e-01

 27	2.700000000000001e-01
	-6.795979220556394e-15
	-7.485496004522559e-18
	-2.188603433308542e-14
	9.074905207926985e-08
	4.280510262999762e-06
	4.775155642256753e-07
	2.215215172598462e-01

 28	2.800000000000001e-01
	-6.728787781219258e-15
	-7.704704656119056e-18
	-2.210058867883928e-14
	9.752973550107656e-08
	4.697051738004484e-06
	5.223700714758433e-07
	2.215215225897705e-01

 29	2.900000000000001e-01
	-6.663151171861850e-15
	-7.930498000678618e-18
	-2.231293983291199e-14
	1.047646994877030e-07
	5.155426807485038e-06
	5.715958346048053e-07
	2.215215284392097e-01

 30	3.000000000000001e-01
	-6.599068759661499e-15
	-8.163084814323253e-18
	-2.252303376595222e-14
	1.124796106200231e-07
	5.659786318522342e-06
	6.256316425654085e-07
	2.215215348603275e-01

 31	3.100000000000001e-01
	-6.536538765603217e-15
	-8.402681141217560e-18
	-2.273081924079718e-14
	1.207012006966478e-07
	6.214650488485185e-06
	6.849596194957112e-07
	2.215215419104341e-01

 32	3.200000000000001e-01
	-6.475558284374583e-15
	-8.649510577835120e-18
	-2.293624782887787e-14
	1.294572841447169e-07
	6.824932330696224e-06
	7.501090353943043e-07
	2.215215496524563e-01

 33	3.300000000000001e-01
	-6.416123306392992e-15
	-8.903804569624322e-18
	-2.313927392032529e-14
	1.387767740860100e-07
	7.495960978496827e-06
	8.216603507474594e-07
	2.215215581553987e-01

 34	3.400000000000001e-01
	-6.358228741835081e-15
	-9.165802720659543e-18
	-2.333985472791885e-14
	1.486896969906976e-07
	8.233504614792394e-06
	9.002494926559003e-07
	2.215215674948680e-01

 35	3.500000000000001e-01
	-6.301868446533867e-15
	-9.435753116900033e-18
	-2.353795028503987e-14
	1.592272058612305e-07
	9.043792673943555e-06
	9.865723568795322e-07
	2.215215777536022e-01

 36	3.600000000000002e-01
	-6.247035249606911e-15
	-9.713912663710015e-18
	-2.373352343780792e-14
	1.704215919010591e-07
	9.933536942100165e-06
	1.081389526682264e-06
	2.215215890220299e-01

 37	3.700000000000002e-01
	-6.193720982676532e-15
	-1.000054743832319e-17
	-2.392653983159649e-14
	1.823062946376068e-07
	1.090995114155596e-05
	1.185531195416238e-06
	2.215216013988636e-01

 38	3.800000000000002e-01
	-6.141916510541594e-15
	-1.029593305797627e-17
	-2.411696789213753e-14
	1.949159104865054e-07
	1.198076854535248e-05
	1.299902275441699e-06
	2.215216149916981e-01

 39	3.900000000000002e-01
	-6.091611763160425e-15
	-1.060035506446768e-17
	-2.430477880143790e-14
	2.082861997648226e-07
	1.315425713124075e-05
	1.425487671251983e-06
	2.215216299176457e-01

 40	4.000000000000002e-01
	-6.042795768803915e-15
	-1.091410932594101e-17
	-2.448994646874275e-14
	2.224540921854050e-07
	1.443923175041681e-05
	1.563357689591633e-06
	2.215216463039724e-01

 41	4.100000000000002e-01
	-5.995456688239157e-15
	-1.123750245673164e-17
	-2.467244749678995e-14
	2.374576908929287e-07
	1.584506275748730e-05
	1.714673553959351e-06
	2.215216642887656e-01

 42	4.200000000000002e-01
	-5.949581849804798e-15
	-1.157085225616249e-17
	-2.485226114360957e-14
	2.533362751352737e-07
	1.738168052531631e-05
	1.880692985231672e-06
	2.215216840215816e-01

 43	4.300000000000002e-01
	-5.905157785242297e-15
	-1.191448816721566e-17
	-2.502936928012683e-14
	2.701303017019098e-07
	1.905957525323370e-05
	2.062775804295355e-06
	2.215217056641282e-01

 44	4.400000000000002e-01
	-5.862170266148587e-15
	-1.226875175605999e-17
	-2.520375634383523e-14
	2.878814053048067e-07
	2.088979147110492e-05
	2.262389506623062e-06
	2.215217293909205e-01

 45	4.500000000000002e-01
	-5.820604340919817e-15
	-1.263399721346696e-17
	-2.537540928880818e-14
	3.066323981272347e-07
	2.288391664649089e-05
	2.481114752764432e-06
	2.215217553899255e-01

 46	4.600000000000002e-01
	-5.780444372059005e-15
	-1.301059187919287e-17
	-2.554431753232027e-14
	3.264272688226219e-07
	2.505406331908636e-05
	2.720650712870420e-06
	2.215217838632189e-01

 47	4.700000000000003e-01
	-5.741674073724117e-15
	-1.339891679047833e-17
	-2.571047289835195e-14
	3.473111813097488e-07
	2.741284421721782e-05
	2.982820197752059e-06
	2.215218150275731e-01

 48	4.800000000000003e-01
	-5.704276549398038e-15
	-1.379936725585926e-17
	-2.587386955824870e-14
	3.693304737826023e-07
	2.997333985663324e-05
	3.269574503735247e-06
	2.215218491150463e-01

 49	4.900000000000003e-01
	-5.668234329566269e-15
	-1.421235345555970e-17
	-2.603450396880630e-14
	3.925326584339032e-07
	3.274905818319316e-05
	3.582997893870371e-06
	2.215218863735140e-01

 50	5.000000000000002e-01
	-5.633529409293121e-15
	-1.463830106980203e-17
	-2.619237480805026e-14
	4.169664224810564e-07
	3.575388589906534e-05
	3.925311634047247e-06
	2.215219270671359e-01

 51	5.100000000000002e-01
	-5.600143285592871e-15
	-1.507765193643362e-17
	-2.634748290897327e-14
	4.426816311826288e-07
	3.900203120702539e-05
	4.298877499423154e-06
	2.215219714767877e-01

 52	5.200000000000002e-01
	-5.568056994497179e-15
	-1.553086473935729e-17
	-2.649983119149093e-14
	4.697293336430088e-07
	4.250795781942083e-05
	4.706200664465758e-06
	2.215220199004020e-01

 53	5.300000000000002e-01
	-5.537251147726126e-15
	-1.599841572932113e-17
	-2.664942459286980e-14
	4.981617723230430e-07
	4.628631020669496e-05
	5.149931889008695e-06
	2.215220726532156e-01

 54	5.400000000000003e-01
	-5.507705968876039e-15
	-1.648079947871251e-17
	-2.679626999687419e-14
	5.280323973053679e-07
	5.035183020398911e-05
	5.632868913173683e-06
	2.215221300679410e-01

 55	5.500000000000003e-01
	-5.479401329042599e-15
	-1.697852967208859e-17
	-2.694037616187285e-14
	5.593958865056767e-07
	5.471926525158808e-05
	6.157956975978469e-06
	2.215221924948285e-01

 56	5.600000000000003e-01
	-5.452316781804182e-15
	-1.749213993426974e-17
	-2.708175364813681e-14
	5.923081731751795e-07
	5.940326871351848e-05
	6.728288376045939e-06
	2.215222603016096e-01

 57	5.700000000000003e-01
	-5.426431597495752e-15
	-1.802218469792109e-17
	-2.722041474455253e-14
	6.268264822053776e-07
	6.441829289553348e-05
	7.347100998154787e-06
	2.215223338733203e-01

 58	5.800000000000003e-01
	-5.401724796710008e-15
	-1.856924011264922e-17
	-2.735637339496394e-14
	6.630093769246340e-07
	6.977847556555580e-05
	8.017775736498652e-06
	2.215224136119919e-01

 59	5.900000000000003e-01
	-5.378175182967678e-15
	-1.913390499775887e-17
	-2.748964512434888e-14
	7.009168182665717e-07
	7.549752096227440e-05
	8.743832754468745e-06
	2.215224999362052e-01

 60	6.000000000000003e-01
	-5.355761374505090e-15
	-1.971680184091982e-17
	-2.762024696502463e-14
	7.406102383942659e-07
	8.158857645654930e-05
	9.528926531540846e-06
	2.215225932804987e-01

 61	6.100000000000003e-01
	-5.334461835132494e-15
	-2.031857784512877e-17
	-2.774819738306722e-14
	7.821526310812525e-07
	8.806410620058603e-05
	1.037683966035947e-05
	2.215226940946292e-01

 62	6.200000000000003e-01
	-5.314254904122094e-15
	-2.093990602647414e-17
	-2.787351620511895e-14
	8.256086613820099e-07
	9.493576325641459e-05
	1.129147537126632e-05
	2.215228028426812e-01

 63	6.300000000000003e-01
	-5.295118825090171e-15
	-2.158148636535142e-17
	-2.799622454574822e-14
	8.710447973714218e-07
	1.022142618327776e-04
	1.227684877714811e-05
	2.215229200020290e-01

 64	6.400000000000003e-01
	-5.277031773842583e-15
	-2.224404701392470e-17
	-2.811634473551486e-14
	9.185294669964715e-07
	1.099092513729691e-04
	1.333707684836689e-05
	2.215230460621340e-01

 65	6.500000000000004e-01
	-5.259971885158317e-15
	-2.292834556277770e-17
	-2.823390024988366e-14
	9.681332433659154e-07
	1.180291943205864e-04
	1.447636714541467e-05
	2.215231815232125e-01

 66	6.600000000000004e-01
	-5.243917278490048e-15
	-2.363517036986796e-17
	-2.834891563911814e-14
	1.019929062107850e-06
	1.265812494412209e-04
	1.569900535549661e-05
	2.215233268947585e-01

 67	6.700000000000004e-01
	-5.228846082565117e-15
	-2.436534195506565e-17
	-2.846141645927733e-14
	1.073992474754181e-06
	1.355711625920602e-04
	1.700934169813511e-05
	2.215234826939060e-01

 68	6.800000000000004e-01
	-5.214736458875747e-15
	-2.511971446373582e-17
	-2.857142920442502e-14
	1.130401942469401e-06
	1.450031668053598e-04
	1.841177628371017e-05
	2.215236494437179e-01

 69	6.900000000000004e-01
	-5.201566624049568e-15
	-2.589917720302710e-17
	-2.867898124015508e-14
	1.189239174835161e-06
	1.548798934840433e-04
	1.991074352721951e-05
	2.215238276713139e-01

 70	7.000000000000004e-01
	-5.189314871096788e-15
	-2.670465625471869e-17
	-2.878410073852291e-14
	1.250589518837758e-06
	1.652022963974889e-04
	2.151069573700145e-05
	2.215240179059258e-01

 71	7.100000000000004e-01
	-5.177959589533833e-15
	-2.753711616870074e-17
	-2.888681661446496e-14
	1.314542403692691e-06
	1.759695900136451e-04
	2.321608601432283e-05
	2.215242206768771e-01

 72	7.200000000000004e-01
	-5.167479284385459e-15
	-2.839756174138910e-17
	-2.898715846377972e-14
	1.381191847688780e-06
	1.871792035118282e-04
	2.503135061416876e-05
	2.215244365114774e-01

 73	7.300000000000004e-01
	-5.157852594071902e-15
	-2.928703988361176e-17
	-2.908515650273271e-14
	1.450637033856551e-06
	1.988267515921167e-04
	2.696089092989053e-05
	2.215246659328808e-01

 74	7.400000000000004e-01
	-5.149058307189821e-15
	-3.020664158275321e-17
	-2.918084150934050e-14
	1.522982961977441e-06
	2.109060229367700e-04
	2.900905527424811e-05
	2.215249094579392e-01

 75	7.500000000000004e-01
	-5.141075378197967e-15
	-3.115750396422475e-17
	-2.927424476638096e-14
	1.598341185269373e-06
	2.234089868921636e-04
	3.118012063651632e-05
	2.215251675950189e-01

 76	7.600000000000005e-01
	-5.133882942021918e-15
	-3.214081245758845e-17
	-2.936539800616716e-14
	1.676830641031356e-06
	2.363258186329206e-04
	3.347827459947029e-05
	2.215254408418658e-01

 77	7.700000000000005e-01
	-5.127460327593520e-15
	-3.315780307298140e-17
	-2.945433335711652e-14
	1.758578585630849e-06
	2.496449427508263e-04
	3.590759760109318e-05
	2.215257296834947e-01

 78	7.800000000000005e-01
	-5.121787070342886e-15
	-3.420976479378025e-17
	-2.954108329213909e-14
	1.843721645500547e-06
	2.633530948874613e-04
	3.847204572363607e-05
	2.215260345901479e-01

 79	7.900000000000005e-01
	-5.116842923662658e-15
	-3.529804209179543e-17
	-2.962568057886109e-14
	1.932406997311302e-06
	2.774354007096097e-04
	4.117543418723441e-05
	2.215263560153278e-01

 80	8.000000000000005e-01
	-5.112607869365486e-15
	-3.642403757161427e-17
	-2.970815823169504e-14
	2.024793692244056e-06
	2.918754712184552e-04
	4.402142171670576e-05
	2.215266943939485e-01

 81	8.100000000000005e-01
	-5.109062127157223e-15
	-3.758921475109276e-17
	-2.978854946576010e-14
	2.121054141343079e-06
	3.066555130951727e-04
	4.701349593858898e-05
	2.215270501405964e-01

 82	8.200000000000005e-01
	-5.106186163148863e-15
	-3.879510098537621e-17
	-2.986688765265217e-14
	2.221375781349624e-06
	3.217564525239121e-04
	5.015495995116312e-05
	2.215274236479300e-01

 83	8.300000000000005e-01
	-5.103960697432196e-15
	-4.004329054223526e-17
	-2.994320627805637e-14
	2.325962943253241e-06
	3.371580707046412e-04
	5.344892019340828e-05
	2.215278152852409e-01

 84	8.400000000000005e-01
	-5.102366710743546e-15
	-4.133544783693041e-17
	-3.001753890119110e-14
	2.435038949132377e-06
	3.528391490780036e-04
	5.689827571999363e-05
	2.215282253971823e-01

 85	8.500000000000005e-01
	-5.101385450241663e-15
	-4.267331083527503e-17
	-3.008991911606725e-14
	2.548848466774912e-06
	3.687776221362863e-04
	6.050570896882224e-05
	2.215286543026565e-01

 86	8.600000000000005e-01
	-5.100998434425513e-15
	-4.405869463402304e-17
	-3.016038051454259e-14
	2.667660156175956e-06
	3.849507355910067e-04
	6.427367808581935e-05
	2.215291022939133e-01

 87	8.700000000000006e-01
	-5.101187457218163e-15
	-4.549349522822276e-17
	-3.022895665114717e-14
	2.791769647429210e-06
	4.013352076099880e-04
	6.820441084904264e-05
	2.215295696358150e-01

 88	8.800000000000006e-01
	-5.101934591243193e-15
	-4.697969347568109e-17
	-3.029568100965194e-14
	2.921502895902891e-06
	4.179073908242531e-04
	7.229990021119983e-05
	2.215300565653136e-01

 89	8.900000000000006e-01
	-5.103222190319615e-15
	-4.851935926923783e-17
	-3.036058697135020e-14
	3.057219968096571e-06
	4.346434328361840e-04
	7.656190145679066e-05
	2.215305632911000e-01

 90	9.000000000000006e-01
	-5.105032891201555e-15
	-5.011465592811175e-17
	-3.042370778501779e-14
	3.199319320415192e-06
	4.515194330318031e-04
	8.099193094771902e-05
	2.215310899934644e-01

 91	9.100000000000006e-01
	-5.107349614588235e-15
	-5.176784482018877e-17
	-3.048507653851597e-14
	3.348242643517413e-06
	4.685115936077074e-04
	8.559126640977698e-05
	2.215316368243157e-01

 92	9.200000000000006e-01
	-5.110155565429818e-15
	-5.348129022772329e-17
	-3.054472613199815e-14
	3.504480357187401e-06
	4.855963628616145e-04
	9.036094869215845e-05
	2.215322039074015e-01

 93	9.300000000000006e-01
	-5.113434232553459e-15
	-5.525746446960841e-17
	-3.060268925268035e-14
	3.668577855192602e-06
	5.027505689590239e-04
	9.530178491348058e-05
	2.215327913386642e-01

 94	9.400000000000006e-01
	-5.117169387634485e-15
	-5.709895329400344e-17
	-3.065899835113201e-14
	3.841142616737650e-06
	5.199515425701851e-04
	1.004143528907963e-04
	2.215333991867875e-01

 95	9.500000000000006e-01
	-5.121345083535320e-15
	-5.900846155585835e-17
	-3.071368561904434e-14
	4.022852321403892e-06
	5.371772269649348e-04
	1.056990067330165e-04
	2.215340274938459e-01

 96	9.600000000000006e-01
	-5.125945652035446e-15
	-6.098881919457521e-17
	-3.076678296843005e-14
	4.214464128461777e-06
	5.544062743505000e-04
	1.111558834670131e-04
	2.215346762760953e-01

 97	9.700000000000006e-01
	-5.130955700974187e-15
	-6.304298752780778e-17
	-3.081832201220854e-14
	4.416825309861291e-06
	5.716181274324923e-04
	1.167849105535337e-04
	2.215353455248701e-01

 98	9.800000000000006e-01
	-5.136360110826945e-15
	-6.517406587821362e-17
	-3.086833404612918e-14
	4.630885459871395e-06
	5.887930853649098e-04
	1.225858141408076e-04
	2.215360352075595e-01

 99	9.900000000000007e-01
	-5.142144030735298e-15
	-6.738529855073727e-17
	-3.091685003198471e-14
	4.857710544230109e-06
	6.059123534246365e-04
	1.285581278962511e-04
	2.215367452686667e-01

 100	1.000000000000001e+00
	-5.148292874009365e-15
	-6.968008217888634e-17
	-3.096390058206672e-14
	5.098499098928016e-06
	6.229580758936968e-04
	1.347012022508318e-04
	2.215374756309016e-01

 101	1.010000000000001e+00
	-5.154792313120910e-15
	-7.206197345928411e-17
	-3.100951594481359e-14
