Title: ** sch_path: /home/andylithia/openmpw/project-yatsuhashi-chip1/xschem/gmid_test/nmos_test.sch
Date: Tue Jul 19 23:15:45  2022
Plotname: DC transfer characteristic
Flags: real
No. Variables: 8
No. Points: 181
Variables:
	0	v(v-sweep)	voltage
	1	@m.xm1.msky130_fd_pr__nfet_01v8[cgb]	capacitance
	2	@m.xm1.msky130_fd_pr__nfet_01v8[cgd]	capacitance
	3	@m.xm1.msky130_fd_pr__nfet_01v8[cgs]	capacitance
	4	@m.xm1.msky130_fd_pr__nfet_01v8[gds]	admittance
	5	@m.xm1.msky130_fd_pr__nfet_01v8[gm]	admittance
	6	i(@m.xm1.msky130_fd_pr__nfet_01v8[id])	current
	7	v(@m.xm1.msky130_fd_pr__nfet_01v8[vth])	voltage
Values:
 0	0.000000000000000e+00
	-3.011772661794413e-15
	2.890487161562805e-19
	-2.080182122351333e-17
	7.530086021272325e-14
	2.222861910616175e-12
	6.959310052451281e-14
	7.489872905731834e-01

 1	1.000000000000000e-02
	-2.997424264888588e-15
	3.089278338460896e-19
	-2.218769943620791e-17
	1.026875690654497e-13
	3.059329886405414e-12
	9.578180405710572e-14
	7.489872905731848e-01

 2	2.000000000000000e-02
	-2.983256209428827e-15
	3.300204215580798e-19
	-2.368715175831566e-17
	1.400223936531458e-13
	4.210547875823445e-12
	1.318253110885848e-13
	7.489872905731868e-01

 3	3.000000000000000e-02
	-2.969262802291392e-15
	3.524120368659108e-19
	-2.531038394392858e-17
	1.909140659244744e-13
	5.794942503588614e-12
	1.814317929794644e-13
	7.489872905731888e-01

 4	4.000000000000000e-02
	-2.955438304989043e-15
	3.761982446333302e-19
	-2.706882882590408e-17
	2.602784580487756e-13
	7.975493682983702e-12
	2.497046193539736e-13
	7.489872905731929e-01

 5	5.000000000000000e-02
	-2.941776905274193e-15
	4.014856596596138e-19
	-2.897530433384995e-17
	3.548112641312485e-13
	1.097649267671538e-11
	3.436672310697317e-13
	7.489872905731978e-01

 6	6.000000000000000e-02
	-2.928272686864353e-15
	4.283929764511994e-19
	-3.104418529361151e-17
	4.836312888131062e-13
	1.510660141249017e-11
	4.729854274256586e-13
	7.489872905732048e-01

 7	7.000000000000001e-02
	-2.914919597253425e-15
	4.570519673051896e-19
	-3.329158929102616e-17
	6.591557856817426e-13
	2.079058115707228e-11
	6.509612924971453e-13
	7.489872905732137e-01

 8	8.000000000000000e-02
	-2.901711413573225e-15
	4.876084294508405e-19
	-3.573557687910461e-17
	8.982913585816885e-13
	2.861294785218439e-11
	8.959008769021693e-13
	7.489872905732269e-01

 9	9.000000000000000e-02
	-2.888641706468857e-15
	5.202230617648279e-19
	-3.839636641412414e-17
	1.224053910801436e-12
	3.937803402976049e-11
	1.232996113621692e-12
	7.489872905732448e-01

 10	9.999999999999999e-02
	-2.875703801948964e-15
	5.550722514981677e-19
	-4.129656382002968e-17
	1.667771817716626e-12
	5.419261797861045e-11
	1.696914204516559e-12
	7.489872905732690e-01

 11	1.100000000000000e-01
	-2.862890741168516e-15
	5.923487514794076e-19
	-4.446140759906799e-17
	2.272081723624943e-12
	7.457959094304507e-11
	2.335360260557343e-12
	7.489872905733027e-01

 12	1.200000000000000e-01
	-2.850195238097580e-15
	6.322622283524159e-19
	-4.791902942712051e-17
	3.095001288105947e-12
	1.026343074899941e-10
	3.213978719152283e-12
	7.489872905733497e-01

 13	1.300000000000000e-01
	-2.837609635024870e-15
	6.750396625343739e-19
	-5.170073069197251e-17
	4.215464819962958e-12
	1.412396249182600e-10
	4.423096165913300e-12
	7.489872905734132e-01

 14	1.400000000000000e-01
	-2.825125855840803e-15
	7.209255807020186e-19
	-5.584127534735469e-17
	5.740845484040270e-12
	1.943616261078899e-10
	6.086996609621075e-12
	7.489872905735007e-01

 15	1.500000000000000e-01
	-2.812735357041822e-15
	7.701821016761335e-19
	-6.037919945906561e-17
	7.817174411206789e-12
	2.674562410223662e-10
	8.376679142479568e-12
	7.489872905736221e-01

 16	1.600000000000000e-01
	-2.800429076397504e-15
	8.230887764877833e-19
	-6.535713780150980e-17
	1.064301980689537e-11
	3.680282621329634e-10
	1.152740350255524e-11
	7.489872905737885e-01

 17	1.700000000000000e-01
	-2.788197379227205e-15
	8.799422030455549e-19
	-7.082216780779996e-17
	1.448833126382659e-11
	5.063997186328101e-10
	1.586281729561544e-11
	7.489872905740175e-01

 18	1.800000000000000e-01
	-2.776030002247097e-15
	9.410553950024798e-19
	-7.682617106174723e-17
	1.972001721249113e-11
	6.967657761733507e-10
	2.182812873710522e-11
	7.489872905743321e-01

 19	1.900000000000000e-01
	-2.763915994976467e-15
	1.006756882922209e-18
	-8.342621231363491e-17
	2.683664885066083e-11
	9.586453657622411e-10
	3.003570803893973e-11
	7.489872905747660e-01

 20	2.000000000000000e-01
	-2.751843658740996e-15
	1.077389523410495e-18
	-9.068493566281161e-17
	3.651552846391554e-11
	1.318873478438231e-09
	4.132776091578160e-11
	7.489872905753621e-01

 21	2.100000000000000e-01
	-2.739800483388179e-15
	1.153308988249238e-18
	-9.867097702790136e-17
	4.967649949744723e-11
	1.814336376013539e-09
	5.686244451905516e-11
	7.489872905761825e-01

 22	2.200000000000001e-01
	-2.727773081946389e-15
	1.234881900512711e-18
	-1.074593912595940e-16
	6.756841135565845e-11
	2.495725124100817e-09
	7.823216021562241e-11
	7.489872905773113e-01

 23	2.300000000000001e-01
	-2.715747123624560e-15
	1.322483578000641e-18
	-1.171320911742128e-16
	9.188621888099544e-11
	3.432683957579762e-09
	1.076259912012714e-10
	7.489872905788635e-01

 24	2.400000000000001e-01
	-2.703707265776250e-15
	1.416495336056074e-18
	-1.277782943263595e-16
	1.249294747250051e-10
	4.720867602976776e-09
	1.480526709104342e-10
	7.489872905809983e-01

 25	2.500000000000001e-01
	-2.691637085751228e-15
	1.517301292091233e-18
	-1.394949714235020e-16
	1.698167011115984e-10
	6.491608622034000e-09
	2.036464966473323e-10
	7.489872905839342e-01

 26	2.600000000000001e-01
	-2.679519013940793e-15
	1.625284603293141e-18
	-1.523872878459831e-16
	2.307751213601808e-10
	8.925149192498010e-09
	2.800868164459073e-10
	7.489872905879711e-01

 27	2.700000000000001e-01
	-2.667334269798685e-15
	1.740823057667611e-18
	-1.665690267158096e-16
	3.135319062782618e-10
	1.226873414862653e-08
	3.851728879589354e-10
	7.489872905935206e-01

 28	2.800000000000001e-01
	-2.655062803193965e-15
	1.864283927757933e-18
	-1.821629783177238e-16
	4.258419898757258e-10
	1.686132334656751e-08
	5.296110689499639e-10
	7.489872906011483e-01

 29	2.900000000000001e-01
	-2.642683244126782e-15
	1.996017987329901e-18
	-1.993012764060437e-16
	5.781993403008747e-10
	2.316730030892017e-08
	7.280918237293573e-10
	7.489872906116301e-01

 30	3.000000000000001e-01
	-2.630172864607991e-15
	2.136352585677404e-18
	-2.181256570587738e-16
	7.847942493540703e-10
	3.182238063661370e-08
	1.000761734819937e-09
	7.489872906260296e-01

 31	3.100000000000001e-01
	-2.617507557355522e-15
	2.285583673940998e-18
	-2.387876103475482e-16
	1.064799897508089e-09
	4.369602133474957e-08
	1.375232975925445e-09
	7.489872906458057e-01

 32	3.200000000000001e-01
	-2.604661836870099e-15
	2.443966685222880e-18
	-2.614483893272963e-16
	1.444098643155681e-09
	5.997608007917631e-08
	1.889322623844011e-09
	7.489872906729546e-01

 33	3.300000000000001e-01
	-2.591608869381997e-15
	2.611706187851211e-18
	-2.862788349482939e-16
	1.957594027398223e-09
	8.228336768372477e-08
	2.594780731732232e-09
	7.489872907102094e-01

 34	3.400000000000001e-01
	-2.578320539054555e-15
	2.788944261561170e-18
	-3.134589697949738e-16
	2.652300656664660e-09
	1.128261905049324e-07
	3.562354268933282e-09
	7.489872907613071e-01

 35	3.500000000000001e-01
	-2.564767558614191e-15
	2.975747592259269e-18
	-3.431773085215546e-16
	3.591463665900725e-09
	1.546081183249330e-07
	4.888650067918985e-09
	7.489872908313486e-01

 36	3.600000000000002e-01
	-2.550919633155854e-15
	3.172093344778459e-18
	-3.756298290783779e-16
	4.860035582879590e-09
	2.117061673393784e-07
	6.705411312607249e-09
	7.489872909272915e-01

 37	3.700000000000002e-01
	-2.536745686129693e-15
	3.377853956346473e-18
	-4.110185470349089e-16
	6.571934720849138e-09
	2.896414723462534e-07
	9.192017605944670e-09
	7.489872910586091e-01

 38	3.800000000000002e-01
	-2.522214156313199e-15
	3.592781097030086e-18
	-4.495496363574999e-16
	8.879629563305558e-09
	3.958704041929309e-07
	1.259226796604225e-08
	7.489872912381761e-01

 39	3.900000000000002e-01
	-2.507293373763616e-15
	3.816489166215173e-18
	-4.914310448301184e-16
	1.198674169230340e-08
	5.404309331224500e-07
	1.723681913355438e-08
	7.489872914834547e-01

 40	4.000000000000002e-01
	-2.491952021176574e-15
	4.048438833053012e-18
	-5.368695618718727e-16
	1.616453864217568e-08
	7.367866269217386e-07
	2.357303705507403e-08
	7.489872918180711e-01

 41	4.100000000000002e-01
	-2.476159684609969e-15
	4.287921277769408e-18
	-5.860673116861478e-16
	2.177339892057413e-08
	1.002918485033901e-06
	3.220448248360253e-08
	7.489872922738985e-01

 42	4.200000000000002e-01
	-2.459887494064582e-15
	4.534043940572040e-18
	-6.392176661394920e-16
	2.929057244718802e-08
	1.362721872307765e-06
	4.394279012659770e-08
	7.489872928938019e-01

 43	4.300000000000002e-01
	-2.443108849902941e-15
	4.785718722935966e-18
	-6.965005998079255e-16
	3.934582370111524e-08
	1.847770519764911e-06
	5.987529973419546e-08
	7.489872937352042e-01

 44	4.400000000000002e-01
	-2.425800225583612e-15
	5.041653696430523e-18
	-7.580775439854475e-16
	5.276681684027926e-08
	2.499509480932466e-06
	8.145242198217320e-08
	7.489872948747051e-01

 45	4.500000000000002e-01
	-2.407942030854445e-15
	5.300349438687290e-18
	-8.240858361449333e-16
	7.063635546829396e-08
	3.371930719575215e-06
	1.105993081527480e-07
	7.489872964139783e-01

 46	4.600000000000002e-01
	-2.389519512687199e-15
	5.560101115393212e-18
	-8.946329045415716e-16
	9.436378284904772e-08
	4.534764446310382e-06
	1.498568386431330e-07
	7.489872984872183e-01

 47	4.700000000000003e-01
	-2.370523664294899e-15
	5.819007343347308e-18
	-9.697903716119819e-16
	1.257729205238202e-07
	6.077181762215354e-06
	2.025571045350011e-07
	7.489873012704137e-01

 48	4.800000000000003e-01
	-2.350952106133723e-15
	6.074986688649915e-18
	-1.049588300957037e-15
	1.672087922899857e-07
	8.111945482418419e-06
	2.730382371226566e-07
	7.489873049926964e-01

 49	4.900000000000003e-01
	-2.330809897535194e-15
	6.325802369009819e-18
	-1.134009846764258e-15
	2.216649430555400e-07
	1.077986432038564e-05
	3.669024189031214e-07
	7.489873099499811e-01

 50	5.000000000000002e-01
	-2.310110234265658e-15
	6.569095342845495e-18
	-1.222986587000769e-15
	2.929322995890697e-07
	1.425430374143951e-05
	4.913189649626125e-07
	7.489873165209897e-01

 51	5.100000000000002e-01
	-2.288874986551057e-15
	6.802425495258021e-18
	-1.316394828276338e-15
	3.857691131755385e-07
	1.874539512652905e-05
	6.553713385651356e-07
	7.489873251856106e-01

 52	5.200000000000002e-01
	-2.267135034482578e-15
	7.023320099883660e-18
	-1.414053157435671e-15
	5.060894786141368e-07
	2.450348360719584e-05
	8.704428533146122e-07
	7.489873365453183e-01

 53	5.300000000000002e-01
	-2.244930363544006e-15
	7.229328185855742e-18
	-1.515721480609976e-15
	6.611652110758932e-07
	3.182129394653509e-05
	1.150630862856966e-06
	7.489873513451349e-01

 54	5.400000000000003e-01
	-2.222309892266833e-15
	7.418078919307486e-18
	-1.621101734516364e-15
	8.598325694840567e-07
	4.103430828630425e-05
	1.513174025448821e-06
	7.489873704963186e-01

 55	5.500000000000003e-01
	-2.199331016346756e-15
	7.587341671688117e-18
	-1.729840379405286e-15
	1.112691697313702e-06
	5.251896942240837e-05
	1.978872669393239e-06
	7.489873950987698e-01

 56	5.600000000000003e-01
	-2.176058868191083e-15
	7.735085142869339e-18
	-1.841532692735362e-15
	1.432283161909936e-06
	6.668855776353308e-05
	2.572479501307491e-06
	7.489874264619507e-01

 57	5.700000000000003e-01
	-2.152565306731456e-15
	7.859532776477213e-18
	-1.955728783971016e-15
	1.833223239797680e-06
	8.398691177466797e-05
	3.323037937808608e-06
	7.489874661231815e-01

 58	5.800000000000003e-01
	-2.128927668127380e-15
	7.959211773296556e-18
	-2.071941151868165e-15
	2.332278315650169e-06
	1.048804982873563e-04
	4.264148749872993e-06
	7.489875158623150e-01

 59	5.900000000000003e-01
	-2.105227322323441e-15
	8.032993280984940e-18
	-2.189653514803961e-15
	2.948359507255138e-06
	1.298495831787889e-04
	5.434152119905058e-06
	7.489875777121608e-01

 60	6.000000000000003e-01
	-2.081548092015412e-15
	8.080121797675629e-18
	-2.308330570218089e-15
	3.702421597467318e-06
	1.593792934248351e-04
	6.876220129076269e-06
	7.489876539644472e-01

 61	6.100000000000003e-01
	-2.057974598387357e-15
	8.100232435657981e-18
	-2.427428287683982e-15
	4.617255186098829e-06
	1.939511298567158e-04
	8.638361682138877e-06
	7.489877471714640e-01

 62	6.200000000000003e-01
	-2.034590601343925e-15
	8.093355395293244e-18
	-2.546404315831121e-15
	5.717166747709729e-06
	2.340350024988542e-04
	1.077334521610196e-05
	7.489878601437163e-01

 63	6.300000000000003e-01
	-2.011477400679055e-15
	8.059907735328978e-18
	-2.664728087798231e-15
	7.027546784003106e-06
	2.800812337980685e-04
	1.333854217455493e-05
	7.489879959437654e-01

 64	6.400000000000003e-01
	-1.988712358964380e-15
	8.000673229158359e-18
	-2.781890241697941e-15
	8.574330494517076e-06
	3.325114011281558e-04
	1.639568568826091e-05
	7.489881578759704e-01

 65	6.500000000000004e-01
	-1.966367597596306e-15
	7.916771709225053e-18
	-2.897411027686650e-15
	1.038335810661339e-05
	3.917065765510062e-04
	2.001052576860443e-05
	7.489883494711035e-01

 66	6.600000000000004e-01
	-1.944508905409505e-15
	7.809619778704813e-18
	-3.010847445647636e-15
	1.247964398792669e-05
	4.579916247985757e-04
	2.425234804870914e-05
	7.489885744640215e-01

 67	6.700000000000004e-01
	-1.923194885717200e-15
	7.680885083056359e-18
	-3.121798940070660e-15
	1.488656655288793e-05
	5.316147945110850e-04
	2.919331223217846e-05
	7.489888367619291e-01

 68	6.800000000000004e-01
	-1.902476353769055e-15
	7.532436474982603e-18
	-3.229911564088344e-15
	1.762499662803060e-05
	6.127228216702232e-04
	3.490756342895443e-05
	7.489891404005354e-01

 69	6.900000000000004e-01
	-1.882395983508678e-15
	7.366292383194704e-18
	-3.334880606064698e-15
	2.071239153695335e-05
	7.013329966935821e-04
	4.147007783126423e-05
	7.489894894857732e-01

 70	7.000000000000004e-01
	-1.862988191036024e-15
	7.184569530656956e-18
	-3.436451744132461e-15
	2.416189539605652e-05
	7.973048986745078e-04
	4.895522508475980e-05
	7.489898881197504e-01

 71	7.100000000000004e-01
	-1.844279232935533e-15
	6.989433873814324e-18
	-3.534420852787723e-15
	2.798150079558162e-05
	9.003155104259549e-04
	5.743506212975426e-05
	7.489903403113205e-01

 72	7.200000000000004e-01
	-1.826287490931412e-15
	6.783055287274070e-18
	-3.628632628975913e-15
	3.217333937056004e-05
	1.009841940573827e-03
	6.697741349333539e-05
	7.489908498737426e-01

 73	7.300000000000004e-01
	-1.809023910222998e-15
	6.567567135146627e-18
	-3.718978232591025e-15
	3.673317420849097e-05
	1.125155789575196e-03
	7.764383493170612e-05
	7.489914203142406e-01

 74	7.400000000000004e-01
	-1.792492557162473e-15
	6.345031483619992e-18
	-3.805392148881819e-15
	4.165016169297005e-05
	1.245332208221115e-03
	8.948759333027061e-05
	7.489920547223144e-01

 75	7.500000000000004e-01
	-1.776691262332888e-15
	6.117410346112928e-18
	-3.887848479833466e-15
	4.690693241393387e-05
	1.369274974760083e-03
	1.025518180543860e-04
	7.489927556650852e-01

 76	7.600000000000005e-01
	-1.761612317143163e-15
	5.886543031956303e-18
	-3.966356860692731e-15
	5.248001143488358e-05
	1.495756713740606e-03
	1.168679812946276e-04
	7.489935250983395e-01

 77	7.700000000000005e-01
	-1.747243195321412e-15
	5.654129404007196e-18
	-4.040958179189545e-15
	5.834056194547959e-05
	1.623471109769490e-03
	1.324548445525084e-04
	7.489943643011361e-01

 78	7.800000000000005e-01
	-1.733567274715455e-15
	5.421718645198713e-18
	-4.111720251380248e-15
	6.445539983534447e-05
	1.751092113543641e-03
	1.493179670294098e-04
	7.489952738398189e-01

 79	7.900000000000005e-01
	-1.720564539205133e-15
	5.190702988551929e-18
	-4.178733581829981e-15
	7.078819713036263e-05
	1.877334108505489e-03
	1.674498156578177e-04
	7.489962535644112e-01

 80	8.000000000000005e-01
	-1.708212244966801e-15
	4.962315775238831e-18
	-4.242107309103090e-15
	7.730077508208155e-05
	2.001007021206991e-03
	1.868304554172997e-04
	7.489973026370603e-01

 81	8.100000000000005e-01
	-1.696485539554007e-15
	4.737633163781817e-18
	-4.301965411826252e-15
	8.395438547308325e-05
	2.121061371783782e-03
	2.074287428352395e-04
	7.489984195890810e-01

 82	8.200000000000005e-01
	-1.685358026092052e-15
	4.517578811757232e-18
	-4.358443227066893e-15
	9.071089038392351e-05
	2.236619989441538e-03
	2.292039038957621e-04
	7.489996024006764e-01

 83	8.300000000000005e-01
	-1.674802268217745e-15
	4.302930880321439e-18
	-4.411684312150163e-15
	9.753377244372291e-05
	2.346995141189787e-03
	2.521073550476333e-04
	7.490008485959302e-01

 84	8.400000000000005e-01
	-1.664790234177406e-15
	4.094330762683531e-18
	-4.461837663686145e-15
	1.043889342398881e-04
	2.451691716019009e-03
	2.760846233597560e-04
	7.490021553452764e-01

 85	8.500000000000005e-01
	-1.655293680719968e-15
	3.892293002359017e-18
	-4.509055293571984e-15
	1.112452719950444e-04
	2.550398555111167e-03
	3.010772361014514e-04
	7.490035195682014e-01

 86	8.600000000000005e-01
	-1.646284479116336e-15
	3.697215938925372e-18
	-4.553490150932244e-15
	1.180750309767013e-04
	2.642970869277957e-03
	3.270244757544754e-04
	7.490049380301925e-01

 87	8.700000000000006e-01
	-1.637734886852473e-15
	3.509392692683808e-18
	-4.595294371076662e-15
	1.248539662714001e-04
	2.729406944467437e-03
	3.538649276358079e-04
	7.490064074295681e-01

 88	8.800000000000006e-01
	-1.629617769346417e-15
	3.329022171098557e-18
	-4.634617827213357e-15
	1.315613420675880e-04
	2.809822123809613e-03
	3.815377785523789e-04
	7.490079244715171e-01

 89	8.900000000000006e-01
	-1.621906776498620e-15
	3.156219846362865e-18
	-4.671606957443327e-15
	1.381798061962969e-04
	2.884422540037144e-03
	4.099838523457743e-04
	7.490094859282033e-01

 90	9.000000000000006e-01
	-1.614576479069235e-15
	2.991028113221364e-18
	-4.706403838066911e-15
	1.446951757748882e-04
	2.953480422943049e-03
	4.391463896653225e-04
	7.490110886850314e-01

 91	9.100000000000006e-01
	-1.607602469849376e-15
	2.833426088397490e-18
	-4.739145474067483e-15
	1.510961659539509e-04
	3.017312155579352e-03
	4.689715941979285e-04
	7.490127297740539e-01

 92	9.200000000000006e-01
	-1.600961434412036e-15
	2.683338757424321e-18
	-4.769963278459681e-15
	1.573740883897948e-04
	3.076259685671646e-03
	4.994089763392323e-04
	7.490144063960538e-01

 93	9.300000000000006e-01
	-1.594631195940450e-15
	2.540645411585542e-18
	-4.798982713704028e-15
	1.635225402428324e-04
	3.130675456333040e-03
	5.304115289924365e-04
	7.490161159331012e-01

 94	9.400000000000006e-01
	-1.588590738275923e-15
	2.405187347585342e-18
	-4.826323070357017e-15
	1.695370989669094e-04
	3.180910710032538e-03
	5.619357701370303e-04
	7.490178559534290e-01

 95	9.500000000000006e-01
	-1.582820210934938e-15
	2.276774826185353e-18
	-4.852097360351324e-15
	1.754150333225055e-04
	3.227306828300087e-03
	5.939416842854697e-04
	7.490196242103827e-01

 96	9.600000000000006e-01
	-1.577300919439941e-15
	2.155193304154859e-18
	-4.876412304638134e-15
	1.811550370931560e-04
	3.270189273154255e-03
	6.263925910123407e-04
	7.490214186369994e-01

 97	9.700000000000006e-01
	-1.572015303907306e-15
	2.040208967287911e-18
	-4.899368397261112e-15
	1.867569889229378e-04
	3.309863668784837e-03
	6.592549642145436e-04
	7.490232373375411e-01

 98	9.800000000000006e-01
	-1.566946908451717e-15
	1.931573601705722e-18
	-4.921060030191423e-15
	1.922217394421064e-04
	3.346613580068607e-03
	6.924982212102866e-04
	7.490250785770751e-01

 99	9.900000000000007e-01
	-1.562080343606687e-15
	1.829028846896876e-18
	-4.941575665382043e-15
	1.975509252816663e-04
	3.380699589017590e-03
	7.260944965628068e-04
	7.490269407699530e-01

 100	1.000000000000001e+00
	-1.557401243631031e-15
	1.732309877591349e-18
	-4.960998042464902e-15
	2.027468085578953e-04
	3.412359327215945e-03
	7.600184118111120e-04
	7.490288224678502e-01

 101	1.010000000000001e+00
	-1.552896220273201e-15
	1.641148563157754e-18
	-4.979404412298177e-15
	2.078121398044708e-04
	3.441808182164911e-03
	7.942468491770310e-04
	7.490307223478384e-01

