Title: ** sch_path: /home/andylithia/openmpw/project-yatsuhashi-chip1/xschem/gmid_test/nmos_test.sch
Date: Tue Jul 19 23:15:45  2022
Plotname: DC transfer characteristic
Flags: real
No. Variables: 8
No. Points: 181
Variables:
	0	v(v-sweep)	voltage
	1	@m.xm1.msky130_fd_pr__nfet_01v8[cgb]	capacitance
	2	@m.xm1.msky130_fd_pr__nfet_01v8[cgd]	capacitance
	3	@m.xm1.msky130_fd_pr__nfet_01v8[cgs]	capacitance
	4	@m.xm1.msky130_fd_pr__nfet_01v8[gds]	admittance
	5	@m.xm1.msky130_fd_pr__nfet_01v8[gm]	admittance
	6	i(@m.xm1.msky130_fd_pr__nfet_01v8[id])	current
	7	v(@m.xm1.msky130_fd_pr__nfet_01v8[vth])	voltage
Values:
 0	0.000000000000000e+00
	-4.913883256823155e-15
	-1.876550399198735e-19
	-6.750595824730014e-15
	2.248233308361678e-08
	9.826144125944211e-07
	1.074113712095349e-07
	2.816868759887424e-01

 1	1.000000000000000e-02
	-4.858975934541532e-15
	-1.928958818963180e-19
	-6.874855445261217e-15
	2.459273028236949e-08
	1.075106793614148e-06
	1.176931392855229e-07
	2.816868768301202e-01

 2	2.000000000000000e-02
	-4.804531538889177e-15
	-1.982694595965170e-19
	-6.999547713728917e-15
	2.689366642078610e-08
	1.176174437784776e-06
	1.289420745028332e-07
	2.816868777509387e-01

 3	3.000000000000000e-02
	-4.750567203400684e-15
	-2.037784562848937e-19
	-7.124617097736001e-15
	2.940133312367504e-08
	1.286611722939174e-06
	1.412478408261401e-07
	2.816868787586254e-01

 4	4.000000000000000e-02
	-4.697099937845715e-15
	-2.094255880141950e-19
	-7.250007502365657e-15
	3.213316814692214e-08
	1.407289219812750e-06
	1.547084206549244e-07
	2.816868798612974e-01

 5	5.000000000000000e-02
	-4.644146588209130e-15
	-2.152136038168591e-19
	-7.375662363146622e-15
	3.510793541818893e-08
	1.539161654531379e-06
	1.694309158339074e-07
	2.816868810678429e-01

 6	6.000000000000000e-02
	-4.591723797287983e-15
	-2.211452859248788e-19
	-7.501524740453257e-15
	3.834580837575869e-08
	1.683276792734791e-06
	1.855324328087877e-07
	2.816868823879972e-01

 7	7.000000000000001e-02
	-4.539847966034493e-15
	-2.272234500196108e-19
	-7.627537415026229e-15
	4.186845653048698e-08
	1.840785354620938e-06
	2.031410616809206e-07
	2.816868838324237e-01

 8	8.000000000000000e-02
	-4.488535215771537e-15
	-2.334509455133942e-19
	-7.753642984292971e-15
	4.569913514641751e-08
	2.012952081131978e-06
	2.223969600616664e-07
	2.816868854128093e-01

 9	9.000000000000000e-02
	-4.437801351403859e-15
	-2.398306558643656e-19
	-7.879783959162982e-15
	4.986277790381952e-08
	2.201168082881365e-06
	2.434535538858471e-07
	2.816868871419721e-01

 10	9.999999999999999e-02
	-4.387661825744178e-15
	-2.463654989261461e-19
	-8.005902860970284e-15
	5.438609237429623e-08
	2.406964615098233e-06
	2.664788687179307e-07
	2.816868890339760e-01

 11	1.100000000000000e-01
	-4.338131705068703e-15
	-2.530584273337941e-19
	-8.131942318233854e-15
	5.929765810118960e-08
	2.632028433645198e-06
	2.916570065760780e-07
	2.816868911042607e-01

 12	1.200000000000000e-01
	-4.289225636011089e-15
	-2.599124289275000e-19
	-8.257845162908275e-15
	6.462802703995238e-08
	2.878218898804838e-06
	3.191897849081350e-07
	2.816868933697931e-01

 13	1.300000000000000e-01
	-4.240957813897761e-15
	-2.669305272153427e-19
	-8.383554525799759e-15
	7.040982607252097e-08
	3.147587004721122e-06
	3.492985560769606e-07
	2.816868958492173e-01

 14	1.400000000000000e-01
	-4.193341952621229e-15
	-2.741157818763953e-19
	-8.509013930826198e-15
	7.667786126716351e-08
	3.442396522752793e-06
	3.822262275437948e-07
	2.816868985630506e-01

 15	1.500000000000000e-01
	-4.146391256140408e-15
	-2.814712893054424e-19
	-8.634167387807898e-15
	8.346922351103805e-08
	3.765147456104152e-06
	4.182395048677620e-07
	2.816869015338722e-01

 16	1.600000000000000e-01
	-4.100118391689613e-15
	-2.890001832003591e-19
	-8.758959483482322e-15
	9.082339509682863e-08
	4.118602010416373e-06
	4.576313816511057e-07
	2.816869047865589e-01

 17	1.700000000000000e-01
	-4.054535464769756e-15
	-2.967056351933373e-19
	-8.883335470446893e-15
	9.878235679775177e-08
	4.505813289929458e-06
	5.007239026334645e-07
	2.816869083485291e-01

 18	1.800000000000000e-01
	-4.009653995986693e-15
	-3.045908555268956e-19
	-9.007241353745099e-15
	1.073906949169733e-07
	4.930156930661680e-06
	5.478712282461592e-07
	2.816869122500225e-01

 19	1.900000000000000e-01
	-3.965484899793078e-15
	-3.126590937755426e-19
	-9.130623974823636e-15
	1.166957077484765e-07
	5.395365880022641e-06
	5.994630310449569e-07
	2.816869165244268e-01

 20	2.000000000000000e-01
	-3.922038465180850e-15
	-3.209136396141070e-19
	-9.253431092604065e-15
	1.267475108369441e-07
	5.905568525510492e-06
	6.559282565042496e-07
	2.816869212086059e-01

 21	2.100000000000000e-01
	-3.879324338362554e-15
	-3.293578236333337e-19
	-9.375611461426205e-15
	1.375991403743742e-07
	6.465330362683231e-06
	7.177392826238847e-07
	2.816869263432968e-01

 22	2.200000000000001e-01
	-3.837351507470183e-15
	-3.379950182035148e-19
	-9.497114905638870e-15
	1.493066540215874e-07
	7.079699373422513e-06
	7.854165146116180e-07
	2.816869319735500e-01

 23	2.300000000000001e-01
	-3.796128289290954e-15
	-3.468286383868318e-19
	-9.617892390631338e-15
	1.619292283936037e-07
	7.754255258527523e-06
	8.595334524856737e-07
	2.816869381491938e-01

 24	2.400000000000001e-01
	-3.755662318050169e-15
	-3.558621428990005e-19
	-9.737896090116751e-15
	1.755292523994305e-07
	8.495162632744370e-06
	9.407222707091346e-07
	2.816869449253694e-01

 25	2.500000000000001e-01
	-3.715960536242063e-15
	-3.650990351205419e-19
	-9.857079449499197e-15
	1.901724155796837e-07
	9.309228244302731e-06
	1.029679949826770e-06
	2.816869523631313e-01

 26	2.600000000000001e-01
	-3.677029187500363e-15
	-3.745428641583040e-19
	-9.975397245176424e-15
	2.059277905399189e-07
	1.020396222373250e-05
	1.127175000417710e-06
	2.816869605300860e-01

 27	2.700000000000001e-01
	-3.638873811491709e-15
	-3.841972259576345e-19
	-1.009280563965002e-14
	2.228679085339756e-07
	1.118764329705429e-05
	1.234054819385354e-06
	2.816869695011173e-01

 28	2.800000000000001e-01
	-3.601499240806134e-15
	-3.940657644653764e-19
	-1.020926223233670e-14
	2.410688272106983e-07
	1.226938781536309e-05
	1.351253717551416e-06
	2.816869793591765e-01

 29	2.900000000000001e-01
	-3.564909599810901e-15
	-4.041521728441081e-19
	-1.032472610599476e-14
	2.606101894993870e-07
	1.345922235545854e-05
	1.479801655563948e-06
	2.816869901961612e-01

 30	3.000000000000001e-01
	-3.529108305425935e-15
	-4.144601947378741e-19
	-1.043915786870171e-14
	2.815752725750124e-07
	1.476815953384607e-05
	1.620833722124464e-06
	2.816870021138597e-01

 31	3.100000000000001e-01
	-3.494098069771678e-15
	-4.249936255894909e-19
	-1.055251969133894e-14
	3.040510258139391e-07
	1.620827654871067e-05
	1.775600384332898e-06
	2.816870152250066e-01

 32	3.200000000000001e-01
	-3.459880904633294e-15
	-4.357563140097902e-19
	-1.066477534056093e-14
	3.281280966256709e-07
	1.779279582130556e-05
	1.945478534389105e-06
	2.816870296544296e-01

 33	3.300000000000001e-01
	-3.426458127678522e-15
	-4.467521631988227e-19
	-1.077589020724660e-14
	3.539008430263602e-07
	1.953616694994480e-05
	2.131983349820631e-06
	2.816870455402819e-01

 34	3.400000000000001e-01
	-3.393830370360727e-15
	-4.579851324191782e-19
	-1.088583133044949e-14
	3.814673318064807e-07
	2.145414901732844e-05
	2.336780975682299e-06
	2.816870630353897e-01

 35	3.500000000000001e-01
	-3.361997587433196e-15
	-4.694592385215736e-19
	-1.099456741688305e-14
	4.109293211389955e-07
	2.356389210674592e-05
	2.561702026658573e-06
	2.816870823087248e-01

 36	3.600000000000002e-01
	-3.330959067995873e-15
	-4.811785575228245e-19
	-1.110206885599580e-14
	4.423922264767353e-07
	2.588401668698826e-05
	2.808755894579300e-06
	2.816871035469559e-01

 37	3.700000000000002e-01
	-3.300713447991709e-15
	-4.931472262362830e-19
	-1.120830773070768e-14
	4.759650685990491e-07
	2.843468932246785e-05
	3.080145832437201e-06
	2.816871269561432e-01

 38	3.800000000000002e-01
	-3.271258724065900e-15
	-5.053694439548536e-19
	-1.131325782389619e-14
	5.117604026900060e-07
	3.123769295794912e-05
	3.378284769520431e-06
	2.816871527635335e-01

 39	3.900000000000002e-01
	-3.242592268698551e-15
	-5.178494741867313e-19
	-1.141689462073569e-14
	5.498942273640870e-07
	3.431648982108774e-05
	3.705811793724404e-06
	2.816871812194755e-01

 40	4.000000000000002e-01
	-3.214710846518628e-15
	-5.305916464440989e-19
	-1.151919530700789e-14
	5.904858726020615e-07
	3.769627478633134e-05
	4.065609216524679e-06
	2.816872125994396e-01

 41	4.100000000000002e-01
	-3.187610631705460e-15
	-5.436003580846663e-19
	-1.162013876351437e-14
	6.336578656208448e-07
	4.140401685720527e-05
	4.460820113572085e-06
	2.816872472061482e-01

 42	4.200000000000002e-01
	-3.161287226382648e-15
	-5.568800762065494e-19
	-1.171970555673419e-14
	6.795357737780383e-07
	4.546848625808914e-05
	4.894866209582599e-06
	2.816872853718018e-01

 43	4.300000000000002e-01
	-3.135735679908584e-15
	-5.704353395966528e-19
	-1.181787792587986e-14
	7.282480237057947e-07
	4.992026448957406e-05
	5.371465950383257e-06
	2.816873274603902e-01

 44	4.400000000000002e-01
	-3.110950508967734e-15
	-5.842707607325166e-19
	-1.191463976651491e-14
	7.799256959812612e-07
	5.479173460238353e-05
	5.894652577976497e-06
	2.816873738700774e-01

 45	4.500000000000002e-01
	-3.086925718367136e-15
	-5.983910278383109e-19
	-1.200997661090388e-14
	8.347022947732049e-07
	6.011704889314671e-05
	6.468791996725349e-06
	2.816874250356431e-01

 46	4.600000000000002e-01
	-3.063654822443358e-15
	-6.128009069951552e-19
	-1.210387560527315e-14
	8.927134920579014e-07
	6.593207123079476e-05
	7.098600190764785e-06
	2.816874814309439e-01

 47	4.700000000000003e-01
	-3.041130866986853e-15
	-6.275052443060334e-19
	-1.219632548416557e-14
	9.540968461725793e-07
	7.227429129468639e-05
	7.789159925127846e-06
	2.816875435713957e-01

 48	4.800000000000003e-01
	-3.019346451591901e-15
	-6.425089681158892e-19
	-1.228731654207763e-14
	1.018991494673146e-06
	7.918270815408399e-05
	8.545936436563250e-06
	2.816876120164172e-01

 49	4.900000000000003e-01
	-2.998293752343052e-15
	-6.578170912873848e-19
	-1.237684060256983e-14
	1.087537821683867e-06
	8.669768085160518e-05
	9.374791795407716e-06
	2.816876873718143e-01

 50	5.000000000000002e-01
	-2.977964544751051e-15
	-6.734347135327369e-19
	-1.246489098504402e-14
	1.159877100171282e-06
	9.486074397790493e-05
	1.028199759805630e-05
	2.816877702920630e-01

 51	5.100000000000002e-01
	-2.958350226854532e-15
	-6.893670238023270e-19
	-1.255146246938159e-14
	1.236151109841385e-06
	1.037143866461647e-04
	1.127424563148008e-05
	2.816878614824500e-01

 52	5.200000000000002e-01
	-2.939441842406585e-15
	-7.056193027308149e-19
	-1.263655125863672e-14
	1.316501731647642e-06
	1.133017937958418e-04
	1.235865613786992e-05
	2.816879617009950e-01

 53	5.300000000000002e-01
	-2.921230104068931e-15
	-7.221969251412144e-19
	-1.272015493997790e-14
	1.401070520205066e-06
	1.236665493752406e-04
	1.354278329981864e-05
	2.816880717601436e-01

 54	5.400000000000003e-01
	-2.903705416540118e-15
	-7.391053626080015e-19
	-1.280227244406803e-14
	1.489998255730751e-06
	1.348523016683183e-04
	1.483461756548891e-05
	2.816881925281445e-01

 55	5.500000000000003e-01
	-2.886857899547729e-15
	-7.563501860799356e-19
	-1.288290400307194e-14
	1.583424477469863e-06
	1.469023918351681e-04
	1.624258443986174e-05
	2.816883249300417e-01

 56	5.600000000000003e-01
	-2.870677410639007e-15
	-7.739370685634483e-19
	-1.296205110747448e-14
	1.681487000913556e-06
	1.598594476161207e-04
	1.777553938324455e-05
	2.816884699482692e-01

 57	5.700000000000003e-01
	-2.855153567707908e-15
	-7.918717878678020e-19
	-1.303971646188982e-14
	1.784321421467905e-06
	1.737649450905127e-04
	1.944275848244866e-05
	2.816886286227204e-01

 58	5.800000000000003e-01
	-2.840275771201264e-15
	-8.101602294126438e-19
	-1.311590394003579e-14
	1.892060607582583e-06
	1.886587423622347e-04
	2.125392459389805e-05
	2.816888020502860e-01

 59	5.900000000000003e-01
	-2.826033225950558e-15
	-8.288083890995378e-19
	-1.319061853904247e-14
	2.004834186689653e-06
	2.045785900408246e-04
	2.321910870171280e-05
	2.816889913837834e-01

 60	6.000000000000003e-01
	-2.812414962580352e-15
	-8.478223762481757e-19
	-1.326386633325739e-14
	2.122768027628099e-06
	2.215596243706635e-04
	2.534874628752408e-05
	2.816891978302119e-01

 61	6.100000000000003e-01
	-2.799409858448593e-15
	-8.672084165987043e-19
	-1.333565442770321e-14
	2.245983723530086e-06
	2.396338498002963e-04
	2.765360857213093e-05
	2.816894226483129e-01

 62	6.200000000000003e-01
	-2.787006658078082e-15
	-8.869728553814862e-19
	-1.340599091133667e-14
	2.374598079412852e-06
	2.588296186455277e-04
	3.014476856150934e-05
	2.816896671453780e-01

 63	6.300000000000003e-01
	-2.775193993042904e-15
	-9.071221604554868e-19
	-1.347488481025023e-14
	2.508722608946048e-06
	2.791711162489156e-04
	3.283356191015475e-05
	2.816899326732898e-01

 64	6.400000000000003e-01
	-2.763960401277275e-15
	-9.276629255166058e-19
	-1.354234604095023e-14
	2.648463045039854e-06
	3.006778606403040e-04
	3.573154270199409e-05
	2.816902206237724e-01

 65	6.500000000000004e-01
	-2.753294345778671e-15
	-9.486018733779251e-19
	-1.360838536383778e-14
	2.793918869016564e-06
	3.233642261254060e-04
	3.885043434149441e-05
	2.816905324228573e-01

 66	6.600000000000004e-01
	-2.743184232680640e-15
	-9.699458593224257e-19
	-1.367301433701051e-14
	2.945182863179393e-06
	3.472390004428683e-04
	4.220207584317505e-05
	2.816908695245740e-01

 67	6.700000000000004e-01
	-2.733618428674740e-15
	-9.917018745310164e-19
	-1.373624527049575e-14
	3.102340691571130e-06
	3.723049851103677e-04
	4.579836390427665e-05
	2.816912334039028e-01

 68	6.800000000000004e-01
	-2.724585277764433e-15
	-1.013877049586149e-18
	-1.379809118101742e-14
	3.265470513617108e-06
	3.985586483091797e-04
	4.965119124042699e-05
	2.816916255490444e-01

 69	6.900000000000004e-01
	-2.716073117337353e-15
	-1.036478658054076e-18
	-1.385856574739180e-14
	3.434642635167758e-06
	4.259898391241471e-04
	5.377238175518848e-05
	2.816920474530427e-01

 70	7.000000000000004e-01
	-2.708070293545571e-15
	-1.059514120146493e-18
	-1.391768326663880e-14
	3.609919201195471e-06
	4.545815711608282e-04
	5.817362319874869e-05
	2.816925006048739e-01

 71	7.100000000000004e-01
	-2.700565175986872e-15
	-1.082991006464049e-18
	-1.397545861088835e-14
	3.791353934058105e-06
	4.843098825121203e-04
	6.286639804612140e-05
	2.816929864801155e-01

 72	7.200000000000004e-01
	-2.693546171682444e-15
	-1.106917041823595e-18
	-1.403190718515422e-14
	3.978991920822775e-06
	5.151437777613507e-04
	6.786191338863935e-05
	2.816935065312379e-01

 73	7.300000000000004e-01
	-2.687001738349967e-15
	-1.131300109170830e-18
	-1.408704488603987e-14
	4.172869452649698e-06
	5.470452562152976e-04
	7.317103068192378e-05
	2.816940621777362e-01

 74	7.400000000000004e-01
	-2.680920396972883e-15
	-1.156148253581376e-18
	-1.414088806143453e-14
	4.373013918680210e-06
	5.799694288967618e-04
	7.880419622714089e-05
	2.816946547961651e-01

 75	7.500000000000004e-01
	-2.675290743669642e-15
	-1.181469686351700e-18
	-1.419345347125073e-14
	4.579443756259742e-06
	6.138647250367375e-04
	8.477137327859272e-05
	2.816952857102529e-01

 76	7.600000000000005e-01
	-2.670101460868634e-15
	-1.207272789182777e-18
	-1.424475824924793e-14
	4.792168458670871e-06
	6.486731869429398e-04
	9.108197666862142e-05
	2.816959561812409e-01

 77	7.700000000000005e-01
	-2.665341327796731e-15
	-1.233566118458996e-18
	-1.429481986598114e-14
	5.011188640865684e-06
	6.843308502405210e-04
	9.774481081996907e-05
	2.816966673985816e-01

 78	7.800000000000005e-01
	-2.660999230291156e-15
	-1.260358409624975e-18
	-1.434365609290685e-14
	5.236496162983343e-06
	7.207682046400662e-04
	1.047680119761965e-04
	2.816974204711401e-01

 79	7.900000000000005e-01
	-2.657064169946204e-15
	-1.287658581662995e-18
	-1.439128496767365e-14
	5.468074310734852e-06
	7.579107286457980e-04
	1.121589954233028e-04
	2.816982164190493e-01

 80	8.000000000000005e-01
	-2.653525272607676e-15
	-1.315475741674512e-18
	-1.443772476061908e-14
	5.705898031046538e-06
	7.956794900280263e-04
	1.199244084015182e-04
	2.816990561663045e-01

 81	8.100000000000005e-01
	-2.650371796229689e-15
	-1.343819189568662e-18
	-1.448299394248913e-14
	5.949934220689930e-06
	8.339918024982116e-04
	1.280700893171648e-04
	2.816999405342606e-01

 82	8.200000000000005e-01
	-2.647593138109187e-15
	-1.372698422860847e-18
	-1.452711115339248e-14
	6.200142065005644e-06
	8.727619278853400e-04
	1.366010337628010e-04
	2.817008702360748e-01

 83	8.300000000000005e-01
	-2.645178841515087e-15
	-1.402123141585840e-18
	-1.457009517299634e-14
	6.456473423260549e-06
	9.119018122515425e-04
	1.455213677421470e-04
	2.817018458722079e-01

 84	8.400000000000005e-01
	-2.643118601729469e-15
	-1.432103253328235e-18
	-1.461196489196708e-14
	6.718873256676548e-06
	9.513218438265533e-04
	1.548343283775520e-04
	2.817028679270067e-01

 85	8.500000000000005e-01
	-2.641402271519337e-15
	-1.462648878375074e-18
	-1.465273928465448e-14
	6.987280094739107e-06
	9.909316203955360e-04
	1.645422522549632e-04
	2.817039367664249e-01

 86	8.600000000000005e-01
	-2.640019866058084e-15
	-1.493770354993893e-18
	-1.469243738301457e-14
	7.261626535046365e-06
	1.030640713843908e-03
	1.746465714378033e-04
	2.817050526369014e-01

 87	8.700000000000006e-01
	-2.638961567315990e-15
	-1.525478244841494e-18
	-1.473107825176308e-14
	7.541839771696059e-06
	1.070359419934534e-03
	1.851478170598385e-04
	2.817062156653361e-01

 88	8.800000000000006e-01
	-2.638217727940088e-15
	-1.557783338507271e-18
	-1.476868096474749e-14
	7.827842147029143e-06
	1.109999482045318e-03
	1.960456302909271e-04
	2.817074258602114e-01

 89	8.900000000000006e-01
	-2.637778874643525e-15
	-1.590696661196100e-18
	-1.480526458252336e-14
	8.119551721459585e-06
	1.149474778499217e-03
	2.073387803612911e-04
	2.817086831137532e-01

 90	9.000000000000006e-01
	-2.637635711124909e-15
	-1.624229478555742e-18
	-1.484084813111749e-14
	8.416882856112657e-06
	1.188701964235367e-03
	2.190251892318093e-04
	2.817099872050786e-01

 91	9.100000000000006e-01
	-2.637779120538493e-15
	-1.658393302653625e-18
	-1.487545058195786e-14
	8.719746803066690e-06
	1.227601058856387e-03
	2.311019624117595e-04
	2.817113378042788e-01

 92	9.200000000000006e-01
	-2.638200167535658e-15
	-1.693199898108590e-18
	-1.490909083294849e-14
	9.028052298140937e-06
	1.266095974496855e-03
	2.435654253529692e-04
	2.817127344773225e-01

 93	9.300000000000006e-01
	-2.638890099898388e-15
	-1.728661288382485e-18
	-1.494178769066459e-14
	9.341706151385620e-06
	1.304114978442979e-03
	2.564111647913371e-04
	2.817141766916814e-01

 94	9.400000000000006e-01
	-2.639840349785121e-15
	-1.764789762237708e-18
	-1.497355985364240e-14
	9.660613830702056e-06
	1.341591086946976e-03
	2.696340743637503e-04
	2.817156638225855e-01

 95	9.500000000000006e-01
	-2.641042534609439e-15
	-1.801597880366156e-18
	-1.500442589673559e-14
	9.984680034342840e-06
	1.378462388176978e-03
	2.832284038005862e-04
	2.817171951597892e-01

 96	9.600000000000006e-01
	-2.642488457571386e-15
	-1.839098482195074e-18
	-1.503440425650950e-14
	1.031380924840318e-05
	1.414672293683762e-03
	2.971878109808440e-04
	2.817187699147446e-01

 97	9.700000000000006e-01
	-2.644170107861181e-15
	-1.877304692876763e-18
	-1.506351321764279e-14
	1.064790628580763e-05
	1.450169719114333e-03
	3.115054161377934e-04
	2.817203872280644e-01

 98	9.800000000000006e-01
	-2.646079660554726e-15
	-1.916229930466982e-18
	-1.509177090030544e-14
	1.098687680370986e-05
	1.484909196129992e-03
	3.261738575167419e-04
	2.817220461771732e-01

 99	9.900000000000007e-01
	-2.648209476219678e-15
	-1.955887913299657e-18
	-1.511919524848077e-14
	1.133062779665001e-05
	1.518850918570592e-03
	3.411853478117903e-04
	2.817237457840501e-01

 100	1.000000000000001e+00
	-2.650552100250651e-15
	-1.996292667563278e-18
	-1.514580401919919e-14
	1.167906806324500e-05
	1.551960726831750e-03
	3.565317307437625e-04
	2.817254850229625e-01

 101	1.010000000000001e+00
	-2.653100261951450e-15
	-2.037458535086077e-18
	-1.517161477265039e-14
