Title: ** sch_path: /home/andylithia/openmpw/project-yatsuhashi-chip1/xschem/gmid_test/nmos_test.sch
Date: Sun Jul 17 22:51:45  2022
Plotname: DC transfer characteristic
Flags: real
No. Variables: 8
No. Points: 181
Variables:
	0	v(v-sweep)	voltage
	1	@m.xm1.msky130_fd_pr__nfet_01v8[cgb]	capacitance
	2	@m.xm1.msky130_fd_pr__nfet_01v8[cgd]	capacitance
	3	@m.xm1.msky130_fd_pr__nfet_01v8[cgs]	capacitance
	4	@m.xm1.msky130_fd_pr__nfet_01v8[gds]	admittance
	5	@m.xm1.msky130_fd_pr__nfet_01v8[gm]	admittance
	6	i(@m.xm1.msky130_fd_pr__nfet_01v8[id])	current
	7	v(@m.xm1.msky130_fd_pr__nfet_01v8[vth])	voltage
Values:
 0	0.000000000000000e+00
	-1.049120334488805e-14
	-4.932495829459843e-18
	-1.978441143795132e-14
	2.599266064057195e-08
	8.581550236286945e-07
	1.077017163626461e-07
	1.936407503508014e-01

 1	1.000000000000000e-02
	-1.037583424325217e-14
	-5.067242382980207e-18
	-2.005704194687053e-14
	2.804410535408957e-08
	9.291019525003698e-07
	1.166332357216216e-07
	1.936407514193822e-01

 2	2.000000000000000e-02
	-1.026193551922351e-14
	-5.205755700219348e-18
	-2.032929703952320e-14
	3.024917581121989e-08
	1.006012060403456e-06
	1.263036202024639e-07
	1.936407525763698e-01

 3	3.000000000000000e-02
	-1.014953088022495e-14
	-5.348145375908417e-18
	-2.060108082868142e-14
	3.261849860273233e-08
	1.089412480319916e-06
	1.367750970615552e-07
	1.936407538292101e-01

 4	4.000000000000000e-02
	-1.003864328898596e-14
	-5.494524438850446e-18
	-2.087229802046814e-14
	3.516334855365629e-08
	1.179880914867356e-06
	1.481154135821157e-07
	1.936407551860079e-01

 5	5.000000000000000e-02
	-9.929294921284981e-15
	-5.645009471468315e-18
	-2.114285403413226e-14
	3.789568043085809e-08
	1.278050851719859e-06
	1.603983684158476e-07
	1.936407566555958e-01

 6	6.000000000000000e-02
	-9.821507125838551e-15
	-5.799720734000444e-18
	-2.141265511997647e-14
	4.082816157634120e-08
	1.384617316967562e-06
	1.737043977286677e-07
	1.936407582476004e-01

 7	7.000000000000001e-02
	-9.715300386418667e-15
	-5.958782293545394e-18
	-2.168160847514093e-14
	4.397420545059832e-08
	1.500343214962030e-06
	1.881212217701711e-07
	1.936407599725183e-01

 8	8.000000000000000e-02
	-9.610694286272388e-15
	-6.122322158163043e-18
	-2.194962235695412e-14
	4.734800606768707e-08
	1.626066305973619e-06
	2.037445579859103e-07
	1.936407618418043e-01

 9	9.000000000000000e-02
	-9.507707474909277e-15
	-6.290472416252131e-18
	-2.221660619357370e-14
	5.096457330110188e-08
	1.762706875636361e-06
	2.206789073182169e-07
	1.936407638679689e-01

 10	9.999999999999999e-02
	-9.406357637314516e-15
	-6.463369381434465e-18
	-2.248247069165015e-14
	5.483976903699826e-08
	1.911276152610488e-06
	2.390384208934645e-07
	1.936407660646693e-01

 11	1.100000000000000e-01
	-9.306661465637208e-15
	-6.641153743183516e-18
	-2.274712794075686e-14
	5.899034414892370e-08
	2.072885533079098e-06
	2.589478548690934e-07
	1.936407684468371e-01

 12	1.200000000000000e-01
	-9.208634633394198e-15
	-6.823970723452399e-18
	-2.301049151434637e-14
	6.343397626595668e-08
	2.248756672530336e-06
	2.805436218094221e-07
	1.936407710308005e-01

 13	1.300000000000000e-01
	-9.112291772221941e-15
	-7.011970239560989e-18
	-2.327247656700355e-14
	6.818930830401264e-08
	2.440232506663693e-06
	3.039749475710087e-07
	1.936407738344215e-01

 14	1.400000000000000e-01
	-9.017646451199354e-15
	-7.205307073622180e-18
	-2.353299992778320e-14
	7.327598772815590e-08
	2.648789264094977e-06
	3.294051433014008e-07
	1.936407768772422e-01

 15	1.500000000000000e-01
	-8.924711158756382e-15
	-7.404141048792947e-18
	-2.379198018943399e-14
	7.871470651196235e-08
	2.876049533700147e-06
	3.570130027831258e-07
	1.936407801806698e-01

 16	1.600000000000000e-01
	-8.833497287174034e-15
	-7.608637212656886e-18
	-2.404933779332858e-14
	8.452724175844949e-08
	3.123796448808792e-06
	3.869943359808428e-07
	1.936407837681395e-01

 17	1.700000000000000e-01
	-8.744015119672852e-15
	-7.818966028053231e-18
	-2.430499510993467e-14
	9.073649694572259e-08
	3.393989048888736e-06
	4.195636502643457e-07
	1.936407876653259e-01

 18	1.800000000000000e-01
	-8.656273820078668e-15
	-8.035303571686579e-18
	-2.455887651468036e-14
	9.736654375939878e-08
	3.688778876709958e-06
	4.549559913742803e-07
	1.936407919003691e-01

 19	1.900000000000000e-01
	-8.570281425045430e-15
	-8.257831740867795e-18
	-2.481090845908523e-14
	1.044426644730322e-07
	4.010527865073626e-06
	4.934289567587627e-07
	1.936407965041047e-01

 20	2.000000000000000e-01
	-8.486044838807295e-15
	-8.486738468749511e-18
	-2.506101953704549e-14
	1.119913948371558e-07
	4.361827561871665e-06
	5.352648944243036e-07
	1.936408015103323e-01

 21	2.100000000000000e-01
	-8.403569830424278e-15
	-8.722217948443686e-18
	-2.530914054617993e-14
	1.200405674373067e-07
	4.745519735328645e-06
	5.807733008988494e-07
	1.936408069561027e-01

 22	2.200000000000001e-01
	-8.322861033477337e-15
	-8.964470866420489e-18
	-2.555520454416300e-14
	1.286193554814336e-07
	5.164718392585666e-06
	6.302934322811178e-07
	1.936408128820331e-01

 23	2.300000000000001e-01
	-8.243921948162665e-15
	-9.213704645614210e-18
	-2.579914689998760e-14
	1.377583169774643e-07
	5.622833234129476e-06
	6.841971426301208e-07
	1.936408193326449e-01

 24	2.400000000000001e-01
	-8.166754945726813e-15
	-9.470133698678173e-18
	-2.604090534012017e-14
	1.474894392626016e-07
	6.123594553764017e-06
	7.428919641113665e-07
	1.936408263567249e-01

 25	2.500000000000001e-01
	-8.091361275178780e-15
	-9.733979691852621e-18
	-2.628041998952633e-14
	1.578461838470715e-07
	6.671079578681819e-06
	8.068244433389876e-07
	1.936408340077460e-01

 26	2.600000000000001e-01
	-8.017741072208165e-15
	-1.000547181993711e-17
	-2.651763340756605e-14
	1.688635315368274e-07
	7.269740226549689e-06
	8.764837482125268e-07
	1.936408423442726e-01

 27	2.700000000000001e-01
	-7.945893370233490e-15
	-1.028484709287556e-17
	-2.675249061877052e-14
	1.805780278017912e-07
	7.924432236206985e-06
	9.524055592157992e-07
	1.936408514304517e-01

 28	2.800000000000001e-01
	-7.875816113498911e-15
	-1.057235063449616e-17
	-2.698493913853383e-14
	1.930278283591998e-07
	8.640445605460849e-06
	1.035176258598203e-06
	1.936408613364980e-01

 29	2.900000000000001e-01
	-7.807506172133458e-15
	-1.086823599396856e-17
	-2.721492899376514e-14
	2.062527449451002e-07
	9.423536243419706e-06
	1.125437430064695e-06
	1.936408721392387e-01

 30	3.000000000000001e-01
	-7.740959359082095e-15
	-1.117276547057092e-17
	-2.744241273856458e-14
	2.202942912514127e-07
	1.027995871577121e-05
	1.223890680531872e-06
	1.936408839226913e-01

 31	3.100000000000001e-01
	-7.676170448814366e-15
	-1.148621045239191e-17
	-2.766734546500027e-14
	2.351957290113942e-07
	1.121649992933952e-05
	1.331302794132947e-06
	1.936408967786891e-01

 32	3.200000000000001e-01
	-7.613133197712877e-15
	-1.180885176962140e-17
	-2.788968480907892e-14
	2.510021142227295e-07
	1.224051356717180e-05
	1.448511226943940e-06
	1.936409108075224e-01

 33	3.300000000000001e-01
	-7.551840366041709e-15
	-1.214098006311570e-17
	-2.810939095201319e-14
	2.677603435052409e-07
	1.335995504737835e-05
	1.576429948826505e-06
	1.936409261186547e-01

 34	3.400000000000001e-01
	-7.492283741391579e-15
	-1.248289616896130e-17
	-2.832642661690509e-14
	2.855192005995171e-07
	1.458341673815273e-05
	1.716055636312742e-06
	1.936409428314629e-01

 35	3.500000000000001e-01
	-7.434454163497600e-15
	-1.283491151979717e-17
	-2.854075706097333e-14
	3.043294030238008e-07
	1.592016311804713e-05
	1.868474217565029e-06
	1.936409610760078e-01

 36	3.600000000000002e-01
	-7.378341550324032e-15
	-1.319734856368993e-17
	-2.875235006346420e-14
	3.242436489195028e-07
	1.738016552501413e-05
	2.034867767106554e-06
	1.936409809938824e-01

 37	3.700000000000002e-01
	-7.323934925309039e-15
	-1.357054120140499e-17
	-2.896117590939628e-14
	3.453166641313426e-07
	1.897413609039395e-05
	2.216521744217286e-06
	1.936410027390606e-01

 38	3.800000000000002e-01
	-7.271222445663073e-15
	-1.395483524295166e-17
	-2.916720736929600e-14
	3.676052495861890e-07
	2.071356040544567e-05
	2.414832564606355e-06
	1.936410264788206e-01

 39	3.900000000000002e-01
	-7.220191431613509e-15
	-1.435058888433236e-17
	-2.937041967509140e-14
	3.911683290562954e-07
	2.261072841890544e-05
	2.631315490201863e-06
	1.936410523946759e-01

 40	4.000000000000002e-01
	-7.170828396489826e-15
	-1.475817320546847e-17
	-2.957079049233553e-14
	4.160669974175647e-07
	2.467876301515428e-05
	2.867612816635098e-06
	1.936410806833694e-01

 41	4.100000000000002e-01
	-7.123119077543436e-15
	-1.517797269033009e-17
	-2.976829988893979e-14
	4.423645695429687e-07
	2.693164567487116e-05
	3.125502332250980e-06
	1.936411115578812e-01

 42	4.200000000000002e-01
	-7.077048467398377e-15
	-1.561038577034762e-17
	-2.996293030060020e-14
	4.701266300052212e-07
	2.938423857455705e-05
	3.406906016262022e-06
	1.936411452484722e-01

 43	4.300000000000002e-01
	-7.032600846030767e-15
	-1.605582539223965e-17
	-3.015466649310436e-14
	4.994210838025082e-07
	3.205230243926348e-05
	3.713898937011178e-06
	1.936411820037537e-01

 44	4.400000000000002e-01
	-6.989759813175980e-15
	-1.651471961145273e-17
	-3.034349552171097e-14
	5.303182083667920e-07
	3.495250942555000e-05
	4.048718304258360e-06
	1.936412220917645e-01

 45	4.500000000000002e-01
	-6.948508321066699e-15
	-1.698751221246640e-17
	-3.052940668779374e-14
	5.628907071669882e-07
	3.810245028056073e-05
	4.413772622011350e-06
	1.936412658010802e-01

 46	4.600000000000002e-01
	-6.908828707405269e-15
	-1.747466335728922e-17
	-3.071239149294583e-14
	5.972137652799273e-07
	4.152063499967960e-05
	4.811650880754355e-06
	1.936413134419049e-01

 47	4.700000000000003e-01
	-6.870702728479112e-15
	-1.797665026353485e-17
	-3.089244359073852e-14
	6.333651073713506e-07
	4.522648619108201e-05
	5.245131720069734e-06
	1.936413653471714e-01

 48	4.800000000000003e-01
	-6.834111592329229e-15
	-1.849396791354525e-17
	-3.106955873632961e-14
	6.714250586083327e-07
	4.924032435229938e-05
	5.717192484704048e-06
	1.936414218736277e-01

 49	4.900000000000003e-01
	-6.799035991886159e-15
	-1.902712979609890e-17
	-3.124373473411545e-14
	7.114766091144138e-07
	5.358334427327968e-05
	6.231018089214038e-06
	1.936414834028989e-01

 50	5.000000000000002e-01
	-6.765456137991049e-15
	-1.957666868233483e-17
	-3.141497138361796e-14
	7.536054826806624e-07
	5.827758180398307e-05
	6.790009598577308e-06
	1.936415503425125e-01

 51	5.100000000000002e-01
	-6.733351792223285e-15
	-2.014313743759455e-17
	-3.158327042379689e-14
	7.979002105607226e-07
	6.334587026379782e-05
	7.397792424713893e-06
	1.936416231268772e-01

 52	5.200000000000002e-01
	-6.702702299459676e-15
	-2.072710987098569e-17
	-3.174863547597322e-14
	8.444522113072364e-07
	6.881178582638860e-05
	8.058224031904368e-06
	1.936417022182166e-01

 53	5.300000000000002e-01
	-6.673486620094536e-15
	-2.132918162456602e-17
	-3.191107198554707e-14
	8.933558777519678e-07
	7.469958128817878e-05
	8.775401037785925e-06
	1.936417881073970e-01

 54	5.400000000000003e-01
	-6.645683361853687e-15
	-2.194997110413596e-17
	-3.207058716268835e-14
	9.447086723934828e-07
	8.103410772238304e-05
	9.553665591140286e-06
	1.936418813147095e-01

 55	5.500000000000003e-01
	-6.619270811139820e-15
	-2.259012045375477e-17
	-3.222718992217409e-14
	9.986112326366108e-07
	8.784072363401493e-05
	1.039761090326503e-05
	1.936419823905172e-01

 56	5.600000000000003e-01
	-6.594226963850319e-15
	-2.325029657618399e-17
	-3.238089082254157e-14
	1.055167487527310e-06
	9.514519136466357e-05
	1.131208580652464e-05
	1.936420919158039e-01

 57	5.700000000000003e-01
	-6.570529555613154e-15
	-2.393119220160248e-17
	-3.253170200472032e-14
	1.114484787847583e-06
	1.029735606488877e-04
	1.230219821192318e-05
	1.936422105025834e-01

 58	5.800000000000003e-01
	-6.548156091390557e-15
	-2.463352700704326e-17
	-3.267963713030023e-14
	1.176674051678362e-06
	1.113520393959464e-04
	1.337331733740941e-05
	1.936423387941631e-01

 59	5.900000000000003e-01
	-6.527083874403871e-15
	-2.535804878915182e-17
	-3.282471131958737e-14
	1.241849927805901e-06
	1.203068519599390e-04
	1.453107458030460e-05
	1.936424774652429e-01

 60	6.000000000000003e-01
	-6.507290034337466e-15
	-2.610553469299073e-17
	-3.296694108959201e-14
	1.310130979640547e-06
	1.298640853662938e-04
	1.578136291089861e-05
	1.936426272218325e-01

 61	6.100000000000003e-01
	-6.488751554783594e-15
	-2.687679249976754e-17
	-3.310634429208685e-14
	1.381639892637560e-06
	1.400495241802824e-04
	1.713033467002856e-05
	1.936427888009955e-01

 62	6.200000000000003e-01
	-6.471445299893319e-15
	-2.767266197652127e-17
	-3.324294005186728e-14
	1.456503708560057e-06
	1.508884749306907e-04
	1.858439766146126e-05
	1.936429629703706e-01

 63	6.300000000000003e-01
	-6.455348040203232e-15
	-2.849401629096396e-17
	-3.337674870533770e-14
	1.534854090305877e-06
	1.624055812349697e-04
	2.015020944020736e-05
	1.936431505274771e-01

 64	6.400000000000003e-01
	-6.440436477611108e-15
	-2.934176349484320e-17
	-3.350779173954112e-14
	1.616827621435739e-06
	1.746246310067862e-04
	2.183466971055058e-05
	1.936433522988137e-01

 65	6.500000000000004e-01
	-6.426687269476685e-15
	-3.021684807937826e-17
	-3.363609173174303e-14
	1.702566144992754e-06
	1.875683573579069e-04
	2.364491076256975e-05
	1.936435691386903e-01

 66	6.600000000000004e-01
	-6.414077051828426e-15
	-3.112025260651329e-17
	-3.376167228967167e-14
	1.792217146694833e-06
	2.012582350282967e-04
	2.558828589318075e-05
	1.936438019278582e-01

 67	6.700000000000004e-01
	-6.402582461658825e-15
	-3.205299941993670e-17
	-3.388455799251219e-14
	1.885934188117956e-06
	2.157142743856911e-04
	2.767235577715007e-05
	1.936440515718585e-01

 68	6.800000000000004e-01
	-6.392180158295692e-15
	-3.301615244002100e-17
	-3.400477433274244e-14
	1.983877396071342e-06
	2.309548152225666e-04
	2.990487277490538e-05
	1.936443189991552e-01

 69	6.900000000000004e-01
	-6.382846843838230e-15
	-3.401081904708021e-17
	-3.412234765889413e-14
	2.086214015003513e-06
	2.469963227387650e-04
	3.229376318710730e-05
	1.936446051589999e-01

 70	7.000000000000004e-01
	-6.374559282651003e-15
	-3.503815205756322e-17
	-3.423730511931341e-14
	2.193119029975305e-06
	2.638531882260445e-04
	3.484710749050983e-05
	1.936449110190640e-01

 71	7.100000000000004e-01
	-6.367294319910786e-15
	-3.609935179806106e-17
	-3.434967460699042e-14
	2.304775868501492e-06
	2.815375370613340e-04
	3.757311861530669e-05
	1.936452375628549e-01

 72	7.200000000000004e-01
	-6.361028899203546e-15
	-3.719566828228130e-17
	-3.445948470552030e-14
	2.421377190406122e-06
	3.000590466635884e-04
	4.048011835052862e-05
	1.936455857868711e-01

 73	7.300000000000004e-01
	-6.355740079172549e-15
	-3.832840349639865e-17
	-3.456676463625042e-14
	2.543125775768533e-06
	3.194247770706997e-04
	4.357651199065764e-05
	1.936459566975836e-01

 74	7.400000000000004e-01
	-6.351405049219101e-15
	-3.949891379851529e-17
	-3.467154420666476e-14
	2.670235522072601e-06
	3.396390167449508e-04
	4.687076136300734e-05
	1.936463513082081e-01

 75	7.500000000000004e-01
	-6.348001144260723e-15
	-4.070861243825574e-17
	-3.477385376004853e-14
	2.802932562826588e-06
	3.607031461158547e-04
	5.037135640105688e-05
	1.936467706353056e-01

 76	7.600000000000005e-01
	-6.345505858552804e-15
	-4.195897220285907e-17
	-3.487372412647128e-14
	2.941456521214584e-06
	3.826155212170678e-04
	5.408678545329154e-05
	1.936472156952336e-01

 77	7.700000000000005e-01
	-6.343896858581896e-15
	-4.325152819647297e-17
	-3.497118657512088e-14
	3.086061913797047e-06
	4.053713795700985e-04
	5.802550453969511e-05
	1.936476875004712e-01

 78	7.800000000000005e-01
	-6.343151995039947e-15
	-4.458788075972519e-17
	-3.506627276801600e-14
	3.237019720924037e-06
	4.289627702135759e-04
	6.219590578832562e-05
	1.936481870558420e-01

 79	7.900000000000005e-01
	-6.343249313890824e-15
	-4.596969853702599e-17
	-3.515901471511840e-14
	3.394619142392971e-06
	4.533785094763470e-04
	6.660628530191049e-05
	1.936487153546840e-01

 80	8.000000000000005e-01
	-6.344167066540716e-15
	-4.739872169946760e-17
	-3.524944473086395e-14
	3.559169559011509e-06
	4.786041637504645e-04
	7.126481071868756e-05
	1.936492733749519e-01

 81	8.100000000000005e-01
	-6.345883719126607e-15
	-4.887676533159582e-17
	-3.533759539212322e-14
	3.731002723158804e-06
	5.046220601421730e-04
	7.617948874238100e-05
	1.936498620753564e-01

 82	8.200000000000005e-01
	-6.348377960936165e-15
	-5.040572299080416e-17
	-3.542349949760206e-14
	3.910475204228032e-06
	5.314113254727150e-04
	8.135813292294923e-05
	1.936504823914898e-01

 83	8.300000000000005e-01
	-6.351628711975009e-15
	-5.198757044854308e-17
	-3.550719002868523e-14
	4.097971118038767e-06
	5.589479536742118e-04
	8.680833197229610e-05
	1.936511352320483e-01

 84	8.400000000000005e-01
	-6.355615129696594e-15
	-5.362436962304631e-17
	-3.558870011172457e-14
	4.293905173001030e-06
	5.872049011881413e-04
	9.253741889737376e-05
	1.936518214751306e-01

 85	8.500000000000005e-01
	-6.360316614911185e-15
	-5.531827271379243e-17
	-3.566806298176830e-14
	4.498726070074329e-06
	6.161522095343542e-04
	9.855244122693281e-05
	1.936525419646723e-01

 86	8.600000000000005e-01
	-6.365712816891182e-15
	-5.707152654846447e-17
	-3.574531194772486e-14
	4.712920298490743e-06
	6.457571537868100e-04
	1.048601325976420e-04
	1.936532975070495e-01

 87	8.700000000000006e-01
	-6.371783637689057e-15
	-5.888647715373091e-17
	-3.582048035895251e-14
	4.937016374911075e-06
	6.759844152777807e-04
	1.114668859505287e-04
	1.936540888678504e-01

 88	8.800000000000006e-01
	-6.378509235685982e-15
	-6.076557456178054e-17
	-3.589360157326156e-14
	5.171589580286151e-06
	7.067962764641275e-04
	1.183787285698887e-04
	1.936549167688989e-01

 89	8.900000000000006e-01
	-6.385870028388192e-15
	-6.271137786515598e-17
	-3.596470892631435e-14
	5.417267256351633e-06
	7.381528355358771e-04
	1.256012991743178e-04
	1.936557818854965e-01

 90	9.000000000000006e-01
	-6.393846694488409e-15
	-6.472656053308881e-17
	-3.603383570240517e-14
	5.674734732567596e-06
	7.700122380359019e-04
	1.331398272436741e-04
	1.936566848439454e-01

 91	9.100000000000006e-01
	-6.402420175209613e-15
	-6.681391600321378e-17
	-3.610101510660057e-14
	5.944741964628388e-06
	8.023309224962474e-04
	1.409991147370827e-04
	1.936576262193443e-01

 92	9.200000000000006e-01
	-6.411571674948440e-15
	-6.897636356324872e-17
	-3.616628023821709e-14
	6.228110977648239e-06
	8.350638768860875e-04
	1.491835203259970e-04
	1.936586065337091e-01

 93	9.300000000000006e-01
	-6.421282661234377e-15
	-7.121695453795971e-17
	-3.622966406561330e-14
	6.525744221053593e-06
	8.681649025118437e-04
	1.576969462334648e-04
	1.936596262543741e-01

 94	9.400000000000006e-01
	-6.431534864021766e-15
	-7.353887879749836e-17
	-3.629119940226945e-14
	6.838633958401692e-06
	9.015868819126689e-04
	1.665428277365676e-04
	1.936606857927428e-01

 95	9.500000000000006e-01
	-6.442310274329740e-15
	-7.594547160399297e-17
	-3.635091888412814e-14
	7.167872834175947e-06
	9.352820472545420e-04
	1.757241253541891e-04
	1.936617855033398e-01

 96	9.600000000000006e-01
	-6.453591142245944e-15
	-7.844022081408305e-17
	-3.640885494816633e-14
	7.514665781516492e-06
	9.692022457414860e-04
	1.852433197073241e-04
	1.936629256831876e-01

 97	9.700000000000006e-01
	-6.465359974308686e-15
	-8.102677445594058e-17
	-3.646503981216877e-14
	7.880343460338245e-06
	1.003299198629524e-03
	1.951024090046047e-04
	1.936641065715142e-01

 98	9.800000000000006e-01
	-6.477599530280963e-15
	-8.370894870019879e-17
	-3.651950545567201e-14
	8.266377444959490e-06
	1.037524750543319e-03
	2.053029090721426e-04
	1.936653283497460e-01

 99	9.900000000000007e-01
	-6.490292819330365e-15
	-8.649073624508861e-17
	-3.657228360204581e-14
	8.674397414892402e-06
	1.071831105950511e-03
	2.158458558145261e-04
	1.936665911418035e-01

 100	1.000000000000001e+00
	-6.503423095626735e-15
	-8.937631513701049e-17
	-3.662340570167956e-14
	9.106210642620212e-06
	1.106171049837719e-03
	2.267318099633095e-04
	1.936678950146656e-01

 101	1.010000000000001e+00
	-6.516973853369712e-15
	-9.237005804869176e-17
	-3.667290291623858e-14
