Title: ** sch_path: /home/andylithia/openmpw/project-yatsuhashi-chip1/xschem/gmid_test/nmos_test.sch
Date: Tue Jul 19 23:15:45  2022
Plotname: DC transfer characteristic
Flags: real
No. Variables: 8
No. Points: 181
Variables:
	0	v(v-sweep)	voltage
	1	@m.xm1.msky130_fd_pr__nfet_01v8[cgb]	capacitance
	2	@m.xm1.msky130_fd_pr__nfet_01v8[cgd]	capacitance
	3	@m.xm1.msky130_fd_pr__nfet_01v8[cgs]	capacitance
	4	@m.xm1.msky130_fd_pr__nfet_01v8[gds]	admittance
	5	@m.xm1.msky130_fd_pr__nfet_01v8[gm]	admittance
	6	i(@m.xm1.msky130_fd_pr__nfet_01v8[id])	current
	7	v(@m.xm1.msky130_fd_pr__nfet_01v8[vth])	voltage
Values:
 0	0.000000000000000e+00
	-9.169658173301519e-15
	-5.337066123674580e-19
	-1.552346986714252e-14
	1.093847960528966e-08
	4.647367761429517e-07
	5.413619125230055e-08
	2.215214652123612e-01

 1	1.000000000000000e-02
	-9.064569785490225e-15
	-5.473308137075229e-19
	-1.576839561113496e-14
	1.188474768590783e-08
	5.058651944074731e-07
	5.898630047675868e-08
	2.215214656339603e-01

 2	2.000000000000000e-02
	-8.960622556969170e-15
	-5.612717000061602e-19
	-1.601339683579439e-14
	1.290892564481221e-08
	5.506287972428166e-07
	6.426560719519822e-08
	2.215214660930947e-01

 3	3.000000000000000e-02
	-8.857844229423887e-15
	-5.755355000958825e-19
	-1.625837313944636e-14
	1.401695513646189e-08
	5.993575415504624e-07
	7.001208762768227e-08
	2.215214665931188e-01

 4	4.000000000000000e-02
	-8.756261930141479e-15
	-5.901285392433220e-19
	-1.650322423817607e-14
	1.521517733911942e-08
	6.524134284333700e-07
	7.626717509336666e-08
	2.215214671377093e-01

 5	5.000000000000000e-02
	-8.655902115991246e-15
	-6.050572406591045e-19
	-1.674785011622509e-14
	1.651035413433026e-08
	7.101939017740810e-07
	8.307609714686149e-08
	2.215214677308788e-01

 6	6.000000000000000e-02
	-8.556790519546866e-15
	-6.203281270643194e-19
	-1.699215117542735e-14
	1.790968984702579e-08
	7.731356218593074e-07
	9.048824854505156e-08
	2.215214683770221e-01

 7	7.000000000000001e-02
	-8.458952097495668e-15
	-6.359478223156596e-19
	-1.723602838323640e-14
	1.942085350622012e-08
	8.417186517263315e-07
	9.855760398108851e-08
	2.215214690809532e-01

 8	8.000000000000000e-02
	-8.362410981472156e-15
	-6.519230530914551e-19
	-1.747938341890009e-14
	2.105200158018915e-08
	9.164710964130151e-07
	1.073431749115749e-07
	2.215214698479407e-01

 9	9.000000000000000e-02
	-8.267190431442648e-15
	-6.682606506407333e-19
	-1.772211881734769e-14
	2.281180113373007e-08
	9.979742376924478e-07
	1.169095152168691e-07
	2.215214706837672e-01

 10	9.999999999999999e-02
	-8.173312791757443e-15
	-6.849675525976926e-19
	-1.796413811036744e-14
	2.470945334862336e-08
	1.086868209096929e-06
	1.273272808715807e-07
	2.215214715947734e-01

 11	1.100000000000000e-01
	-8.080799449976121e-15
	-7.020508048636610e-19
	-1.820534596466317e-14
	2.675471734175599e-08
	1.183858258002823e-06
	1.386738492603866e-07
	2.215214725879247e-01

 12	1.200000000000000e-01
	-7.989670798559617e-15
	-7.195175635586705e-19
	-1.844564831639569e-14
	2.895793420857342e-08
	1.289721643167268e-06
	1.510340042504743e-07
	2.215214736708683e-01

 13	1.300000000000000e-01
	-7.899946199511253e-15
	-7.373750970452269e-19
	-1.868495250183034e-14
	3.133005121260145e-08
	1.405315217273357e-06
	1.645006936220164e-07
	2.215214748520160e-01

 14	1.400000000000000e-01
	-7.811643952035914e-15
	-7.556307880260220e-19
	-1.892316738373228e-14
	3.388264603477306e-08
	1.531583744635677e-06
	1.791758659571807e-07
	2.215214761406188e-01

 15	1.500000000000000e-01
	-7.724781263274913e-15
	-7.742921357183443e-19
	-1.916020347317000e-14
	3.662795098919213e-08
	1.669569004110339e-06
	1.951713945897056e-07
	2.215214775468570e-01

 16	1.600000000000000e-01
	-7.639374222160455e-15
	-7.933667581069694e-19
	-1.939597304641083e-14
	3.957887710485407e-08
	1.820419726300437e-06
	2.126100967135401e-07
	2.215214790819476e-01

 17	1.700000000000000e-01
	-7.555437776421433e-15
	-8.128623942780760e-19
	-1.963039025661490e-14
	4.274903796567065e-08
	1.985402412191195e-06
	2.316268562310028e-07
	2.215214807582472e-01

 18	1.800000000000000e-01
	-7.472985712759387e-15
	-8.327869068363100e-19
	-1.986337124005825e-14
	4.615277319400459e-08
	2.165913077221780e-06
	2.523698593776142e-07
	2.215214825893808e-01

 19	1.900000000000000e-01
	-7.392030640200268e-15
	-8.531482844072583e-19
	-2.009483421664254e-14
	4.980517145578736e-08
	2.363489960325314e-06
	2.750019525796226e-07
	2.215214845903688e-01

 20	2.000000000000000e-01
	-7.312583976616059e-15
	-8.739546442276288e-19
	-2.032469958447244e-14
	5.372209285820250e-08
	2.579827231458228e-06
	2.997021323666930e-07
	2.215214867777962e-01

 21	2.100000000000000e-01
	-7.234655938396661e-15
	-8.952142348252872e-19
	-2.055289000831323e-14
	5.792019060393525e-08
	2.816789723407862e-06
	3.266671774603922e-07
	2.215214891699608e-01

 22	2.200000000000001e-01
	-7.158255533241790e-15
	-9.169354387915992e-19
	-2.077933050176350e-14
	6.241693175905011e-08
	3.076428704016743e-06
	3.561134333701084e-07
	2.215214917870569e-01

 23	2.300000000000001e-01
	-7.083390556030214e-15
	-9.391267756481814e-19
	-2.100394850300885e-14
	6.723061698477338e-08
	3.360998693210311e-06
	3.882787599324340e-07
	2.215214946513969e-01

 24	2.400000000000001e-01
	-7.010067587712290e-15
	-9.617969048102481e-19
	-2.122667394405070e-14
	7.238039907686125e-08
	3.672975315182011e-06
	4.234246522057606e-07
	2.215214977876058e-01

 25	2.500000000000001e-01
	-6.938291997162169e-15
	-9.849546286493427e-19
	-2.144743931332876e-14
	7.788630014972655e-08
	4.015074159606519e-06
	4.618385449544869e-07
	2.215215012228904e-01

 26	2.600000000000001e-01
	-6.868067945914536e-15
	-1.008608895656978e-18
	-2.166617971168778e-14
	8.376922729636616e-08
	4.390270606688507e-06
	5.038363106031409e-07
	2.215215049872871e-01

 27	2.700000000000001e-01
	-6.799398395702413e-15
	-1.032768803712291e-18
	-2.188283290166231e-14
	9.005098654911245e-08
	4.801820549086703e-06
	5.497649599815048e-07
	2.215215091139643e-01

 28	2.800000000000001e-01
	-6.732285118703033e-15
	-1.057443603455452e-18
	-2.209733935008279e-14
	9.675429496071478e-08
	5.253281919226138e-06
	6.000055543920619e-07
	2.215215136395349e-01

 29	2.900000000000001e-01
	-6.666728710391107e-15
	-1.082642701769435e-18
	-2.230964226402999e-14
	1.039027906199952e-07
	5.748536903194590e-06
	6.549763364813038e-07
	2.215215186044084e-01

 30	3.000000000000001e-01
	-6.602728604890792e-15
	-1.108375665372661e-18
	-2.251968762019209e-14
	1.115210404116729e-07
	6.291814692366051e-06
	7.151360860602871e-07
	2.215215240531623e-01

 31	3.100000000000001e-01
	-6.540283092711915e-15
	-1.134652224524462e-18
	-2.272742418770012e-14
	1.196345453257820e-07
	6.887714591213851e-06
	7.809877053693361e-07
	2.215215300349513e-01

 32	3.200000000000001e-01
	-6.479389340749040e-15
	-1.161482276846496e-18
	-2.293280354454322e-14
	1.282697431187074e-07
	7.541229264677991e-06
	8.530820362924924e-07
	2.215215366039508e-01

 33	3.300000000000001e-01
	-6.420043414417800e-15
	-1.188875891261755e-18
	-2.313578008768465e-14
	1.374540081252442e-07
	8.257767871232354e-06
	9.320219096759436e-07
	2.215215438198274e-01

 34	3.400000000000001e-01
	-6.362240301798005e-15
	-1.216843312054393e-18
	-2.333631103702142e-14
	1.472156480194754e-07
	9.043178788867290e-06
	1.018466424172014e-06
	2.215215517482568e-01

 35	3.500000000000001e-01
	-6.305973939649398e-15
	-1.245394963052600e-18
	-2.353435643334955e-14
	1.575838973217907e-07
	9.903771601093262e-06
	1.113135448902204e-06
	2.215215604614540e-01

 36	3.600000000000002e-01
	-6.251237241164122e-15
	-1.274541451937064e-18
	-2.372987913051248e-14
	1.685889074502136e-07
	1.084633796942932e-05
	1.216814340699488e-06
	2.215215700387808e-01

 37	3.700000000000002e-01
	-6.198022125316128e-15
	-1.304293574677760e-18
	-2.392284478193057e-14
	1.802617331167540e-07
	1.187817097847492e-05
	1.330358862752501e-06
	2.215215805673389e-01

 38	3.800000000000002e-01
	-6.146319547668669e-15
	-1.334662320101821e-18
	-2.411322182171933e-14
	1.926343148736153e-07
	1.300708250047142e-05
	1.454700287135678e-06
	2.215215921426524e-01

 39	3.900000000000002e-01
	-6.096119532498673e-15
	-1.365658874595391e-18
	-2.430098144062121e-14
	2.057394576205880e-07
	1.424141808934370e-05
	1.590850658991995e-06
	2.215216048693416e-01

 40	4.000000000000002e-01
	-6.047411206097834e-15
	-1.397294626941656e-18
	-2.448609755698498e-14
	2.196108048935497e-07
	1.559006888072770e-05
	1.739908195062036e-06
	2.215216188618620e-01

 41	4.100000000000002e-01
	-6.000182831110943e-15
	-1.429581173298886e-18
	-2.466854678303769e-14
	2.342828087654299e-07
	1.706247994577998e-05
	1.903062783869739e-06
	2.215216342452553e-01

 42	4.200000000000002e-01
	-5.954421841773392e-15
	-1.462530322320738e-18
	-2.484830838670192e-14
	2.497906952053315e-07
	1.866865452402712e-05
	2.081601549233286e-06
	2.215216511559516e-01

 43	4.300000000000002e-01
	-5.910114879911573e-15
	-1.496154100422228e-18
	-2.502536424921890e-14
	2.661704247592050e-07
	2.041915354565198e-05
	2.276914432940454e-06
	2.215216697425736e-01

 44	4.400000000000002e-01
	-5.867247831573080e-15
	-1.530464757194401e-18
	-2.519969881884216e-14
	2.834586484367102e-07
	2.232508984795021e-05
	2.490499746493329e-06
	2.215216901667805e-01

 45	4.500000000000002e-01
	-5.825805864156031e-15
	-1.565474770971107e-18
	-2.537129906087148e-14
	3.016926587142416e-07
	2.439811649579078e-05
	2.723969635890605e-06
	2.215217126041219e-01

 46	4.600000000000002e-01
	-5.785773463910999e-15
	-1.601196854550852e-18
	-2.554015440429832e-14
	3.209103355934983e-07
	2.665040863325303e-05
	2.979055397588656e-06
	2.215217372448969e-01

 47	4.700000000000003e-01
	-5.747134473692596e-15
	-1.637643961077843e-18
	-2.570625668533579e-14
	3.411500876890525e-07
	2.909463832461119e-05
	3.257612578197089e-06
	2.215217642950135e-01

 48	4.800000000000003e-01
	-5.709872130842785e-15
	-1.674829290084686e-18
	-2.586960008810503e-14
	3.624507883570186e-07
	3.174394188872808e-05
	3.561625785262193e-06
	2.215217939768595e-01

 49	4.900000000000003e-01
	-5.673969105091615e-15
	-1.712766293702080e-18
	-2.603018108275003e-14
	3.848517069206231e-07
	3.461187929273956e-05
	3.893213131829015e-06
	2.215218265301125e-01

 50	5.000000000000002e-01
	-5.639407536367562e-15
	-1.751468683037006e-18
	-2.618799836124777e-14
	4.083924350968645e-07
	3.771238524934984e-05
	4.254630233507937e-06
	2.215218622125731e-01

 51	5.100000000000002e-01
	-5.606169072413663e-15
	-1.790950434726218e-18
	-2.634305277117945e-14
	4.331128087820856e-07
	4.105971175754175e-05
	4.648273673681921e-06
	2.215219013009018e-01

 52	5.200000000000002e-01
	-5.574234906111772e-15
	-1.831225797666000e-18
	-2.649534724772220e-14
	4.590528254123480e-07
	4.466836193888259e-05
	5.076683850434808e-06
	2.215219440913418e-01

 53	5.300000000000002e-01
	-5.543585812422839e-15
	-1.872309299924956e-18
	-2.664488674411485e-14
	4.862525571773922e-07
	4.855301515040188e-05
	5.542547117938295e-06
	2.215219909003388e-01

 54	5.400000000000003e-01
	-5.514202184856705e-15
	-1.914215755842751e-18
	-2.679167816084627e-14
	5.147520604336887e-07
	5.272844349904201e-05
	6.048697135553533e-06
	2.215220420650864e-01

 55	5.500000000000003e-01
	-5.486064071390920e-15
	-1.956960273319484e-18
	-2.693573027380552e-14
	5.445912817324915e-07
	5.720942004029914e-05
	6.598115339935464e-06
	2.215220979439656e-01

 56	5.600000000000003e-01
	-5.459151209763786e-15
	-2.000558261301219e-18
	-2.707705366162707e-14
	5.758099609518753e-07
	6.201061911253104e-05
	7.193930459093910e-06
	2.215221589168508e-01

 57	5.700000000000003e-01
	-5.433443062073187e-15
	-2.045025437465295e-18
	-2.721566063245361e-14
	6.084475320966241e-07
	6.714650943559586e-05
	7.839416992764495e-06
	2.215222253852846e-01

 58	5.800000000000003e-01
	-5.408918848617975e-15
	-2.090377836110991e-18
	-2.735156515033201e-14
	6.425430224055220e-07
	7.263124078449659e-05
	8.537992590643311e-06
	2.215222977724949e-01

 59	5.900000000000003e-01
	-5.385557580925161e-15
	-2.136631816261207e-18
	-2.748478276144686e-14
	6.781349504806378e-07
	7.847852523143978e-05
	9.293214269065792e-06
	2.215223765232352e-01

 60	6.000000000000003e-01
	-5.363338093911462e-15
	-2.183804069979456e-18
	-2.761533052038693e-14
	7.152612242263483e-07
	8.470151412866529e-05
	1.010877341755161e-05
	2.215224621034312e-01

 61	6.100000000000003e-01
	-5.342239077133601e-15
	-2.231911630908895e-18
	-2.774322691662968e-14
	7.539590394553921e-07
	9.131267217462952e-05
	1.098848955922760e-05
	2.215225549996253e-01

 62	6.200000000000003e-01
	-5.322239105087415e-15
	-2.280971883038212e-18
	-2.786849180141790e-14
	7.942647800836415e-07
	9.832365006249678e-05
	1.193630284336985e-05
	2.215226557182097e-01

 63	6.300000000000003e-01
	-5.303316666520720e-15
	-2.331002569700964e-18
	-2.799114631519338e-14
	8.362139208928402e-07
	1.057451573471711e-04
	1.295626526400744e-05
	2.215227647844211e-01

 64	6.400000000000003e-01
	-5.285450192730717e-15
	-2.382021802814291e-18
	-2.811121281574031e-14
	8.798409338893473e-07
	1.135868372801464e-04
	1.405253061548701e-05
	2.215228827411206e-01

 65	6.500000000000004e-01
	-5.268618084820977e-15
	-2.434048072363233e-18
	-2.822871480718222e-14
	9.251791993255604e-07
	1.218571454454192e-04
	1.522934321384361e-05
	2.215230101473092e-01

 66	6.600000000000004e-01
	-5.252798739898784e-15
	-2.487100256138283e-18
	-2.834367686996400e-14
	9.722609224772801e-07
	1.305632340802175e-04
	1.649102543144312e-05
	2.215231475764332e-01

 67	6.700000000000004e-01
	-5.237970576197243e-15
	-2.541197629731272e-18
	-2.845612459194183e-14
	1.021117057283569e-06
	1.397108439776805e-04
	1.784196411130516e-05
	2.215232956144324e-01

 68	6.800000000000004e-01
	-5.224112057111788e-15
	-2.596359876798424e-18
	-2.856608450069195e-14
	1.071777237954338e-06
	1.493042058420270e-04
	1.928659594638905e-05
	2.215234548575950e-01

 69	6.900000000000004e-01
	-5.211201714144067e-15
	-2.652607099597269e-18
	-2.867358399714070e-14
	1.124269719634172e-06
	1.593459528984781e-04
	2.082939192753454e-05
	2.215236259101532e-01

 70	7.000000000000004e-01
	-5.199218168751132e-15
	-2.709959829804748e-18
	-2.877865129060666e-14
	1.178621329177617e-06
	1.698370464494729e-04
	2.247484098124347e-05
	2.215238093817361e-01

 71	7.100000000000004e-01
	-5.188140153100441e-15
	-2.768439039624822e-18
	-2.888131533533779e-14
	1.234857427042140e-06
	1.807767159164492e-04
	2.422743293468865e-05
	2.215240058846195e-01

 72	7.200000000000004e-01
	-5.177946529735244e-15
	-2.828066153193928e-18
	-2.898160576861622e-14
	1.293001881239040e-06
	1.921624147143713e-04
	2.609164095978982e-05
	2.215242160308248e-01

 73	7.300000000000004e-01
	-5.168616310158551e-15
	-2.888863058291933e-18
	-2.907955285049387e-14
	1.353077054201337e-06
	2.039897930777476e-04
	2.807190366055085e-05
	2.215244404291331e-01

 74	7.400000000000004e-01
	-5.160128672345616e-15
	-2.950852118368487e-18
	-2.917518740521528e-14
	1.415103803332002e-06
	2.162526886966394e-04
	3.017260697776270e-05
	2.215246796819894e-01

 75	7.500000000000004e-01
	-5.152462977198847e-15
	-3.014056184893020e-18
	-2.926854076437342e-14
	1.479101495886662e-06
	2.289431357347263e-04
	3.239806609233337e-05
	2.215249343823689e-01

 76	7.600000000000005e-01
	-5.145598783960961e-15
	-3.078498610037865e-18
	-2.935964471183814e-14
	1.545088038724846e-06
	2.420513924956952e-04
	3.475250751270457e-05
	2.215252051106421e-01

 77	7.700000000000005e-01
	-5.139515864604669e-15
	-3.144203259704843e-18
	-2.944853143048814e-14
	1.613079923334606e-06
	2.555659876864269e-04
	3.724005153287977e-05
	2.215254924314810e-01

 78	7.800000000000005e-01
	-5.134194217218898e-15
	-3.211194526904559e-18
	-2.953523345077140e-14
	1.683092286400063e-06
	2.694737849037989e-04
	3.986469524546168e-05
	2.215257968908141e-01

 79	7.900000000000005e-01
	-5.129614078414124e-15
	-3.279497345499896e-18
	-2.961978360111051e-14
	1.755138986042054e-06
	2.837600646543779e-04
	4.263029628873834e-05
	2.215261190129373e-01

 80	8.000000000000005e-01
	-5.125755934770190e-15
	-3.349137204323133e-18
	-2.970221496016514e-14
	1.829232693722926e-06
	2.984086229114493e-04
	4.554055749841697e-05
	2.215264592977484e-01

 81	8.100000000000005e-01
	-5.122600533351938e-15
	-3.420140161680097e-18
	-2.978256081095581e-14
	1.905385001669455e-06
	3.134018849291292e-04
	4.859901262317547e-05
	2.215268182181955e-01

 82	8.200000000000005e-01
	-5.120128891319192e-15
	-3.492532860250659e-18
	-2.986085459684894e-14
	1.983606545536813e-06
	3.287210327763153e-04
	5.180901324908291e-05
	2.215271962179389e-01

 83	8.300000000000005e-01
	-5.118322304658549e-15
	-3.566342542399152e-18
	-2.993712987939712e-14
	2.063907141914000e-06
	3.443461448300710e-04
	5.517371706139803e-05
	2.215275937092960e-01

 84	8.400000000000005e-01
	-5.117162356065226e-15
	-3.641597065907218e-18
	-3.001142029802416e-14
	2.146295940160596e-06
	3.602563452841617e-04
	5.869607755369341e-05
	2.215280110714537e-01

 85	8.500000000000005e-01
	-5.116630922004169e-15
	-3.718324920142241e-18
	-3.008375953153981e-14
	2.230781587967875e-06
	3.764299615876799e-04
	6.237883527404790e-05
	2.215284486489995e-01

 86	8.600000000000005e-01
	-5.116710178980013e-15
	-3.796555242673469e-18
	-3.015418126146487e-14
	2.317372409957403e-06
	3.928446876338306e-04
	6.622451067668445e-05
	2.215289067507678e-01

 87	8.700000000000006e-01
	-5.117382609046157e-15
	-3.876317836352579e-18
	-3.022271913714335e-14
	2.406076598568101e-06
	4.094777504709732e-04
	7.023539862532681e-05
	2.215293856490536e-01

 88	8.800000000000006e-01
	-5.118631004582728e-15
	-3.957643186871132e-18
	-3.028940674261580e-14
	2.496902416441488e-06
	4.263060783070671e-04
	7.441356457224972e-05
	2.215298855791238e-01

 89	8.900000000000006e-01
	-5.120438472374477e-15
	-4.040562480810870e-18
	-3.035427756522378e-14
	2.589858409492958e-06
	4.433064676225980e-04
	7.876084241485253e-05
	2.215304067391052e-01

 90	9.000000000000006e-01
	-5.122788437018772e-15
	-4.125107624203035e-18
	-3.041736496591274e-14
	2.684953629857942e-06
	4.604557472936497e-04
	8.327883401015865e-05
	2.215309492901937e-01

 91	9.100000000000006e-01
	-5.125664643694050e-15
	-4.211311261612667e-18
	-3.047870215119917e-14
	2.782197867923705e-06
	4.777309377516384e-04
	8.796891030724822e-05
	2.215315133571903e-01

 92	9.200000000000006e-01
	-5.129051160318857e-15
	-4.299206795764794e-18
	-3.053832214676430e-14
	2.881601892700942e-06
	4.951094033646724e-04
	9.283221403866252e-05
	2.215320990293408e-01

 93	9.300000000000006e-01
	-5.132932379131740e-15
	-4.388828407730806e-18
	-3.059625777263480e-14
	2.983177699853621e-06
	5.125689964120181e-04
	9.786966389458658e-05
	2.215327063614707e-01

 94	9.400000000000006e-01
	-5.137293017720869e-15
	-4.480211077692476e-18
	-3.065254161991076e-14
	3.086938766789839e-06
	5.300881912317390e-04
	1.030819600883686e-04
	2.215333353753734e-01

 95	9.500000000000006e-01
	-5.142118119533109e-15
	-4.573390606303582e-18
	-3.070720602899777e-14
	3.192900314319107e-06
	5.476462073459222e-04
	1.084695912088513e-04
	2.215339860614377e-01

 96	9.600000000000006e-01
	-5.147393053890633e-15
	-4.668403636667685e-18
	-3.076028306929987e-14
	3.301079574501907e-06
	5.652231206018973e-04
	1.140328422442088e-04
	2.215346583804788e-01

 97	9.700000000000006e-01
	-5.153103515543427e-15
	-4.765287676953844e-18
	-3.081180452032908e-14
	3.411496064453321e-06
	5.827999616053306e-04
	1.197718036535666e-04
	2.215353522657510e-01

 98	9.800000000000006e-01
	-5.159235523784657e-15
	-4.864081123670188e-18
	-3.086180185418633e-14
	3.524171866013305e-06
	6.003588009564803e-04
	1.256863813566372e-04
	2.215360676250809e-01

 99	9.900000000000007e-01
	-5.165775421156210e-15
	-4.964823285617624e-18
	-3.091030621936758e-14
	3.639131911359184e-06
	6.178828210288254e-04
	1.317763075078633e-04
	2.215368043431382e-01

 100	1.000000000000001e+00
	-5.172709871769653e-15
	-5.067554408547203e-18
	-3.095734842584969e-14
	3.756404274811300e-06
	6.353563742456070e-04
	1.380411519200783e-04
	2.215375622837470e-01

 101	1.010000000000001e+00
	-5.180025859268727e-15
	-5.172315700542996e-18
	-3.100295893140895e-14
