Title: ** sch_path: /home/andylithia/openmpw/project-yatsuhashi-chip1/xschem/gmid_test/nmos_test.sch
Date: Tue Jul 19 23:15:45  2022
Plotname: DC transfer characteristic
Flags: real
No. Variables: 8
No. Points: 181
Variables:
	0	v(v-sweep)	voltage
	1	@m.xm1.msky130_fd_pr__nfet_01v8[cgb]	capacitance
	2	@m.xm1.msky130_fd_pr__nfet_01v8[cgd]	capacitance
	3	@m.xm1.msky130_fd_pr__nfet_01v8[cgs]	capacitance
	4	@m.xm1.msky130_fd_pr__nfet_01v8[gds]	admittance
	5	@m.xm1.msky130_fd_pr__nfet_01v8[gm]	admittance
	6	i(@m.xm1.msky130_fd_pr__nfet_01v8[id])	current
	7	v(@m.xm1.msky130_fd_pr__nfet_01v8[vth])	voltage
Values:
 0	0.000000000000000e+00
	-1.342040972127622e-14
	-1.065282209237897e-18
	-2.675688163834511e-14
	5.010230115237212e-08
	1.882892897927197e-06
	2.495199953232001e-07
	1.770566396309542e-01

 1	1.000000000000000e-02
	-1.327745942849815e-14
	-1.089537803919974e-18
	-2.709803781315725e-14
	5.384969835154234e-08
	2.029251359131439e-06
	2.690715025415667e-07
	1.770566410718460e-01

 2	2.000000000000000e-02
	-1.313648759610155e-14
	-1.114302470359440e-18
	-2.743843525404680e-14
	5.786229815707109e-08
	2.187095229656890e-06
	2.901432675359484e-07
	1.770566426262526e-01

 3	3.000000000000000e-02
	-1.299751921490969e-14
	-1.139585622636607e-18
	-2.777796453702610e-14
	6.215736353825671e-08
	2.357365800776969e-06
	3.128547840301734e-07
	1.770566443033107e-01

 4	4.000000000000000e-02
	-1.286057834403393e-14
	-1.165396828167203e-18
	-2.811651717825987e-14
	6.675314109714842e-08
	2.541087885991540e-06
	3.373353698466929e-07
	1.770566461129486e-01

 5	5.000000000000000e-02
	-1.272568806912646e-14
	-1.191745810477837e-18
	-2.845398575658032e-14
	7.166890519235818e-08
	2.739377826160193e-06
	3.637250415270511e-07
	1.770566480659410e-01

 6	6.000000000000000e-02
	-1.259287046307403e-14
	-1.218642452060936e-18
	-2.879026403356233e-14
	7.692500313069329e-08
	2.953452267297937e-06
	3.921754728121700e-07
	1.770566501740019e-01

 7	7.000000000000001e-02
	-1.246214654919701e-14
	-1.246096797311897e-18
	-2.912524707089026e-14
	8.254290138823852e-08
	3.184637776521626e-06
	4.228510450332586e-07
	1.770566524498766e-01

 8	8.000000000000000e-02
	-1.233353626701101e-14
	-1.274119055550952e-18
	-2.945883134475565e-14
	8.854523281748499e-08
	3.434381365152973e-06
	4.559299981367094e-07
	1.770566549074304e-01

 9	9.000000000000000e-02
	-1.220705844060052e-14
	-1.302719604131689e-18
	-2.979091485703501e-14
	9.495584479187272e-08
	3.704261991343323e-06
	4.916056917731147e-07
	1.770566575617622e-01

 10	9.999999999999999e-02
	-1.208273074964566e-14
	-1.331908991639482e-18
	-3.012139724301098e-14
	1.017998482338019e-07
	3.996003117717736e-06
	5.300879866201976e-07
	1.770566604293241e-01

 11	1.100000000000000e-01
	-1.196056970313480e-14
	-1.361697941181665e-18
	-3.045017987541057e-14
	1.091036674666469e-07
	4.311486402353783e-06
	5.716047568785870e-07
	1.770566635280585e-01

 12	1.200000000000000e-01
	-1.184059061578842e-14
	-1.392097353772852e-18
	-3.077716596454943e-14
	1.168950908256419e-07
	4.652766603823764e-06
	6.164035456749545e-07
	1.770566668775339e-01

 13	1.300000000000000e-01
	-1.172280758720962e-14
	-1.423118311817318e-18
	-3.110226065438366e-14
	1.252033219566472e-07
	5.022087782929554e-06
	6.647533759239966e-07
	1.770566704991226e-01

 14	1.400000000000000e-01
	-1.160723348377008e-14
	-1.454772082692026e-18
	-3.142537111428777e-14
	1.340590317258177e-07
	5.421900885034299e-06
	7.169467300342087e-07
	1.770566744161524e-01

 15	1.500000000000000e-01
	-1.149387992323106e-14
	-1.487070122431625e-18
	-3.174640662638857e-14
	1.434944106568093e-07
	5.854882787405603e-06
	7.733017126838240e-07
	1.770566786541306e-01

 16	1.600000000000000e-01
	-1.138275726209089e-14
	-1.520024079520046e-18
	-3.206527866830636e-14
	1.535432218058475e-07
	6.323956895604416e-06
	8.341644117370382e-07
	1.770566832409387e-01

 17	1.700000000000000e-01
	-1.127387458564256e-14
	-1.553645798790091e-18
	-3.238190099116585e-14
	1.642408539780621e-07
	6.832315371506337e-06
	8.999114732035785e-07
	1.770566882070787e-01

 18	1.800000000000000e-01
	-1.116723970071705e-14
	-1.587947325434478e-18
	-3.269618969275858e-14
	1.756243751815512e-07
	7.383443072879955e-06
	9.709529069586001e-07
	1.770566935859344e-01

 19	1.900000000000000e-01
	-1.106285913108037e-14
	-1.622940909131350e-18
	-3.300806328575502e-14
	1.877325862082742e-07
	7.981143280375635e-06
	1.047735140719481e-06
	1.770566994140524e-01

 20	2.000000000000000e-01
	-1.096073811544481e-14
	-1.658639008287054e-18
	-3.331744276088028e-14
	2.006060742231491e-07
	8.629565282112774e-06
	1.130744340507258e-06
	1.770567057314612e-01

 21	2.100000000000000e-01
	-1.086088060804777e-14
	-1.695054294399307e-18
	-3.362425164498538e-14
	2.142872662346633e-07
	9.333233878590709e-06
	1.220510016486175e-06
	1.770567125820213e-01

 22	2.200000000000001e-01
	-1.076328928174448e-14
	-1.732199656544086e-18
	-3.392841605396318e-14
	2.288204823119157e-07
	1.009708086117712e-05
	1.317608933656060e-06
	1.770567200137976e-01

 23	2.300000000000001e-01
	-1.066796553355467e-14
	-1.770088205988673e-18
	-3.422986474047364e-14
	2.442519884039573e-07
	1.092647850572788e-05
	1.422669347347266e-06
	1.770567280794769e-01

 24	2.400000000000001e-01
	-1.057490949259705e-14
	-1.808733280935350e-18
	-3.452852913646012e-14
	2.606300486080844e-07
	1.182727510874598e-05
	1.536375583814396e-06
	1.770567368368263e-01

 25	2.500000000000001e-01
	-1.048412003033942e-14
	-1.848148451397596e-18
	-3.482434339045541e-14
	2.780049767237849e-07
	1.280583257666756e-05
	1.659472986416234e-06
	1.770567463491981e-01

 26	2.600000000000001e-01
	-1.039559477308687e-14
	-1.888347524213501e-18
	-3.511724439969205e-14
	2.964291869187659e-07
	1.386906605915463e-05
	1.792773247878525e-06
	1.770567566860584e-01

 27	2.700000000000001e-01
	-1.030933011662597e-14
	-1.929344548198596e-18
	-3.540717183704521e-14
	3.159572433225518e-07
	1.502448559445445e-05
	1.937160148931646e-06
	1.770567679236005e-01

 28	2.800000000000001e-01
	-1.022532124293780e-14
	-1.971153819442838e-18
	-3.569406817285433e-14
	3.366459083518230e-07
	1.628023970877607e-05
	2.093595723167802e-06
	1.770567801453814e-01

 29	2.900000000000001e-01
	-1.014356213888886e-14
	-2.013789886754092e-18
	-3.597787869168201e-14
	3.585541895597087e-07
	1.764516088202963e-05
	2.263126867234306e-06
	1.770567934430383e-01

 30	3.000000000000001e-01
	-1.006404561680516e-14
	-2.057267557252920e-18
	-3.625855150408351e-14
	3.817433847888623e-07
	1.912881275904802e-05
	2.446892414438924e-06
	1.770568079170463e-01

 31	3.100000000000001e-01
	-9.986763336831798e-15
	-2.101601902121664e-18
	-3.653603755347309e-14
	4.062771253952310e-07
	2.074153894842515e-05
	2.646130688449922e-06
	1.770568236775676e-01

 32	3.200000000000001e-01
	-9.911705830977092e-15
	-2.146808262511955e-18
	-3.681029061818687e-14
	4.322214172961129e-07
	2.249451321030900e-05
	2.862187551992605e-06
	1.770568408453427e-01

 33	3.300000000000001e-01
	-9.838862528738902e-15
	-2.192902255614656e-18
	-3.708126730885193e-14
	4.596446795823775e-07
	2.439979078983916e-05
	3.096524963233803e-06
	1.770568595526861e-01

 34	3.400000000000001e-01
	-9.768221784208069e-15
	-2.239899780895936e-18
	-3.734892706118486e-14
	4.886177804207439e-07
	2.647036060449725e-05
	3.350730049872085e-06
	1.770568799445270e-01

 35	3.500000000000001e-01
	-9.699770904543554e-15
	-2.287817026504148e-18
	-3.761323212435052e-14
	5.192140699577236e-07
	2.872019794152783e-05
	3.626524707771596e-06
	1.770569021795750e-01

 36	3.600000000000002e-01
	-9.633496179711533e-15
	-2.336670475851247e-18
	-3.787414754502424e-14
	5.515094099227058e-07
	3.116431726604791e-05
	3.925775727262427e-06
	1.770569264315290e-01

 37	3.700000000000002e-01
	-9.569382913382020e-15
	-2.386476914373304e-18
	-3.813164114730637e-14
	5.855821996133171e-07
	3.381882468175794e-05
	4.250505445939591e-06
	1.770569528904126e-01

 38	3.800000000000002e-01
	-9.507415454874995e-15
	-2.437253436474685e-18
	-3.838568350864777e-14
	6.215133979323698e-07
	3.670096952476102e-05
	4.602902921903486e-06
	1.770569817639887e-01

 39	3.900000000000002e-01
	-9.447577232049135e-15
	-2.489017452660177e-18
	-3.863624793195149e-14
	6.593865411323554e-07
	3.982919450741965e-05
	4.985335615868571e-06
	1.770570132792735e-01

 40	4.000000000000002e-01
	-9.389850785026820e-15
	-2.541786696860112e-18
	-3.888331041402138e-14
	6.992877559106234e-07
	4.322318376410949e-05
	5.400361564405784e-06
	1.770570476841483e-01

 41	4.100000000000002e-01
	-9.334217800650420e-15
	-2.595579233952918e-18
	-3.912684961053315e-14
	7.413057674869611e-07
	4.690390808500926e-05
	5.850742019769077e-06
	1.770570852490964e-01

 42	4.200000000000002e-01
	-9.280659147565350e-15
	-2.650413467490644e-18
	-3.936684679771080e-14
	7.855319022850349e-07
	5.089366655866891e-05
	6.339454524284788e-06
	1.770571262690015e-01

 43	4.300000000000002e-01
	-9.229154911829322e-15
	-2.706308147631931e-18
	-3.960328583088908e-14
	8.320600848306810e-07
	5.521612378013861e-05
	6.869706379159891e-06
	1.770571710650950e-01

 44	4.400000000000002e-01
	-9.179684432946345e-15
	-2.763282379287893e-18
	-3.983615310015250e-14
	8.809868284739589e-07
	5.989634172026065e-05
	7.444948458819934e-06
	1.770572199869807e-01

 45	4.500000000000002e-01
	-9.132226340229244e-15
	-2.821355630486715e-18
	-4.006543748323691e-14
	9.324112195382684e-07
	6.496080529471947e-05
	8.068889312545532e-06
	1.770572734147624e-01

 46	4.600000000000002e-01
	-9.086758589395146e-15
	-2.880547740961586e-18
	-4.029113029588549e-14
	9.864348944995247e-07
	7.043744062025861e-05
	8.745509485293848e-06
	1.770573317612826e-01

 47	4.700000000000003e-01
	-9.043258499302548e-15
	-2.940878930968894e-18
	-4.051322523984849e-14
	1.043162009801892e-06
	7.635562490183867e-05
	9.479075979234477e-06
	1.770573954744296e-01

 48	4.800000000000003e-01
	-9.001702788740679e-15
	-3.002369810341694e-18
	-4.073171834871723e-14
	1.102699203924276e-06
	8.274618686027444e-05
	1.027415676677806e-05
	1.770574650395503e-01

 49	4.900000000000003e-01
	-8.962067613186069e-15
	-3.065041387784400e-18
	-4.094660793178150e-14
	1.165155551324573e-06
	8.964139658705694e-05
	1.113563525484207e-05
	1.770575409819194e-01

 50	5.000000000000002e-01
	-8.924328601444037e-15
	-3.128915080415629e-18
	-4.115789451609792e-14
	1.230642507907026e-06
	9.707494370364138e-05
	1.206872458889907e-05
	1.770576238692780e-01

 51	5.100000000000002e-01
	-8.888460892096784e-15
	-3.194012723565344e-18
	-4.136558078695432e-14
	1.299273847682668e-06
	1.050819027085508e-04
	1.307898167413707e-05
	1.770577143144161e-01

 52	5.200000000000002e-01
	-8.854439169683385e-15
	-3.260356580832644e-18
	-4.156967152691297e-14
	1.371165590324407e-06
	1.136986844192731e-04
	1.417232077999485e-05
	1.770578129777730e-01

 53	5.300000000000002e-01
	-8.822237700540848e-15
	-3.327969354411641e-18
	-4.177017355361120e-14
	1.446435919357274e-06
	1.229629724590738e-04
	1.535502658359829e-05
	1.770579205700577e-01

 54	5.400000000000003e-01
	-8.791830368239373e-15
	-3.396874195691051e-18
	-4.196709565649576e-14
	1.525205090771879e-06
	1.329136438034463e-04
	1.663376649743244e-05
	1.770580378548448e-01

 55	5.500000000000003e-01
	-8.763190708548603e-15
	-3.467094716137734e-18
	-4.216044853266037e-14
	1.607595331904876e-06
	1.435906724885696e-04
	1.801560211714860e-05
	1.770581656511147e-01

 56	5.600000000000003e-01
	-8.736291943876202e-15
	-3.538654998467900e-18
	-4.235024472195464e-14
	1.693730730495428e-06
	1.550350156963304e-04
	1.950799961697371e-05
	1.770583048357290e-01

 57	5.700000000000003e-01
	-8.711107017123581e-15
	-3.611579608117154e-18
	-4.253649854152369e-14
	1.783737113901507e-06
	1.672884815682387e-04
	2.111883891301068e-05
	1.770584563457894e-01

 58	5.800000000000003e-01
	-8.687608624907892e-15
	-3.685893605014810e-18
	-4.271922601993594e-14
	1.877741918544243e-06
	1.803935782646067e-04
	2.285642140904935e-05
	1.770586211808481e-01

 59	5.900000000000003e-01
	-8.665769250103239e-15
	-3.761622555672831e-18
	-4.289844483104797e-14
	1.975874049743055e-06
	1.943933439758330e-04
	2.472947613561710e-05
	1.770588004049240e-01

 60	6.000000000000003e-01
	-8.645561193658338e-15
	-3.838792545596551e-18
	-4.307417422775100e-14
	2.078263732208314e-06
	2.093311578091457e-04
	2.674716409114397e-05
	1.770589951482990e-01

 61	6.100000000000003e-01
	-8.626956605650916e-15
	-3.917430192027191e-18
	-4.324643497573784e-14
	2.185042351572552e-06
	2.252505317157555e-04
	2.891908059456809e-05
	1.770592066090164e-01

 62	6.200000000000003e-01
	-8.609927515544452e-15
	-3.997562657023779e-18
	-4.341524928742014e-14
	2.296342287463134e-06
	2.421948838881393e-04
	3.125525546167901e-05
	1.770594360540797e-01

 63	6.300000000000003e-01
	-8.594445861614655e-15
	-4.079217660896484e-18
	-4.358064075612318e-14
	2.412296738751345e-06
	2.602072943429516e-04
	3.376615082325241e-05
	1.770596848202536e-01

 64	6.400000000000003e-01
	-8.580483519518727e-15
	-4.162423495997916e-18
	-4.374263429067521e-14
	2.533039541749957e-06
	2.793302437082331e-04
	3.646265641171067e-05
	1.770599543144625e-01

 65	6.500000000000004e-01
	-8.568012329982422e-15
	-4.247209040886112e-18
	-4.390125605050438e-14
	2.658704982276504e-06
	2.996053365505039e-04
	3.935608215486200e-05
	1.770602460137138e-01

 66	6.600000000000004e-01
	-8.557004125584466e-15
	-4.333603774866485e-18
	-4.405653338134794e-14
	2.789427602647022e-06
	3.210730109028046e-04
	4.245814793028282e-05
	1.770605614645011e-01

 67	6.700000000000004e-01
	-8.547430756620470e-15
	-4.421637792926210e-18
	-4.420849475167288e-14
	2.925342004816501e-06
	3.437722359835582e-04
	4.578097035222293e-05
	1.770609022816465e-01

 68	6.800000000000004e-01
	-8.539264116032346e-15
	-4.511341821070450e-18
	-4.435716968989957e-14
	3.066582651033000e-06
	3.677402004217617e-04
	4.933704648449002e-05
	1.770612701465581e-01

 69	6.900000000000004e-01
	-8.532476163391816e-15
	-4.602747232072613e-18
	-4.450258872251426e-14
	3.213283663522041e-06
	3.930119936198946e-04
	5.313923439758230e-05
	1.770616668048306e-01

 70	7.000000000000004e-01
	-8.527038947929935e-15
	-4.695886061651040e-18
	-4.464478331314871e-14
	3.365578624861863e-06
	4.196202831845484e-04
	5.720073051620970e-05
	1.770620940631927e-01

 71	7.100000000000004e-01
	-8.522924630607035e-15
	-4.790791025083735e-18
	-4.478378580270081e-14
	3.523600380847661e-06
	4.475949916287629e-04
	6.153504373410314e-05
	1.770625537857593e-01

 72	7.200000000000004e-01
	-8.520105505220733e-15
	-4.887495534273828e-18
	-4.491962935056092e-14
	3.687480847769552e-06
	4.769629757915377e-04
	6.615596630634301e-05
	1.770630478895845e-01

 73	7.300000000000004e-01
	-8.518554018551585e-15
	-4.986033715279280e-18
	-4.505234787700531e-14
	3.857350826142995e-06
	5.077477126214313e-04
	7.107754156499069e-05
	1.770635783395022e-01

 74	7.400000000000004e-01
	-8.518242789549283e-15
	-5.086440426319843e-18
	-4.518197600681013e-14
	4.033339823027762e-06
	5.399689951252137e-04
	7.631402854113952e-05
	1.770641471422740e-01

 75	7.500000000000004e-01
	-8.519144627563078e-15
	-5.188751276274968e-18
	-4.530854901413539e-14
	4.215575885150940e-06
	5.736426423824551e-04
	8.187986361510786e-05
	1.770647563400217e-01

 76	7.600000000000005e-01
	-8.521232549624659e-15
	-5.293002643686736e-18
	-4.543210276872078e-14
	4.404185445106220e-06
	6.087802275666171e-04
	8.778961935578198e-05
	1.770654080030421e-01

 77	7.700000000000005e-01
	-8.524479796791191e-15
	-5.399231696282641e-18
	-4.555267368343147e-14
	4.599293182935936e-06
	6.453888278878997e-04
	9.405796074949561e-05
	1.770661042219638e-01

 78	7.800000000000005e-01
	-8.528859849559820e-15
	-5.507476411032461e-18
	-4.567029866318687e-14
	4.801021905410035e-06
	6.834708002788155e-04
	1.006995990575816e-04
	1.770668470993502e-01

 79	7.900000000000005e-01
	-8.534346442366648e-15
	-5.617775594755433e-18
	-4.578501505529816e-14
	5.009492445296245e-06
	7.230235864780672e-04
	1.077292435791743e-04
	1.770676387408081e-01

 80	8.000000000000005e-01
	-8.540913577183518e-15
	-5.730168905291343e-18
	-4.589686060123984e-14
	5.224823582868688e-06
	7.640395509312487e-04
	1.151615516312832e-04
	1.770684812456471e-01

 81	8.100000000000005e-01
	-8.548535536229460e-15
	-5.844696873253970e-18
	-4.600587338987109e-14
	5.447131991824622e-06
	8.065058546189098e-04
	1.230110770908206e-04
	1.770693766972052e-01

 82	8.200000000000005e-01
	-8.557186893813187e-15
	-5.961400924381512e-18
	-4.611209181212313e-14
	5.676532211673845e-06
	8.504043675469014e-04
	1.312922178725216e-04
	1.770703271529330e-01

 83	8.300000000000005e-01
	-8.566842527325383e-15
	-6.080323402500787e-18
	-4.621555451716158e-14
	5.913136648532060e-06
	8.957116221952172e-04
	1.400191627418585e-04
	1.770713346343125e-01

 84	8.400000000000005e-01
	-8.577477627400679e-15
	-6.201507593124497e-18
	-4.631630037003017e-14
	6.157055606089067e-06
	9.423988097261642e-04
	1.492058378824976e-04
	1.770724011167515e-01

 85	8.500000000000005e-01
	-8.589067707269680e-15
	-6.324997747696232e-18
	-4.641436841077885e-14
	6.408397348338565e-06
	9.904318202091826e-04
	1.588658536531093e-04
	1.770735285195713e-01

 86	8.600000000000005e-01
	-8.601588611322288e-15
	-6.450839108504261e-18
	-4.650979781507600e-14
	6.667268195450793e-06
	1.039771327537497e-03
	1.690124519779418e-04
	1.770747186961480e-01

 87	8.700000000000006e-01
	-8.615016522905387e-15
	-6.579077934281515e-18
	-4.660262785629991e-14
	6.933772653944334e-06
	1.090372919102033e-03
	1.796584548191743e-04
	1.770759734244070e-01

 88	8.800000000000006e-01
	-8.629327971377348e-15
	-6.709761526511405e-18
	-4.669289786910411e-14
	7.208013582075470e-06
	1.142187269662995e-03
	1.908162141764908e-04
	1.770772943977263e-01

 89	8.900000000000006e-01
	-8.644499838442838e-15
	-6.842938256461169e-18
	-4.678064721444643e-14
	7.490092391115330e-06
	1.195160358231751e-03
	2.024975640504785e-04
	1.770786832163665e-01

 90	9.000000000000006e-01
	-8.660509363792251e-15
	-6.978657592961224e-18
	-4.686591524606975e-14
	7.780109282930493e-06
	1.249233726158156e-03
	2.147137747913136e-04
	1.770801413795645e-01

 91	9.100000000000006e-01
	-8.677334150069706e-15
	-7.116970130954980e-18
	-4.694874127842084e-14
	8.078163524029593e-06
	1.304344774024698e-03
	2.274755102330575e-04
	1.770816702783439e-01

 92	9.200000000000006e-01
	-8.694952167194257e-15
	-7.257927620839804e-18
	-4.702916455598995e-14
	8.384353755988840e-06
	1.360427094390957e-03
	2.407927879869306e-04
	1.770832711891528e-01

 93	9.300000000000006e-01
	-8.713341756058844e-15
	-7.401582998624779e-18
	-4.710722422405333e-14
	8.698778341929893e-06
	1.417410836922079e-03
	2.546749432346455e-04
	1.770849452683980e-01

 94	9.400000000000006e-01
	-8.732481631631725e-15
	-7.547990416927738e-18
	-4.718295930079774e-14
	9.021535748499028e-06
	1.475223101983804e-03
	2.691305963257904e-04
	1.770866935479235e-01

 95	9.500000000000006e-01
	-8.752350885484780e-15
	-7.697205276840117e-18
	-4.725640865080538e-14
	9.352724962591072e-06
	1.533788358403328e-03
	2.841676244419886e-04
	1.770885169314877e-01

 96	9.600000000000006e-01
	-8.772928987773400e-15
	-7.849284260683746e-18
	-4.732761095987525e-14
	9.692445941879855e-06
	1.593028880787451e-03
	2.997931375458363e-04
	1.770904161922696e-01

 97	9.700000000000006e-01
	-8.794195788691579e-15
	-8.004285365690642e-18
	-4.739660471115618e-14
	1.004080009806346e-05
	1.652865201562833e-03
	3.160134587852734e-04
	1.770923919713955e-01

 98	9.800000000000006e-01
	-8.816131519426981e-15
	-8.162267938634068e-18
	-4.746342816256475e-14
	1.039789081160795e-05
	1.713216572760804e-03
	3.328341094747710e-04
	1.770944447775230e-01

 99	9.900000000000007e-01
	-8.838716792638527e-15
	-8.323292711441070e-18
	-4.752811932546140e-14
	1.076382397668549e-05
	1.774001432513468e-03
	3.502597987246282e-04
	1.770965749874115e-01

 100	1.000000000000001e+00
	-8.861932602480644e-15
	-8.487421837820242e-18
	-4.759071594455534e-14
	1.113870857494608e-05
	1.835137871256699e-03
	3.682944177392717e-04
	1.770987828475026e-01

 101	1.010000000000001e+00
	-8.885760324196021e-15
	-8.654718930938501e-18
	-4.765125547900942e-14
