Title: ** sch_path: /home/andylithia/openmpw/project-yatsuhashi-chip1/xschem/gmid_test/nmos_test.sch
Date: Tue Jul 19 23:15:45  2022
Plotname: DC transfer characteristic
Flags: real
No. Variables: 8
No. Points: 181
Variables:
	0	v(v-sweep)	voltage
	1	@m.xm1.msky130_fd_pr__nfet_01v8[cgb]	capacitance
	2	@m.xm1.msky130_fd_pr__nfet_01v8[cgd]	capacitance
	3	@m.xm1.msky130_fd_pr__nfet_01v8[cgs]	capacitance
	4	@m.xm1.msky130_fd_pr__nfet_01v8[gds]	admittance
	5	@m.xm1.msky130_fd_pr__nfet_01v8[gm]	admittance
	6	i(@m.xm1.msky130_fd_pr__nfet_01v8[id])	current
	7	v(@m.xm1.msky130_fd_pr__nfet_01v8[vth])	voltage
Values:
 0	0.000000000000000e+00
	-3.948919102769373e-15
	-1.140478777617224e-19
	-4.489232415456016e-15
	6.815975793378644e-09
	3.393323555782442e-07
	3.266084609213362e-08
	3.147758175275730e-01

 1	1.000000000000000e-02
	-3.903542828247702e-15
	-1.175294834264769e-19
	-4.590323874606204e-15
	7.551665198179842e-09
	3.758315184497122e-07
	3.623361254056442e-08
	3.147758178482545e-01

 2	2.000000000000000e-02
	-3.858393281692488e-15
	-1.211073666641032e-19
	-4.692160907793328e-15
	8.364199916885245e-09
	4.161816359550180e-07
	4.019030762302777e-08
	3.147758182034580e-01

 3	3.000000000000000e-02
	-3.813488385457187e-15
	-1.247836622045096e-19
	-4.794690768006971e-15
	9.261202116225771e-09
	4.607836009470825e-07
	4.457141201159132e-08
	3.147758185968323e-01

 4	4.000000000000000e-02
	-3.768846199821009e-15
	-1.285605321770629e-19
	-4.897859408710575e-15
	1.025098804091624e-08
	5.100804666503859e-07
	4.942162240496467e-08
	3.147758190324195e-01

 5	5.000000000000000e-02
	-3.724484873150267e-15
	-1.324401660632515e-19
	-5.001611590363028e-15
	1.134262206216602e-08
	5.645621550280653e-07
	5.479029621414461e-08
	3.147758195146750e-01

 6	6.000000000000000e-02
	-3.680422591701608e-15
	-1.364247806637336e-19
	-5.105890991585955e-15
	1.254597362747086e-08
	6.247707524070717e-07
	6.073194620536062e-08
	3.147758200485336e-01

 7	7.000000000000001e-02
	-3.636677529277882e-15
	-1.405166200815816e-19
	-5.210640324538814e-15
	1.387177708079434e-08
	6.913064719683859e-07
	6.730679136289794e-08
	3.147758206394459e-01

 8	8.000000000000000e-02
	-3.593267796950813e-15
	-1.447179557237339e-19
	-5.315801454033839e-15
	1.533169428973525e-08
	7.648343727209856e-07
	7.458137107977722e-08
	3.147758212934438e-01

 9	9.000000000000000e-02
	-3.550211393065780e-15
	-1.490310863224503e-19
	-5.421315519899402e-15
	1.693837997971168e-08
	8.460919353333596e-07
	8.262923073367887e-08
	3.147758220171990e-01

 10	9.999999999999999e-02
	-3.507526153744354e-15
	-1.534583379786894e-19
	-5.527123062077403e-15
	1.870554963446682e-08
	9.358976065838088e-07
	9.153168776565582e-08
	3.147758228180975e-01

 11	1.100000000000000e-01
	-3.465229704098348e-15
	-1.580020642292578e-19
	-5.633164147922612e-15
	2.064804977731743e-08
	1.035160436043426e-06
	1.013786885557518e-07
	3.147758237043224e-01

 12	1.200000000000000e-01
	-3.423339410366138e-15
	-1.626646461396306e-19
	-5.739378501157009e-15
	2.278193039856072e-08
	1.144890940682910e-06
	1.122697676860617e-07
	3.147758246849366e-01

 13	1.300000000000000e-01
	-3.381872333177253e-15
	-1.674484924240913e-19
	-5.845705631920965e-15
	2.512451924147795e-08
	1.266213345072435e-06
	1.243151225987648e-07
	3.147758257699902e-01

 14	1.400000000000000e-01
	-3.340845182144967e-15
	-1.723560395951259e-19
	-5.952084967356602e-15
	2.769449760263508e-08
	1.400379356300609e-06
	1.376368181912366e-07
	3.147758269706354e-01

 15	1.500000000000000e-01
	-3.300274271978991e-15
	-1.773897521436854e-19
	-6.058455982155521e-15
	3.051197724201283e-08
	1.548783643140953e-06
	1.523701375347052e-07
	3.147758282992534e-01

 16	1.600000000000000e-01
	-3.260175480301195e-15
	-1.825521227520048e-19
	-6.164758328504295e-15
	3.359857793530588e-08
	1.712981197684939e-06
	1.686650966432910e-07
	3.147758297695929e-01

 17	1.700000000000000e-01
	-3.220564207336965e-15
	-1.878456725405774e-19
	-6.270931964866000e-15
	3.697750513505200e-08
	1.894706763849255e-06
	1.866881430357404e-07
	3.147758313969438e-01

 18	1.800000000000000e-01
	-3.181455337643062e-15
	-1.932729513508451e-19
	-6.376917283046029e-15
	4.067362713975088e-08
	2.095896519920345e-06
	2.066240596932710e-07
	3.147758331983114e-01

 19	1.900000000000000e-01
	-3.142863204020170e-15
	-1.988365380650797e-19
	-6.482655233002779e-15
	4.471355110150120e-08
	2.318712200542122e-06
	2.286780978837856e-07
	3.147758351926280e-01

 20	2.000000000000000e-01
	-3.104801553744591e-15
	-2.045390409648433e-19
	-6.588087444881194e-15
	4.912569713386576e-08
	2.565567836068131e-06
	2.530783641445880e-07
	3.147758374009820e-01

 21	2.100000000000000e-01
	-3.067283517238914e-15
	-2.103830981293588e-19
	-6.693156347767570e-15
	5.394036971356111e-08
	2.839159272633987e-06
	2.800784884283120e-07
	3.147758398468802e-01

 22	2.200000000000001e-01
	-3.030321579286173e-15
	-2.163713778751302e-19
	-6.797805284688084e-15
	5.918982550330951e-08
	3.142496613200935e-06
	3.099606019423849e-07
	3.147758425565313e-01

 23	2.300000000000001e-01
	-2.993927552876151e-15
	-2.225065792377960e-19
	-6.901978623400237e-15
	6.490833665987125e-08
	3.478939686630240e-06
	3.430386544574919e-07
	3.147758455591876e-01

 24	2.400000000000001e-01
	-2.958112555756197e-15
	-2.287914324975582e-19
	-7.005621862557060e-15
	7.113224863224656e-08
	3.852236606995728e-06
	3.796621017170163e-07
	3.147758488875025e-01

 25	2.500000000000001e-01
	-2.922886989742178e-15
	-2.352286997489717e-19
	-7.108681732855965e-15
	7.790003140152360e-08
	4.266565427262745e-06
	4.202199939221312e-07
	3.147758525779322e-01

 26	2.600000000000001e-01
	-2.888260522828873e-15
	-2.418211755162279e-19
	-7.211106292818707e-15
	8.525232306728782e-08
	4.726578818695378e-06
	4.651454959568608e-07
	3.147758566712049e-01

 27	2.700000000000001e-01
	-2.854242074121917e-15
	-2.485716874145545e-19
	-7.312845018886632e-15
	9.323196464738518e-08
	5.237451618622206e-06
	5.149208689006947e-07
	3.147758612128109e-01

 28	2.800000000000001e-01
	-2.820839801597427e-15
	-2.554830968587819e-19
	-7.413848889552250e-15
	1.018840249294338e-07
	5.804930983498868e-06
	5.700829402874365e-07
	3.147758662535697e-01

 29	2.900000000000001e-01
	-2.788061092679059e-15
	-2.625582998194686e-19
	-7.514070463288608e-15
	1.112558141955450e-07
	6.435388760990670e-06
	6.312290873363417e-07
	3.147758718502399e-01

 30	3.000000000000001e-01
	-2.755912557606509e-15
	-2.698002276274096e-19
	-7.613463950077442e-15
	1.213968856374067e-07
	7.135875554022725e-06
	6.990237528279246e-07
	3.147758780662010e-01

 31	3.100000000000001e-01
	-2.724400025554571e-15
	-2.772118478270351e-19
	-7.711985276378012e-15
	1.323590232889799e-07
	7.914175792086939e-06
	7.742055072505029e-07
	3.147758849721865e-01

 32	3.200000000000001e-01
	-2.693528543447308e-15
	-2.847961650790475e-19
	-7.809592143418776e-15
	1.441962153296489e-07
	8.778862952049931e-06
	8.575946631412627e-07
	3.147758926470988e-01

 33	3.300000000000001e-01
	-2.663302377398427e-15
	-2.925562221127937e-19
	-7.906244078734669e-15
	1.569646116534002e-07
	9.739353884773817e-06
	9.501014380462504e-07
	3.147759011788818e-01

 34	3.400000000000001e-01
	-2.633725016696235e-15
	-3.004951007288074e-19
	-8.001902480912083e-15
	1.707224646605281e-07
	1.080596100863885e-05
	1.052734651114445e-06
	3.147759106654640e-01

 35	3.500000000000001e-01
	-2.604799180239913e-15
	-3.086159228515209e-19
	-8.096530657542390e-15
	1.855300523087282e-07
	1.198994093137156e-05
	1.166610924952519e-06
	3.147759212157709e-01

 36	3.600000000000002e-01
	-2.576526825323253e-15
	-3.169218516327026e-19
	-8.190093856421960e-15
	2.014495825613257e-07
	1.330353786355042e-05
	1.292964348983952e-06
	3.147759329508144e-01

 37	3.700000000000002e-01
	-2.548909158652337e-15
	-3.254160926054886e-19
	-8.282559290073003e-15
	2.185450784925904e-07
	1.476001999821400e-05
	1.433156543231769e-06
	3.147759460048256e-01

 38	3.800000000000002e-01
	-2.521946649475649e-15
	-3.341018948894625e-19
	-8.373896153692393e-15
	2.368822434541554e-07
	1.637370685980919e-05
	1.588687042309959e-06
	3.147759605264729e-01

 39	3.900000000000002e-01
	-2.495639044697419e-15
	-3.429825524465513e-19
	-8.464075636668900e-15
	2.565283058733296e-07
	1.815998548215572e-05
	1.761203898694149e-06
	3.147759766801056e-01

 40	4.000000000000002e-01
	-2.469985385839526e-15
	-3.520614053880741e-19
	-8.553070927837628e-15
	2.775518434429706e-07
	2.013531316988011e-05
	1.952514382371810e-06
	3.147759946470609e-01

 41	4.100000000000002e-01
	-2.444984027712099e-15
	-3.613418413328526e-19
	-8.640857214668681e-15
	3.000225866741848e-07
	2.231720454230136e-05
	2.164595631191601e-06
	3.147760146269877e-01

 42	4.200000000000002e-01
	-2.420632658649518e-15
	-3.708272968164107e-19
	-8.727411676611472e-15
	3.240112020160388e-07
	2.472420056454486e-05
	2.399605083191443e-06
	3.147760368391866e-01

 43	4.300000000000002e-01
	-2.396928322166028e-15
	-3.805212587512778e-19
	-8.812713472838094e-15
	3.495890550000977e-07
	2.737581734895190e-05
	2.659890499557593e-06
	3.147760615239539e-01

 44	4.400000000000002e-01
	-2.373867439883685e-15
	-3.904272659384541e-19
	-8.896743724649254e-15
	3.768279541400545e-07
	3.029247267087845e-05
	2.947999365429455e-06
	3.147760889438880e-01

 45	4.500000000000002e-01
	-2.351445835585294e-15
	-4.005489106299294e-19
	-8.979485492822315e-15
	4.057998766057627e-07
	3.349538839530855e-05
	3.266687436388400e-06
	3.147761193851505e-01

 46	4.600000000000002e-01
	-2.329658760245454e-15
	-4.108898401423096e-19
	-9.060923750195684e-15
	4.365766769935958e-07
	3.700646736050122e-05
	3.618926182100703e-06
	3.147761531586657e-01

 47	4.700000000000003e-01
	-2.308500917894631e-15
	-4.214537585215474e-19
	-9.141045349795263e-15
	4.692297808278162e-07
	4.084814371513337e-05
	4.007908866219355e-06
	3.147761906011731e-01

 48	4.800000000000003e-01
	-2.287966492173902e-15
	-4.322444282587762e-19
	-9.219838988816517e-15
	5.038298647454726e-07
	4.504320625508264e-05
	4.437054994284230e-06
	3.147762320761940e-01

 49	4.900000000000003e-01
	-2.268049173440956e-15
	-4.432656720572808e-19
	-9.297295168783736e-15
	5.404465256359740e-07
	4.961459494971367e-05
	4.910012859978237e-06
	3.147762779747639e-01

 50	5.000000000000002e-01
	-2.248742186292588e-15
	-4.545213746506486e-19
	-9.373406152209797e-15
	5.791479413184799e-07
	5.458517157456509e-05
	5.430659925573267e-06
	3.147763287160061e-01

 51	5.100000000000002e-01
	-2.230038317373309e-15
	-4.660154846721322e-19
	-9.448165916083006e-15
	6.200005256404414e-07
	5.997746616196151e-05
	6.003100785512896e-06
	3.147763847474186e-01

 52	5.200000000000002e-01
	-2.211929943345178e-15
	-4.777520165754635e-19
	-9.521570102505837e-15
	6.630685811599486e-07
	6.581340182186974e-05
	6.631662483383263e-06
	3.147764465448867e-01

 53	5.300000000000002e-01
	-2.194409058900023e-15
	-4.897350526070100e-19
	-9.593615966807509e-15
	7.084139528261676e-07
	7.211400134608848e-05
	7.320886982366840e-06
	3.147765146123965e-01

 54	5.400000000000003e-01
	-2.177467304701075e-15
	-5.019687448297121e-19
	-9.664302323448722e-15
	7.560956862873674e-07
	7.889907985887554e-05
	8.075520627701948e-06
	3.147765894813611e-01

 55	5.500000000000003e-01
	-2.161095995148176e-15
	-5.144573171987660e-19
	-9.733629490028927e-15
	8.061696946261701e-07
	8.618692858221639e-05
	8.900500486401188e-06
	3.147766717095831e-01

 56	5.600000000000003e-01
	-2.145286145867209e-15
	-5.272050676894913e-19
	-9.801599229699697e-15
	8.586884374388897e-07
	9.399399550806621e-05
	9.800937503893421e-06
	3.147767618798210e-01

 57	5.700000000000003e-01
	-2.130028500831750e-15
	-5.402163704775073e-19
	-9.868214692277752e-15
	9.137006162325084e-07
	1.023345693765082e-04
	1.078209647835054e-05
	3.147768605979242e-01

 58	5.800000000000003e-01
	-2.115313559032015e-15
	-5.534956781717435e-19
	-9.933480354340727e-15
	9.712508901016356e-07
	1.112204738128338e-04
	1.184937291988380e-05
	3.147769684905319e-01

 59	5.900000000000003e-01
	-2.101131600613592e-15
	-5.670475241005525e-19
	-9.997401958576982e-15
	1.031379615563732e-06
	1.206607787466050e-04
	1.300826693186021e-05
	3.147770862023633e-01

 60	6.000000000000003e-01
	-2.087472712415525e-15
	-5.808765246513886e-19
	-1.005998645264840e-14
	1.094122614270070e-06
	1.306615362959359e-04
	1.426435432332761e-05
	3.147772143930618e-01

 61	6.100000000000003e-01
	-2.074326812844815e-15
	-5.949873816646787e-19
	-1.012124192781148e-14
	1.159510972069811e-06
	1.412255481318954e-04
	1.562325523273069e-05
	3.147773537336677e-01

 62	6.200000000000003e-01
	-2.061683676031234e-15
	-6.093848848823581e-19
	-1.018117755752853e-14
	1.227570872586425e-06
	1.523521709318084e-04
	1.709060061142824e-05
	3.147775049027036e-01

 63	6.300000000000003e-01
	-2.049532955213467e-15
	-6.240739144517838e-19
	-1.023980353628640e-14
	1.298323468071772e-06
	1.640371658869628e-04
	1.867199697858442e-05
	3.147776685819368e-01

 64	6.400000000000003e-01
	-2.037864205314455e-15
	-6.390594434858107e-19
	-1.029713101882522e-14
	1.371784789838925e-06
	1.762725973615361e-04
	2.037298991448670e-05
	3.147778454518783e-01

 65	6.500000000000004e-01
	-2.026666904670029e-15
	-6.543465406796223e-19
	-1.035317205996585e-14
	1.447965700048749e-06
	1.890467847280540e-04
	2.219902680509391e-05
	3.147780361870576e-01

 66	6.600000000000004e-01
	-2.015930475881615e-15
	-6.699403729856341e-19
	-1.040793955520900e-14
	1.526871886047228e-06
	2.023443101631506e-04
	2.415541938475513e-05
	3.147782414511631e-01

 67	6.700000000000004e-01
	-2.005644305769433e-15
	-6.858462083470003e-19
	-1.046144718226499e-14
	1.608503897833858e-06
	2.161460838178332e-04
	2.624730664508666e-05
	3.147784618921098e-01

 68	6.800000000000004e-01
	-1.995797764408554e-15
	-7.020694184911629e-19
	-1.051370934365860e-14
	1.692857228599779e-06
	2.304294663276159e-04
	2.847961868488107e-05
	3.147786981371263e-01

 69	6.900000000000004e-01
	-1.986380223235396e-15
	-7.186154817844164e-19
	-1.056474111053886e-14
	1.779922437624667e-06
	2.451684471537306e-04
	3.085704206816260e-05
	3.147789507879333e-01

 70	7.000000000000004e-01
	-1.977381072217404e-15
	-7.354899861489552e-19
	-1.061455816781023e-14
	1.869685314178636e-06
	2.603338758025512e-04
	3.338398723508101e-05
	3.147792204161146e-01

 71	7.100000000000004e-01
	-1.968789736083273e-15
	-7.526986320436083e-19
	-1.066317676068780e-14
	1.962127080457844e-06
	2.758937416114264e-04
	3.606455847387044e-05
	3.147795075587287e-01

 72	7.200000000000004e-01
	-1.960595689615435e-15
	-7.702472355100332e-19
	-1.071061364276643e-14
	2.057224631004482e-06
	2.918134965661620e-04
	3.890252691267050e-05
	3.147798127142715e-01

 73	7.300000000000004e-01
	-1.952788472010682e-15
	-7.881417312858384e-19
	-1.075688602568081e-14
	2.154950805539238e-06
	3.080564145732199e-04
	4.190130692922949e-05
	3.147801363390371e-01

 74	7.400000000000004e-01
	-1.945357700318323e-15
	-8.063881759863336e-19
	-1.080201153042175e-14
	2.255274691679506e-06
	3.245839797843961e-04
	4.506393630637152e-05
	3.147804788439503e-01

 75	7.500000000000004e-01
	-1.938293081968660e-15
	-8.249927513570126e-19
	-1.084600814036251e-14
	2.358161953640419e-06
	3.413562959891134e-04
	4.839306038392403e-05
	3.147808405919038e-01

 76	7.600000000000005e-01
	-1.931584426407631e-15
	-8.439617675986370e-19
	-1.088889415603804e-14
	2.463575182725750e-06
	3.583325087641018e-04
	5.189092037607513e-05
	3.147812218956541e-01

 77	7.700000000000005e-01
	-1.925221655856104e-15
	-8.633016667669127e-19
	-1.093068815170983e-14
	2.571474265217306e-06
	3.754712320051326e-04
	5.555934593946830e-05
	3.147816230162900e-01

 78	7.800000000000005e-01
	-1.919194815214689e-15
	-8.830190262493765e-19
	-1.097140893373940e-14
	2.681816763166107e-06
	3.927309706522873e-04
	5.939975199430883e-05
	3.147820441622867e-01

 79	7.900000000000005e-01
	-1.913494081137132e-15
	-9.031205623215153e-19
	-1.101107550078433e-14
	2.794558303575400e-06
	4.100705318404282e-04
	6.341313972078511e-05
	3.147824854891665e-01

 80	8.000000000000005e-01
	-1.908109770296832e-15
	-9.236131337847554e-19
	-1.104970700582293e-14
	2.909652971541244e-06
	4.274494173328965e-04
	6.760010157842681e-05
	3.147829470997110e-01

 81	8.100000000000005e-01
	-1.903032346873036e-15
	-9.445037456889260e-19
	-1.108732272000479e-14
	3.027053703072702e-06
	4.448281908945083e-04
	7.196083012846444e-05
	3.147834290447393e-01

 82	8.200000000000005e-01
	-1.898252429284027e-15
	-9.657995531420663e-19
	-1.112394199831843e-14
	3.146712673544799e-06
	4.621688151911987e-04
	7.649513038043119e-05
	3.147839313244104e-01

 83	8.300000000000005e-01
	-1.893760796195983e-15
	-9.875078652100102e-19
	-1.115958424706015e-14
	3.268581678030854e-06
	4.794349538264252e-04
	8.120243533521025e-05
	3.147844538899826e-01

 84	8.400000000000005e-01
	-1.889548391836831e-15
	-1.009636148909305e-18
	-1.119426889308225e-14
	3.392612500106140e-06
	4.965922351971322e-04
	8.608182435820739e-05
	3.147849966460144e-01

 85	8.500000000000005e-01
	-1.885606330645029e-15
	-1.032192033296059e-18
	-1.122801535479351e-14
	3.518757266100726e-06
	5.136084759347584e-04
	9.113204398863921e-05
	3.147855594529356e-01

 86	8.600000000000005e-01
	-1.881925901283620e-15
	-1.055183313653992e-18
	-1.126084301488024e-14
	3.646968782192280e-06
	5.304538627525397e-04
	9.635153077393760e-05
	3.147861421299286e-01

 87	8.700000000000006e-01
	-1.878498570049982e-15
	-1.078617955785325e-18
	-1.129277119471156e-14
	3.777200852159186e-06
	5.471010925174078e-04
	1.017384357115859e-04
	3.147867444580589e-01

 88	8.800000000000006e-01
	-1.875315983711911e-15
	-1.102504100407313e-18
	-1.132381913038922e-14
	3.909408574048056e-06
	5.635254712765063e-04
	1.072906498835638e-04
	3.147873661836039e-01

 89	8.900000000000006e-01
	-1.872369971800458e-15
	-1.126850067658662e-18
	-1.135400595039866e-14
	4.043548614438472e-06
	5.797049737746038e-04
	1.130058308800516e-04
	3.147880070215173e-01

 90	9.000000000000006e-01
	-1.869652548389642e-15
	-1.151664361718498e-18
	-1.138335065481577e-14
	4.179579459401839e-06
	5.956202656853488e-04
	1.188814296279780e-04
	3.147886666589746e-01

 91	9.100000000000006e-01
	-1.867155913392812e-15
	-1.176955675542855e-18
	-1.141187209602114e-14
	4.317461641643760e-06
	6.112546913385799e-04
	1.249147172651824e-04
	3.147893447589205e-01

 92	9.200000000000006e-01
	-1.864872453405081e-15
	-1.202732895721282e-18
	-1.143958896087168e-14
	4.457157943682288e-06
	6.265942301551260e-04
	1.311028117310147e-04
	3.147900409636263e-01

 93	9.300000000000006e-01
	-1.862794742120414e-15
	-1.229005107458355e-18
	-1.146651975427836e-14
	4.598633577246824e-06
	6.416274253030273e-04
	1.374427037780124e-04
	3.147907548981551e-01

 94	9.400000000000006e-01
	-1.860915540351479e-15
	-1.255781599684015e-18
	-1.149268278413746e-14
	4.741856339376286e-06
	6.563452882708293e-04
	1.439312821454023e-04
	3.147914861737226e-01

 95	9.500000000000006e-01
	-1.859227795679588e-15
	-1.283071870296609e-18
	-1.151809614756194e-14
	4.886796745952341e-06
	6.707411831252145e-04
	1.505653576725927e-04
	3.147922343909381e-01

 96	9.600000000000006e-01
	-1.857724641761170e-15
	-1.310885631543388e-18
	-1.154277771835936e-14
	5.033428143622319e-06
	6.848106941940682e-04
	1.573416861684747e-04
	3.147929991428473e-01

 97	9.700000000000006e-01
	-1.856399397316495e-15
	-1.339232815542671e-18
	-1.156674513570212e-14
	5.181726801244837e-06
	6.985514808055715e-04
	1.642569898892088e-04
	3.147937800178253e-01

 98	9.800000000000006e-01
	-1.855245564825352e-15
	-1.368123579952432e-18
	-1.159001579393660e-14
	5.331671982135345e-06
	7.119631225345900e-04
	1.713079775126974e-04
	3.147945766022350e-01

 99	9.900000000000007e-01
	-1.854256828953543e-15
	-1.397568313789955e-18
	-1.161260683347728e-14
	5.483245998495133e-06
	7.250469581732352e-04
	1.784913625312591e-04
	3.147953884828897e-01

 100	1.000000000000001e+00
	-1.853427054733023e-15
	-1.427577643407591e-18
	-1.163453513273326e-14
	5.636434249482742e-06
	7.378059213679563e-04
	1.858038800148623e-04
	3.147962152492749e-01

 101	1.010000000000001e+00
	-1.852750285517725e-15
	-1.458162438629479e-18
	-1.165581730101465e-14
