Title: ** sch_path: /home/andylithia/openmpw/project-yatsuhashi-chip1/xschem/gmid_test/nmos_test.sch
Date: Sun Jul 17 22:51:45  2022
Plotname: DC transfer characteristic
Flags: real
No. Variables: 8
No. Points: 181
Variables:
	0	v(v-sweep)	voltage
	1	@m.xm1.msky130_fd_pr__nfet_01v8[cgb]	capacitance
	2	@m.xm1.msky130_fd_pr__nfet_01v8[cgd]	capacitance
	3	@m.xm1.msky130_fd_pr__nfet_01v8[cgs]	capacitance
	4	@m.xm1.msky130_fd_pr__nfet_01v8[gds]	admittance
	5	@m.xm1.msky130_fd_pr__nfet_01v8[gm]	admittance
	6	i(@m.xm1.msky130_fd_pr__nfet_01v8[id])	current
	7	v(@m.xm1.msky130_fd_pr__nfet_01v8[vth])	voltage
Values:
 0	0.000000000000000e+00
	-3.639202201948283e-15
	-5.975793065537179e-25
	-5.131066749774693e-18
	8.744919280441511e-26
	3.213062456202229e-23
	3.479561512619931e-25
	6.196010234658900e-01

 1	1.000000000000000e-02
	-3.623875365273428e-15
	-7.838126425929488e-25
	-5.119318403125925e-18
	2.202196889484882e-25
	8.090715454636215e-23
	8.762435986540658e-25
	6.196010234658900e-01

 2	2.000000000000000e-02
	-3.608737926885177e-15
	-1.028078751521975e-24
	-5.111377435682540e-18
	5.544271275274956e-25
	2.037028532499969e-22
	2.206038995691324e-24
	6.196010234658900e-01

 3	3.000000000000000e-02
	-3.593785812812480e-15
	-1.348457036955946e-24
	-5.108352618212088e-18
	1.395888624859855e-24
	5.128777335129060e-22
	5.554174006533863e-24
	6.196010234658900e-01

 4	4.000000000000000e-02
	-3.579014972906065e-15
	-1.768656186211098e-24
	-5.111703938374942e-18
	3.514718852996805e-24
	1.291348666700739e-21
	1.398489804047852e-23
	6.196010234658900e-01

 5	5.000000000000000e-02
	-3.564421351951489e-15
	-2.319764681730583e-24
	-5.123352695972928e-18
	8.849067908962580e-24
	3.251252752439487e-21
	3.521001754110071e-23
	6.196010234658900e-01

 6	6.000000000000000e-02
	-3.550000852888869e-15
	-3.042544049169316e-24
	-5.145825793365357e-18
	2.228033589155541e-23
	8.185723699810808e-21
	8.865238979650069e-23
	6.196010234658900e-01

 7	7.000000000000001e-02
	-3.535749289657867e-15
	-3.990431963693970e-24
	-5.182444608783141e-18
	5.609352355154272e-23
	2.060780787705688e-20
	2.231934446317985e-22
	6.196010234658900e-01

 8	8.000000000000000e-02
	-3.521662326460894e-15
	-5.233472974683005e-24
	-5.237571831098121e-18
	1.412179739995626e-22
	5.187711995453919e-20
	5.618995575031547e-22
	6.196010234658900e-01

 9	9.000000000000000e-02
	-3.507735399326684e-15
	-6.863460011812565e-24
	-5.316933369055337e-18
	3.554910929191677e-22
	1.305758852793093e-19
	1.414482039077015e-21
	6.196010234658900e-01

 10	9.999999999999999e-02
	-3.493963614732960e-15
	-9.000653896154965e-24
	-5.428037024340274e-18
	8.947638866592449e-22
	3.285949417890666e-19
	3.560222667078716e-21
	6.196010234658900e-01

 11	1.100000000000000e-01
	-3.480341618696580e-15
	-1.180255542858867e-23
	-5.580715077733420e-18
	2.251595847119453e-21
	8.266378536840477e-19
	8.958992078159485e-21
	6.196010234658900e-01

 12	1.200000000000000e-01
	-3.466863428175877e-15
	-1.547534056900083e-23
	-5.787824196334580e-18
	5.664002895881126e-21
	2.078477692969885e-18
	2.253679635368838e-20
	6.196010234658900e-01

 13	1.300000000000000e-01
	-3.453522214923046e-15
	-2.028873945453205e-23
	-6.066142802423261e-18
	1.424028506482213e-20
	5.221789820854471e-18
	5.666141250977900e-20
	6.196010234658900e-01

 14	1.400000000000000e-01
	-3.440310030243000e-15
	-2.659535007201712e-23
	-6.437512511252131e-18
	3.577163501781960e-20
	1.310180258159935e-17
	1.423336231520788e-19
	6.196010234658900e-01

 15	1.500000000000000e-01
	-3.427217457784379e-15
	-3.485563161220204e-23
	-6.930275052569144e-18
	8.973572882926598e-20
	3.280612588111233e-17
	3.570541688896107e-19
	6.196010234658900e-01

 16	1.600000000000000e-01
	-3.414233181061870e-15
	-4.567012235855606e-23
	-7.581056917242638e-18
	2.246251016741215e-19
	8.188103933417376e-17
	8.937725256216542e-19
	6.196010234658900e-01

 17	1.700000000000000e-01
	-3.401343453717701e-15
	-5.982076884415029e-23
	-8.436947382683715e-18
	5.603867466850504e-19
	2.033429745940958e-16
	2.229752036638950e-18
	6.196010234658900e-01

 18	1.800000000000000e-01
	-3.388531464644279e-15
	-7.832362631183156e-23
	-9.558097247313701e-18
	1.390721763815352e-18
	5.010597779247520e-16
	5.533615318014354e-18
	6.196010234658900e-01

 19	1.900000000000000e-01
	-3.375776598025094e-15
	-1.024955773977212e-22
	-1.102073163369445e-17
	3.423633552283780e-18
	1.220016175463916e-15
	1.362247400070128e-17
	6.196010234658900e-01

 20	2.000000000000000e-01
	-3.363053600249333e-15
	-1.340380974248258e-22
	-1.292052060379584e-17
	8.325844592750114e-18
	2.917818543098773e-15
	3.312813704529911e-17
	6.196010234658900e-01

 21	2.100000000000000e-01
	-3.350331679079276e-15
	-1.751414702778451e-22
	-1.537619712972305e-17
	1.988558228439903e-17
	6.798457763820255e-15
	7.912377992994294e-17
	6.196010234658900e-01

 22	2.200000000000001e-01
	-3.337573567581094e-15
	-2.286132905721680e-22
	-1.853328678117784e-17
	4.629242914443355e-17
	1.527401740235728e-14
	1.841953594924168e-16
	6.196010234658900e-01

 23	2.300000000000001e-01
	-3.324734569701738e-15
	-2.980357766396524e-22
	-2.256788645749140e-17
	1.040978390537528e-16
	3.271922082142926e-14
	4.142003186574393e-16
	6.196010234658900e-01

 24	2.400000000000001e-01
	-3.311761539662315e-15
	-3.879578040780150e-22
	-2.769070891416583e-17
	2.240910572842199e-16
	6.618976185370467e-14
	8.916475916712545e-16
	6.196010234658900e-01

 25	2.500000000000001e-01
	-3.298591603393024e-15
	-5.041303992779016e-22
	-3.415221610127622e-17
	4.586741300450258e-16
	1.258968492609358e-13
	1.825042416585016e-15
	6.196010234658900e-01

 26	2.600000000000001e-01
	-3.285150191967969e-15
	-6.537996896263181e-22
	-4.225064987755511e-17
	8.905213578757609e-16
	2.259270448257658e-13
	3.543341893444061e-15
	6.196010234658900e-01

 27	2.700000000000001e-01
	-3.271347654357406e-15
	-8.460798529483082e-22
	-5.234599488722374e-17
	1.644787975281141e-15
	3.866124979114372e-13
	6.544532756908979e-15
	6.196010234658913e-01

 28	2.800000000000001e-01
	-3.257073446585292e-15
	-1.092440516541335e-21
	-6.488396214050668e-17
	2.910732114022769e-15
	6.397688183701330e-13
	1.158166418657965e-14
	6.196010234658913e-01

 29	2.900000000000001e-01
	-3.242186801104928e-15
	-1.407356914664115e-21
	-8.043436607757651e-17
	4.980457444517527e-15
	1.037099371431372e-12
	1.981700305805453e-14
	6.196010234658924e-01

 30	3.000000000000001e-01
	-3.226502984669180e-15
	-1.809183840161652e-21
	-9.974730632011947e-17
	8.313252076119952e-15
	1.662385243584934e-12
	3.307803569096535e-14
	6.196010234658936e-01

 31	3.100000000000001e-01
	-3.209774777834681e-15
	-2.321321908398095e-21
	-1.238283054007557e-16
	1.363758350572720e-14
	2.649826024674830e-12
	5.426330173774594e-14
	6.196010234658950e-01

 32	3.200000000000001e-01
	-3.191669585842454e-15
	-2.973742720443430e-21
	-1.540303210400068e-16
	2.211128793906456e-14
	4.212906817127715e-12
	8.797978202647190e-14
	6.196010234658985e-01

 33	3.300000000000001e-01
	-3.171743560285362e-15
	-3.804924171131265e-21
	-1.921566163379102e-16
	3.557418645294627e-14
	6.690426683994481e-12
	1.415480517358444e-13
	6.196010234659046e-01

 34	3.400000000000001e-01
	-3.149415315024145e-15
	-4.864213621381241e-21
	-2.405636802580090e-16
	5.694804763388619e-14
	1.061981127936143e-11
	2.265937266049747e-13
	6.196010234659129e-01

 35	3.500000000000001e-01
	-3.123943371962070e-15
	-6.214578246893717e-21
	-3.022472956913516e-16
	9.087092665189108e-14
	1.685361560414178e-11
	3.615715030701875e-13
	6.196010234659262e-01

 36	3.600000000000002e-01
	-3.094413449377205e-15
	-7.935610189862185e-21
	-3.808871662195043e-16
	1.447037019448640e-13
	2.674446066718859e-11
	5.757702085557712e-13
	6.196010234659467e-01

 37	3.700000000000002e-01
	-3.059744069410253e-15
	-1.012652143707157e-20
	-4.808164204732633e-16
	2.301272961497377e-13
	4.243850178336968e-11
	9.156682912926289e-13
	6.196010234659807e-01

 38	3.800000000000002e-01
	-3.018721472805259e-15
	-1.290868740458465e-20
	-6.068728040021117e-16
	3.656771469343236e-13
	6.734108295056401e-11
	1.455018923051737e-12
	6.196010234660337e-01

 39	3.900000000000002e-01
	-2.970076695746194e-15
	-1.642709144204244e-20
	-7.640816366342939e-16
	5.807647404276814e-13
	1.068555889463822e-10
	2.310852909973537e-12
	6.196010234661181e-01

 40	4.000000000000002e-01
	-2.912616803623574e-15
	-2.084982792265251e-20
	-9.571249621937811e-16
	9.220584404765611e-13
	1.695557587585322e-10
	3.668871286888395e-12
	6.196010234662521e-01

 41	4.100000000000002e-01
	-2.845414840609345e-15
	-2.636473248923363e-20
	-1.189581927079870e-15
	1.463607175406177e-12
	2.690456995337544e-10
	5.823735996636191e-12
	6.196010234664634e-01

 42	4.200000000000002e-01
	-2.768044785857863e-15
	-3.317237139774441e-20
	-1.462998699647578e-15
	2.322901178453561e-12
	4.269108574562163e-10
	9.242997502723562e-12
	6.196010234668016e-01

 43	4.300000000000002e-01
	-2.680818590452638e-15
	-4.147519040447264e-20
	-1.775961644476720e-15
	3.686348431523302e-12
	6.773994086916914e-10
	1.466852147480532e-11
	6.196010234673351e-01

 44	4.400000000000002e-01
	-2.584952378440468e-15
	-5.146363290354931e-20
	-2.123463567668138e-15
	5.849678966315554e-12
	1.074847711907666e-09
	2.327739939076259e-11
	6.196010234681837e-01

 45	4.500000000000002e-01
	-2.482579656000190e-15
	-6.330125593069714e-20
	-2.496884345889957e-15
	9.282004231776719e-12
	1.705455618363810e-09
	3.693719966411066e-11
	6.196010234695298e-01

 46	4.600000000000002e-01
	-2.376561697752487e-15
	-7.711177322341858e-20
	-2.884773888818651e-15
	1.472733099220718e-11
	2.705953067848376e-09
	5.861079735585296e-11
	6.196010234716649e-01

 47	4.700000000000003e-01
	-2.270117196334271e-15
	-9.297094733311072e-20
	-3.274338731106872e-15
	2.336530410513282e-11
	4.293174010335573e-09
	9.299825268871884e-11
	6.196010234750530e-01

 48	4.800000000000003e-01
	-2.166369538848093e-15
	-1.109051173419055e-19
	-3.653235498995089e-15
	3.706542212075669e-11
	6.810868343042569e-09
	1.475540804053050e-10
	6.196010234804290e-01

 49	4.900000000000003e-01
	-2.067943488470356e-15
	-1.308963029740095e-19
	-4.011150283682415e-15
	5.878829355938165e-11
	1.080369193740473e-08
	2.340982863742925e-10
	6.196010234889563e-01

 50	5.000000000000002e-01
	-1.976713431721111e-15
	-1.528921149389208e-19
	-4.340767466173791e-15
	9.321701046440357e-11
	1.713388267656544e-08
	3.713648148091851e-10
	6.196010235024811e-01

 51	5.100000000000002e-01
	-1.893735922288507e-15
	-1.768178371846877e-19
	-4.638008774025693e-15
	1.477456760539993e-10
	2.716456517751113e-08
	5.890254740680767e-10
	6.196010235239273e-01

 52	5.200000000000002e-01
	-1.819333605809377e-15
	-2.025881921675649e-19
	-4.901680544974410e-15
	2.340148338564351e-10
	4.304600872271342e-08
	9.340250120730815e-10
	6.196010235579208e-01

 53	5.300000000000002e-01
	-1.753264953674929e-15
	-2.301171094758046e-19
	-5.132791572284936e-15
	3.702659627466276e-10
	6.815830980216146e-08
	1.480507942517147e-09
	6.196010236117665e-01

 54	5.400000000000003e-01
	-1.694916060133878e-15
	-2.593247831528060e-19
	-5.333792622716918e-15
	5.848774391518441e-10
	1.077849855256989e-07
	2.345255680661675e-09
	6.196010236969711e-01

 55	5.500000000000003e-01
	-1.643471540520387e-15
	-2.901420608177667e-19
	-5.507904527141014e-15
	9.214948779491092e-10
	1.701101796784777e-07
	3.711396585511661e-09
	6.196010238315791e-01

 56	5.600000000000003e-01
	-1.598044978588088e-15
	-3.225126335149297e-19
	-5.658609007225585e-15
	1.446049862587995e-09
	2.676251319454042e-07
	5.864081186722730e-09
	6.196010240436858e-01

 57	5.700000000000003e-01
	-1.557766485535741e-15
	-3.563936343790115e-19
	-5.789309528504673e-15
	2.255389784545458e-09
	4.189376734763510e-07
	9.242323285287883e-09
	6.196010243765486e-01

 58	5.800000000000003e-01
	-1.521833997412920e-15
	-3.917552149404380e-19
	-5.903134634746094e-15
	3.485747314432392e-09
	6.506727283011287e-07
	1.450987143907790e-08
	6.196010248955678e-01

 59	5.900000000000003e-01
	-1.489537874508873e-15
	-4.285795498082115e-19
	-6.002845412887597e-15
	5.316457652374043e-09
	9.984348291434472e-07
	2.264169108639520e-08
	6.196010256968075e-01

 60	6.000000000000003e-01
	-1.460267851382750e-15
	-4.668595884795724e-19
	-6.090811278126854e-15
	7.960902959243837e-09
	1.504635565160874e-06
	3.500674198169792e-08
	6.196010269151547e-01

 61	6.100000000000003e-01
	-1.433509480468192e-15
	-5.065977590879531e-19
	-6.169026051574771e-15
	1.163631074319508e-08
	2.210259673213249e-06
	5.340092360764874e-08
	6.196010287275618e-01

 62	6.200000000000003e-01
	-1.408835105600716e-15
	-5.478047430985322e-19
	-6.239144711604442e-15
	1.651299390883360e-08
	3.139937515012822e-06
	7.996241856575162e-08
	6.196010313447098e-01

 63	6.300000000000003e-01
	-1.385892619431709e-15
	-5.904983810822032e-19
	-6.302528236404914e-15
	2.266215518585331e-08
	4.286739888612234e-06
	1.169274882339397e-07
	6.196010349869427e-01

 64	6.400000000000003e-01
	-1.364393939921077e-15
	-6.347027322707385e-19
	-6.360289120532005e-15
	3.003297507213784e-08
	5.608858428365979e-06
	1.662838783377106e-07
	6.196010398501208e-01

 65	6.500000000000004e-01
	-1.344104247510361e-15
	-6.804472886080000e-19
	-6.413333623943922e-15
	3.847456725910882e-08
	7.043714874541354e-06
	2.294799549246524e-07
	6.196010460769557e-01

 66	6.600000000000004e-01
	-1.324832459676498e-15
	-7.277663323829967e-19
	-6.462398993495066e-15
	4.778699046355070e-08
	8.529909005641643e-06
	3.073269013178345e-07
	6.196010537473793e-01

 67	6.700000000000004e-01
	-1.306423085293239e-15
	-7.766984213815952e-19
	-6.508085176737722e-15
	5.777101334339237e-08
	1.002252205109563e-05
	4.000966487484960e-07
	6.196010628881863e-01

 68	6.800000000000004e-01
	-1.288749418299709e-15
	-8.272859840854632e-19
	-6.550881240081037e-15
	6.825803503287755e-08
	1.149653716429998e-05
	5.077128189512670e-07
	6.196010734918542e-01

 69	6.900000000000004e-01
	-1.271707941234232e-15
	-8.795750080432296e-19
	-6.591187033206113e-15
	7.911958023882350e-08
	1.294252143243586e-05
	6.299319159306612e-07
	6.196010855343921e-01

 70	7.000000000000004e-01
	-1.255213775539554e-15
	-9.336148061287730e-19
	-6.629330760063713e-15
	9.026437069387012e-08
	1.436038386579849e-05
	7.664677583652526e-07
	6.196010989876013e-01

 71	7.100000000000004e-01
	-1.239197012431394e-15
	-9.894578473986652e-19
	-6.665583119686477e-15
	1.016306422971166e-07
	1.575437853637920e-05
	9.170583214987377e-07
	6.196011138256653e-01

 72	7.200000000000004e-01
	-1.223599770418314e-15
	-1.047159641316240e-18
	-6.700168625663089e-15
	1.131781315259526e-07
	1.713003902758099e-05
	1.081492344855196e-06
	6.196011300277657e-01

 73	7.300000000000004e-01
	-1.208373844411967e-15
	-1.106778666034056e-18
	-6.733274635282495e-15
	1.248814777140759e-07
	1.849263757294455e-05
	1.259613408474931e-06
	6.196011475784917e-01

 74	7.400000000000004e-01
	-1.193478831840737e-15
	-1.168376333131814e-18
	-6.765058536716085e-15
	1.367253564663380e-07
	1.984657899109309e-05
	1.451313726067214e-06
	6.196011664672220e-01

 75	7.500000000000004e-01
	-1.178880640719342e-15
	-1.232016982668665e-18
	-6.795653464684636e-15
	1.487010997744985e-07
	2.119528060729511e-05
	1.656524602799211e-06
	6.196011866871846e-01

 76	7.600000000000005e-01
	-1.164550302063093e-15
	-1.297767903635831e-18
	-6.825172846072134e-15
	1.608044307347688e-07
	2.254126623480545e-05
	1.875206926912145e-06
	6.196012082345286e-01

 77	7.700000000000005e-01
	-1.150463023979500e-15
	-1.365699375910431e-18
	-6.853714018169494e-15
	1.730339786745476e-07
	2.388633065538340e-05
	2.107343034619333e-06
	6.196012311075095e-01

 78	7.800000000000005e-01
	-1.136597437245611e-15
	-1.435884730643452e-18
	-6.881361113390009e-15
	1.853903202634495e-07
	2.523170754686700e-05
	2.352930271801643e-06
	6.196012553058672e-01

 79	7.900000000000005e-01
	-1.122934992408053e-15
	-1.508400426692564e-18
	-6.908187364412273e-15
	1.978753673569871e-07
	2.657821446837476e-05
	2.611976131763950e-06
	6.196012808303372e-01

 80	8.000000000000005e-01
	-1.109459476722846e-15
	-1.583326141259776e-18
	-6.934256951529164e-15
	2.104919804671984e-07
	2.792636818128827e-05
	2.884494695415580e-06
	6.196013076823079e-01

 81	8.100000000000005e-01
	-1.096156625892547e-15
	-1.660744873339307e-18
	-6.959626488256086e-15
	2.232437280029242e-07
	2.927647206708703e-05
	3.170504081891430e-06
	6.196013358635621e-01

 82	8.200000000000005e-01
	-1.083013810848165e-15
	-1.740743058941252e-18
	-6.984346220815811e-15
	2.361347393901134e-07
	3.062868035198787e-05
	3.470024653042128e-06
	6.196013653761065e-01

 83	8.300000000000005e-01
	-1.070019784015696e-15
	-1.823410697347855e-18
	-7.008461000963362e-15
	2.491696186665711e-07
	3.198304427389887e-05
	3.783077765760219e-06
	6.196013962220444e-01

 84	8.400000000000005e-01
	-1.057164472817982e-15
	-1.908841487897338e-18
	-7.032011078888186e-15
	2.623533971791384e-07
	3.333954474254986e-05
	4.109684914999215e-06
	6.196014284034926e-01

 85	8.500000000000005e-01
	-1.044438810769683e-15
	-1.997132976983635e-18
	-7.055032752931722e-15
	2.756915117757453e-07
	3.469811516486401e-05
	4.449867151531926e-06
	6.196014619225257e-01

 86	8.600000000000005e-01
	-1.031834598572846e-15
	-2.088386715119379e-18
	-7.077558905014523e-15
	2.891897998684311e-07
	3.605865724555359e-05
	4.803644690822986e-06
	6.196014967811340e-01

 87	8.700000000000006e-01
	-1.019344389229291e-15
	-2.182708424042964e-18
	-7.099619444521509e-15
	3.028545059334624e-07
	3.742105184159730e-05
	5.171036653706209e-06
	6.196015329812014e-01

 88	8.800000000000006e-01
	-1.006961392448471e-15
	-2.280208173959769e-18
	-7.121241678580886e-15
	3.166922960547910e-07
	3.878516637263356e-05
	5.552060897334475e-06
	6.196015705244867e-01

 89	8.900000000000006e-01
	-9.946793946192846e-16
	-2.381000571104154e-18
	-7.142450622904026e-15
	3.307102784229004e-07
	4.015085985414650e-05
	5.946733907606008e-06
	6.196016094126134e-01

 90	9.000000000000006e-01
	-9.824926913909718e-16
	-2.485204955889059e-18
	-7.163269264401764e-15
	3.449160285393780e-07
	4.151798630132661e-05
	6.355070733258978e-06
	6.196016496470652e-01

 91	9.100000000000006e-01
	-9.703960305175126e-16
	-2.592945611982566e-18
	-7.183718784479487e-15
	3.593176184189717e-07
	4.288639702242670e-05
	6.777084948095742e-06
	6.196016912291780e-01

 92	9.200000000000006e-01
	-9.583845630986791e-16
	-2.704351986715846e-18
	-7.203818750098198e-15
	3.739236494342651e-07
	4.425594215845920e-05
	7.212788632127572e-06
	6.196017341601416e-01

 93	9.300000000000006e-01
	-9.464538017272657e-16
	-2.819558923286061e-18
	-7.223587278262975e-15
	3.887432886830595e-07
	4.562647171291741e-05
	7.662192365400260e-06
	6.196017784409982e-01

 94	9.400000000000006e-01
	-9.345995843483282e-16
	-2.938706905272782e-18
	-7.243041178478345e-15
	4.037863089192875e-07
	4.699783623688294e-05
	8.125305230281147e-06
	6.196018240726432e-01

 95	9.500000000000006e-01
	-9.228180428701740e-16
	-3.061942314041242e-18
	-7.262196076825131e-15
	4.190631322032863e-07
	4.836988728109762e-05
	8.602134819356505e-06
	6.196018710558228e-01

 96	9.600000000000006e-01
	-9.111055757517071e-16
	-3.189417699655459e-18
	-7.281066524614136e-15
	4.345848775146247e-07
	4.974247768993090e-05
	9.092687247007728e-06
	6.196019193911400e-01

 97	9.700000000000006e-01
	-8.994588239370384e-16
	-3.321292065977003e-18
	-7.299666094018154e-15
	4.503634126423232e-07
	5.111546178712524e-05
	9.596967163352978e-06
	6.196019690790517e-01

 98	9.800000000000006e-01
	-8.878746496249021e-16
	-3.457731170675814e-18
	-7.318007462642898e-15
	4.664114107307632e-07
	5.248869548663547e-05
	1.011497776964874e-05
	6.196020201198749e-01

 99	9.900000000000007e-01
	-8.763501174529457e-16
	-3.598907840931261e-18
	-7.336102488646759e-15
	4.827424119202440e-07
	5.386203635027387e-05
	1.064672083451943e-05
	6.196020725137815e-01

 100	1.000000000000001e+00
	-8.648824777513192e-16
	-3.745002305655601e-18
	-7.353962277737749e-15
	4.993708905823774e-07
	5.523534360643224e-05
	1.119219671055889e-05
	6.196021262608064e-01

 101	1.010000000000001e+00
	-8.534691515794267e-16
	-3.896202545126495e-18
	-7.371597243150405e-15
