Title: ** sch_path: /home/andylithia/openmpw/project-yatsuhashi-chip1/xschem/gmid_test/nmos_test.sch
Date: Sun Jul 17 22:51:45  2022
Plotname: DC transfer characteristic
Flags: real
No. Variables: 8
No. Points: 181
Variables:
	0	v(v-sweep)	voltage
	1	@m.xm1.msky130_fd_pr__nfet_01v8[cgb]	capacitance
	2	@m.xm1.msky130_fd_pr__nfet_01v8[cgd]	capacitance
	3	@m.xm1.msky130_fd_pr__nfet_01v8[cgs]	capacitance
	4	@m.xm1.msky130_fd_pr__nfet_01v8[gds]	admittance
	5	@m.xm1.msky130_fd_pr__nfet_01v8[gm]	admittance
	6	i(@m.xm1.msky130_fd_pr__nfet_01v8[id])	current
	7	v(@m.xm1.msky130_fd_pr__nfet_01v8[vth])	voltage
Values:
 0	0.000000000000000e+00
	-1.385766134370603e-15
	9.845516881837585e-20
	-3.200677059685485e-16
	2.764112015938092e-10
	1.301347325563892e-08
	7.678894418467682e-10
	5.240954969543969e-01

 1	1.000000000000000e-02
	-1.375522457946599e-15
	1.016839712996000e-19
	-3.363665181197485e-16
	3.272689283429771e-10
	1.540602045297796e-08
	9.096524706404642e-10
	5.240954969675679e-01

 2	2.000000000000000e-02
	-1.365168907059982e-15
	1.049399215811429e-19
	-3.533848294566229e-16
	3.874380856888486e-10
	1.823539003012185e-08
	1.077464601052693e-09
	5.240954969831579e-01

 3	3.000000000000000e-02
	-1.354701316097494e-15
	1.082152419407590e-19
	-3.711414592928468e-16
	4.586102804437298e-10
	2.158048052644584e-08
	1.276077785503306e-09
	5.240954970016103e-01

 4	4.000000000000000e-02
	-1.344115915082724e-15
	1.115013684976301e-19
	-3.896543743341037e-16
	5.427806596813504e-10
	2.553420513451238e-08
	1.511101166548826e-09
	5.240954970234448e-01

 5	5.000000000000000e-02
	-1.333409369942969e-15
	1.147889259489826e-19
	-4.089405340134488e-16
	6.423013033404263e-10
	3.020591735257107e-08
	1.789153039746423e-09
	5.240954970492778e-01

 6	6.000000000000000e-02
	-1.322578823170167e-15
	1.180677062516534e-19
	-4.290157300767447e-16
	7.599437039916229e-10
	3.572423976568048e-08
	2.118039039742684e-09
	5.240954970798322e-01

 7	7.000000000000001e-02
	-1.311621934451480e-15
	1.213266518594018e-19
	-4.498944215741426e-16
	8.989717942927644e-10
	4.224035878063474e-08
	2.506960888051089e-09
	5.240954971159647e-01

 8	8.000000000000000e-02
	-1.300536920803901e-15
	1.245538441207953e-19
	-4.715895665944990e-16
	1.063227193056402e-09
	4.993185697024057e-08
	2.966760712547617e-09
	5.240954971586831e-01

 9	9.000000000000000e-02
	-1.289322595709968e-15
	1.277364974243517e-19
	-4.941124522560219e-16
	1.257228574581608e-09
	5.900716456764664e-08
	3.510206713770782e-09
	5.240954972091709e-01

 10	9.999999999999999e-02
	-1.277978406719731e-15
	1.308609596463246e-19
	-5.174725246346206e-16
	1.486287323435397e-09
	6.971072269806315e-08
	4.152326822734293e-09
	5.240954972688270e-01

 11	1.100000000000000e-01
	-1.266504470958670e-15
	1.339127194111708e-19
	-5.416772204665505e-16
	1.756641917910860e-09
	8.232896326832071e-08
	4.910797981367411e-09
	5.240954973392921e-01

 12	1.200000000000000e-01
	-1.254901607963574e-15
	1.368764206152308e-19
	-5.667318025992319e-16
	2.075613788564415e-09
	9.719722420690340e-08
	5.806399793484170e-09
	5.240954974224977e-01

 13	1.300000000000000e-01
	-1.243171369259684e-15
	1.397358845899535e-19
	-5.926392012791270e-16
	2.451787720722138e-09
	1.147077341524607e-07
	6.863542556677177e-09
	5.240954975207105e-01

 14	1.400000000000000e-01
	-1.231316064093558e-15
	1.424741401928592e-19
	-6.193998634532901e-16
	2.895220206907501e-09
	1.353188179816204e-07
	8.110881111266148e-09
	5.240954976365941e-01

 15	1.500000000000000e-01
	-1.219338780748239e-15
	1.450734620126100e-19
	-6.470116123174147e-16
	3.417679499592025e-09
	1.595654940886500e-07
	9.582027551912452e-09
	5.240954977732701e-01

 16	1.600000000000000e-01
	-1.207243402890807e-15
	1.475154167606997e-19
	-6.754695193637263e-16
	4.032921456211615e-09
	1.880716565428938e-07
	1.131637766520986e-08
	5.240954979343994e-01

 17	1.700000000000000e-01
	-1.195034620437974e-15
	1.497809177974809e-19
	-7.047657911635300e-16
	4.757005592905059e-09
	2.215640607840330e-07
	1.336006801239424e-08
	5.240954981242678e-01

 18	1.800000000000000e-01
	-1.182717934472953e-15
	1.518502876070319e-19
	-7.348896730586571e-16
	5.608656052138692e-09
	2.608883612183885e-07
	1.576708290750638e-08
	5.240954983478902e-01

 19	1.900000000000000e-01
	-1.170299655806420e-15
	1.537033278958926e-19
	-7.658273718316821e-16
	6.609672417987210e-09
	3.070274840818971e-07
	1.860053319497962e-08
	5.240954986111300e-01

 20	2.000000000000000e-01
	-1.157786896845380e-15
	1.553193968478647e-19
	-7.975619992755939e-16
	7.785395450630609e-09
	3.611226607136429e-07
	2.193413176676421e-08
	5.240954989208368e-01

 21	2.100000000000000e-01
	-1.145187556515453e-15
	1.566774929241916e-19
	-8.300735383897093e-16
	9.165232820623908e-09
	4.244974968210073e-07
	2.585389425454628e-08
	5.240954992850005e-01

 22	2.200000000000001e-01
	-1.132510298073146e-15
	1.577563444586537e-19
	-8.633388336914024e-16
	1.078324975776626e-08
	4.986855147425898e-07
	3.046009738522588e-08
	5.240954997129379e-01

 23	2.300000000000001e-01
	-1.119764519743853e-15
	1.585345041640716e-19
	-8.973316068553705e-16
	1.267882913462442e-08
	5.854616808975893e-07
	3.586953222097005e-08
	5.240955002154992e-01

 24	2.400000000000001e-01
	-1.106960318226499e-15
	1.589904475440383e-19
	-9.320224985772279e-16
	1.489740481826931e-08
	6.868785226740802e-07
	4.221809507178134e-08
	5.240955008053103e-01

 25	2.500000000000001e-01
	-1.094108445215210e-15
	1.591026740946756e-19
	-9.673791372115137e-16
	1.749127107524936e-08
	8.053075512179950e-07
	4.966376545379119e-08
	5.240955014970476e-01

 26	2.600000000000001e-01
	-1.081220257199478e-15
	1.588498100893348e-19
	-1.003366234361705e-15
	2.052046932792195e-08
	9.434868419339173e-07
	5.839002828724469e-08
	5.240955023077585e-01

 27	2.700000000000001e-01
	-1.068307658914885e-15
	1.582107116671620e-19
	-1.039945707208868e-15
	2.405375155560397e-08
	1.104575785041819e-06
	6.860980682718818e-08
	5.240955032572242e-01

 28	2.800000000000001e-01
	-1.055383040923776e-15
	1.571645668971555e-19
	-1.077076826963934e-15
	2.816961703359889e-08
	1.292218204298417e-06
	8.056998385140441e-08
	5.240955043683813e-01

 29	2.900000000000001e-01
	-1.042459211906895e-15
	1.556909954644007e-19
	-1.114716392425228e-15
	3.295741583695010e-08
	1.510615249551153e-06
	9.455660163298711e-08
	5.240955056678056e-01

 30	3.000000000000001e-01
	-1.029549326340329e-15
	1.537701446262544e-19
	-1.152818927226572e-15
	3.851850855019519e-08
	1.764609689216847e-06
	1.109008463778529e-07
	5.240955071862664e-01

 31	3.100000000000001e-01
	-1.016666808314933e-15
	1.513827801138904e-19
	-1.191336898981275e-15
	4.496746689348423e-08
	2.059783445115941e-06
	1.299859401621715e-07
	5.240955089593659e-01

 32	3.200000000000001e-01
	-1.003825272325389e-15
	1.485103707088741e-19
	-1.230220958172693e-15
	5.243329451409137e-08
	2.402570396407222e-06
	1.522550827909794e-07
	5.240955110282812e-01

 33	3.300000000000001e-01
	-9.910384419115929e-16
	1.451351653042263e-19
	-1.269420194321295e-15
	6.106064107165671e-08
	2.800386589564073e-06
	1.782206068994738e-07
	5.240955134406114e-01

 34	3.400000000000001e-01
	-9.783200670744948e-16
	1.412402613637189e-19
	-1.308882406679001e-15
	7.101097610882799e-08
	3.261779968258207e-06
	2.084745310106192e-07
	5.240955162513589e-01

 35	3.500000000000001e-01
	-9.656838414109474e-16
	1.368096638191301e-19
	-1.348554386470956e-15
	8.246368227809480e-08
	3.796601502561151e-06
	2.437007154396757e-07
	5.240955195240586e-01

 36	3.600000000000002e-01
	-9.531433199168007e-16
	1.318283335902383e-19
	-1.388382207528426e-15
	9.561702062376366e-08
	4.416199054096664e-06
	2.846888423139874e-07
	5.240955233320803e-01

 37	3.700000000000002e-01
	-9.407118383944479e-16
	1.262822250730131e-19
	-1.428311522038179e-15
	1.106889142381196e-07
	5.133634350416444e-06
	3.323504499203810e-07
	5.240955277601110e-01

 38	3.800000000000002e-01
	-9.284024353705499e-16
	1.201583121139230e-19
	-1.468287858076162e-15
	1.279174912743802e-07
	5.963921938678683e-06
	3.877372483009275e-07
	5.240955329058656e-01

 39	3.900000000000002e-01
	-9.162277773825941e-16
	1.134446021678386e-19
	-1.508256915597681e-15
	1.475613246531289e-07
	6.924286834051352e-06
	4.520619215199779e-07
	5.240955388820110e-01

 40	4.000000000000002e-01
	-9.042000884306338e-16
	1.061301385202880e-19
	-1.548164857621439e-15
	1.698993045559675e-07
	8.034434689815587e-06
	5.267215753585659e-07
	5.240955458183545e-01

 41	4.100000000000002e-01
	-8.923310843145495e-16
	9.820499063620163e-20
	-1.587958593468799e-15
	1.952300816902979e-07
	9.316824669633376e-06
	6.133239098359502e-07
	5.240955538642669e-01

 42	4.200000000000002e-01
	-8.806319124896917e-16
	8.966023287362192e-20
	-1.627586051098052e-15
	2.238710250108847e-07
	1.079693086543584e-05
	7.137160765767052e-07
	5.240955631913680e-01

 43	4.300000000000002e-01
	-8.691130979768182e-16
	8.048791196744577e-20
	-1.666996435801592e-15
	2.561566476390358e-07
	1.250347327128280e-05
	8.300160155844344e-07
	5.240955739964398e-01

 44	4.400000000000002e-01
	-8.577844957585654e-16
	7.068100384165406e-20
	-1.706140472804670e-15
	2.924364694346402e-07
	1.446859434489496e-05
	9.646458511019072e-07
	5.240955865045264e-01

 45	4.500000000000002e-01
	-8.466552499866571e-16
	6.023336044584334e-20
	-1.744970631610633e-15
	3.330723040203229e-07
	1.672795258611689e-05
	1.120366662943856e-06
	5.240956009721677e-01

 46	4.600000000000002e-01
	-8.357337602143374e-16
	4.913964743027497e-20
	-1.783441330271266e-15
	3.784349815776252e-07
	1.932070101878074e-05
	1.300313645042040e-06
	5.240956176906665e-01

 47	4.700000000000003e-01
	-8.250276547595784e-16
	3.739527357136625e-20
	-1.821509118113220e-15
	4.289005454978485e-07
	2.228931678125010e-05
	1.508030331481239e-06
	5.240956369892668e-01

 48	4.800000000000003e-01
	-8.145437711988687e-16
	2.499631293559704e-20
	-1.859132835814184e-15
	4.848459895489028e-07
	2.567924904918580e-05
	1.747500234854167e-06
	5.240956592380980e-01

 49	4.900000000000003e-01
	-8.042881438909951e-16
	1.193942082283091e-20
	-1.896273752086861e-15
	5.466446307499546e-07
	2.953835698473840e-05
	2.023173933218769e-06
	5.240956848506885e-01

 50	5.000000000000002e-01
	-7.942659983369969e-16
	-1.778255438431216e-21
	-1.932895676587003e-15
	6.146612394483673e-07
	3.391611784878136e-05
	2.339989397688849e-06
	5.240957142858569e-01

 51	5.100000000000002e-01
	-7.844817520981485e-16
	-1.615916976253912e-20
	-1.968965049006299e-15
	6.892470698686948e-07
	3.886259795738001e-05
	2.703383213492519e-06
	5.240957480487559e-01

 52	5.200000000000002e-01
	-7.749390219194841e-16
	-3.120547357438239e-20
	-2.004451004635410e-15
	7.707349494751426e-07
	4.442719541942514e-05
	3.119290352739818e-06
	5.240957866908504e-01

 53	5.300000000000002e-01
	-7.656406366430188e-16
	-4.691911403275372e-20
	-2.039325416981286e-15
	8.594345920758449e-07
	5.065718257166154e-05
	3.594130339836770e-06
	5.240958308086329e-01

 54	5.400000000000003e-01
	-7.565886554429649e-16
	-6.330193321554644e-20
	-2.073562918291633e-15
	9.556282965657756e-07
	5.759609615871499e-05
	4.134778030297119e-06
	5.240958810409090e-01

 55	5.500000000000003e-01
	-7.477843908750657e-16
	-8.035576733405523e-20
	-2.107140899074913e-15
	1.059567180264060e-06
	6.528204255345375e-05
	4.748517802279350e-06
	5.240959380645409e-01

 56	5.600000000000003e-01
	-7.392284362035409e-16
	-9.808254511679078e-20
	-2.140039487904142e-15
	1.171468073598360e-06
	7.374600140257137e-05
	5.442980717372056e-06
	5.240960025886064e-01

 57	5.700000000000003e-01
	-7.309206964517533e-16
	-1.164843845857635e-19
	-2.172241512956068e-15
	1.291511172982738e-06
	8.301022180659727e-05
	6.226065100128848e-06
	5.240960753470221e-01

 58	5.800000000000003e-01
	-7.228604226157397e-16
	-1.355636875381751e-19
	-2.203732446864184e-15
	1.419838513443314e-06
	9.308680870306000e-05
	7.105841951463635e-06
	5.240961570897499e-01

 59	5.900000000000003e-01
	-7.150462484826355e-16
	-1.553232311404144e-19
	-2.234500336554702e-15
	1.556553284677473e-06
	1.039765924358147e-04
	8.090447571463715e-06
	5.240962485728212e-01

 60	6.000000000000003e-01
	-7.074762295074436e-16
	-1.757662561382670e-19
	-2.264535719791638e-15
	1.701719976761070e-06
	1.156683614227692e-04
	9.187966638449828e-06
	5.240963505474691e-01

 61	6.100000000000003e-01
	-7.001478832207961e-16
	-1.968965512840087e-19
	-2.293831530181700e-15
	1.855365307429273e-06
	1.281385172600823e-04
	1.040630969289737e-05
	5.240964637487455e-01

 62	6.200000000000003e-01
	-6.930582306659877e-16
	-2.187185336767380e-19
	-2.322382992385277e-15
	2.017479854045100e-06
	1.413511853456261e-04
	1.175308944050323e-05
	5.240965888840249e-01

 63	6.300000000000003e-01
	-6.862038383944832e-16
	-2.412373248043045e-19
	-2.350187509249188e-15
	2.188020291612336e-06
	1.552587846964935e-04
	1.323550047360944e-05
	5.240967266218235e-01

 64	6.400000000000003e-01
	-6.795808605843007e-16
	-2.644588221630474e-19
	-2.377244542523060e-15
	2.366912124245668e-06
	1.698030309639621e-04
	1.486020689718747e-05
	5.240968775813607e-01

 65	6.500000000000004e-01
	-6.731850808838976e-16
	-2.883897664133543e-19
	-2.403555488748260e-15
	2.554052791332003e-06
	1.849163195702735e-04
	1.663324194651785e-05
	5.240970423232288e-01

 66	6.600000000000004e-01
	-6.670119536244528e-16
	-3.130378041044967e-19
	-2.429123551818902e-15
	2.749315030467055e-06
	2.005234138539611e-04
	1.855992303725272e-05
	5.240972213414995e-01

 67	6.700000000000004e-01
	-6.610566440848957e-16
	-3.384115460700154e-19
	-2.453953613612335e-15
	2.952550385897824e-06
	2.165433478671260e-04
	2.064478485462159e-05
	5.240974150575050e-01

 68	6.800000000000004e-01
	-6.553140675355958e-16
	-3.645206216551793e-19
	-2.478052103975047e-15
	3.163592762137502e-06
	2.328914459103198e-04
	2.289153214032594e-05
	5.240976238154521e-01

 69	6.900000000000004e-01
	-6.497789268277961e-16
	-3.913757289903973e-19
	-2.501426871231485e-15
	3.382261936077230e-06
	2.494813610218605e-04
	2.530301285077847e-05
	5.240978478799290e-01

 70	7.000000000000004e-01
	-6.444457483357532e-16
	-4.189886815686947e-19
	-2.524087054261568e-15
	3.608366955852514e-06
	2.662270416738095e-04
	2.788121141235928e-05
	5.240980874352801e-01

 71	7.100000000000004e-01
	-6.393089160967868e-16
	-4.473724514218174e-19
	-2.546042957069364e-15
	3.841709369723993e-06
	2.830445484869584e-04
	3.062726095081527e-05
	5.240983425867412e-01

 72	7.200000000000004e-01
	-6.343627040304314e-16
	-4.765412092185349e-19
	-2.567305926643374e-15
	4.082086242403021e-06
	2.998536591311266e-04
	3.354147266959598e-05
	5.240986133631732e-01

 73	7.300000000000004e-01
	-6.296013061514028e-16
	-5.065103616307488e-19
	-2.587888234789710e-15
	4.329292929004701e-06
	3.165792178909390e-04
	3.662338002453478e-05
	5.240988997211643e-01

 74	7.400000000000004e-01
	-6.250188647218199e-16
	-5.372965863283560e-19
	-2.607802964504958e-15
	4.583125587838873e-06
	3.331522049310947e-04
	3.987179500062562e-05
	5.240992015502679e-01

 75	7.500000000000004e-01
	-6.206094963159246e-16
	-5.689178649739217e-19
	-2.627063901346982e-15
	4.843383422475053e-06
	3.495105176449902e-04
	4.328487363561342e-05
	5.240995186790803e-01

 76	7.600000000000005e-01
	-6.163673157953519e-16
	-6.013935145920563e-19
	-2.645685430160314e-15
	5.109870651016417e-06
	3.655994715429280e-04
	4.686018793688760e-05
	5.240998508819379e-01

 77	7.700000000000005e-01
	-6.122864582147768e-16
	-6.347442176894681e-19
	-2.663682437418963e-15
	5.382398206469941e-06
	3.813720402611451e-04
	5.059480147632940e-05
	5.241001978859319e-01

 78	7.800000000000005e-01
	-6.083610986965873e-16
	-6.689920514970430e-19
	-2.681070219363777e-15
	5.660785176716701e-06
	3.967888631612508e-04
	5.448534619099283e-05
	5.241005593780481e-01

 79	7.900000000000005e-01
	-6.045854703292164e-16
	-7.041605166993656e-19
	-2.697864396034315e-15
	5.944859996094494e-06
	4.118180546764767e-04
	5.852809823343280e-05
	5.241009350122201e-01

 80	8.000000000000005e-01
	-6.009538801569870e-16
	-7.402745660076993e-19
	-2.714080831226492e-15
	6.234461403202469e-06
	4.264348523253786e-04
	6.271905107329249e-05
	5.241013244161136e-01

 81	8.100000000000005e-01
	-5.974607233400524e-16
	-7.773606329212139e-19
	-2.729735558346940e-15
	6.529439181393906e-06
	4.406211405952323e-04
	6.705398442430252e-05
	5.241017271975394e-01

 82	8.200000000000005e-01
	-5.941004955713777e-16
	-8.154466610096923e-19
	-2.744844712082806e-15
	6.829654699675591e-06
	4.543648862183824e-04
	7.152852793591570e-05
	5.241021429503676e-01

 83	8.300000000000005e-01
	-5.908678038439153e-16
	-8.545621340371059e-19
	-2.759424465761281e-15
	7.134981272481826e-06
	4.676595172638533e-04
	7.613821892946128e-05
	5.241025712598917e-01

 84	8.400000000000005e-01
	-5.877573756654527e-16
	-8.947381072326449e-19
	-2.773490974235977e-15
	7.445304357119732e-06
	4.805032744503066e-04
	8.087855376335136e-05
	5.241030117076020e-01

 85	8.500000000000005e-01
	-5.847640668211873e-16
	-9.360072400018047e-19
	-2.787060322106838e-15
	7.760521607651972e-06
	4.928985585972759e-04
	8.574503267363202e-05
	5.241034638753561e-01

 86	8.600000000000005e-01
	-5.818828677851919e-16
	-9.784038303576428e-19
	-2.800148477056119e-15
	8.080542803646122e-06
	5.048512935305905e-04
	9.073319815221195e-05
	5.241039273489365e-01

 87	8.700000000000006e-01
	-5.791089088817623e-16
	-1.021963851338880e-18
	-2.812771248064365e-15
	8.405289671619324e-06
	5.163703193196898e-04
	9.583866709571356e-05
	5.241044017210450e-01

 88	8.800000000000006e-01
	-5.764374642963101e-16
	-1.066724989670496e-18
	-2.824944248256913e-15
	8.734695616191074e-06
	5.274668266419200e-04
	1.010571570858237e-04
	5.241048865937409e-01

 89	8.900000000000006e-01
	-5.738639550333170e-16
	-1.112726686911144e-18
	-2.836682862122346e-15
	9.068705376961139e-06
	5.381538394613675e-04
	1.063845072513875e-04
	5.241053815803778e-01

 90	9.000000000000006e-01
	-5.713839509158556e-16
	-1.160010183321976e-18
	-2.848002216839397e-15
	9.407274625999225e-06
	5.484457501371327e-04
	1.118166942184603e-04
	5.241058863070917e-01

 91	9.100000000000006e-01
	-5.689931717176527e-16
	-1.208618564683398e-18
	-2.858917157447150e-15
	9.750369519607197e-06
	5.583579085510360e-04
	1.173498436825509e-04
	5.241064004138661e-01

 92	9.200000000000006e-01
	-5.666874875146699e-16
	-1.258596812278097e-18
	-2.869442225594624e-15
	1.009796621672605e-05
	5.679062648461346e-04
	1.229802381426721e-04
	5.241069235552606e-01

 93	9.300000000000006e-01
	-5.644629183387398e-16
	-1.309991856253747e-18
	-2.879591641609862e-15
	1.045005037505182e-05
	5.771070638517941e-04
	1.287043213247648e-04
	5.241074554008138e-01

 94	9.400000000000006e-01
	-5.623156332112938e-16
	-1.362852632573420e-18
	-2.889379289634240e-15
	1.080661663461800e-05
	5.859765881809100e-04
	1.345186997969663e-04
	5.241079956351999e-01

 95	9.500000000000006e-01
	-5.602419486303701e-16
	-1.417230143759091e-18
	-2.898818705575491e-15
	1.116766809733195e-05
	5.945309462576249e-04
	1.404201422451361e-04
	5.241085439581535e-01

 96	9.600000000000006e-01
	-5.582383265793351e-16
	-1.473177523631384e-18
	-2.907923067641741e-15
	1.153321580973309e-05
	6.027859011059741e-04
	1.464055768372305e-04
	5.241091000842317e-01

 97	9.700000000000006e-01
	-5.563013721209268e-16
	-1.530750106248804e-18
	-2.916705189228788e-15
	1.190327825509616e-05
	6.107567355413393e-04
	1.524720870623175e-04
	5.241096637424231e-01

 98	9.800000000000006e-01
	-5.544278306354525e-16
	-1.590005499250114e-18
	-2.925177513943580e-15
	1.227788085993765e-05
	6.184581494027628e-04
	1.586169063862653e-04
	5.241102346756525e-01

 99	9.900000000000007e-01
	-5.526145847573394e-16
	-1.651003661806244e-18
	-2.933352112558084e-15
	1.265705551901214e-05
	6.259041845975432e-04
	1.648374120230984e-04
	5.241108126402038e-01

 100	1.000000000000001e+00
	-5.508586510597166e-16
	-1.713806987391771e-18
	-2.941240681699260e-15
	1.304084014200843e-05
	6.331081739596197e-04
	1.711311180798193e-04
	5.241113974050776e-01

 101	1.010000000000001e+00
	-5.491571765323664e-16
	-1.778480391590388e-18
	-2.948854544092556e-15
	1.342927822437454e-05
	6.400827102168156e-04
