Title: ** sch_path: /home/andylithia/openmpw/project-yatsuhashi-chip1/xschem/gmid_test/nmos_test.sch
Date: Sun Jul 17 22:51:45  2022
Plotname: DC transfer characteristic
Flags: real
No. Variables: 8
No. Points: 181
Variables:
	0	v(v-sweep)	voltage
	1	@m.xm1.msky130_fd_pr__nfet_01v8[cgb]	capacitance
	2	@m.xm1.msky130_fd_pr__nfet_01v8[cgd]	capacitance
	3	@m.xm1.msky130_fd_pr__nfet_01v8[cgs]	capacitance
	4	@m.xm1.msky130_fd_pr__nfet_01v8[gds]	admittance
	5	@m.xm1.msky130_fd_pr__nfet_01v8[gm]	admittance
	6	i(@m.xm1.msky130_fd_pr__nfet_01v8[id])	current
	7	v(@m.xm1.msky130_fd_pr__nfet_01v8[vth])	voltage
Values:
 0	0.000000000000000e+00
	-4.913938539476332e-15
	-1.245927136128947e-18
	-6.822905683011080e-15
	1.455008066626575e-08
	5.412970935989187e-07
	5.800551696493695e-08
	2.760180597285892e-01

 1	1.000000000000000e-02
	-4.857873019556661e-15
	-1.283689765458386e-18
	-6.950199572828767e-15
	1.593807863068396e-08
	5.935492491545470e-07
	6.367576170988614e-08
	2.760180603743188e-01

 2	2.000000000000000e-02
	-4.802268086752584e-15
	-1.322586012574924e-18
	-7.077938752641525e-15
	1.745337960703270e-08
	6.508132677916556e-07
	6.989320012403602e-08
	2.760180610823657e-01

 3	3.000000000000000e-02
	-4.747141903480202e-15
	-1.362649414810979e-18
	-7.206064527128150e-15
	1.910696944884482e-08
	7.135768623329085e-07
	7.671034979027925e-08
	2.760180618587088e-01

 4	4.000000000000000e-02
	-4.692512494490110e-15
	-1.403914514795872e-18
	-7.334517619012141e-15
	2.091069286771408e-08
	7.823778387245493e-07
	8.418485143331394e-08
	2.760180627099130e-01

 5	5.000000000000000e-02
	-4.638397703778039e-15
	-1.446416893281439e-18
	-7.463238270961233e-15
	2.287730967421256e-08
	8.578097470040360e-07
	9.237999755943511e-08
	2.760180636431873e-01

 6	6.000000000000000e-02
	-4.584815152186126e-15
	-1.490193203204044e-18
	-7.592166348977042e-15
	2.502055345230264e-08
	9.405282245148663e-07
	1.013653210004337e-07
	2.760180646664503e-01

 7	7.000000000000001e-02
	-4.531782195838954e-15
	-1.535281205034914e-18
	-7.721241446917636e-15
	2.735519263629005e-08
	1.031258114961979e-06
	1.112172506953070e-07
	2.760180657884084e-01

 8	8.000000000000000e-02
	-4.479315885555807e-15
	-1.581719803473876e-18
	-7.850402991789021e-15
	2.989709394237555e-08
	1.130801455013962e-06
	1.220198429197387e-07
	2.760180670186329e-01

 9	9.000000000000000e-02
	-4.427432927376198e-15
	-1.629549085542423e-18
	-7.979590349437060e-15
	3.266328808878251e-08
	1.240046428499199e-06
	1.338655971318852e-07
	2.760180683676584e-01

 10	9.999999999999999e-02
	-4.376149644331296e-15
	-1.678810360136585e-18
	-8.108742930269119e-15
	3.567203771938341e-08
	1.359977396674860e-06
	1.468563666456123e-07
	2.760180698470894e-01

 11	1.100000000000000e-01
	-4.325481939587836e-15
	-1.729546199101577e-18
	-8.237800294634704e-15
	3.894290742585618e-08
	1.491686121393220e-06
	1.611043754689905e-07
	2.760180714697029e-01

 12	1.200000000000000e-01
	-4.275445261085155e-15
	-1.781800479892445e-18
	-8.366702257495408e-15
	4.249683574276147e-08
	1.636384306027703e-06
	1.767333538545016e-07
	2.760180732495939e-01

 13	1.300000000000000e-01
	-4.226054567778519e-15
	-1.835618429890315e-18
	-8.495388992020052e-15
	4.635620896882508e-08
	1.795417586485020e-06
	1.938798063940512e-07
	2.760180752023102e-01

 14	1.400000000000000e-01
	-4.177324297594398e-15
	-1.891046672443793e-18
	-8.623801131745700e-15
	5.054493664619774e-08
	1.970281111193208e-06
	2.126944278486640e-07
	2.760180773450170e-01

 15	1.500000000000000e-01
	-4.129268337194817e-15
	-1.948133274711287e-18
	-8.751879870954627e-15
	5.508852850784879e-08
	2.162636854241799e-06
	2.333436833192841e-07
	2.760180796966716e-01

 16	1.600000000000000e-01
	-4.081899993639218e-15
	-2.006927797380911e-18
	-8.879567062926565e-15
	6.001417268172397e-08
	2.374332809416398e-06
	2.560115708261834e-07
	2.760180822782334e-01

 17	1.700000000000000e-01
	-4.035231968022600e-15
	-2.067481346350355e-18
	-9.006805315739071e-15
	6.535081491910758e-08
	2.607424214213372e-06
	2.809015858506396e-07
	2.760180851128829e-01

 18	1.800000000000000e-01
	-3.989276331159199e-15
	-2.129846626451438e-18
	-9.133538085301762e-15
	7.112923859400935e-08
	2.864196951470995e-06
	3.082389088785035e-07
	2.760180882262679e-01

 19	1.900000000000000e-01
	-3.944044501370763e-15
	-2.194077997308704e-18
	-9.259709765326482e-15
	7.738214520063408e-08
	3.147193271382458e-06
	3.382728384402316e-07
	2.760180916467859e-01

 20	2.000000000000000e-01
	-3.899547224428137e-15
	-2.260231531425122e-18
	-9.385265773952741e-15
	8.414423505736384e-08
	3.459239967673763e-06
	3.712794935282565e-07
	2.760180954058921e-01

 21	2.100000000000000e-01
	-3.855794555684324e-15
	-2.328365074593008e-18
	-9.510152636766831e-15
	9.145228790841753e-08
	3.803479127892292e-06
	4.075648105452472e-07
	2.760180995384342e-01

 22	2.200000000000001e-01
	-3.812795844426767e-15
	-2.398538308731918e-18
	-9.634318065972189e-15
	9.934524309876493e-08
	4.183401558275568e-06
	4.474678610435291e-07
	2.760181040830376e-01

 23	2.300000000000001e-01
	-3.770559720465754e-15
	-2.470812817260944e-18
	-9.757711035491036e-15
	1.078642789842570e-07
	4.602882957743338e-06
	4.913645173964445e-07
	2.760181090825188e-01

 24	2.400000000000001e-01
	-3.729094082965566e-15
	-2.545252153117002e-18
	-9.880281851798302e-15
	1.170528912274812e-07
	5.066222882351199e-06
	5.396714941275450e-07
	2.760181145843532e-01

 25	2.500000000000001e-01
	-3.688406091514297e-15
	-2.621921909537507e-18
	-1.000198222031279e-14
	1.269569696210016e-07
	5.578186500258449e-06
	5.928507928372167e-07
	2.760181206411675e-01

 26	2.600000000000001e-01
	-3.648502159418526e-15
	-2.700889793728520e-18
	-1.012276530719280e-14
	1.376248730734022e-07
	6.144049087118440e-06
	6.514145784226709e-07
	2.760181273113139e-01

 27	2.700000000000001e-01
	-3.609387949198717e-15
	-2.782225703549572e-18
	-1.024258579640878e-14
	1.491075023906059e-07
	6.769643152121719e-06
	7.159305134958669e-07
	2.760181346594603e-01

 28	2.800000000000001e-01
	-3.571068370251960e-15
	-2.866001807347771e-18
	-1.036139994198851e-14
	1.614583704850635e-07
	7.461408015119492e-06
	7.870275764642415e-07
	2.760181427572651e-01

 29	2.900000000000001e-01
	-3.533547578639528e-15
	-2.952292627083818e-18
	-1.047916561535501e-14
	1.747336696493832e-07
	8.226441574938838e-06
	8.654023865499796e-07
	2.760181516840953e-01

 30	3.000000000000001e-01
	-3.496828978948033e-15
	-3.041175124898254e-18
	-1.059584234770169e-14
	1.889923355387469e-07
	9.072553917965765e-06
	9.518260559768456e-07
	2.760181615278068e-01

 31	3.100000000000001e-01
	-3.460915228164759e-15
	-3.132728793272217e-18
	-1.071139136737245e-14
	2.042961075184775e-07
	1.000832231440654e-05
	1.047151585543206e-06
	2.760181723855836e-01

 32	3.200000000000001e-01
	-3.425808241500538e-15
	-3.227035748946192e-18
	-1.082577563223796e-14
	2.207095850497287e-07
	1.104314703775392e-05
	1.152321814720820e-06
	2.760181843648544e-01

 33	3.300000000000001e-01
	-3.391509200086101e-15
	-3.324180830767470e-18
	-1.093895985708252e-14
	2.383002798078125e-07
	1.218730732169908e-05
	1.268377931173482e-06
	2.760181975842502e-01

 34	3.400000000000001e-01
	-3.358018560461928e-15
	-3.424251701644715e-18
	-1.105091053603703e-14
	2.571386632543672e-07
	1.345201663929776e-05
	1.396468537087890e-06
	2.760182121746508e-01

 35	3.500000000000001e-01
	-3.325336065775753e-15
	-3.527338954798255e-18
	-1.116159596011528e-14
	2.772982094171526e-07
	1.484947635342696e-05
	1.537859260880901e-06
	2.760182282802645e-01

 36	3.600000000000002e-01
	-3.293460758596932e-15
	-3.633536224501659e-18
	-1.127098622993053e-14
	2.988554326696377e-07
	1.639292664778380e-05
	1.693942892636862e-06
	2.760182460597997e-01

 37	3.700000000000002e-01
	-3.262390995252612e-15
	-3.742940301522195e-18
	-1.137905326368855e-14
	3.218899203478379e-07
	1.809669350688348e-05
	1.866250010014661e-06
	2.760182656876703e-01

 38	3.800000000000002e-01
	-3.232124461586939e-15
	-3.855651253476601e-18
	-1.148577080057083e-14
	3.464843600938064e-07
	1.997623037527768e-05
	2.056460048349111e-06
	2.760182873552544e-01

 39	3.900000000000002e-01
	-3.202658190041812e-15
	-3.971772550328937e-18
	-1.159111439963808e-14
	3.727245618748665e-07
	2.204815299482717e-05
	2.266412754305600e-06
	2.760183112722028e-01

 40	4.000000000000002e-01
	-3.173988577955205e-15
	-4.091411195269843e-18
	-1.169506143439959e-14
	4.006994746952558e-07
	2.433026579918999e-05
	2.498119946820936e-06
	2.760183376677816e-01

 41	4.100000000000002e-01
	-3.146111406971701e-15
	-4.214677861227108e-18
	-1.179759108320744e-14
	4.305011980929085e-07
	2.684157814220920e-05
	2.753777492321803e-06
	2.760183667922357e-01

 42	4.200000000000002e-01
	-3.119021863458893e-15
	-4.341687033269982e-18
	-1.189868431564702e-14
	4.622249885990816e-07
	2.960230855757029e-05
	3.035777383556490e-06
	2.760183989181695e-01

 43	4.300000000000002e-01
	-3.092714559823027e-15
	-4.472557157184354e-18
	-1.199832387510611e-14
	4.959692614328145e-07
	3.263387519730997e-05
	3.346719793069529e-06
	2.760184343419140e-01

 44	4.400000000000002e-01
	-3.067183556617538e-15
	-4.607410794506815e-18
	-1.209649425771402e-14
	5.318355878061377e-07
	3.595887058305852e-05
	3.689424953719684e-06
	2.760184733848903e-01

 45	4.500000000000002e-01
	-3.042422385339162e-15
	-4.746374784322557e-18
	-1.219318168785058e-14
	5.699286883296955e-07
	3.960101883288184e-05
	4.066944700085012e-06
	2.760185163949176e-01

 46	4.600000000000002e-01
	-3.018424071807527e-15
	-4.889580412146187e-18
	-1.228837409043081e-14
	6.103564231320811e-07
	4.358511360458635e-05
	4.482573486571811e-06
	2.760185637474722e-01

 47	4.700000000000003e-01
	-2.995181160026275e-15
	-5.037163586220218e-18
	-1.238206106017630e-14
	6.532297794395387e-07
	4.793693512918685e-05
	4.939858681069111e-06
	2.760186158468651e-01

 48	4.800000000000003e-01
	-2.972685736425988e-15
	-5.189265021583605e-18
	-1.247423382808821e-14
	6.986628575054228e-07
	5.268314490085754e-05
	5.442609917640019e-06
	2.760186731273035e-01

 49	4.900000000000003e-01
	-2.950929454392061e-15
	-5.346030432280178e-18
	-1.256488522533898e-14
	7.467728559302357e-07
	5.785115684584583e-05
	5.994907278634338e-06
	2.760187360538169e-01

 50	5.000000000000002e-01
	-2.929903558984110e-15
	-5.507610732093862e-18
	-1.265400964480033e-14
	7.976800575720498e-07
	6.346898411469663e-05
	6.601108066390473e-06
	2.760188051230459e-01

 51	5.100000000000002e-01
	-2.909598911756441e-15
	-5.674162244220855e-18
	-1.274160300042639e-14
	8.515078174128421e-07
	6.956506103000686e-05
	7.265851918033904e-06
	2.760188808638017e-01

 52	5.200000000000002e-01
	-2.890006015593798e-15
	-5.845846920304193e-18
	-1.282766268470758e-14
	9.083825539159664e-07
	7.616804017371320e-05
	7.994064014415927e-06
	2.760189638374491e-01

 53	5.300000000000002e-01
	-2.871115039479881e-15
	-6.022832569283105e-18
	-1.291218752441012e-14
	9.684337455828991e-07
	8.330656510919359e-05
	8.790956136605519e-06
	2.760190546380164e-01

 54	5.400000000000003e-01
	-2.852915843121044e-15
	-6.205293096529302e-18
	-1.299517773481160e-14
	1.031793934589533e-06
	9.100901979677257e-05
	9.662025331091427e-06
	2.760191538920431e-01

 55	5.500000000000003e-01
	-2.835398001351630e-15
	-6.393408753766320e-18
	-1.307663487263920e-14
	1.098598739551708e-06
	9.930325636647935e-05
	1.061304995845785e-05
	2.760192622581216e-01

 56	5.600000000000003e-01
	-2.818550828252474e-15
	-6.587366400295246e-18
	-1.315656178791155e-14
	1.168986879632566e-06
	1.082163035459357e-04
	1.165008292011183e-05
	2.760193804261328e-01

 57	5.700000000000003e-01
	-2.802363400918326e-15
	-6.787359776074841e-18
	-1.323496257487985e-14
	1.243100212357278e-06
	1.177740586882524e-04
	1.277944188388175e-05
	2.760195091161270e-01

 58	5.800000000000003e-01
	-2.786824582815025e-15
	-6.993589787235099e-18
	-1.331184252225705e-14
	1.321083787639681e-06
	1.280009669863692e-04
	1.400769636200599e-05
	2.760196490768367e-01

 59	5.900000000000003e-01
	-2.771923046672013e-15
	-7.206264804628337e-18
	-1.338720806291629e-14
	1.403085920646410e-06
	1.389196920760314e-04
	1.534165153403528e-05
	2.760198010838429e-01

 60	6.000000000000003e-01
	-2.757647296860464e-15
	-7.425600976058934e-18
	-1.346106672323298e-14
	1.489258286224109e-06
	1.505507827977842e-04
	1.678832875212566e-05
	2.760199659373432e-01

 61	6.100000000000003e-01
	-2.743985691212173e-15
	-7.651822552861822e-18
	-1.353342707223599e-14
	1.579756037689238e-06
	1.629123413863092e-04
	1.835494271648751e-05
	2.760201444595493e-01

 62	6.200000000000003e-01
	-2.730926462238776e-15
	-7.885162231536921e-18
	-1.360429867072592e-14
	1.674737952826213e-06
	1.760196987610052e-04
	2.004887536359381e-05
	2.760203374917094e-01

 63	6.300000000000003e-01
	-2.718457737715850e-15
	-8.125861511183295e-18
	-1.367369202050868e-14
	1.774366609954156e-06
	1.898851028835684e-04
	2.187764656807811e-05
	2.760205458907613e-01

 64	6.400000000000003e-01
	-2.706567560600569e-15
	-8.374171067516092e-18
	-1.374161851388490e-14
	1.878808596904700e-06
	2.045174263076431e-04
	2.384888181985314e-05
	2.760207705256543e-01

 65	6.500000000000004e-01
	-2.695243908256045e-15
	-8.630351144290415e-18
	-1.380809038352580e-14
	1.988234755701692e-06
	2.199218990565663e-04
	2.597027709943662e-05
	2.760210122733410e-01

 66	6.600000000000004e-01
	-2.684474710959730e-15
	-8.894671963002118e-18
	-1.387312065285794e-14
	2.102820465648923e-06
	2.360998728162890e-04
	2.824956123523506e-05
	2.760212720144845e-01

 67	6.700000000000004e-01
	-2.674247869677206e-15
	-9.167414151777504e-18
	-1.393672308706956e-14
	2.222745967415805e-06
	2.530486221152306e-04
	3.069445608497294e-05
	2.760215506289299e-01

 68	6.800000000000004e-01
	-2.664551273086463e-15
	-9.448869194419239e-18
	-1.399891214484309e-14
	2.348196730566979e-06
	2.707611876803827e-04
	3.331263493789631e-05
	2.760218489909537e-01

 69	6.900000000000004e-01
	-2.655372813841633e-15
	-9.739339900622626e-18
	-1.405970293090868e-14
	2.479363866813670e-06
	2.892262665147313e-04
	3.611167958316004e-05
	2.760221679643772e-01

 70	7.000000000000004e-01
	-2.646700404068373e-15
	-1.003914089843301e-17
	-1.411911114950583e-14
	2.616444591079479e-06
	3.084281524468412e-04
	3.909903653137737e-05
	2.760225083975851e-01

 71	7.100000000000004e-01
	-2.638521990086431e-15
	-1.034859915007467e-17
	-1.417715305883136e-14
	2.759642732278096e-06
	3.283467299772073e-04
	4.228197290925357e-05
	2.760228711184994e-01

 72	7.200000000000004e-01
	-2.630825566358011e-15
	-1.066805449234075e-17
	-1.423384542654345e-14
	2.909169295503367e-06
	3.489575232112740e-04
	4.566753257031816e-05
	2.760232569295730e-01

 73	7.300000000000004e-01
	-2.623599188663445e-15
	-1.099786020279971e-17
	-1.428920548638406e-14
	3.065243077143276e-06
	3.702318005546696e-04
	4.926249297708890e-05
	2.760236666028999e-01

 74	7.400000000000004e-01
	-2.616830986508066e-15
	-1.133838359314419e-17
	-1.434325089597399e-14
	3.228091334259295e-06
	3.921367346848000e-04
	5.307332341091444e-05
	2.760241008754380e-01

 75	7.500000000000004e-01
	-2.610509174766925e-15
	-1.169000663107487e-17
	-1.439599969582755e-14
	3.397950509429772e-06
	4.146356161394720e-04
	5.710614505491635e-05
	2.760245604444774e-01

 76	7.600000000000005e-01
	-2.604622064576028e-15
	-1.205312659219691e-17
	-1.444747026962660e-14
	3.575067012154045e-06
	4.376881177145163e-04
	6.136669347301626e-05
	2.760250459633650e-01

 77	7.700000000000005e-01
	-2.599158073480790e-15
	-1.242815674347954e-17
	-1.449768130578721e-14
	3.759698057859692e-06
	4.612506057740332e-04
	6.586028397435211e-05
	2.760255580375597e-01

 78	7.800000000000005e-01
	-2.594105734854397e-15
	-1.281552705991798e-17
	-1.454665176034534e-14
	3.952112565560307e-06
	4.852764935833741e-04
	7.059178030828858e-05
	2.760260972210742e-01

 79	7.900000000000005e-01
	-2.589453706600098e-15
	-1.321568497612753e-17
	-1.459440082118233e-14
	4.152592115282565e-06
	5.097166309068310e-04
	7.556556708179665e-05
	2.760266640133298e-01

 80	8.000000000000005e-01
	-2.585190779153356e-15
	-1.362909617469052e-17
	-1.464094787360468e-14
	4.361431966525971e-06
	5.345197233953234e-04
	8.078552622960716e-05
	2.760272588564796e-01

 81	8.100000000000005e-01
	-2.581305882800493e-15
	-1.405624541318032e-17
	-1.468631246728774e-14
	4.578942139242040e-06
	5.596327747443944e-04
	8.625501779986275e-05
	2.760278821332199e-01

 82	8.200000000000005e-01
	-2.577788094332224e-15
	-1.449763739188918e-17
	-1.473051428458717e-14
	4.805448559125435e-06
	5.850015442433361e-04
	9.197686524579813e-05
	2.760285341651169e-01

 83	8.300000000000005e-01
	-2.574626643050770e-15
	-1.495379766439633e-17
	-1.477357311021782e-14
	5.041294269399061e-06
	6.105710121688875e-04
	9.795334533915156e-05
	2.760292152114610e-01

 84	8.400000000000005e-01
	-2.571810916150467e-15
	-1.542527359323420e-17
	-1.481550880229523e-14
	5.286840711749346e-06
	6.362858455015424e-04
	1.041861827455014e-04
	2.760299254686332e-01

 85	8.500000000000005e-01
	-2.569330463492438e-15
	-1.591263535302202e-17
	-1.485634126472993e-14
	5.542469079623966e-06
	6.620908566516967e-04
	1.106765492273775e-04
	2.760306650700338e-01

 86	8.600000000000005e-01
	-2.567175001793879e-15
	-1.641647698357921e-17
	-1.489609042096257e-14
	5.808581747742606e-06
	6.879314482637475e-04
	1.174250673696840e-04
	2.760314340864890e-01

 87	8.700000000000006e-01
	-2.565334418253752e-15
	-1.693741749565149e-17
	-1.493477618902251e-14
	6.085603782383320e-06
	7.137540376994287e-04
	1.244318186551846e-04
	2.760322325271830e-01

 88	8.800000000000006e-01
	-2.563798773635888e-15
	-1.747610203203821e-17
	-1.497241845789105e-14
	6.373984537794871e-06
	7.395064554648685e-04
	1.316963556571223e-04
	2.760330603410257e-01

 89	8.900000000000006e-01
	-2.562558304831726e-15
	-1.803320308704494e-17
	-1.500903706514622e-14
	6.674199344936494e-06
	7.651383126119244e-04
	1.392177180624403e-04
	2.760339174185037e-01

 90	9.000000000000006e-01
	-2.561603426923853e-15
	-1.860942178735786e-17
	-1.504465177586440e-14
	6.986751299665505e-06
	7.906013329862022e-04
	1.469944521936599e-04
	2.760348035938778e-01

 91	9.100000000000006e-01
	-2.560924734772346e-15
	-1.920548923758587e-17
	-1.507928226275104e-14
	7.312173158465817e-06
	8.158496470818997e-04
	1.550246336606167e-04
	2.760357186477722e-01

 92	9.200000000000006e-01
	-2.560513004145243e-15
	-1.982216793389984e-17
	-1.511294808747116e-14
	7.651029350841847e-06
	8.408400451700473e-04
	1.633058927454926e-04
	2.760366623100706e-01

 93	9.300000000000006e-01
	-2.560359192414205e-15
	-2.046025324937911e-17
	-1.514566868314823e-14
	8.003918118585081e-06
	8.655321882645046e-04
	1.718354421058213e-04
	2.760376342630642e-01

 94	9.400000000000006e-01
	-2.560454438836431e-15
	-2.112057499485790e-17
	-1.517746333799858e-14
	8.371473793253855e-06
	8.898887763553111e-04
	1.806101063702122e-04
	2.760386341448243e-01

 95	9.500000000000006e-01
	-2.560790064443136e-15
	-2.180399905927463e-17
	-1.520835118006702e-14
	8.754369224392994e-06
	9.138756741507857e-04
	1.896263532000277e-04
	2.760396615527402e-01

 96	9.600000000000006e-01
	-2.561357571554663e-15
	-2.251142913372894e-17
	-1.523835116302859e-14
	9.153318372257989e-06
	9.374619953106518e-04
	1.988803253964853e-04
	2.760407160471831e-01

 97	9.700000000000006e-01
	-2.562148642941645e-15
	-2.324380852367257e-17
	-1.526748205301987e-14
	9.569079080103491e-06
	9.606201468092231e-04
	2.083678736459170e-04
	2.760417971552296e-01

 98	9.800000000000006e-01
	-2.563155140651133e-15
	-2.400212205388929e-17
	-1.529576241646342e-14
	1.000245604245002e-05
	9.833258356306900e-04
	2.180845895152240e-04
	2.760429043744274e-01

 99	9.900000000000007e-01
	-2.564369104515935e-15
	-2.478739807116041e-17
	-1.532321060884746e-14
	1.045430398716602e-05
	1.005558040462735e-03
	2.280258383340735e-04
	2.760440371765351e-01

 100	1.000000000000001e+00
	-2.565782750364920e-15
	-2.560071054975511e-17
	-1.534984476442338e-14
	1.092553109069587e-05
	1.027298951417707e-03
	2.381867916289322e-04
	2.760451950112289e-01

 101	1.010000000000001e+00
	-2.567388467950972e-15
	-2.644318130515717e-17
	-1.537568278678303e-14
