Title: ** sch_path: /home/andylithia/openmpw/project-yatsuhashi-chip1/xschem/gmid_test/nmos_test.sch
Date: Sun Jul 17 22:51:45  2022
Plotname: DC transfer characteristic
Flags: real
No. Variables: 8
No. Points: 181
Variables:
	0	v(v-sweep)	voltage
	1	@m.xm1.msky130_fd_pr__nfet_01v8[cgb]	capacitance
	2	@m.xm1.msky130_fd_pr__nfet_01v8[cgd]	capacitance
	3	@m.xm1.msky130_fd_pr__nfet_01v8[cgs]	capacitance
	4	@m.xm1.msky130_fd_pr__nfet_01v8[gds]	admittance
	5	@m.xm1.msky130_fd_pr__nfet_01v8[gm]	admittance
	6	i(@m.xm1.msky130_fd_pr__nfet_01v8[id])	current
	7	v(@m.xm1.msky130_fd_pr__nfet_01v8[vth])	voltage
Values:
 0	0.000000000000000e+00
	-4.708241085099329e-15
	-4.569582856060829e-19
	-3.690929504295060e-15
	1.165504713346839e-09
	5.992465944565930e-08
	4.641870717908115e-09
	3.611937204442571e-01

 1	1.000000000000000e-02
	-4.654625517571840e-15
	-4.750984450594937e-19
	-3.807220121847339e-15
	1.324802487419417e-09
	6.805894712666698e-08
	5.280940501965013e-09
	3.611937205153702e-01

 2	2.000000000000000e-02
	-4.600896483714049e-15
	-4.939343479170010e-19
	-3.925441552176021e-15
	1.505363116647177e-09
	7.727648818886927e-08
	6.006658679259960e-09
	3.611937205961263e-01

 3	3.000000000000000e-02
	-4.547079456863146e-15
	-5.134904988746252e-19
	-4.045529021860463e-15
	1.709919611166701e-09
	8.771858744925936e-08
	6.830550057247899e-09
	3.611937206878046e-01

 4	4.000000000000000e-02
	-4.493201180703518e-15
	-5.337921453392381e-19
	-4.167412847329940e-15
	1.941534990335105e-09
	9.954474432587126e-08
	7.765641605541481e-09
	3.611937207918574e-01

 5	5.000000000000000e-02
	-4.439289585291279e-15
	-5.548652968218663e-19
	-4.291018559914121e-15
	2.203637918510485e-09
	1.129350369959204e-07
	8.826656061080857e-09
	3.611937209099235e-01

 6	6.000000000000000e-02
	-4.385373695816345e-15
	-5.767367450307125e-19
	-4.416267056976022e-15
	2.500061371696713e-09
	1.280928451018015e-07
	1.003023102547818e-08
	3.611937210438508e-01

 7	7.000000000000001e-02
	-4.331483534546501e-15
	-5.994340847117623e-19
	-4.543074778743097e-15
	2.835084434389824e-09
	1.452479658941732e-07
	1.139516720705437e-08
	3.611937211957363e-01

 8	8.000000000000000e-02
	-4.277650016468432e-15
	-6.229857352873743e-19
	-4.671353910223535e-15
	3.213477295149835e-09
	1.646601882524275e-07
	1.294271005560436e-08
	3.611937213679389e-01

 9	9.000000000000000e-02
	-4.223904839208435e-15
	-6.474209633453507e-19
	-4.801012607362283e-15
	3.640549470409480e-09
	1.866233999767849e-07
	1.469686973588215e-08
	3.611937215631368e-01

 10	9.999999999999999e-02
	-4.170280367877079e-15
	-6.727699060338768e-19
	-4.931955246367994e-15
	4.122201237948218e-09
	2.114703161482951e-07
	1.668478520056139e-08
	3.611937217843436e-01

 11	1.100000000000000e-01
	-4.116809515539025e-15
	-6.990635954194182e-19
	-5.064082694918690e-15
	4.664978203470033e-09
	2.395779301743745e-07
	1.893713906931761e-08
	3.611937220349760e-01

 12	1.200000000000000e-01
	-4.063525620058573e-15
	-7.263339838679594e-19
	-5.197292603745987e-15
	5.276128855165988e-09
	2.713738042474580e-07
	2.148863111143974e-08
	3.611937223188961e-01

 13	1.300000000000000e-01
	-4.010462318113826e-15
	-7.546139705116940e-19
	-5.331479716897555e-15
	5.963664881505346e-09
	3.073433320667177e-07
	2.437851937655668e-08
	3.611937226404738e-01

 14	1.400000000000000e-01
	-3.957653417206297e-15
	-7.839374288663244e-19
	-5.466536198795583e-15
	6.736423936565684e-09
	3.480381233447911e-07
	2.765123942971772e-08
	3.611937230046496e-01

 15	1.500000000000000e-01
	-3.905132766518177e-15
	-8.143392356661249e-19
	-5.602351976043114e-15
	7.604134435091559e-09
	3.940856761392232e-07
	3.135711372534146e-08
	3.611937234170262e-01

 16	1.600000000000000e-01
	-3.852934127485272e-15
	-8.458553009870914e-19
	-5.738815091786771e-15
	8.577481846715377e-09
	4.462005184153502e-07
	3.555316489324916e-08
	3.611937238839498e-01

 17	1.700000000000000e-01
	-3.801091044960347e-15
	-8.785225997303654e-19
	-5.875812070321356e-15
	9.668175836417734e-09
	5.051970131171797e-07
	4.030404859110563e-08
	3.611937244126132e-01

 18	1.800000000000000e-01
	-3.749636719838320e-15
	-9.123792045412729e-19
	-6.013228289525070e-15
	1.088901746801705e-08
	5.720040296545532e-07
	4.568312356786905e-08
	3.611937250111799e-01

 19	1.900000000000000e-01
	-3.698603884001986e-15
	-9.474643202419510e-19
	-6.150948358642519e-15
	1.225396555157070e-08
	6.476816869335108e-07
	5.177367862935842e-08
	3.611937256889211e-01

 20	2.000000000000000e-01
	-3.648024678424486e-15
	-9.838183198577636e-19
	-6.288856498888540e-15
	1.377820107706905e-08
	7.334403662422526e-07
	5.867033822292238e-08
	3.611937264563634e-01

 21	2.100000000000000e-01
	-3.597930535233342e-15
	-1.021482782321012e-18
	-6.426836924328472e-15
	1.547818853953203e-08
	8.306621734118925e-07
	6.648067025821129e-08
	3.611937273254804e-01

 22	2.200000000000001e-01
	-3.548352064500281e-15
	-1.060500531938235e-18
	-6.564774220502906e-15
	1.737173282911995e-08
	9.409249952952982e-07
	7.532702141771045e-08
	3.611937283098847e-01

 23	2.300000000000001e-01
	-3.499318946472888e-15
	-1.100915679709908e-18
	-6.702553718302454e-15
	1.947803023942552e-08
	1.066029242110158e-06
	8.534860641096207e-08
	3.611937294250705e-01

 24	2.400000000000001e-01
	-3.450859829907956e-15
	-1.142773666594994e-18
	-6.840061860664807e-15
	2.181771204365830e-08
	1.208027290904621e-06
	9.670387818081991e-08
	3.611937306886700e-01

 25	2.500000000000001e-01
	-3.403002237104107e-15
	-1.186121308815144e-18
	-6.977186559757321e-15
	2.441287900836166e-08
	1.369255542898604e-06
	1.095732057330735e-07
	3.611937321207550e-01

 26	2.600000000000001e-01
	-3.355772476162936e-15
	-1.231006845297721e-18
	-7.113817542424237e-15
	2.728712516435622e-08
	1.552368875921340e-06
	1.241618847555717e-07
	3.611937337441737e-01

 27	2.700000000000001e-01
	-3.309195560935379e-15
	-1.277479987358915e-18
	-7.249846681815707e-15
	3.046554914155523e-08
	1.760377110857493e-06
	1.407035032193663e-07
	3.611937355849223e-01

 28	2.800000000000001e-01
	-3.263295139033537e-15
	-1.325591970732935e-18
	-7.385168313273799e-15
	3.397475140467791e-08
	1.996682917765004e-06
	1.594636794022844e-07
	3.611937376725591e-01

 29	2.900000000000001e-01
	-3.218093428209526e-15
	-1.375395610056001e-18
	-7.519679532726103e-15
	3.784281580663941e-08
	2.265120365112446e-06
	1.807441829431308e-07
	3.611937400406689e-01

 30	3.000000000000001e-01
	-3.173611161322838e-15
	-1.426945355918884e-18
	-7.653280476028313e-15
	4.209927401049054e-08
	2.569993069072777e-06
	2.048874403536976e-07
	3.611937427273593e-01

 31	3.100000000000001e-01
	-3.129867540037533e-15
	-1.480297354604387e-18
	-7.785874577898648e-15
	4.677505152284304e-08
	2.916110636857828e-06
	2.322814146792951e-07
	3.611937457758091e-01

 32	3.200000000000001e-01
	-3.086880197311008e-15
	-1.535509510632384e-18
	-7.917368809298736e-15
	5.190239433361681e-08
	3.308821830078682e-06
	2.633648345962890e-07
	3.611937492348425e-01

 33	3.300000000000001e-01
	-3.044665168658977e-15
	-1.592641552237653e-18
	-8.047673892331179e-15
	5.751477546848602e-08
	3.754042616128242e-06
	2.986327311886518e-07
	3.611937531595572e-01

 34	3.400000000000001e-01
	-3.003236872106300e-15
	-1.651755099912464e-18
	-8.176704491944559e-15
	6.364678112907007e-08
	4.258277046161037e-06
	3.386422211454545e-07
	3.611937576119573e-01

 35	3.500000000000001e-01
	-2.962608096662935e-15
	-1.712913738149730e-18
	-8.304379383954240e-15
	7.033397651650939e-08
	4.828628718861896e-06
	3.840184535578210e-07
	3.611937626616153e-01

 36	3.600000000000002e-01
	-2.922789999097760e-15
	-1.776183090528505e-18
	-8.430621599103777e-15
	7.761275189889401e-08
	5.472800483262426e-06
	4.354606144842255e-07
	3.611937683863526e-01

 37	3.700000000000002e-01
	-2.883792108721922e-15
	-1.841630898290163e-18
	-8.555358543101788e-15
	8.552014998167533e-08
	6.199080025246358e-06
	4.937478598510829e-07
	3.611937748728870e-01

 38	3.800000000000002e-01
	-2.845622339838464e-15
	-1.909327102558122e-18
	-8.678522092769352e-15
	9.409367615980980e-08
	7.016309093520350e-06
	5.597450241485564e-07
	3.611937822174742e-01

 39	3.900000000000002e-01
	-2.808287011465526e-15
	-1.979343930362729e-18
	-8.800048668625123e-15
	1.033710937560700e-07
	7.933834370512663e-06
	6.344079310657115e-07
	3.611937905264959e-01

 40	4.000000000000002e-01
	-2.771790873898296e-15
	-2.051755984638098e-18
	-8.919879284412450e-15
	1.133902068650665e-07
	8.961438394618128e-06
	7.187881141391515e-07
	3.611937999169941e-01

 41	4.100000000000002e-01
	-2.736137141638741e-15
	-2.126640338366212e-18
	-9.037959574238101e-15
	1.241886339093293e-07
	1.010924949674419e-05
	8.140367422081697e-07
	3.611938105170941e-01

 42	4.200000000000002e-01
	-2.701327532193694e-15
	-2.204076633051712e-18
	-9.154239798139280e-15
	1.358035754541252e-07
	1.138763042001904e-05
	9.214075375103693e-07
	3.611938224663409e-01

 43	4.300000000000002e-01
	-2.667362310219219e-15
	-2.284147181718229e-18
	-9.268674827029199e-15
	1.482715802038821e-07
	1.280704612865869e-05
	1.042258475029979e-06
	3.611938359158847e-01

 44	4.400000000000002e-01
	-2.634240336473971e-15
	-2.366937076627284e-18
	-9.381224108085757e-15
	1.616283133983236e-07
	1.437791224959952e-05
	1.178052061393761e-06
	3.611938510285099e-01

 45	4.500000000000002e-01
	-2.601959121035120e-15
	-2.452534301930071e-18
	-9.491851611745369e-15
	1.759083320261769e-07
	1.611042658579513e-05
	1.330354010998312e-06
	3.611938679784903e-01

 46	4.600000000000002e-01
	-2.570514880227440e-15
	-2.541029851471998e-18
	-9.600525761544085e-15
	1.911448713665093e-07
	1.801438713989472e-05
	1.500830166465471e-06
	3.611938869512482e-01

 47	4.700000000000003e-01
	-2.539902596718695e-15
	-2.632517851982070e-18
	-9.707219348110928e-15
	2.073696473439648e-07
	2.009900103086030e-05
	1.691241549707436e-06
	3.611939081427964e-01

 48	4.800000000000003e-01
	-2.510116082242966e-15
	-2.727095691889097e-18
	-9.811909428663303e-15
	2.246126790397527e-07
	2.237268951013410e-05
	1.903437477960296e-06
	3.611939317589794e-01

 49	4.900000000000003e-01
	-2.481148042425906e-15
	-2.824864156021453e-18
	-9.914577213384450e-15
	2.429021354352999e-07
	2.484289492610262e-05
	2.139346734604374e-06
	3.611939580144842e-01

 50	5.000000000000002e-01
	-2.452990143203348e-15
	-2.925927566456993e-18
	-1.001520794007626e-14
	2.622642100844339e-07
	2.751589589053000e-05
	2.400966845324410e-06
	3.611939871316528e-01

 51	5.100000000000002e-01
	-2.425633078345499e-15
	-3.030393929807469e-18
	-1.011379073848087e-14
	2.827230269224233e-07
	3.039663702522270e-05
	2.690351573576072e-06
	3.611940193390832e-01

 52	5.200000000000002e-01
	-2.399066637623046e-15
	-3.138375091233626e-18
	-1.021031848564986e-14
	3.043005798398067e-07
	3.348857948476112e-05
	3.009596812460941e-06
	3.611940548700625e-01

 53	5.300000000000002e-01
	-2.373279775178174e-15
	-3.249986895504751e-18
	-1.030478765371519e-14
	3.270167079939230e-07
	3.679357795487532e-05
	3.360825109851253e-06
	3.611940939608407e-01

 54	5.400000000000003e-01
	-2.348260677692545e-15
	-3.365349355432221e-18
	-1.039719815137833e-14
	3.508891081227350e-07
	4.031178903046799e-05
	3.746169116861820e-06
	3.611941368487969e-01

 55	5.500000000000003e-01
	-2.323996831974509e-15
	-3.484586828026307e-18
	-1.048755316038910e-14
	3.759333843879348e-07
	4.404161481806851e-05
	4.167754293709558e-06
	3.611941837704973e-01

 56	5.600000000000003e-01
	-2.300475091619643e-15
	-3.607828198741740e-18
	-1.057585896823067e-14
	4.021631355328443e-07
	4.797968433914921e-05
	4.627681239249114e-06
	3.611942349597491e-01

 57	5.700000000000003e-01
	-2.277681742430776e-15
	-3.735207074200461e-18
	-1.066212479816723e-14
	4.295900784214291e-07
	5.212087390279516e-05
	5.128008029279154e-06
	3.611942906456103e-01

 58	5.800000000000003e-01
	-2.255602566316298e-15
	-3.866861983799522e-18
	-1.074636263774335e-14
	4.582242063521553e-07
	5.645836614766508e-05
	5.670732953060223e-06
	3.611943510504913e-01

 59	5.900000000000003e-01
	-2.234222903417691e-15
	-4.002936590635827e-18
	-1.082858706675468e-14
	4.880739799382104e-07
	6.098374600666704e-05
	6.257778027194583e-06
	3.611944163883044e-01

 60	6.000000000000003e-01
	-2.213527712249079e-15
	-4.143579912202522e-18
	-1.090881508563474e-14
	5.191465478325315e-07
	6.568713050274820e-05
	6.890973641696443e-06
	3.611944868627620e-01

 61	6.100000000000003e-01
	-2.193501627662859e-15
	-4.288946551338315e-18
	-1.098706594512700e-14
	5.514479941687646e-07
	7.055732811155406e-05
	7.572044656123767e-06
	3.611945626658254e-01

 62	6.200000000000003e-01
	-2.174129016484927e-15
	-4.439196937936519e-18
	-1.106336097803528e-14
	5.849836092980992e-07
	7.558202248333827e-05
	8.302598216060019e-06
	3.611946439763512e-01

 63	6.300000000000003e-01
	-2.155394030692241e-15
	-4.594497581949785e-18
	-1.113772343376721e-14
	6.197581802332469e-07
	8.074797464217794e-05
	9.084113504541215e-06
	3.611947309589535e-01

 64	6.400000000000003e-01
	-2.137280658032166e-15
	-4.755021338257244e-18
	-1.121017831631066e-14
	6.557762971653896e-07
	8.604123739586013e-05
	9.917933582026332e-06
	3.611948237630903e-01

 65	6.500000000000004e-01
	-2.119772770009072e-15
	-4.920947683989219e-18
	-1.128075222620698e-14
	6.930426724938445e-07
	9.144737559616784e-05
	1.080525940512946e-05
	3.611949225224040e-01

 66	6.600000000000004e-01
	-2.102854167187134e-15
	-5.092463008942587e-18
	-1.134947320701293e-14
	7.315624689931611e-07
	9.695168607036561e-05
	1.174714605141252e-05
	3.611950273542988e-01

 67	6.700000000000004e-01
	-2.086508621780743e-15
	-5.269760919751524e-18
	-1.141637059667252e-14
	7.713416340264940e-07
	1.025394114691053e-04
	1.274450111767783e-05
	3.611951383597645e-01

 68	6.800000000000004e-01
	-2.070719917523883e-15
	-5.453042558516820e-18
	-1.148147488415297e-14
	8.123872370828807e-07
	1.081959429010981e-04
	1.379808520463149e-05
	3.611952556234323e-01

 69	6.900000000000004e-01
	-2.055471886828474e-15
	-5.642516936636650e-18
	-1.154481757163546e-14
	8.547078083531614e-07
	1.139070070008310e-04
	1.490851435327100e-05
	3.611953792138415e-01

 70	7.000000000000004e-01
	-2.040748445258040e-15
	-5.838401284622518e-18
	-1.160643104249084e-14
	8.983136765475395e-07
	1.196588339494241e-04
	1.607626425912494e-05
	3.611955091839130e-01

 71	7.100000000000004e-01
	-2.026533623358040e-15
	-6.040921418728028e-18
	-1.166634843521476e-14
	9.432173046807451e-07
	1.254383038884003e-04
	1.730167606026382e-05
	3.611956455716006e-01

 72	7.200000000000004e-01
	-2.012811595896837e-15
	-6.250312125265666e-18
	-1.172460352344456e-14
	9.894336230922791e-07
	1.312330700836004e-04
	1.858496347401444e-05
	3.611957884006676e-01

 73	7.300000000000004e-01
	-1.999566708583004e-15
	-6.466817563532286e-18
	-1.178123060213182e-14
	1.036980359515096e-06
	1.370316580702495e-04
	1.992622104530545e-05
	3.611959376816201e-01

 74	7.400000000000004e-01
	-1.986783502333878e-15
	-6.690691688320967e-18
	-1.183626437990111e-14
	1.085878366545115e-06
	1.428235408070221e-04
	2.132543326595675e-05
	3.611960934127204e-01

 75	7.500000000000004e-01
	-1.974446735178578e-15
	-6.922198693046382e-18
	-1.188973987758574e-14
	1.136151947386018e-06
	1.485991905623397e-04
	2.278248432807970e-05
	3.611962555810661e-01

 76	7.600000000000005e-01
	-1.962541401885392e-15
	-7.161613474571623e-18
	-1.194169233289525e-14
	1.187829181242507e-06
	1.543501088346261e-04
	2.429716828498429e-05
	3.611964241637267e-01

 77	7.700000000000005e-01
	-1.951052751408556e-15
	-7.409222120885103e-18
	-1.199215711113782e-14
	1.240942250207134e-06
	1.600688360627381e-04
	2.586919940839773e-05
	3.611965991288918e-01

 78	7.800000000000005e-01
	-1.939966302253579e-15
	-7.665322422839659e-18
	-1.204116962189290e-14
	1.295527769928762e-06
	1.657489432133237e-04
	2.749822255011423e-05
	3.611967804370294e-01

 79	7.900000000000005e-01
	-1.929267855863177e-15
	-7.930224411234489e-18
	-1.208876524150477e-14
	1.351627126766678e-06
	1.713850075446285e-04
	2.918382333823130e-05
	3.611969680420165e-01

 80	8.000000000000005e-01
	-1.918943508127582e-15
	-8.204250920595019e-18
	-1.213497924124687e-14
	1.409286824525806e-06
	1.769725749518308e-04
	3.092553806173493e-05
	3.611971618922369e-01

 81	8.100000000000005e-01
	-1.908979659124024e-15
	-8.487738181077502e-18
	-1.217984672098902e-14
	1.468558844240978e-06
	1.825081113110559e-04
	3.272286312138159e-05
	3.611973619316369e-01

 82	8.200000000000005e-01
	-1.899363021190189e-15
	-8.781036440010011e-18
	-1.222340254818491e-14
	1.529501020838127e-06
	1.879889451732463e-04
	3.457526394872658e-05
	3.611975681007208e-01

 83	8.300000000000005e-01
	-1.890080625435567e-15
	-9.084510614665237e-18
	-1.226568130198546e-14
	1.592177440855636e-06
	1.934132040310573e-04
	3.648218331806938e-05
	3.611977803374664e-01

 84	8.400000000000005e-01
	-1.881119826793583e-15
	-9.398540977949800e-18
	-1.230671722227403e-14
	1.656658865768261e-06
	1.987797462075239e-04
	3.844304899746741e-05
	3.611979985781824e-01

 85	8.500000000000005e-01
	-1.872468307715217e-15
	-9.723523878790474e-18
	-1.234654416341266e-14
	1.723023185829810e-06
	2.040880902091257e-04
	4.045728070445803e-05
	3.611982227582864e-01

 86	8.600000000000005e-01
	-1.864114080602303e-15
	-1.005987249909926e-17
	-1.238519555248402e-14
	1.791355909748370e-06
	2.093383431609560e-04
	4.252429634943439e-05
	3.611984528129872e-01

 87	8.700000000000006e-01
	-1.856045489076356e-15
	-1.040801764930416e-17
	-1.242270435180991e-14
	1.861750695940802e-06
	2.145311297092184e-04
	4.464351756463025e-05
	3.611986886779119e-01

 88	8.800000000000006e-01
	-1.848251208174941e-15
	-1.076840860454627e-17
	-1.245910302552718e-14
	1.934309931593598e-06
	2.196675225454920e-04
	4.681437452937139e-05
	3.611989302896367e-01

 89	8.900000000000006e-01
	-1.840720243564693e-15
	-1.114151398375860e-17
	-1.249442351000128e-14
	2.009145366295987e-06
	2.247489754852141e-04
	4.903631011266357e-05
	3.611991775861503e-01

 90	9.000000000000006e-01
	-1.833441929856215e-15
	-1.152782267397427e-17
	-1.252869718786002e-14
	2.086378807622551e-06
	2.297772598251554e-04
	5.130878336246245e-05
	3.611994305072453e-01

 91	9.100000000000006e-01
	-1.826405928102156e-15
	-1.192784480233557e-17
	-1.256195486543276e-14
	2.166142886739718e-06
	2.347544045149101e-04
	5.363127237725279e-05
	3.611996889948278e-01

 92	9.200000000000006e-01
	-1.819602222556182e-15
	-1.234211275842103e-17
	-1.259422675338412e-14
	2.248581902907733e-06
	2.396826405078528e-04
	5.600327660003866e-05
	3.611999529931817e-01

 93	9.300000000000006e-01
	-1.813021116766189e-15
	-1.277118226965121e-17
	-1.262554245033614e-14
	2.333852756664477e-06
	2.445643495087271e-04
	5.842431857775126e-05
	3.612002224491616e-01

 94	9.400000000000006e-01
	-1.806653229071245e-15
	-1.321563353269014e-17
	-1.265593092927853e-14
	2.422125982525890e-06
	2.494020172079576e-04
	6.089394523059001e-05
	3.612004973123361e-01

 95	9.500000000000006e-01
	-1.800489487567836e-15
	-1.367607240392350e-17
	-1.268542052657231e-14
	2.513586893240307e-06
	2.541981909863161e-04
	6.341172867616725e-05
	3.612007775350728e-01

 96	9.600000000000006e-01
	-1.794521124606810e-15
	-1.415313165226385e-17
	-1.271403893335905e-14
	2.608436849011637e-06
	2.589554419863858e-04
	6.597726665270401e-05
	3.612010630725974e-01

 97	9.700000000000006e-01
	-1.788739670878475e-15
	-1.464747227771923e-17
	-1.274181318919489e-14
	2.706894666684400e-06
	2.636763313778199e-04
	6.859018258413879e-05
	3.612013538829904e-01

 98	9.800000000000006e-01
	-1.783136949139695e-15
	-1.515978489934708e-17
	-1.276876967773557e-14
	2.809198185687557e-06
	2.683633805896822e-04
	7.125012532798700e-05
	3.612016499271595e-01

 99	9.900000000000007e-01
	-1.777705067632802e-15
	-1.569079121641908e-17
	-1.279493412430618e-14
	2.915606009596258e-06
	2.730190452433527e-04
	7.395676864431346e-05
	3.612019511687879e-01

 100	1.000000000000001e+00
	-1.772436413242676e-15
	-1.624124554683330e-17
	-1.282033159519692e-14
	3.026399444524711e-06
	2.776456924915736e-04
	7.670981042137623e-05
	3.612022575742457e-01

 101	1.010000000000001e+00
	-1.767323644434661e-15
	-1.681193644703179e-17
	-1.284498649853394e-14
