Title: ** sch_path: /home/andylithia/openmpw/project-yatsuhashi-chip1/xschem/gmid_test/nmos_test.sch
Date: Sun Jul 17 22:51:45  2022
Plotname: DC transfer characteristic
Flags: real
No. Variables: 8
No. Points: 181
Variables:
	0	v(v-sweep)	voltage
	1	@m.xm1.msky130_fd_pr__nfet_01v8[cgb]	capacitance
	2	@m.xm1.msky130_fd_pr__nfet_01v8[cgd]	capacitance
	3	@m.xm1.msky130_fd_pr__nfet_01v8[cgs]	capacitance
	4	@m.xm1.msky130_fd_pr__nfet_01v8[gds]	admittance
	5	@m.xm1.msky130_fd_pr__nfet_01v8[gm]	admittance
	6	i(@m.xm1.msky130_fd_pr__nfet_01v8[id])	current
	7	v(@m.xm1.msky130_fd_pr__nfet_01v8[vth])	voltage
Values:
 0	0.000000000000000e+00
	-3.261041456386857e-15
	-4.082084215393573e-19
	-3.229413951007510e-15
	1.190538726681852e-08
	4.670502750966284e-07
	4.433176586533539e-08
	3.500921569466960e-01

 1	1.000000000000000e-02
	-3.225669026443485e-15
	-4.229954190420169e-19
	-3.306358240802508e-15
	1.321373576851108e-08
	5.181497305705664e-07
	4.925341402128407e-08
	3.500921574726290e-01

 2	2.000000000000000e-02
	-3.190436748710356e-15
	-4.383022092773014e-19
	-3.384030682444218e-15
	1.466208394984614e-08
	5.747432098352721e-07
	5.471306536645806e-08
	3.500921580560561e-01

 3	3.000000000000000e-02
	-3.155358005920439e-15
	-4.541450822697148e-19
	-3.462393608645712e-15
	1.626480211082582e-08
	6.374131921150614e-07
	6.076852349307246e-08
	3.500921587031506e-01

 4	4.000000000000000e-02
	-3.120446414288508e-15
	-4.705407472630914e-19
	-3.541408037232177e-15
	1.803763981246366e-08
	7.068041569218377e-07
	6.748372133443322e-08
	3.500921594207472e-01

 5	5.000000000000000e-02
	-3.085715786041801e-15
	-4.875063428792624e-19
	-3.621033741046668e-15
	1.999784372884387e-08
	7.836295093901669e-07
	7.492937511934691e-08
	3.500921602164031e-01

 6	6.000000000000000e-02
	-3.051180091126553e-15
	-5.050594477930541e-19
	-3.701229322702575e-15
	2.216428344688286e-08
	8.686793681514235e-07
	8.318371179774830e-08
	3.500921610984754e-01

 7	7.000000000000001e-02
	-3.016853418243503e-15
	-5.232180919573038e-19
	-3.781952293922459e-15
	2.455758544840116e-08
	9.628293368856492e-07
	9.233327915486595e-08
	3.500921620762150e-01

 8	8.000000000000000e-02
	-2.982749935371913e-15
	-5.420007684129990e-19
	-3.863159159173471e-15
	2.720027547084814e-08
	1.067050398019699e-06
	1.024738491276415e-07
	3.500921631598584e-01

 9	9.000000000000000e-02
	-2.948883849946792e-15
	-5.614264457194986e-19
	-3.944805503280823e-15
	3.011692939717864e-08
	1.182420086369064e-06
	1.137114263166837e-07
	3.500921643607298e-01

 10	9.999999999999999e-02
	-2.915269368858304e-15
	-5.815145810407947e-19
	-4.026846082674328e-15
	3.333433277154666e-08
	1.310135121898229e-06
	1.261633753701359e-07
	3.500921656913747e-01

 11	1.100000000000000e-01
	-2.881920658445096e-15
	-6.022851339242325e-19
	-4.109234919899170e-15
	3.688164897530233e-08
	1.451525704190073e-06
	1.399596828229895e-07
	3.500921671656813e-01

 12	1.200000000000000e-01
	-2.848851804655214e-15
	-6.237585808081281e-19
	-4.191925400999115e-15
	4.079059602695745e-08
	1.608071696575439e-06
	1.552443711263566e-07
	3.500921687990463e-01

 13	1.300000000000000e-01
	-2.816076773548540e-15
	-6.459559302958641e-19
	-4.274870375361801e-15
	4.509563189028299e-08
	1.781420954988508e-06
	1.721770850149915e-07
	3.500921706085259e-01

 14	1.400000000000000e-01
	-2.783609372314055e-15
	-6.688987392334108e-19
	-4.358022257597863e-15
	4.983414808641170e-08
	1.973410085151306e-06
	1.909348730534033e-07
	3.500921726130420e-01

 15	1.500000000000000e-01
	-2.751463210972939e-15
	-6.926091296283796e-19
	-4.441333131012963e-15
	5.504667130910052e-08
	2.186087941170588e-06
	2.117141901838425e-07
	3.500921748335919e-01

 16	1.600000000000000e-01
	-2.719651664935285e-15
	-7.171098064486313e-19
	-4.524754852220271e-15
	6.077707263736696e-08
	2.421742208365657e-06
	2.347331503787932e-07
	3.500921772934837e-01

 17	1.700000000000000e-01
	-2.688187838573498e-15
	-7.424240763385878e-19
	-4.608239156433703e-15
	6.707278382726888e-08
	2.682929442229601e-06
	2.602340620749952e-07
	3.500921800186127e-01

 18	1.800000000000000e-01
	-2.657084529969638e-15
	-7.685758672918950e-19
	-4.691737762977936e-15
	7.398502004541557e-08
	2.972508962682643e-06
	2.884862829231735e-07
	3.500921830377682e-01

 19	1.900000000000000e-01
	-2.626354196986867e-15
	-7.955897493196348e-19
	-4.775202480550700e-15
	8.156900828194119e-08
	3.293681026728224e-06
	3.197894345021304e-07
	3.500921863829716e-01

 20	2.000000000000000e-01
	-2.596008924807190e-15
	-8.234909561528312e-19
	-4.858585311774778e-15
	8.988422055141811e-08
	3.650029721460803e-06
	3.544770219757936e-07
	3.500921900898638e-01

 21	2.100000000000000e-01
	-2.566060395068404e-15
	-8.523054080190760e-19
	-4.941838556583531e-15
	9.899461085808965e-08
	4.045571030930242e-06
	3.929205081556073e-07
	3.500921941981479e-01

 22	2.200000000000001e-01
	-2.536519856723106e-15
	-8.820597355333481e-19
	-5.024914913992855e-15
	1.089688547687035e-07
	4.484806532094565e-06
	4.355338959832077e-07
	3.500921987520695e-01

 23	2.300000000000001e-01
	-2.507398098731727e-15
	-9.127813047432442e-19
	-5.107767581824642e-15
	1.198805903039536e-07
	4.972783164051002e-06
	4.827788779563342e-07
	3.500922038009745e-01

 24	2.400000000000001e-01
	-2.478705424689859e-15
	-9.444982433699112e-19
	-5.190350353962535e-15
	1.318086587305471e-07
	5.515159487623895e-06
	5.351706153413639e-07
	3.500922093999246e-01

 25	2.500000000000001e-01
	-2.450451629477780e-15
	-9.772394682863805e-19
	-5.272617714739075e-15
	1.448373437123909e-07
	6.118278805546425e-06
	5.932842139691165e-07
	3.500922156103866e-01

 26	2.600000000000001e-01
	-2.422645978007423e-15
	-1.011034714275598e-18
	-5.354524930074319e-15
	1.590566071639977e-07
	6.789249442967665e-06
	6.577619667803495e-07
	3.500922225010080e-01

 27	2.700000000000001e-01
	-2.395297186128689e-15
	-1.045914564111876e-18
	-5.436028135009704e-15
	1.745623200445478e-07
	7.536032389710052e-06
	7.293214358161494e-07
	3.500922301484886e-01

 28	2.800000000000001e-01
	-2.368413403743593e-15
	-1.081910480010376e-18
	-5.517084417307046e-15
	1.914564862399093e-07
	8.367536375396306e-06
	8.087644477374796e-07
	3.500922386385305e-01

 29	2.900000000000001e-01
	-2.342002200163241e-15
	-1.119054836489998e-18
	-5.597651896809816e-15
	2.098474576048410e-07
	9.293720282147473e-06
	8.969870768658532e-07
	3.500922480669115e-01

 30	3.000000000000001e-01
	-2.316070551728940e-15
	-1.157380954697140e-18
	-5.677689800293932e-15
	2.298501381815494e-07
	1.032570259324812e-05
	9.949906877841897e-07
	3.500922585406703e-01

 31	3.100000000000001e-01
	-2.290624831705269e-15
	-1.196923138239331e-18
	-5.757158531566159e-15
	2.515861755761186e-07
	1.147587732675820e-05
	1.103894105306850e-06
	3.500922701793969e-01

 32	3.200000000000001e-01
	-2.265670802439793e-15
	-1.237716710578810e-18
	-5.836019736600001e-15
	2.751841374634854e-07
	1.275803560819259e-05
	1.224946972676713e-06
	3.500922831166657e-01

 33	3.300000000000001e-01
	-2.241213609771137e-15
	-1.279798054039060e-18
	-5.914236363532011e-15
	3.007796712069743e-07
	1.418749169500234e-05
	1.359544348714762e-06
	3.500922975016066e-01

 34	3.400000000000001e-01
	-2.217257779654669e-15
	-1.323204650479250e-18
	-5.991772717375187e-15
	3.285156446217446e-07
	1.578121187820413e-05
	1.509242580869348e-06
	3.500923135005814e-01

 35	3.500000000000001e-01
	-2.193807216963371e-15
	-1.367975123693441e-18
	-6.068594509338410e-15
	3.585422659840515e-07
	1.755794425566794e-05
	1.675776473236931e-06
	3.500923312990423e-01

 36	3.600000000000002e-01
	-2.170865206409917e-15
	-1.414149283595191e-18
	-6.144668900675955e-15
	3.910171814919673e-07
	1.953834690237006e-05
	1.861077746247204e-06
	3.500923511034871e-01

 37	3.700000000000002e-01
	-2.148434415525867e-15
	-1.461768172250185e-18
	-6.219964541022237e-15
	4.261055485175643e-07
	2.174511146319090e-05
	2.067294757469036e-06
	3.500923731435812e-01

 38	3.800000000000002e-01
	-2.126516899623830e-15
	-1.510874111823329e-18
	-6.294451601200644e-15
	4.639800831567676e-07
	2.420307867480696e-05
	2.296813420654748e-06
	3.500923976743889e-01

 39	3.900000000000002e-01
	-2.105114108659906e-15
	-1.561510754509941e-18
	-6.368101800525555e-15
	5.048210807798319e-07
	2.693934179952970e-05
	2.552279222570760e-06
	3.500924249787271e-01

 40	4.000000000000002e-01
	-2.084226895905540e-15
	-1.613723134524580e-18
	-6.440888428647156e-15
	5.488164085115836e-07
	2.998333344400747e-05
	2.836620194407393e-06
	3.500924553696283e-01

 41	4.100000000000002e-01
	-2.063855528331073e-15
	-1.667557722224885e-18
	-6.512786362017201e-15
	5.961614688246415e-07
	3.336689076167124e-05
	3.153070646866120e-06
	3.500924891928718e-01

 42	4.200000000000002e-01
	-2.043999698597244e-15
	-1.723062480452294e-18
	-6.583772075080576e-15
	6.470591337072041e-07
	3.712429362532139e-05
	3.505195425870128e-06
	3.500925268295835e-01

 43	4.300000000000002e-01
	-2.024658538545647e-15
	-1.780286923175837e-18
	-6.653823646323088e-15
	7.017196491668497e-07
	4.129227003415967e-05
	3.896914389996341e-06
	3.500925686988509e-01

 44	4.400000000000002e-01
	-2.005830634075415e-15
	-1.839282176529924e-18
	-6.722920759328741e-15
	7.603605101480440e-07
	4.590996281903261e-05
	4.332526752239079e-06
	3.500926152603274e-01

 45	4.500000000000002e-01
	-1.987514041289909e-15
	-1.900101042342695e-18
	-6.791044699021155e-15
	8.232063062684758e-07
	5.101885166324891e-05
	4.816734868967938e-06
	3.500926670167830e-01

 46	4.600000000000002e-01
	-1.969706303795300e-15
	-1.962798064256073e-18
	-6.858178343282891e-15
	8.904885391118948e-07
	5.666262459666043e-05
	5.354666999642980e-06
	3.500927245165235e-01

 47	4.700000000000003e-01
	-1.952404471031684e-15
	-2.027429596544496e-18
	-6.924306150162659e-15
	9.624454121450339e-07
	6.288699347860978e-05
	5.951898504018495e-06
	3.500927883556762e-01

 48	4.800000000000003e-01
	-1.935605117516808e-15
	-2.094053875745752e-18
	-6.989414140895960e-15
	1.039321594646858e-06
	6.973944858822638e-05
	6.614470891531331e-06
	3.500928591802147e-01

 49	4.900000000000003e-01
	-1.919304362883279e-15
	-2.162731095222610e-18
	-7.053489878975904e-15
	1.121367961339884e-06
	7.726894830972780e-05
	7.348908092881529e-06
	3.500929376877031e-01

 50	5.000000000000002e-01
	-1.903497892591271e-15
	-2.233523482780847e-18
	-7.116522445521762e-15
	1.208841309688400e-06
	8.552554104928183e-05
	8.162229289224347e-06
	3.500930246286707e-01

 51	5.100000000000002e-01
	-1.888180979200707e-15
	-2.306495381475949e-18
	-7.178502411200377e-15
	1.302004057067320e-06
	9.455991795136810e-05
	9.061957612718136e-06
	3.500931208075381e-01

 52	5.200000000000002e-01
	-1.873348504089866e-15
	-2.381713333747774e-18
	-7.239421804961198e-15
	1.401123920199922e-06
	1.044228966866774e-04
	1.005612402620346e-05
	3.500932270830279e-01

 53	5.300000000000002e-01
	-1.858994979510473e-15
	-2.459246169029259e-18
	-7.299274079849240e-15
	1.506473579404895e-06
	1.151648385361379e-04
	1.115326570214541e-05
	3.500933443680013e-01

 54	5.400000000000003e-01
	-1.845114570873277e-15
	-2.539165094983916e-18
	-7.358054076162403e-15
	1.618330330276511e-06
	1.268350031566806e-04
	1.236241825395457e-05
	3.500934736286140e-01

 55	5.500000000000003e-01
	-1.831701119162629e-15
	-2.621543792533748e-18
	-7.415757982218550e-15
	1.736975725440294e-06
	1.394808477274749e-04
	1.369310122822029e-05
	3.500936158827701e-01

 56	5.600000000000003e-01
	-1.818748163383191e-15
	-2.706458514848120e-18
	-7.472383292996454e-15
	1.862695208978320e-06
	1.531472795684711e-04
	1.515529634542661e-05
	3.500937721977912e-01

 57	5.700000000000003e-01
	-1.806248962947152e-15
	-2.793988190473325e-18
	-7.527928766910765e-15
	1.995777746002126e-06
	1.678758737094106e-04
	1.675941807974272e-05
	3.500939436872633e-01

 58	5.800000000000003e-01
	-1.794196519915764e-15
	-2.884214530790455e-18
	-7.582394380976235e-15
	2.136515449669611e-06
	1.837040691684602e-04
	1.851627629493083e-05
	3.500941315070404e-01

 59	5.900000000000003e-01
	-1.782583601014646e-15
	-2.977222142000464e-18
	-7.635781284609802e-15
	2.285203207702071e-06
	2.006643597686587e-04
	2.043703080171442e-05
	3.500943368503844e-01

 60	6.000000000000003e-01
	-1.771402759348025e-15
	-3.073098641844559e-18
	-7.688091752312134e-15
	2.442138310167458e-06
	2.187834970674469e-04
	2.253313786941809e-05
	3.500945609422355e-01

 61	6.100000000000003e-01
	-1.760646355743205e-15
	-3.171934781279482e-18
	-7.739329135460768e-15
	2.607620079969311e-06
	2.380817242921653e-04
	2.481628890755296e-05
	3.500948050326567e-01

 62	6.200000000000003e-01
	-1.750306579662209e-15
	-3.273824571338111e-18
	-7.789497813438580e-15
	2.781949507135044e-06
	2.585720609640247e-04
	2.729834172648882e-05
	3.500950703894776e-01

 63	6.300000000000003e-01
	-1.740375469623773e-15
	-3.378865415418807e-18
	-7.838603144310147e-15
	2.965428887650661e-06
	2.802596580712211e-04
	2.999124498468455e-05
	3.500953582902084e-01

 64	6.400000000000003e-01
	-1.730844933084579e-15
	-3.487158247259006e-18
	-7.886651415248439e-15
	3.158361467263788e-06
	3.031412431571520e-04
	3.290695662670195e-05
	3.500956700133256e-01

 65	6.500000000000004e-01
	-1.721706765734397e-15
	-3.598807674863547e-18
	-7.933649792902894e-15
	3.361051090396528e-06
	3.272046734879342e-04
	3.605735730448136e-05
	3.500960068290019e-01

 66	6.600000000000004e-01
	-1.712952670165604e-15
	-3.713922130671416e-18
	-7.979606273888282e-15
	3.573801854094706e-06
	3.524286135519601e-04
	3.945415994696310e-05
	3.500963699894412e-01

 67	6.700000000000004e-01
	-1.704574273882928e-15
	-3.832614028261090e-18
	-8.024529635561967e-15
	3.796917766814034e-06
	3.787823505553746e-04
	4.310881679316505e-05
	3.500967607189385e-01

 68	6.800000000000004e-01
	-1.696563146624509e-15
	-3.954999925911014e-18
	-8.068429387245778e-15
	4.030702411822889e-06
	4.062257583781101e-04
	4.703242532477960e-05
	3.500971802038182e-01

 69	6.900000000000004e-01
	-1.688910816970699e-15
	-4.081200697349153e-18
	-8.111315722035923e-15
	4.275458615099096e-06
	4.347094167463575e-04
	5.123563462060910e-05
	3.500976295824276e-01

 70	7.000000000000004e-01
	-1.681608788221511e-15
	-4.211341710043913e-18
	-8.153199469333610e-15
	4.531488117822808e-06
	4.641748882898743e-04
	5.572855370227806e-05
	3.500981099353347e-01

 71	7.100000000000004e-01
	-1.674648553528586e-15
	-4.345553011408220e-18
	-8.194092048216484e-15
	4.799091253918037e-06
	4.945551518406482e-04
	6.052066344559426e-05
	3.500986222759209e-01

 72	7.200000000000004e-01
	-1.668021610271589e-15
	-4.483969523310114e-18
	-8.234005421760108e-15
	5.078566633565231e-06
	5.257751859638287e-04
	6.562073359331287e-05
	3.500991675415080e-01

 73	7.300000000000004e-01
	-1.661719473673204e-15
	-4.626731245303533e-18
	-8.272952052407219e-15
	5.370210834179823e-06
	5.577526924698140e-04
	7.103674632323339e-05
	3.500997465851889e-01

 74	7.400000000000004e-01
	-1.655733689650638e-15
	-4.773983467016673e-18
	-8.310944858471571e-15
	5.674318101004190e-06
	5.903989457124626e-04
	7.677582770266468e-05
	3.501003601685078e-01

 75	7.500000000000004e-01
	-1.650055846905031e-15
	-4.925876990160334e-18
	-8.347997171852813e-15
	5.991180060162907e-06
	6.236197499943931e-04
	8.284418820016240e-05
	3.501010089551060e-01

 76	7.600000000000005e-01
	-1.644677588253418e-15
	-5.082568360640991e-18
	-8.384122697028418e-15
	6.321085447746768e-06
	6.573164845160455e-04
	8.924707323338462e-05
	3.501016935054367e-01

 77	7.700000000000005e-01
	-1.639590621211016e-15
	-5.244220111293011e-18
	-8.419335471378923e-15
	6.664319859182569e-06
	6.913872131311540e-04
	9.598872451454634e-05
	3.501024142726431e-01

 78	7.800000000000005e-01
	-1.634786727834042e-15
	-5.411001015770458e-18
	-8.453649826893504e-15
	7.021165523770874e-06
	7.257278347827077e-04
	1.030723527197826e-04
	3.501031715996357e-01

 79	7.900000000000005e-01
	-1.630257773835968e-15
	-5.583086354167823e-18
	-8.487080353293719e-15
	7.391901109795442e-06
	7.602332499269319e-04
	1.105001217638410e-04
	3.501039657174186e-01

 80	8.000000000000005e-01
	-1.625995716992228e-15
	-5.760658190969384e-18
	-8.519641862604831e-15
	7.776801565989929e-06
	7.947985185056338e-04
	1.182731447151712e-04
	3.501047967446548e-01

 81	8.100000000000005e-01
	-1.621992614850229e-15
	-5.943905665959916e-18
	-8.551349355196200e-15
	8.176138005359472e-06
	8.293199860585458e-04
	1.263914911466430e-04
	3.501056646884573e-01

 82	8.200000000000005e-01
	-1.618240631763437e-15
	-6.133025298760688e-18
	-8.582217987304328e-15
	8.590177637378359e-06
	8.636963563029181e-04
	1.348542054913168e-04
	3.501065694463522e-01

 83	8.300000000000005e-01
	-1.614732045269558e-15
	-6.328221307690671e-18
	-8.612263040045443e-15
	9.019183754404392e-06
	8.978296908445717e-04
	1.436593357673613e-04
	3.501075108093587e-01

 84	8.400000000000005e-01
	-1.611459251834188e-15
	-6.529705943690080e-18
	-8.641499889917598e-15
	9.463415777766953e-06
	9.316263194997415e-04
	1.528039718568401e-04
	3.501084884660644e-01

 85	8.500000000000005e-01
	-1.608414771982502e-15
	-6.737699840079003e-18
	-8.669943980785993e-15
	9.923129368404671e-06
	9.649976478634601e-04
	1.622842923737052e-04
	3.501095020076578e-01

 86	8.600000000000005e-01
	-1.605591254841963e-15
	-6.952432378967426e-18
	-8.697610797340211e-15
	1.039857660617218e-05
	9.978608521170086e-04
	1.720956190397131e-04
	3.501105509337282e-01

 87	8.700000000000006e-01
	-1.602981482120231e-15
	-7.174142075172063e-18
	-8.724515840005976e-15
	1.089000624102385e-05
	1.030139454484648e-03
	1.822324774042937e-04
	3.501116346587637e-01

 88	8.800000000000006e-01
	-1.600578371542407e-15
	-7.403076978542890e-18
	-8.750674601290247e-15
	1.139766401825568e-05
	1.061763776100011e-03
	1.926886626957110e-04
	3.501127525191862e-01

 89	8.900000000000006e-01
	-1.598374979772480e-15
	-7.639495095645412e-18
	-8.776102543533591e-15
	1.192179307887741e-05
	1.092671267210439e-03
	2.034573095747875e-04
	3.501139037808122e-01

 90	9.000000000000006e-01
	-1.596364504843671e-15
	-7.883664831796858e-18
	-8.800815078040347e-15
	1.246263443504159e-05
	1.122806717538780e-03
	2.145309645767801e-04
	3.501150876465935e-01

 91	9.100000000000006e-01
	-1.594540288122580e-15
	-8.135865454505251e-18
	-8.824827545553847e-15
	1.302042751931058e-05
	1.152122352162759e-03
	2.259016600684402e-04
	3.501163032645253e-01

 92	9.200000000000006e-01
	-1.592895815831808e-15
	-8.396387579414379e-18
	-8.848155198040816e-15
	1.359541080544206e-05
	1.180577820411953e-03
	2.375609886121761e-04
	3.501175497355918e-01

 93	9.300000000000006e-01
	-1.591424720155576e-15
	-8.665533679914866e-18
	-8.870813181746965e-15
	1.418782249735018e-05
	1.208140086992671e-03
	2.495001767133078e-04
	3.501188261216511e-01

 94	9.400000000000006e-01
	-1.590120779952442e-15
	-8.943618621644136e-18
	-8.892816521483521e-15
	1.479790128198751e-05
	1.234783235824174e-03
	2.617101570253580e-04
	3.501201314531601e-01

 95	9.500000000000006e-01
	-1.588977921098737e-15
	-9.230970223159703e-18
	-8.914180106102932e-15
	1.542588714111673e-05
	1.260488197916105e-03
	2.741816381978343e-04
	3.501214647366333e-01

 96	9.600000000000006e-01
	-1.587990216486008e-15
	-9.527929844138319e-18
	-8.934918675120470e-15
	1.607202221631856e-05
	1.285242415062226e-03
	2.869051716668142e-04
	3.501228249617790e-01

 97	9.700000000000006e-01
	-1.587151885694950e-15
	-9.834853002523248e-18
	-8.955046806437772e-15
	1.673655172112423e-05
	1.309039451207184e-03
	2.998712148070702e-04
	3.501242111082659e-01

 98	9.800000000000006e-01
	-1.586457294367705e-15
	-1.015211002211978e-17
	-8.974578905123457e-15
	1.741972489387899e-05
	1.331878563107077e-03
	3.130701899821319e-04
	3.501256221520230e-01

 99	9.900000000000007e-01
	-1.585900953299765e-15
	-1.048008671221233e-17
	-8.993529193205658e-15
	1.812179598481984e-05
	1.353764241401270e-03
	3.264925391424176e-04
	3.501270570710735e-01

 100	1.000000000000001e+00
	-1.585477517271948e-15
	-1.081918508086262e-17
	-9.011911700431061e-15
	1.884302527089712e-05
	1.374705732495941e-03
	3.401287737292700e-04
	3.501285148508857e-01

 101	1.010000000000001e+00
	-1.585181783641965e-15
	-1.116982408363437e-17
	-9.029740255945413e-15
