Title: ** sch_path: /home/andylithia/openmpw/project-yatsuhashi-chip1/xschem/gmid_test/nmos_test.sch
Date: Sun Jul 17 22:51:45  2022
Plotname: DC transfer characteristic
Flags: real
No. Variables: 8
No. Points: 181
Variables:
	0	v(v-sweep)	voltage
	1	@m.xm1.msky130_fd_pr__nfet_01v8[cgb]	capacitance
	2	@m.xm1.msky130_fd_pr__nfet_01v8[cgd]	capacitance
	3	@m.xm1.msky130_fd_pr__nfet_01v8[cgs]	capacitance
	4	@m.xm1.msky130_fd_pr__nfet_01v8[gds]	admittance
	5	@m.xm1.msky130_fd_pr__nfet_01v8[gm]	admittance
	6	i(@m.xm1.msky130_fd_pr__nfet_01v8[id])	current
	7	v(@m.xm1.msky130_fd_pr__nfet_01v8[vth])	voltage
Values:
 0	0.000000000000000e+00
	-4.913137086074249e-15
	-1.223142521888186e-18
	-6.751463472084246e-15
	2.272111806770675e-08
	8.203345700625013e-07
	8.935585442244316e-08
	2.816869983215203e-01

 1	1.000000000000000e-02
	-4.858213620011017e-15
	-1.259833622806165e-18
	-6.875739838634765e-15
	2.485521063394621e-08
	8.981327027464673e-07
	9.794236042733441e-08
	2.816869992868350e-01

 2	2.000000000000000e-02
	-4.803752766088385e-15
	-1.297614577005110e-18
	-7.000449028063386e-15
	2.718223084059358e-08
	9.832514253418005e-07
	1.073428964949706e-07
	2.816870003436676e-01

 3	3.000000000000000e-02
	-4.749771650996198e-15
	-1.336517180060721e-18
	-7.125535504940566e-15
	2.971862134292104e-08
	1.076387719930818e-06
	1.176340981085913e-07
	2.816870015006324e-01

 4	4.000000000000000e-02
	-4.696287277390485e-15
	-1.376574163743964e-18
	-7.250943171176613e-15
	3.248209940998132e-08
	1.178308387805084e-06
	1.288999136011391e-07
	2.816870027671707e-01

 5	5.000000000000000e-02
	-4.643316483860878e-15
	-1.417819226163888e-18
	-7.376615458988191e-15
	3.549174053656746e-08
	1.289857731554950e-06
	1.412323400263525e-07
	2.816870041536216e-01

 6	6.000000000000000e-02
	-4.590875905514555e-15
	-1.460287063041848e-18
	-7.502495425299036e-15
	3.876806584005618e-08
	1.411966161674301e-06
	1.547322403841341e-07
	2.816870056713300e-01

 7	7.000000000000001e-02
	-4.538981935305742e-15
	-1.504013400164971e-18
	-7.628525847261690e-15
	4.233313323524330e-08
	1.545659838955896e-06
	1.695102519925792e-07
	2.816870073327322e-01

 8	8.000000000000000e-02
	-4.487650686237405e-15
	-1.549035027067331e-18
	-7.754649318578622e-15
	4.621063235989985e-08
	1.692071475046691e-06
	1.856877969666567e-07
	2.816870091514808e-01

 9	9.000000000000000e-02
	-4.436897954558185e-15
	-1.595389831990595e-18
	-7.880808346298477e-15
	5.042598320214183e-08
	1.852452425068418e-06
	2.033982070446855e-07
	2.816870111425703e-01

 10	9.999999999999999e-02
	-4.386739184073882e-15
	-1.643116838177643e-18
	-8.006945447759297e-15
	5.500643835781372e-08
	2.028186218033436e-06
	2.227879764016334e-07
	2.816870133224676e-01

 11	1.100000000000000e-01
	-4.337189431687889e-15
	-1.692256241554473e-18
	-8.133003247349525e-15
	5.998118882215429e-08
	2.220803682705983e-06
	2.440181576050632e-07
	2.816870157092827e-01

 12	1.200000000000000e-01
	-4.288263334279659e-15
	-1.742849449859735e-18
	-8.258924572759344e-15
	6.538147319524652e-08
	2.431999838327595e-06
	2.672659175051614e-07
	2.816870183229374e-01

 13	1.300000000000000e-01
	-4.239975077024129e-15
	-1.794939123281908e-18
	-8.384652550396994e-15
	7.124069015528930e-08
	2.663652730931844e-06
	2.927262716013312e-07
	2.816870211853595e-01

 14	1.400000000000000e-01
	-4.192338363248618e-15
	-1.848569216668312e-18
	-8.510130699649359e-15
	7.759451402786369e-08
	2.917844406446507e-06
	3.206140172882151e-07
	2.816870243206988e-01

 15	1.500000000000000e-01
	-4.145366385916327e-15
	-1.903785023371891e-18
	-8.635303025672584e-15
	8.448101325331024e-08
	3.196884220972545e-06
	3.511658883430179e-07
	2.816870277555771e-01

 16	1.600000000000000e-01
	-4.099071800818010e-15
	-1.960633220806031e-18
	-8.760114110406937e-15
	9.194077152842897e-08
	3.503334696015882e-06
	3.846429550584733e-07
	2.816870315193518e-01

 17	1.700000000000000e-01
	-4.053466701545326e-15
	-2.019161917778991e-18
	-8.884509201519379e-15
	1.000170113731268e-07
	3.840040131418876e-06
	4.213332965303310e-07
	2.816870356444143e-01

 18	1.800000000000000e-01
	-4.008562596310895e-15
	-2.079420703684466e-18
	-9.008434298988954e-15
	1.087557198477990e-07
	4.210158190602388e-06
	4.615549737476634e-07
	2.816870401665336e-01

 19	1.900000000000000e-01
	-3.964370386671218e-15
	-2.141460699627412e-18
	-9.131836239063662e-15
	1.182057761233979e-07
	4.617194670703384e-06
	5.056593342736025e-07
	2.816870451252165e-01

 20	2.000000000000000e-01
	-3.920900348199771e-15
	-2.205334611567648e-18
	-9.254662775330671e-15
	1.284190805835615e-07
	5.065041663404524e-06
	5.540346813997140e-07
	2.816870505641279e-01

 21	2.100000000000000e-01
	-3.878162113148324e-15
	-2.271096785568412e-18
	-9.376862656658561e-15
	1.394506851173143e-07
	5.558019299754400e-06
	6.071103426575303e-07
	2.816870565315536e-01

 22	2.200000000000001e-01
	-3.836164655125097e-15
	-2.338803265240317e-18
	-9.498385701786807e-15
	1.513589242418969e-07
	6.100921253037216e-06
	6.653611744129751e-07
	2.816870630808892e-01

 23	2.300000000000001e-01
	-3.794916275809333e-15
	-2.408511851475369e-18
	-9.619182870354910e-15
	1.642055466784949e-07
	6.699064146674756e-06
	7.293125408804657e-07
	2.816870702712221e-01

 24	2.400000000000001e-01
	-3.754424593712192e-15
	-2.480282164570355e-18
	-9.739206330183922e-15
	1.780558469896174e-07
	7.358340978104969e-06
	7.995458071907772e-07
	2.816870781679302e-01

 25	2.500000000000001e-01
	-3.714696534984964e-15
	-2.554175708844000e-18
	-9.858409520640871e-15
	1.929787968754049e-07
	8.085278623398070e-06
	8.767043870323123e-07
	2.816870868433792e-01

 26	2.600000000000001e-01
	-3.675738326266263e-15
	-2.630255939855485e-18
	-9.976747211938656e-15
	2.090471757181083e-07
	8.887099429910543e-06
	9.615003857550014e-07
	2.816870963776539e-01

 27	2.700000000000001e-01
	-3.637555489551249e-15
	-2.708588334339280e-18
	-1.009417556024296e-14
	2.263376999590204e-07
	9.771786834402268e-06
	1.054721879558151e-06
	2.816871068593880e-01

 28	2.800000000000001e-01
	-3.600152839057194e-15
	-2.789240462974746e-18
	-1.021065215847980e-14
	2.449311508911297e-07
	1.074815486074710e-05
	1.157240870351510e-06
	2.816871183866617e-01

 29	2.900000000000001e-01
	-3.563534480051407e-15
	-2.872282066115844e-18
	-1.032613608275833e-14
	2.649125004534618e-07
	1.182592125375245e-05
	1.270021953941968e-06
	2.816871310679666e-01

 30	3.000000000000001e-01
	-3.527703809599929e-15
	-2.957785132611471e-18
	-1.044058793434383e-14
	2.863710346199801e-07
	1.301578389298481e-05
	1.394131736210049e-06
	2.816871450232700e-01

 31	3.100000000000001e-01
	-3.492663519187656e-15
	-3.045823981853067e-18
	-1.055396987713782e-14
	3.094004739872743e-07
	1.432950000246991e-05
	1.530749027749496e-06
	2.816871603851677e-01

 32	3.200000000000001e-01
	-3.458415599153716e-15
	-3.136475349194470e-18
	-1.066624567064229e-14
	3.340990911812959e-07
	1.577996752861665e-05
	1.681175841893391e-06
	2.816871773001114e-01

 33	3.300000000000001e-01
	-3.424961344879547e-15
	-3.229818474892648e-18
	-1.077738069840539e-14
	3.605698247242162e-07
	1.738130790006825e-05
	1.846849213988469e-06
	2.816871959297518e-01

 34	3.400000000000001e-01
	-3.392301364660867e-15
	-3.325935196728907e-18
	-1.088734199196593e-14
	3.889203890287515e-07
	1.914894921029283e-05
	2.029353851059068e-06
	2.816872164523455e-01

 35	3.500000000000001e-01
	-3.360435589189773e-15
	-3.424910046474753e-18
	-1.099609825033245e-14
	4.192633802186741e-07
	2.109970867805240e-05
	2.230435610485372e-06
	2.816872390642929e-01

 36	3.600000000000002e-01
	-3.329363282567912e-15
	-3.526830350376631e-18
	-1.110361985505182e-14
	4.517163775118882e-07
	2.325187304463840e-05
	2.452015793893928e-06
	2.816872639817254e-01

 37	3.700000000000002e-01
	-3.299083054767923e-15
	-3.631786333841323e-18
	-1.120987888093863e-14
	4.864020399455480e-07
	2.562527536283536e-05
	2.696206228024050e-06
	2.816872914422209e-01

 38	3.800000000000002e-01
	-3.269592875456285e-15
	-3.739871230512543e-18
	-1.131484910255402e-14
	5.234481982728660e-07
	2.824136642482414e-05
	2.965325087840463e-06
	2.816873217065748e-01

 39	3.900000000000002e-01
	-3.240890089088048e-15
	-3.851181395939580e-18
	-1.141850599653723e-14
	5.629879419175728e-07
	3.112327886930177e-05
	3.261913398587459e-06
	2.816873550606626e-01

 40	4.000000000000002e-01
	-3.212971431181183e-15
	-3.965816426047497e-18
	-1.152082673990797e-14
	6.051597009357859e-07
	3.429588180766432e-05
	3.588752132865338e-06
	2.816873918173620e-01

 41	4.100000000000002e-01
	-3.185833045676750e-15
	-4.083879280629250e-18
	-1.162179020447049e-14
	6.501073230058542e-07
	3.778582362169914e-05
	3.948879796247553e-06
	2.816874323185287e-01

 42	4.200000000000002e-01
	-3.159470503289626e-15
	-4.205476412091326e-18
	-1.172137694746191e-14
	6.979801455453288e-07
	4.162156041837559e-05
	4.345610370617896e-06
	2.816874769370299e-01

 43	4.300000000000002e-01
	-3.133878820753849e-15
	-4.330717899695203e-18
	-1.181956919859890e-14
	7.489330631407082e-07
	4.583336748930583e-05
	4.782551458537166e-06
	2.816875260787714e-01

 44	4.400000000000002e-01
	-3.109052480866656e-15
	-4.459717589549019e-18
	-1.191635084368516e-14
	8.031265905696425e-07
	5.045333102224801e-05
	5.263622444877744e-06
	2.816875801847476e-01

 45	4.500000000000002e-01
	-3.084985453235568e-15
	-4.592593240616834e-18
	-1.201170740495065e-14
	8.607269217976123e-07
	5.551531725919144e-05
	5.793072464123687e-06
	2.816876397330753e-01

 46	4.600000000000002e-01
	-3.061671215633581e-15
	-4.729466677025732e-18
	-1.210562601830117e-14
	9.219059854412523e-07
	6.105491629986028e-05
	6.375497933644378e-06
	2.816877052409468e-01

 47	4.700000000000003e-01
	-3.039102775869284e-15
	-4.870463946964864e-18
	-1.219809540766097e-14
	9.868414973074519e-07
	6.710935782055857e-05
	7.015859385525997e-06
	2.816877772665378e-01

 48	4.800000000000003e-01
	-3.017272694080067e-15
	-5.015715488484717e-18
	-1.228910585659698e-14
	1.055717010742001e-06
	7.371739612555262e-05
	7.719497302915770e-06
	2.816878564107895e-01

 49	4.900000000000003e-01
	-2.996173105359039e-15
	-5.165356302520998e-18
	-1.237864917741539e-14
	1.128721965651495e-06
	8.091916217994659e-05
	8.492146642090827e-06
	2.816879433190378e-01

 50	5.000000000000002e-01
	-2.975795742628647e-15
	-5.319526133482734e-18
	-1.246671867792422e-14
	1.206051737197179e-06
	8.875598059641059e-05
	9.339949699498487e-06
	2.816880386824640e-01

 51	5.100000000000002e-01
	-2.956131959677058e-15
	-5.478369657761391e-18
	-1.255330912605542e-14
	1.287907685297452e-06
	9.727014996831719e-05
	1.026946696476832e-05
	2.816881432393121e-01

 52	5.200000000000002e-01
	-2.937172754276334e-15
	-5.642036680534747e-18
	-1.263841671254096e-14
	1.374497206215067e-06
	1.065046854616460e-04
	1.128768558715510e-05
	2.816882577758459e-01

 53	5.300000000000002e-01
	-2.918908791304952e-15
	-5.810682341259653e-18
	-1.272203901183563e-14
	1.466033787643270e-06
	1.165030231972914e-04
	1.240202507503640e-05
	2.816883831269743e-01

 54	5.400000000000003e-01
	-2.901330425801052e-15
	-5.984467328263374e-18
	-1.280417494147701e-14
	1.562737068838851e-06
	1.273086866705067e-04
	1.362033984693046e-05
	2.816885201765620e-01

 55	5.500000000000003e-01
	-2.884427725876080e-15
	-6.163558102870405e-18
	-1.288482472007112e-14
	1.664832907477710e-06
	1.389649162578672e-04
	1.495091825896579e-05
	2.816886698572832e-01

 56	5.600000000000003e-01
	-2.868190495423372e-15
	-6.348127133513486e-18
	-1.296398982408681e-14
	1.772553455023648e-06
	1.515142637424409e-04
	1.640247774861791e-05
	2.816888331501018e-01

 57	5.700000000000003e-01
	-2.852608296559330e-15
	-6.538353140311088e-18
	-1.304167294363955e-14
	1.886137242503565e-06
	1.649981547291973e-04
	1.798415575857013e-05
	2.816890110832280e-01

 58	5.800000000000003e-01
	-2.837670471739861e-15
	-6.734421350608571e-18
	-1.311787793743818e-14
	2.005829278664130e-06
	1.794564228043254e-04
	1.970549613821602e-05
	2.816892047305841e-01

 59	5.900000000000003e-01
	-2.823366165498503e-15
	-6.936523766009330e-18
	-1.319260978706365e-14
	2.131881162545099e-06
	1.949268202898022e-04
	2.157643076392002e-05
	2.816894152097437e-01

 60	6.000000000000003e-01
	-2.809684345756993e-15
	-7.144859441449468e-18
	-1.326587455074245e-14
	2.264551212537430e-06
	2.114445114298289e-04
	2.360725617269835e-05
	2.816896436792828e-01

 61	6.100000000000003e-01
	-2.796613824663543e-15
	-7.359634776895801e-18
	-1.333767931676984e-14
	2.404104613996110e-06
	2.290415547871443e-04
	2.580860506718099e-05
	2.816898913355770e-01

 62	6.200000000000003e-01
	-2.784143278917959e-15
	-7.581063822275283e-18
	-1.340803215673228e-14
	2.550813587446147e-06
	2.477463824912652e-04
	2.819141262198564e-05
	2.816901594090007e-01

 63	6.300000000000003e-01
	-2.772261269547035e-15
	-7.809368596279810e-18
	-1.347694207867010e-14
	2.704957579351825e-06
	2.675832847325390e-04
	3.076687760200050e-05
	2.816904491595471e-01

 64	6.400000000000003e-01
	-2.760956261097947e-15
	-8.044779419717353e-18
	-1.354441898031422e-14
	2.866823477313429e-06
	2.885719085011765e-04
	3.354641839025416e-05
	2.816907618718817e-01

 65	6.500000000000004e-01
	-2.750216640220868e-15
	-8.287535264121492e-18
	-1.361047360252329e-14
	3.036705851411380e-06
	3.107267799964192e-04
	3.654162411540300e-05
	2.816910988498322e-01

 66	6.600000000000004e-01
	-2.740030733616459e-15
	-8.537884116361298e-18
	-1.367511748303923e-14
	3.214907223236668e-06
	3.340568603483203e-04
	3.976420116444450e-05
	2.816914614103742e-01

 67	6.700000000000004e-01
	-2.730386825327075e-15
	-8.796083360040908e-18
	-1.373836291067190e-14
	3.401738363931532e-06
	3.585651442788239e-04
	4.322591546285618e-05
	2.816918508771254e-01

 68	6.800000000000004e-01
	-2.721273173354634e-15
	-9.062400174511158e-18
	-1.380022288001522e-14
	3.597518622319241e-06
	3.842483110618154e-04
	4.693853099951923e-05
	2.816922685734427e-01

 69	6.900000000000004e-01
	-2.712678025591007e-15
	-9.337111952367939e-18
	-1.386071104678973e-14
	3.802576283934634e-06
	4.110964366134493e-04
	5.091374516496585e-05
	2.816927158151330e-01

 70	7.000000000000004e-01
	-2.704589635050508e-15
	-9.620506736348497e-18
	-1.391984168389858e-14
	4.017248961483250e-06
	4.390927747527367e-04
	5.516312155601765e-05
	2.816931939029083e-01

 71	7.100000000000004e-01
	-2.696996274396862e-15
	-9.912883676598877e-18
	-1.397762963827641e-14
	4.241884016969185e-06
	4.682136146265945e-04
	5.969802097521574e-05
	2.816937041146128e-01

 72	7.200000000000004e-01
	-2.689886249760070e-15
	-1.021455350932368e-17
	-1.403409028860335e-14
	4.476839015447711e-06
	4.984282200111683e-04
	6.452953141705347e-05
	2.816942476973587e-01

 73	7.300000000000004e-01
	-2.683247913841295e-15
	-1.052583905789663e-17
	-1.408923950394907e-14
	4.722482210093639e-06
	5.296988547105437e-04
	6.966839788274271e-05
	2.816948258596305e-01

 74	7.400000000000004e-01
	-2.677069678306524e-15
	-1.084707575756072e-17
	-1.414309360340458e-14
	4.979193058039909e-06
	5.619808966118325e-04
	7.512495289912016e-05
	2.816954397634847e-01

 75	7.500000000000004e-01
	-2.671340025471900e-15
	-1.117861220491429e-17
	-1.419566931675350e-14
	5.247362766247446e-06
	5.952230411673592e-04
	8.090904863386814e-05
	2.816960905169001e-01

 76	7.600000000000005e-01
	-2.666047519286275e-15
	-1.152081073343646e-17
	-1.424698374622680e-14
	5.527394866527201e-06
	6.293675932117585e-04
	8.702999149745805e-05
	2.816967791664455e-01

 77	7.700000000000005e-01
	-2.661180815617947e-15
	-1.187404801638611e-17
	-1.429705432938022e-14
	5.819705818762029e-06
	6.643508441405372e-04
	9.349648010170908e-05
	2.816975066902935e-01

 78	7.800000000000005e-01
	-2.656728671855056e-15
	-1.223871569846818e-17
	-1.434589880312625e-14
	6.124725641374858e-06
	7.001035296347978e-04
	1.003165474056206e-04
	2.816982739917268e-01

 79	7.900000000000005e-01
	-2.652679955830119e-15
	-1.261522105774642e-17
	-1.439353516894798e-14
	6.442898568171938e-06
	7.365513613728594e-04
	1.074975078219705e-04
	2.816990818931931e-01

 80	8.000000000000005e-01
	-2.649023654081302e-15
	-1.300398769936098e-17
	-1.443998165931601e-14
	6.774683730857062e-06
	7.736156245781693e-04
	1.150459099842724e-04
	2.816999311309936e-01

 81	8.100000000000005e-01
	-2.645748879463930e-15
	-1.340545628268952e-17
	-1.448525670532476e-14
	7.120555866766580e-06
	8.112138318642986e-04
	1.229674957848491e-04
	2.817008223506803e-01

 82	8.200000000000005e-01
	-2.642844878127166e-15
	-1.382008528368452e-17
	-1.452937890555959e-14
	7.481006051716452e-06
	8.492604226947669e-04
	1.312671661933147e-04
	2.817017561032142e-01

 83	8.300000000000005e-01
	-2.640301035871820e-15
	-1.424835179421293e-17
	-1.457236699620171e-14
	7.856542458272695e-06
	8.876674969110907e-04
	1.399489542532105e-04
	2.817027328419345e-01

 84	8.400000000000005e-01
	-2.638106883905968e-15
	-1.469075236032135e-17
	-1.461423982237332e-14
	8.247691140252990e-06
	9.263455702203488e-04
	1.490160055359430e-04
	2.817037529203539e-01

 85	8.500000000000005e-01
	-2.636252104016140e-15
	-1.514780386145360e-17
	-1.465501631072146e-14
	8.654996844822935e-06
	9.652043392847647e-04
	1.584705662084709e-04
	2.817048165908237e-01

 86	8.600000000000005e-01
	-2.634726533172126e-15
	-1.562004443275981e-17
	-1.469471544323545e-14
	9.079023854160550e-06
	1.004153444121398e-03
	1.683139787477066e-04
	2.817059240040470e-01

 87	8.700000000000006e-01
	-2.633520167584249e-15
	-1.610803443274630e-17
	-1.473335623228893e-14
	9.520356859305654e-06
	1.043103215888125e-03
	1.785466852132596e-04
	2.817070752094506e-01

 88	8.800000000000006e-01
	-2.632623166232167e-15
	-1.661235745864126e-17
	-1.477095769689457e-14
	9.979601869476896e-06
	1.081965398782139e-03
	1.891682378740192e-04
	2.817082701563703e-01

 89	8.900000000000006e-01
	-2.632025853884667e-15
	-1.713362141196987e-17
	-1.480753884015622e-14
	1.045738716080871e-05
	1.120653835678079e-03
	2.001773168757134e-04
	2.817095086960505e-01

 90	9.000000000000006e-01
	-2.631718723629840e-15
	-1.767245961697552e-17
	-1.484311862790104e-14
	1.095436426912301e-05
	1.159085108247624e-03
	2.115717545384352e-04
	2.817107905843594e-01

 91	9.100000000000006e-01
	-2.631692438935661e-15
	-1.822953199465121e-17
	-1.487771596847046e-14
	1.147120903198435e-05
	1.197179123586775e-03
	2.233485657869369e-04
	2.817121154852258e-01

 92	9.200000000000006e-01
	-2.631937835260144e-15
	-1.880552629530381e-17
	-1.491134969364822e-14
	1.200862268589058e-05
	1.234859640785708e-03
	2.355039841439600e-04
	2.817134829746672e-01

 93	9.300000000000006e-01
	-2.632445921231067e-15
	-1.940115939271343e-17
	-1.494403854069993e-14
	1.256733302500071e-05
	1.272054732359907e-03
	2.480335026587088e-04
	2.817148925454102e-01

 94	9.400000000000006e-01
	-2.633207879414309e-15
	-2.001717864312251e-17
	-1.497580113549803e-14
	1.314809562830346e-05
	1.308697176974372e-03
	2.609319190995825e-04
	2.817163436119629e-01

 95	9.500000000000006e-01
	-2.634215066690041e-15
	-2.065436331245130e-17
	-1.500665597670388e-14
	1.375169516256689e-05
	1.344724781389439e-03
	2.741933847122709e-04
	2.817178355161047e-01

 96	9.600000000000006e-01
	-2.635459014255558e-15
	-2.131352607531502e-17
	-1.503662142097712e-14
	1.437894676878762e-05
	1.380080630997264e-03
	2.878114558310804e-04
	2.817193675326798e-01

 97	9.700000000000006e-01
	-2.636931427273107e-15
	-2.199551458959747e-17
	-1.506571566918182e-14
	1.503069754017340e-05
	1.414713269666606e-03
	3.017791476320302e-04
	2.817209388756579e-01

 98	9.800000000000006e-01
	-2.638624184180755e-15
	-2.270121315054115e-17
	-1.509395675355729e-14
	1.570782809995417e-05
	1.448576810841590e-03
	3.160889893299160e-04
	2.817225487043308e-01

 99	9.900000000000007e-01
	-2.640529335683657e-15
	-2.343154442850063e-17
	-1.512136252582106e-14
	1.641125428752055e-05
	1.481630982924197e-03
	3.307330801466019e-04
	2.817241961296167e-01

 100	1.000000000000001e+00
	-2.642639103442886e-15
	-2.418747129472879e-17
	-1.514795064617060e-14
	1.714192896155560e-05
	1.513841112895646e-03
	3.457031454130630e-04
	2.817258802203687e-01

 101	1.010000000000001e+00
	-2.644945878477923e-15
	-2.496999873978152e-17
	-1.517373857315024e-14
