Title: ** sch_path: /home/andylithia/openmpw/project-yatsuhashi-chip1/xschem/gmid_test/nmos_test.sch
Date: Tue Jul 19 23:15:45  2022
Plotname: DC transfer characteristic
Flags: real
No. Variables: 8
No. Points: 181
Variables:
	0	v(v-sweep)	voltage
	1	@m.xm1.msky130_fd_pr__nfet_01v8[cgb]	capacitance
	2	@m.xm1.msky130_fd_pr__nfet_01v8[cgd]	capacitance
	3	@m.xm1.msky130_fd_pr__nfet_01v8[cgs]	capacitance
	4	@m.xm1.msky130_fd_pr__nfet_01v8[gds]	admittance
	5	@m.xm1.msky130_fd_pr__nfet_01v8[gm]	admittance
	6	i(@m.xm1.msky130_fd_pr__nfet_01v8[id])	current
	7	v(@m.xm1.msky130_fd_pr__nfet_01v8[vth])	voltage
Values:
 0	0.000000000000000e+00
	-9.990061032760363e-15
	-6.434604023758298e-19
	-1.792773252207184e-14
	5.741105426776503e-08
	2.223875658091270e-06
	2.808314344964173e-07
	2.120523922991618e-01

 1	1.000000000000000e-02
	-9.881948841215818e-15
	-6.587551281283323e-19
	-1.818112010396656e-14
	6.197297306360639e-08
	2.404801359713165e-06
	3.039630234622808e-07
	2.120523940209489e-01

 2	2.000000000000000e-02
	-9.775174285050863e-15
	-6.743824272918559e-19
	-1.843431225202486e-14
	6.687963861606525e-08
	2.600441033869881e-06
	3.289764528302810e-07
	2.120523958841735e-01

 3	3.000000000000000e-02
	-9.669760278967126e-15
	-6.903485061192302e-19
	-1.868721908963271e-14
	7.215518232768031e-08
	2.812026510593650e-06
	3.560249329090332e-07
	2.120523979005680e-01

 4	4.000000000000000e-02
	-9.565729114270645e-15
	-7.066596660684967e-19
	-1.893975109076042e-14
	7.782522892899588e-08
	3.040900334002318e-06
	3.852745371451022e-07
	2.120524000828859e-01

 5	5.000000000000000e-02
	-9.463102416601544e-15
	-7.233223053543760e-19
	-1.919181919379963e-14
	8.391697038069137e-08
	3.288526653576293e-06
	4.169053628156777e-07
	2.120524024449848e-01

 6	6.000000000000000e-02
	-9.361901105521218e-15
	-7.403429205505070e-19
	-1.944333491419153e-14
	9.045924182789133e-08
	3.556503231584271e-06
	4.511128061272284e-07
	2.120524050019531e-01

 7	7.000000000000001e-02
	-9.262145356043972e-15
	-7.577281082435520e-19
	-1.969421045555995e-14
	9.748259953154284e-08
	3.846574671588556e-06
	4.881089634001764e-07
	2.120524077702090e-01

 8	8.000000000000000e-02
	-9.163854562193424e-15
	-7.754845667413479e-19
	-1.994435881906627e-14
	1.050194006891025e-07
	4.160646979836792e-06
	5.281241711029004e-07
	2.120524107676398e-01

 9	9.000000000000000e-02
	-9.067047302656957e-15
	-7.936190978366288e-19
	-2.019369391071220e-14
	1.131038850438052e-07
	4.500803578102127e-06
	5.714086986505679e-07
	2.120524140137492e-01

 10	9.999999999999999e-02
	-8.971741308604741e-15
	-8.121386086281066e-19
	-2.044213064632380e-14
	1.217722581682397e-07
	4.869322893031861e-06
	6.182346091024125e-07
	2.120524175298069e-01

 11	1.100000000000000e-01
	-8.877953433731940e-15
	-8.310501134005828e-19
	-2.068958505395958e-14
	1.310627762940340e-07
	5.268697653159087e-06
	6.688978041723344e-07
	2.120524213390286e-01

 12	1.200000000000000e-01
	-8.785699626575548e-15
	-8.503607355659645e-19
	-2.093597437349570e-14
	1.410158325450512e-07
	5.701656030247954e-06
	7.237202713072605e-07
	2.120524254667722e-01

 13	1.300000000000000e-01
	-8.694994905148821e-15
	-8.700777096669704e-19
	-2.118121715315377e-14
	1.516740444167012e-07
	6.171184766381243e-06
	7.830525519786188e-07
	2.120524299407515e-01

 14	1.400000000000000e-01
	-8.605853333928986e-15
	-8.902083834451732e-19
	-2.142523334274752e-14
	1.630823423286853e-07
	6.680554431930934e-06
	8.472764517655630e-07
	2.120524347912738e-01

 15	1.500000000000000e-01
	-8.518288003225100e-15
	-9.107602199753784e-19
	-2.166794438343943e-14
	1.752880590628403e-07
	7.233346962027554e-06
	9.168080142733586e-07
	2.120524400515044e-01

 16	1.600000000000000e-01
	-8.432311010945416e-15
	-9.317407998679861e-19
	-2.190927329381112e-14
	1.883410198815567e-07
	7.833485620073284e-06
	9.921007824119895e-07
	2.120524457577532e-01

 17	1.700000000000000e-01
	-8.347933446774892e-15
	-9.531578235414314e-19
	-2.214914475206689e-14
	2.022936331056821e-07
	8.485267535918089e-06
	1.073649372042187e-06
	2.120524519497999e-01

 18	1.800000000000000e-01
	-8.265165378765857e-15
	-9.750191135661598e-19
	-2.238748517420460e-14
	2.172009809136851e-07
	9.193398963189637e-06
	1.161993384457943e-06
	2.120524586712506e-01

 19	1.900000000000000e-01
	-8.184015842336302e-15
	-9.973326170824029e-19
	-2.262422278800460e-14
	2.331209101063334e-07
	9.963033394567582e-06
	1.257721685592894e-06
	2.120524659699226e-01

 20	2.000000000000000e-01
	-8.104492831662946e-15
	-1.020106408293456e-18
	-2.285928770270248e-14
	2.501141225628932e-07
	1.079981266511086e-05
	1.361477081183842e-06
	2.120524738982783e-01

 21	2.100000000000000e-01
	-8.026603293447905e-15
	-1.043348691036297e-18
	-2.309261197422927e-14
	2.682442650962777e-07
	1.170991116166581e-05
	1.473961418367894e-06
	2.120524825139068e-01

 22	2.200000000000001e-01
	-7.950353123030630e-15
	-1.067067801431628e-18
	-2.332412966591898e-14
	2.875780183952141e-07
	1.270008324044194e-05
	1.595941145292405e-06
	2.120524918800424e-01

 23	2.300000000000001e-01
	-7.875747162809382e-15
	-1.091272210615346e-18
	-2.355377690460042e-14
	3.081851847216498e-07
	1.377771393457555e-05
	1.728253361239026e-06
	2.120525020661369e-01

 24	2.400000000000001e-01
	-7.802789202929531e-15
	-1.115970527552907e-18
	-2.378149193200686e-14
	3.301387740109834e-07
	1.495087300842274e-05
	1.871812390458411e-06
	2.120525131484984e-01

 25	2.500000000000001e-01
	-7.731481984189309e-15
	-1.141171501939351e-18
	-2.400721515145493e-14
	3.535150880016038e-07
	1.622837238494940e-05
	2.027616913330975e-06
	2.120525252109852e-01

 26	2.600000000000001e-01
	-7.661827203106990e-15
	-1.166884027186471e-18
	-2.423088916976052e-14
	3.783938019982334e-07
	1.761982693642162e-05
	2.196757688554570e-06
	2.120525383457673e-01

 27	2.700000000000001e-01
	-7.593825519088097e-15
	-1.193117143499258e-18
	-2.445245883437588e-14
	4.048580438510904e-07
	1.913571858618221e-05
	2.380425899753077e-06
	2.120525526541568e-01

 28	2.800000000000001e-01
	-7.527476563625220e-15
	-1.219880041043784e-18
	-2.467187126574848e-14
	4.329944697095596e-07
	2.078746362017782e-05
	2.579922159134818e-06
	2.120525682475321e-01

 29	2.900000000000001e-01
	-7.462778951457670e-15
	-1.247182063208702e-18
	-2.488907588491942e-14
	4.628933360853989e-07
	2.258748305068672e-05
	2.796666199539057e-06
	2.120525852483132e-01

 30	3.000000000000001e-01
	-7.399730293614225e-15
	-1.275032709962396e-18
	-2.510402443639188e-14
	4.946485677358181e-07
	2.454927581102458e-05
	3.032207284315931e-06
	2.120526037910661e-01

 31	3.100000000000001e-01
	-7.338327212257095e-15
	-1.303441641307910e-18
	-2.531667100631808e-14
	5.283578208521949e-07
	2.668749448865635e-05
	3.288235361920371e-06
	2.120526240236774e-01

 32	3.200000000000001e-01
	-7.278565357241929e-15
	-1.332418680838013e-18
	-2.552697203606585e-14
	5.641225410147072e-07
	2.901802322491590e-05
	3.566592988779135e-06
	2.120526461086381e-01

 33	3.300000000000001e-01
	-7.220439424305132e-15
	-1.361973819392756e-18
	-2.573488633123997e-14
	6.020480153478124e-07
	3.155805732243553e-05
	3.869288039838155e-06
	2.120526702244352e-01

 34	3.400000000000001e-01
	-7.163943174786934e-15
	-1.392117218821448e-18
	-2.594037506624634e-14
	6.422434182860111e-07
	3.432618400652648e-05
	4.198507221134098e-06
	2.120526965670619e-01

 35	3.500000000000001e-01
	-7.109069456796046e-15
	-1.422859215852137e-18
	-2.614340178450008e-14
	6.848218503340976e-07
	3.734246368444287e-05
	4.556630392684203e-06
	2.120527253516397e-01

 36	3.600000000000002e-01
	-7.055810227720292e-15
	-1.454210326069867e-18
	-2.634393239438859e-14
	7.299003691814151e-07
	4.062851093722024e-05
	4.946245702878826e-06
	2.120527568141784e-01

 37	3.700000000000002e-01
	-7.004156577985137e-15
	-1.486181248007674e-18
	-2.654193516111345e-14
	7.776000125058921e-07
	4.420757436338040e-05
	5.370165527328019e-06
	2.120527912134486e-01

 38	3.800000000000002e-01
	-6.954098755962280e-15
	-1.518782867351416e-18
	-2.673738069454198e-14
	8.280458117809091e-07
	4.810461427324040e-05
	5.831443195695884e-06
	2.120528288330199e-01

 39	3.900000000000002e-01
	-6.905626193928662e-15
	-1.552026261261974e-18
	-2.693024193321149e-14
	8.813667963777950e-07
	5.234637710824488e-05
	6.333390479417561e-06
	2.120528699834014e-01

 40	4.000000000000002e-01
	-6.858727534976768e-15
	-1.585922702817258e-18
	-2.712049412463436e-14
	9.376959872379282e-07
	5.696146533322691e-05
	6.879595801291417e-06
	2.120529150043486e-01

 41	4.100000000000002e-01
	-6.813390660777489e-15
	-1.620483665576326e-18
	-2.730811480206080e-14
	9.971703793734490e-07
	6.198040142288457e-05
	7.473943114774231e-06
	2.120529642673151e-01

 42	4.200000000000002e-01
	-6.769602720096470e-15
	-1.655720828269142e-18
	-2.749308375786261e-14
	1.059930912443902e-06
	6.743568443934841e-05
	8.120631386382518e-06
	2.120530181780244e-01

 43	4.300000000000002e-01
	-6.727350157967434e-15
	-1.691646079613996e-18
	-2.767538301370505e-14
	1.126122428648898e-06
	7.336183757823353e-05
	8.824194598952943e-06
	2.120530771792115e-01

 44	4.400000000000002e-01
	-6.686618745425609e-15
	-1.728271523266519e-18
	-2.785499678768060e-14
	1.195893617175452e-06
	7.979544494919274e-05
	9.589522176714099e-06
	2.120531417534713e-01

 45	4.500000000000002e-01
	-6.647393609707859e-15
	-1.765609482902193e-18
	-2.803191145857948e-14
	1.269396944442919e-06
	8.677517575705910e-05
	1.042187971525206e-05
	2.120532124262633e-01

 46	4.600000000000002e-01
	-6.609659264826558e-15
	-1.803672507436471e-18
	-2.820611552747704e-14
	1.346788569400827e-06
	9.434179396512707e-05
	1.132692988066740e-05
	2.120532897690201e-01

 47	4.700000000000003e-01
	-6.573399642427774e-15
	-1.842473376384925e-18
	-2.837759957681800e-14
	1.428228243154950e-06
	1.025381514569127e-04
	1.231075332267550e-05
	2.120533744023617e-01

 48	4.800000000000003e-01
	-6.538598122846257e-15
	-1.882025105367428e-18
	-2.854635622717984e-14
	1.513879192227042e-06
	1.114091626712991e-04
	1.337986942632589e-05
	2.120534669994161e-01

 49	4.900000000000003e-01
	-6.505237566272815e-15
	-1.922340951758975e-18
	-2.871238009189716e-14
	1.603907984794228e-06
	1.210017586727479e-04
	1.454125670666430e-05
	2.120535682891918e-01

 50	5.000000000000002e-01
	-6.473300343952508e-15
	-1.963434420491033e-18
	-2.887566772972933e-14
	1.698484379306319e-06
	1.313648186377950e-04
	1.580237263033555e-05
	2.120536790600104e-01

 51	5.100000000000002e-01
	-6.442768369335590e-15
	-2.005319270007453e-18
	-2.903621759575149e-14
	1.797781154944770e-06
	1.425490767959330e-04
	1.717117262818747e-05
	2.120538001629438e-01

 52	5.200000000000002e-01
	-6.413623129106426e-15
	-2.048009518377463e-18
	-2.919402999064776e-14
	1.901973923466006e-06
	1.546070029614539e-04
	1.865612804376692e-05
	2.120539325152507e-01

 53	5.300000000000002e-01
	-6.385845714018839e-15
	-2.091519449570420e-18
	-2.934910700858335e-14
	2.011240922066311e-06
	1.675926549370381e-04
	2.026624274465511e-05
	2.120540771037407e-01

 54	5.400000000000003e-01
	-6.359416849470422e-15
	-2.135863619896346e-18
	-2.950145248382843e-14
	2.125762787015202e-06
	1.815615012632279e-04
	2.201106810732636e-05
	2.120542349880584e-01

 55	5.500000000000003e-01
	-6.334316925752060e-15
	-2.181056864615619e-18
	-2.965107193630344e-14
	2.245722307930608e-06
	1.965702130333686e-04
	2.390071607215850e-05
	2.120544073037991e-01

 56	5.600000000000003e-01
	-6.310526027912190e-15
	-2.227114304722237e-18
	-2.979797251621181e-14
	2.371304162712176e-06
	2.126764237930692e-04
	2.594586995389048e-05
	2.120545952654511e-01

 57	5.700000000000003e-01
	-6.288023965179856e-15
	-2.274051353905226e-18
	-2.994216294792052e-14
	2.502694633309238e-06
	2.299384568977279e-04
	2.815779268477876e-05
	2.120548001690513e-01

 58	5.800000000000003e-01
	-6.266790299894004e-15
	-2.321883725692500e-18
	-3.008365347324514e-14
	2.640081302676234e-06
	2.484150201107591e-04
	3.054833216347329e-05
	2.120550233945423e-01

 59	5.900000000000003e-01
	-6.246804375890486e-15
	-2.370627440781272e-18
	-3.022245579428951e-14
	2.783652733461626e-06
	2.681648676872923e-04
	3.312992338278973e-05
	2.120552664077392e-01

 60	6.000000000000003e-01
	-6.228045346302384e-15
	-2.420298834560190e-18
	-3.035858301598541e-14
	2.933598129183535e-06
	2.892464306997337e-04
	3.591558701457659e-05
	2.120555307618409e-01

 61	6.100000000000003e-01
	-6.210492200732308e-15
	-2.470914564828294e-18
	-3.049204958847149e-14
	3.090106978867146e-06
	3.117174169178718e-04
	3.891892414026824e-05
	2.120558180984106e-01

 62	6.200000000000003e-01
	-6.194123791760076e-15
	-2.522491619715165e-18
	-3.062287124944401e-14
	3.253368686351065e-06
	3.356343821500657e-04
	4.215410683185963e-05
	2.120561301477822e-01

 63	6.300000000000003e-01
	-6.178918860752341e-15
	-2.575047325807651e-18
	-3.075106496660612e-14
	3.423572185711967e-06
	3.610522755750039e-04
	4.563586431030398e-05
	2.120564687287875e-01

 64	6.400000000000003e-01
	-6.164856062944100e-15
	-2.628599356488952e-18
	-3.087664888033636e-14
	3.600905544504094e-06
	3.880239622347739e-04
	4.937946443692608e-05
	2.120568357477564e-01

 65	6.500000000000004e-01
	-6.151913991766501e-15
	-2.683165740494878e-18
	-3.099964224668899e-14
	3.785555556760036e-06
	4.165997265073350e-04
	5.340069032850258e-05
	2.120572331967266e-01

 66	6.600000000000004e-01
	-6.140071202397670e-15
	-2.738764870693383e-18
	-3.112006538083395e-14
	3.977707327947248e-06
	4.468267610159932e-04
	5.771581192817800e-05
	2.120576631507891e-01

 67	6.700000000000004e-01
	-6.129306234517777e-15
	-2.795415513092937e-18
	-3.123793960103594e-14
	4.177543854316106e-06
	4.787486460497260e-04
	6.234155241218463e-05
	2.120581277645486e-01

 68	6.800000000000004e-01
	-6.119597634251735e-15
	-2.853136816085795e-18
	-3.135328717326676e-14
	4.385245599306180e-06
	5.124048251450011e-04
	6.729504936613534e-05
	2.120586292676244e-01

 69	6.900000000000004e-01
	-6.110923975286770e-15
	-2.911948319932578e-18
	-3.146613125653765e-14
	4.600990069891158e-06
	5.478300829998333e-04
	7.259381072393631e-05
	2.120591699591773e-01

 70	7.000000000000004e-01
	-6.103263879154915e-15
	-2.971869966493574e-18
	-3.157649584903207e-14
	4.824951395935199e-06
	5.850540323370926e-04
	7.825566552649163e-05
	2.120597522014590e-01

 71	7.100000000000004e-01
	-6.096596034673000e-15
	-3.032922109214697e-18
	-3.168440573511305e-14
	5.057299915799699e-06
	6.241006166896854e-04
	8.429870962552704e-05
	2.120603784123306e-01

 72	7.200000000000004e-01
	-6.090899216536284e-15
	-3.095125523372674e-18
	-3.178988643327246e-14
	5.298201771571593e-06
	6.649876363287698e-04
	9.074124652898943e-05
	2.120610510568548e-01

 73	7.300000000000004e-01
	-6.086152303063170e-15
	-3.158501416588218e-18
	-3.189296414508472e-14
	5.547818517382420e-06
	7.077263046837629e-04
	9.760172365755352e-05
	2.120617726378770e-01

 74	7.400000000000004e-01
	-6.082334293092308e-15
	-3.223071439613008e-18
	-3.199366570521955e-14
	5.806306744341100e-06
	7.523208425962876e-04
	1.048986643553517e-04
	2.120625456857370e-01

 75	7.500000000000004e-01
	-6.079424322034713e-15
	-3.288857697397343e-18
	-3.209201853256450e-14
	6.073817725613742e-06
	7.987681176004117e-04
	1.126505960708867e-04
	2.120633727471352e-01

 76	7.600000000000005e-01
	-6.077401677086193e-15
	-3.355882760446343e-18
	-3.218805058250119e-14
	6.350497085146207e-06
	8.470573351216952e-04
	1.208759751946376e-04
	2.120642563732323e-01

 77	7.700000000000005e-01
	-6.076245811607209e-15
	-3.424169676472566e-18
	-3.228179030037447e-14
	6.636484493435949e-06
	8.971697880348151e-04
	1.295931091066043e-04
	2.120651991070965e-01

 78	7.800000000000005e-01
	-6.075936358679444e-15
	-3.493741982350249e-18
	-3.237326657618866e-14
	6.931913393620670e-06
	9.490786704155627e-04
	1.388200760484809e-04
	2.120662034706285e-01

 79	7.900000000000005e-01
	-6.076453143849694e-15
	-3.564623716382631e-18
	-3.246250870055950e-14
	7.236910760961179e-06
	1.002748960573129e-03
	1.485746434897619e-04
	2.120672719510503e-01

 80	8.000000000000005e-01
	-6.077776197074065e-15
	-3.636839430886690e-18
	-3.254954632194667e-14
	7.551596898554999e-06
	1.058137377562969e-03
	1.588741857034675e-04
	2.120684069871634e-01

 81	8.100000000000005e-01
	-6.079885763875926e-15
	-3.710414205106519e-18
	-3.263440940518699e-14
	7.876085271831570e-06
	1.115192414373805e-03
	1.697356013040758e-04
	2.120696109554715e-01

 82	8.200000000000005e-01
	-6.082762315733454e-15
	-3.785373658461748e-18
	-3.271712819134408e-14
	8.210482384048761e-06
	1.173854449872684e-03
	1.811752315264766e-04
	2.120708861563773e-01

 83	8.300000000000005e-01
	-6.086386559713337e-15
	-3.861743964141345e-18
	-3.279773315888607e-14
	8.554887694642841e-06
	1.234055940402134e-03
	1.932087800394712e-04
	2.120722348005959e-01

 84	8.400000000000005e-01
	-6.090739447367881e-15
	-3.939551863050932e-18
	-3.287625498620098e-14
	8.909393581884170e-06
	1.295721690678719e-03
	2.058512350898364e-04
	2.120736589959484e-01

 85	8.500000000000005e-01
	-6.095802182915133e-15
	-4.018824678123987e-18
	-3.295272451545254e-14
	9.274085350864729e-06
	1.358769202370260e-03
	2.191167947627952e-04
	2.120751607347272e-01

 86	8.600000000000005e-01
	-6.101556230720293e-15
	-4.099590329006084e-18
	-3.302717271778033e-14
	9.649041287401746e-06
	1.423109097459891e-03
	2.330187961218791e-04
	2.120767418817552e-01

 87	8.700000000000006e-01
	-6.107983322100063e-15
	-4.181877347123134e-18
	-3.309963065984035e-14
	1.003433275798858e-05
	1.488645612268291e-03
	2.475696489556874e-04
	2.120784041633321e-01

 88	8.800000000000006e-01
	-6.115065461469457e-15
	-4.265714891145263e-18
	-3.317012947168344e-14
	1.043002435547194e-05
	1.555277156831630e-03
	2.627807748115584e-04
	2.120801491571608e-01

 89	8.900000000000006e-01
	-6.122784931853487e-15
	-4.351132762855633e-18
	-3.323870031596324e-14
	1.083617408968774e-05
	1.622896933249776e-03
	2.786625519373096e-04
	2.120819782834197e-01

 90	9.000000000000006e-01
	-6.131124299784626e-15
	-4.438161423439003e-18
	-3.330537435846459e-14
	1.125283362185881e-05
	1.691393605654224e-03
	2.952242666831803e-04
	2.120838927970439e-01

 91	9.100000000000006e-01
	-6.140066419608754e-15
	-4.526832010200538e-18
	-3.337018273993984e-14
	1.168004854115085e-05
	1.760652013620639e-03
	3.124740718380791e-04
	2.120858937813392e-01

 92	9.200000000000006e-01
	-6.149594437221217e-15
	-4.617176353729106e-18
	-3.343315654923925e-14
	1.211785868140630e-05
	1.830553920186494e-03
	3.304189522888260e-04
	2.120879821429792e-01

 93	9.300000000000006e-01
	-6.159691793255650e-15
	-4.709226995519652e-18
	-3.349432679771870e-14
	1.256629847573807e-05
	1.900978785144771e-03
	3.490646982999239e-04
	2.120901586084059e-01

 94	9.400000000000006e-01
	-6.170342225747785e-15
	-4.803017206067806e-18
	-3.355372439490664e-14
	1.302539734636581e-05
	1.971804553979478e-03
	3.684158866162638e-04
	2.120924237216959e-01

 95	9.500000000000006e-01
	-6.181529772296304e-15
	-4.898581003453579e-18
	-3.361138012541029e-14
	1.349518012682742e-05
	2.042908452693015e-03
	3.884758694940395e-04
	2.120947778438564e-01

 96	9.600000000000006e-01
	-6.193238771743199e-15
	-4.995953172429889e-18
	-3.366732462703922e-14
	1.397566751349543e-05
	2.114167778847657e-03
	4.092467716678036e-04
	2.120972211535417e-01

 97	9.700000000000006e-01
	-6.205453865395311e-15
	-5.095169284032509e-18
	-3.372158837012300e-14
	1.446687654317617e-05
	2.185460679398270e-03
	4.307294951659772e-04
	2.120997536491463e-01

 98	9.800000000000006e-01
	-6.218159997808747e-15
	-5.196265715729436e-18
	-3.377420163799872e-14
	1.496882109346876e-05
	2.256666906319827e-03
	4.529237317949590e-04
	2.121023751522049e-01

 99	9.900000000000007e-01
	-6.231342417157693e-15
	-5.299279672128228e-18
	-3.382519450864212e-14
	1.548151240250969e-05
	2.327668541616060e-03
	4.758279830249014e-04
	2.121050853120352e-01

 100	1.000000000000001e+00
	-6.244986675208710e-15
	-5.404249206260400e-18
	-3.387459683741503e-14
	1.600495960472833e-05
	2.398350684016644e-03
	4.994395869298045e-04
	2.121078836115114e-01

 101	1.010000000000001e+00
	-6.259078626920761e-15
	-5.511213241462194e-18
	-3.392243824090229e-14
