Title: ** sch_path: /home/andylithia/openmpw/project-yatsuhashi-chip1/xschem/gmid_test/nmos_test.sch
Date: Sun Jul 17 22:51:45  2022
Plotname: DC transfer characteristic
Flags: real
No. Variables: 8
No. Points: 181
Variables:
	0	v(v-sweep)	voltage
	1	@m.xm1.msky130_fd_pr__nfet_01v8[cgb]	capacitance
	2	@m.xm1.msky130_fd_pr__nfet_01v8[cgd]	capacitance
	3	@m.xm1.msky130_fd_pr__nfet_01v8[cgs]	capacitance
	4	@m.xm1.msky130_fd_pr__nfet_01v8[gds]	admittance
	5	@m.xm1.msky130_fd_pr__nfet_01v8[gm]	admittance
	6	i(@m.xm1.msky130_fd_pr__nfet_01v8[id])	current
	7	v(@m.xm1.msky130_fd_pr__nfet_01v8[vth])	voltage
Values:
 0	0.000000000000000e+00
	-4.631764156804998e-15
	-9.372980757093537e-19
	-5.685950704981795e-15
	6.796302796058564e-09
	2.754136011329324e-07
	2.714590992473617e-08
	2.978454685255725e-01

 1	1.000000000000000e-02
	-4.577837084375602e-15
	-9.676436269118283e-19
	-5.807210501656828e-15
	7.507642624217099e-09
	3.044025481666379e-07
	3.004259845320155e-08
	2.978454688544659e-01

 2	2.000000000000000e-02
	-4.524232964084348e-15
	-9.989529242491444e-19
	-5.929194555918931e-15
	8.290836597931397e-09
	3.364094336462751e-07
	3.324401648037372e-08
	2.978454692179573e-01

 3	3.000000000000000e-02
	-4.470972421817699e-15
	-1.031255510875833e-18
	-6.051840324882327e-15
	9.152749663770376e-09
	3.717497230938321e-07
	3.678189369806153e-08
	2.978454696196516e-01

 4	4.000000000000000e-02
	-4.418076122206630e-15
	-1.064581817483927e-18
	-6.175084090128809e-15
	1.010084528375804e-08
	4.107731623929960e-07
	4.069128267227332e-08
	2.978454700635298e-01

 5	5.000000000000000e-02
	-4.365564713333132e-15
	-1.098963190763426e-18
	-6.298861082112808e-15
	1.114322960814357e-08
	4.538678373845132e-07
	4.501092152931278e-08
	2.978454705539856e-01

 6	6.000000000000000e-02
	-4.313458771537358e-15
	-1.134431922947906e-18
	-6.423105608458745e-15
	1.228869784116544e-08
	5.014647641645834e-07
	4.978363983521494e-08
	2.978454710958887e-01

 7	7.000000000000001e-02
	-4.261778746549181e-15
	-1.171021282492865e-18
	-6.547751185647732e-15
	1.354678276927004e-08
	5.540430811074419e-07
	5.505681332410749e-08
	2.978454716946132e-01

 8	8.000000000000000e-02
	-4.210544907168343e-15
	-1.208765545935765e-18
	-6.672730673566483e-15
	1.492780539950023e-08
	6.121359217075808e-07
	6.088287388122238e-08
	2.978454723561157e-01

 9	9.000000000000000e-02
	-4.159777287715501e-15
	-1.247700030990032e-18
	-6.797976412375111e-15
	1.644292763194543e-08
	6.763370558023804e-07
	6.731988201934470e-08
	2.978454730869871e-01

 10	9.999999999999999e-02
	-4.109495635473356e-15
	-1.287861130926804e-18
	-6.923420361133900e-15
	1.810420686425310e-08
	7.473083954554113e-07
	7.443217000647376e-08
	2.978454738945351e-01

 11	1.100000000000000e-01
	-4.059719359332493e-15
	-1.329286350301163e-18
	-7.048994237618943e-15
	1.992465239840390e-08
	8.257884705725319e-07
	8.229106480929707e-08
	2.978454747868549e-01

 12	1.200000000000000e-01
	-4.010467479850296e-15
	-1.372014342081447e-18
	-7.174629658748197e-15
	2.191828349036013e-08
	9.126019879437644e-07
	9.097570111108128e-08
	2.978454757729381e-01

 13	1.300000000000000e-01
	-3.961758580923542e-15
	-1.416084946244260e-18
	-7.300258281037427e-15
	2.410018885207694e-08
	1.008670595549393e-06
	1.005739358408407e-07
	2.978454768627545e-01

 14	1.400000000000000e-01
	-3.913610763266510e-15
	-1.461539229899003e-18
	-7.425811940503880e-15
	2.648658738289830e-08
	1.115024981255473e-06
	1.111833769062043e-07
	2.978454780673916e-01

 15	1.500000000000000e-01
	-3.866041599875656e-15
	-1.508419529009736e-18
	-7.551222791442602e-15
	2.909488987396904e-08
	1.232818440995552e-06
	1.229125401449114e-07
	2.978454793991712e-01

 16	1.600000000000000e-01
	-3.819068093650681e-15
	-1.556769491785229e-18
	-7.676423443506331e-15
	3.194376139522678e-08
	1.363342055641167e-06
	1.358821498830049e-07
	2.978454808718010e-01

 17	1.700000000000000e-01
	-3.772706637328833e-15
	-1.606634123810732e-18
	-7.801347096533618e-15
	3.505318404031841e-08
	1.508041617370962e-06
	1.502265998902123e-07
	2.978454825005437e-01

 18	1.800000000000000e-01
	-3.726972975875581e-15
	-1.658059834998719e-18
	-7.925927672585362e-15
	3.844451967081666e-08
	1.668536444728188e-06
	1.660955929259290e-07
	2.978454843023994e-01

 19	1.900000000000000e-01
	-3.681882171460210e-15
	-1.711094488439819e-18
	-8.050099944669519e-15
	4.214057226793552e-08
	1.846640219895027e-06
	1.836559784364250e-07
	2.978454862963147e-01

 20	2.000000000000000e-01
	-3.637448571129454e-15
	-1.765787451237839e-18
	-8.173799661656610e-15
	4.616564946810094e-08
	2.044383971114152e-06
	2.030938092505699e-07
	2.978454885034175e-01

 21	2.100000000000000e-01
	-3.593685777276190e-15
	-1.822189647417811e-18
	-8.296963668915167e-15
	5.054562282882605e-08
	2.264041306690735e-06
	2.246166392733718e-07
	2.978454909472801e-01

 22	2.200000000000001e-01
	-3.550606620983851e-15
	-1.880353612999399e-18
	-8.419530024225025e-15
	5.530798634396672e-08
	2.508155983600647e-06
	2.484560851299207e-07
	2.978454936542047e-01

 23	2.300000000000001e-01
	-3.508223138310333e-15
	-1.940333553332342e-18
	-8.541438108557986e-15
	6.048191270324221e-08
	2.779571862381185e-06
	2.748706753926258e-07
	2.978454966535499e-01

 24	2.400000000000001e-01
	-3.466546549558178e-15
	-2.002185402795492e-18
	-8.662628731349662e-15
	6.609830677054236e-08
	3.081465259673334e-06
	3.041490113474740e-07
	2.978454999780938e-01

 25	2.500000000000001e-01
	-3.425587241560826e-15
	-2.065966886965405e-18
	-8.783044229922203e-15
	7.218985573967212e-08
	3.417379659561682e-06
	3.366132631259287e-07
	2.978455036644213e-01

 26	2.600000000000001e-01
	-3.385354752997883e-15
	-2.131737587365443e-18
	-8.902628562754947e-15
	7.879107541542576e-08
	3.791262683876083e-06
	3.726230243443986e-07
	2.978455077533756e-01

 27	2.700000000000001e-01
	-3.345857762735554e-15
	-2.199559008911731e-18
	-9.021327396339775e-15
	8.593835206296376e-08
	4.207505149215987e-06
	4.125795470422489e-07
	2.978455122905250e-01

 28	2.800000000000001e-01
	-3.307104081172498e-15
	-2.269494650177774e-18
	-9.139088185396685e-15
	9.366997926988968e-08
	4.670981954213501e-06
	4.569303765748207e-07
	2.978455173267001e-01

 29	2.900000000000001e-01
	-3.269100644555191e-15
	-2.341610076604857e-18
	-9.255860246266847e-15
	1.020261892739797e-07
	5.187094444390448e-06
	5.061744030817190e-07
	2.978455229185622e-01

 30	3.000000000000001e-01
	-3.231853512212338e-15
	-2.415972996792317e-18
	-9.371594823340019e-15
	1.110491782256139e-07
	5.761813794212709e-06
	5.608673420937460e-07
	2.978455291292307e-01

 31	3.100000000000001e-01
	-3.195367866643123e-15
	-2.492653342007293e-18
	-9.486245148414694e-15
	1.207831248783321e-07
	6.401724827452491e-06
	6.216276516531249e-07
	2.978455360289454e-01

 32	3.200000000000001e-01
	-3.159648016380998e-15
	-2.571723349060393e-18
	-9.599766492928503e-15
	1.312742022339599e-07
	7.114069569163731e-06
	6.891428868993507e-07
	2.978455436958036e-01

 33	3.300000000000001e-01
	-3.124697401541982e-15
	-2.653257646701428e-18
	-9.712116213036868e-15
	1.425705817111231e-07
	7.906789687582210e-06
	7.641764853351026e-07
	2.978455522165200e-01

 34	3.400000000000001e-01
	-3.090518601955009e-15
	-2.737333345696069e-18
	-9.823253787555250e-15
	1.547224294579287e-07
	8.788566844929959e-06
	8.475749668735914e-07
	2.978455616872459e-01

 35	3.500000000000001e-01
	-3.057113347761559e-15
	-2.824030132751955e-18
	-9.933140848817681e-15
	1.677818944917344e-07
	9.768859836104891e-06
	9.402755222558375e-07
	2.978455722144339e-01

 36	3.600000000000002e-01
	-3.024482532362329e-15
	-2.913430368471817e-18
	-1.004174120653936e-14
	1.818030884215788e-07
	1.085793725805362e-05
	1.043313951528353e-06
	2.978455839157449e-01

 37	3.700000000000002e-01
	-2.992626227580712e-15
	-3.005619189519307e-18
	-1.014902086480503e-14
	1.968420565922613e-07
	1.206690432556117e-05
	1.157832901052573e-06
	2.978455969209708e-01

 38	3.800000000000002e-01
	-2.961543700905820e-15
	-3.100684615191694e-18
	-1.025494803233526e-14
	2.129567405834694e-07
	1.340772233730420e-05
	1.285090333097587e-06
	2.978456113730108e-01

 39	3.900000000000002e-01
	-2.931233434672084e-15
	-3.198717658604670e-18
	-1.035949312621309e-14
	2.302069321030467e-07
	1.489321920604551e-05
	1.426468146633776e-06
	2.978456274288441e-01

 40	4.000000000000002e-01
	-2.901693147027757e-15
	-3.299812442702607e-18
	-1.046262876927930e-14
	2.486542184302216e-07
	1.653708940599966e-05
	1.583480851749708e-06
	2.978456452605162e-01

 41	4.100000000000002e-01
	-2.872919814541361e-15
	-3.404066321320390e-18
	-1.056432978142957e-14
	2.683619196925125e-07
	1.835388166619710e-05
	1.757784183488776e-06
	2.978456650561178e-01

 42	4.200000000000002e-01
	-2.844909696292753e-15
	-3.511580005531706e-18
	-1.066457316506803e-14
	2.893950183986031e-07
	2.035897275860057e-05
	1.951183524248361e-06
	2.978456870207487e-01

 43	4.300000000000002e-01
	-2.817658359294308e-15
	-3.622457695532583e-18
	-1.076333808499135e-14
	3.118200817983777e-07
	2.256852580094379e-05
	2.165641987681842e-06
	2.978457113774202e-01

 44	4.400000000000002e-01
	-2.791160705087657e-15
	-3.736807218319565e-18
	-1.086060584299333e-14
	3.357051777994931e-07
	2.499943162314387e-05
	2.403288001835755e-06
	2.978457383679392e-01

 45	4.500000000000002e-01
	-2.765410997362226e-15
	-3.854740171436266e-18
	-1.095635984749454e-14
	3.611197853367562e-07
	2.766923193793181e-05
	2.666422215649762e-06
	2.978457682536707e-01

 46	4.600000000000002e-01
	-2.740402890443739e-15
	-3.976372073074617e-18
	-1.105058557851207e-14
	3.881347002640362e-07
	3.059602331453658e-05
	2.957523541587192e-06
	2.978458013162409e-01

 47	4.700000000000003e-01
	-2.716129458503500e-15
	-4.101822518831738e-18
	-1.114327054829368e-14
	4.168219380175973e-07
	3.379834128034613e-05
	3.279254138730759e-06
	2.978458378580953e-01

 48	4.800000000000003e-01
	-2.692583225342768e-15
	-4.231215345439774e-18
	-1.123440425794637e-14
	4.472546344815318e-07
	3.729502426823762e-05
	3.634463135838923e-06
	2.978458782029228e-01

 49	4.900000000000003e-01
	-2.669756194610959e-15
	-4.364678801799621e-18
	-1.132397815039329e-14
	4.795069466685126e-07
	4.110505758268891e-05
	4.026188893268850e-06
	2.978459226959135e-01

 50	5.000000000000002e-01
	-2.647639880321076e-15
	-4.502345727668786e-18
	-1.141198555999461e-14
	5.136539550089191e-07
	4.524739806850481e-05
	4.457659606921479e-06
	2.978459717038267e-01

 51	5.100000000000002e-01
	-2.626225337531501e-15
	-4.644353740369483e-18
	-1.149842165916681e-14
	5.497715692153729e-07
	4.974078072131566e-05
	4.932292066956167e-06
	2.978460256148415e-01

 52	5.200000000000002e-01
	-2.605503193069156e-15
	-4.790845429902450e-18
	-1.158328340233233e-14
	5.879364398538281e-07
	5.460350906483663e-05
	5.453688399334099e-06
	2.978460848382027e-01

 53	5.300000000000002e-01
	-2.585463676175461e-15
	-4.941968562872916e-18
	-1.166656946752731e-14
	6.282258779030560e-07
	5.985323171897694e-05
	6.025630639506850e-06
	2.978461498035817e-01

 54	5.400000000000003e-01
	-2.566096648963441e-15
	-5.097876295652846e-18
	-1.174828019598781e-14
	6.707177847165547e-07
	6.550670817512398e-05
	6.652073014793229e-06
	2.978462209602187e-01

 55	5.500000000000003e-01
	-2.547391636581145e-15
	-5.258727397229812e-18
	-1.182841753002836e-14
	7.154905949115973e-07
	7.157956735819970e-05
	7.337131845020567e-06
	2.978462987757571e-01

 56	5.600000000000003e-01
	-2.529337856984010e-15
	-5.424686482212035e-18
	-1.190698494951589e-14
	7.626232347937434e-07
	7.808606306571588e-05
	8.085073009420900e-06
	2.978463837348275e-01

 57	5.700000000000003e-01
	-2.511924250226103e-15
	-5.595924254486484e-18
	-1.198398740723299e-14
	8.121950989792743e-07
	8.503883080829134e-05
	8.900296970939284e-06
	2.978464763373405e-01

 58	5.800000000000003e-01
	-2.495139507187586e-15
	-5.772617762051900e-18
	-1.205943126341175e-14
	8.642860478983024e-07
	9.244865091078131e-05
	9.787321396134375e-06
	2.978465770965176e-01

 59	5.900000000000003e-01
	-2.478972097663291e-15
	-5.954950663576119e-18
	-1.213332421970751e-14
	9.189764288459611e-07
	1.003242229474044e-04
	1.075076145863938e-05
	2.978466865366384e-01

 60	6.000000000000003e-01
	-2.463410297744651e-15
	-6.143113507255571e-18
	-1.220567525286853e-14
	9.763471231959753e-07
	1.086719566602635e-04
	1.179530796539525e-05
	2.978468051905672e-01

 61	6.100000000000003e-01
	-2.448442216434604e-15
	-6.337304022587390e-18
	-1.227649454834344e-14
	1.036479622300347e-06
	1.174957844353675e-04
	1.292570349612946e-05
	2.978469335970348e-01

 62	6.200000000000003e-01
	-2.434055821442207e-15
	-6.537727425694404e-18
	-1.234579343405445e-14
	1.099456134471022e-06
	1.267970001758713e-04
	1.414671679625899e-05
	2.978470722977334e-01

 63	6.300000000000003e-01
	-2.420238964110732e-15
	-6.744596738881153e-18
	-1.241358431454939e-14
	1.165359725277288e-06
	1.365741290175130e-04
	1.546311570995468e-05
	2.978472218342357e-01

 64	6.400000000000003e-01
	-2.406979403439699e-15
	-6.958133125131467e-18
	-1.247988060573095e-14
	1.234274493199896e-06
	1.468228317815646e-04
	1.687963898192665e-05
	2.978473827447903e-01

 65	6.500000000000004e-01
	-2.394264829168025e-15
	-7.178566238300522e-18
	-1.254469667034645e-14
	1.306285782464983e-06
	1.575358473684257e-04
	1.840096729208241e-05
	2.978475555610450e-01

 66	6.600000000000004e-01
	-2.382082883891341e-15
	-7.406134589792675e-18
	-1.260804775440723e-14
	1.381480434645191e-06
	1.687029754794881e-04
	2.003169391524865e-05
	2.978477408046942e-01

 67	6.700000000000004e-01
	-2.370421184192944e-15
	-7.641085932560484e-18
	-1.266994992469091e-14
	1.459947080368910e-06
	1.803111011410574e-04
	2.177629541749312e-05
	2.978479389841696e-01

 68	6.800000000000004e-01
	-2.359267340773046e-15
	-7.883677663305087e-18
	-1.273042000746653e-14
	1.541776472232514e-06
	1.923442615223519e-04
	2.363910281044074e-05
	2.978481505913604e-01

 69	6.900000000000004e-01
	-2.348608977566420e-15
	-8.134177243808818e-18
	-1.278947552856780e-14
	1.627061859773088e-06
	2.047837545235395e-04
	2.562427358479871e-05
	2.978483760984253e-01

 70	7.000000000000004e-01
	-2.338433749843767e-15
	-8.392862642377450e-18
	-1.284713465492542e-14
	1.715899407141604e-06
	2.176082875953433e-04
	2.773576503393635e-05
	2.978486159547888e-01

 71	7.100000000000004e-01
	-2.328729361296172e-15
	-8.660022796428135e-18
	-1.290341613765731e-14
	1.808388653930479e-06
	2.307941642753795e-04
	2.997730925803392e-05
	2.978488705842809e-01

 72	7.200000000000004e-01
	-2.319483580106911e-15
	-8.935958097313228e-18
	-1.295833925680118e-14
	1.904633019462757e-06
	2.443155050224463e-04
	3.235239020951902e-05
	2.978491403825453e-01

 73	7.300000000000004e-01
	-2.310684254018317e-15
	-9.220980898529659e-18
	-1.301192376776263e-14
	2.004740350755186e-06
	2.581444981305003e-04
	3.486422310220414e-05
	2.978494257146982e-01

 74	7.400000000000004e-01
	-2.302319324405215e-15
	-9.515416048529713e-18
	-1.306418984953957e-14
	2.108823514330616e-06
	2.722516758356336e-04
	3.751573646085517e-05
	2.978497269132973e-01

 75	7.500000000000004e-01
	-2.294376839369662e-15
	-9.819601449413324e-18
	-1.311515805477258e-14
	2.217001032085017e-06
	2.866062102132413e-04
	4.030955703631463e-05
	2.978500442766186e-01

 76	7.600000000000005e-01
	-2.286844965874643e-15
	-1.013388864285372e-17
	-1.316484926166001e-14
	2.329397761516153e-06
	3.011762231128889e-04
	4.324799775535604e-05
	2.978503780673015e-01

 77	7.700000000000005e-01
	-2.279712000936844e-15
	-1.045864342468227e-17
	-1.321328462776695e-14
	2.446145620799321e-06
	3.159291042022907e-04
	4.633304881588080e-05
	2.978507285113288e-01

 78	7.800000000000005e-01
	-2.272966381901175e-15
	-1.079424648963742e-17
	-1.326048554574726e-14
	2.567384359452625e-06
	3.308318311889014e-04
	4.956637197860968e-05
	2.978510957973898e-01

 79	7.900000000000005e-01
	-2.266596695821379e-15
	-1.114109410786569e-17
	-1.330647360098921e-14
	2.693262375671825e-06
	3.458512864507821e-04
	5.294929804778903e-05
	2.978514800765813e-01

 80	8.000000000000005e-01
	-2.260591687973066e-15
	-1.149959883484724e-17
	-1.335127053118732e-14
	2.823937581831553e-06
	3.609545646240178e-04
	5.648282747719770e-05
	2.978518814624869e-01

 81	8.100000000000005e-01
	-2.254940269526818e-15
	-1.187019025651610e-17
	-1.339489818783471e-14
	2.959578320145811e-06
	3.761092661434523e-04
	6.016763398537954e-05
	2.978523000315814e-01

 82	8.200000000000005e-01
	-2.249631524410103e-15
	-1.225331577143526e-17
	-1.343737849962419e-14
	3.100364331051906e-06
	3.912837722938442e-04
	6.400407101671408e-05
	2.978527358239718e-01

 83	8.300000000000005e-01
	-2.244654715387906e-15
	-1.264944141199630e-17
	-1.347873343773901e-14
	3.246487777527872e-06
	4.064474979744545e-04
	6.799218084371214e-05
	2.978531888444192e-01

 84	8.400000000000005e-01
	-2.239999289392461e-15
	-1.305905270671405e-17
	-1.351898498300897e-14
	3.398154329268700e-06
	4.215711190843497e-04
	7.213170607144421e-05
	2.978536590636543e-01

 85	8.500000000000005e-01
	-2.235654882133144e-15
	-1.348265558580668e-17
	-1.355815509490233e-14
	3.555584311431328e-06
	4.366267721717552e-04
	7.642210327778978e-05
	2.978541464199178e-01

 86	8.600000000000005e-01
	-2.231611322017825e-15
	-1.392077733236663e-17
	-1.359626568231876e-14
	3.719013923507964e-06
	4.515882247324392e-04
	8.086255850335797e-05
	2.978546508207291e-01

 87	8.700000000000006e-01
	-2.227858633417072e-15
	-1.437396758155729e-17
	-1.363333857614498e-14
	3.888696534803090e-06
	4.664310152660534e-04
	8.545200429246719e-05
	2.978551721448081e-01

 88	8.800000000000006e-01
	-2.224387039302637e-15
	-1.484279937040106e-17
	-1.366939550353080e-14
	4.064904063969424e-06
	4.811325628845532e-04
	9.018913798114012e-05
	2.978557102441608e-01

 89	8.900000000000006e-01
	-2.221186963291413e-15
	-1.532787024086527e-17
	-1.370445806384008e-14
	4.247928451106373e-06
	4.956722468964220e-04
	9.507244092925355e-05
	2.978562649462609e-01

 90	9.000000000000006e-01
	-2.218249031125738e-15
	-1.582980339909983e-17
	-1.373854770622849e-14
	4.438083232042458e-06
	5.100314573507824e-04
	1.001001984011038e-04
	2.978568360563077e-01

 91	9.100000000000006e-01
	-2.215564071620372e-15
	-1.634924893383531e-17
	-1.377168570879774e-14
	4.635705225617439e-06
	5.241936180073751e-04
	1.052705198109956e-04
	2.978574233595218e-01

 92	9.200000000000006e-01
	-2.213123117106193e-15
	-1.688688509711449e-17
	-1.380389315927379e-14
	4.841156346056884e-06
	5.381441835960786e-04
	1.105813590671928e-04
	2.978580266234563e-01

 93	9.300000000000006e-01
	-2.210917403399589e-15
	-1.744341965069732e-17
	-1.383519093715545e-14
	5.054825553901861e-06
	5.518706135412660e-04
	1.160305347678636e-04
	2.978586456002947e-01

 94	9.400000000000006e-01
	-2.208938369326137e-15
	-1.801959128166708e-17
	-1.386559969727827e-14
	5.277130960429892e-06
	5.653623245528374e-04
	1.216157500256174e-04
	2.978592800291018e-01

 95	9.500000000000006e-01
	-2.207177655826045e-15
	-1.861617109094811e-17
	-1.389513985473827e-14
	5.508522102093863e-06
	5.786106246311668e-04
	1.273346117220517e-04
	2.978599296380062e-01

 96	9.600000000000006e-01
	-2.205627104668264e-15
	-1.923396415864763e-17
	-1.392383157111884e-14
	5.749482403228793e-06
	5.916086311033514e-04
	1.331846490196144e-04
	2.978605941463032e-01

 97	9.700000000000006e-01
	-2.204278756798887e-15
	-1.987381119033903e-17
	-1.395169474196490e-14
	6.000531847148912e-06
	6.043511753107668e-04
	1.391633309843246e-04
	2.978612732664674e-01

 98	9.800000000000006e-01
	-2.203124850348689e-15
	-2.053659024862957e-17
	-1.397874898544750e-14
	6.262229877800548e-06
	6.168346965116766e-04
	1.452680831988867e-04
	2.978619667060223e-01

 99	9.900000000000007e-01
	-2.202157818323728e-15
	-2.122321857457282e-17
	-1.400501363216265e-14
	6.535178556365325e-06
	6.290571274565570e-04
	1.514963032708206e-04
	2.978626741693219e-01

 100	1.000000000000001e+00
	-2.201370286001410e-15
	-2.193465450373886e-17
	-1.403050771600922e-14
	6.820025999654616e-06
	6.410177739478955e-04
	1.578453751641728e-04
	2.978633953591606e-01

 101	1.010000000000001e+00
	-2.200755068054084e-15
	-2.267189948198954e-17
	-1.405524996609014e-14
