Title: ** sch_path: /home/andylithia/openmpw/project-yatsuhashi-chip1/xschem/gmid_test/nmos_test.sch
Date: Tue Jul 19 23:15:45  2022
Plotname: DC transfer characteristic
Flags: real
No. Variables: 8
No. Points: 181
Variables:
	0	v(v-sweep)	voltage
	1	@m.xm1.msky130_fd_pr__nfet_01v8[cgb]	capacitance
	2	@m.xm1.msky130_fd_pr__nfet_01v8[cgd]	capacitance
	3	@m.xm1.msky130_fd_pr__nfet_01v8[cgs]	capacitance
	4	@m.xm1.msky130_fd_pr__nfet_01v8[gds]	admittance
	5	@m.xm1.msky130_fd_pr__nfet_01v8[gm]	admittance
	6	i(@m.xm1.msky130_fd_pr__nfet_01v8[id])	current
	7	v(@m.xm1.msky130_fd_pr__nfet_01v8[vth])	voltage
Values:
 0	0.000000000000000e+00
	-6.698791621217751e-15
	-2.689371460485253e-19
	-9.234512104628863e-15
	5.828834621730307e-09
	2.760298007226640e-07
	2.846332292823418e-08
	2.698094262903523e-01

 1	1.000000000000000e-02
	-6.619717958242422e-15
	-2.766108169539924e-19
	-9.414849766314168e-15
	6.408750130791479e-09
	3.036762773795083e-07
	3.135968080818405e-08
	2.698094265564710e-01

 2	2.000000000000000e-02
	-6.541241725159700e-15
	-2.844824522233248e-19
	-9.595888045369767e-15
	7.044035019708392e-09
	3.340568811159442e-07
	3.454595868815556e-08
	2.698094268493056e-01

 3	3.000000000000000e-02
	-6.463391111856149e-15
	-2.925562163572077e-19
	-9.777537173850066e-15
	7.739644315641027e-09
	3.674431402717399e-07
	3.805083327071674e-08
	2.698094271715143e-01

 4	4.000000000000000e-02
	-6.386194118082834e-15
	-3.008363323690704e-19
	-9.959706418597407e-15
	8.500931116384240e-09
	4.041346909595227e-07
	4.190583458422409e-08
	2.698094275260262e-01

 5	5.000000000000000e-02
	-6.309678483123591e-15
	-3.093270822970550e-19
	-1.014230425153018e-14
	9.333672653259719e-09
	4.444624505501413e-07
	4.614564262052950e-08
	2.698094279160574e-01

 6	6.000000000000000e-02
	-6.233871616529261e-15
	-3.180328077529018e-19
	-1.032523852254939e-14
	1.024409732284387e-08
	4.887921817063617e-07
	5.080841762243681e-08
	2.698094283451651e-01

 7	7.000000000000001e-02
	-6.158800530177818e-15
	-3.269579105102895e-19
	-1.050841663441126e-14
	1.123891263089910e-08
	5.375284944022175e-07
	5.593616815991790e-08
	2.698094288172576e-01

 8	8.000000000000000e-02
	-6.084491771915053e-15
	-3.361068531348138e-19
	-1.069174571889859e-14
	1.232533397778435e-08
	5.911193378160180e-07
	6.157516163057398e-08
	2.698094293366505e-01

 9	9.000000000000000e-02
	-6.010971361022912e-15
	-3.454841596580318e-19
	-1.087513281361813e-14
	1.351111419958331e-08
	6.500610384600224e-07
	6.777638236116367e-08
	2.698094299081081e-01

 10	9.999999999999999e-02
	-5.938264725753424e-15
	-3.550944162980319e-19
	-1.105848503874712e-14
	1.480457376321455e-08
	7.149039452937416e-07
	7.459604307267308e-08
	2.698094305368875e-01

 11	1.100000000000000e-01
	-5.866396643156179e-15
	-3.649422722286770e-19
	-1.124170977305161e-14
	1.621463149696263e-08
	7.862587467194423e-07
	8.209615609985305e-08
	2.698094312288034e-01

 12	1.200000000000000e-01
	-5.795391181414577e-15
	-3.750324403998899e-19
	-1.142471482850669e-14
	1.775083572032740e-08
	8.648035281049874e-07
	9.034517142432059e-08
	2.698094319902805e-01

 13	1.300000000000000e-01
	-5.725271644893393e-15
	-3.853696984112943e-19
	-1.160740862285526e-14
	1.942339561889629e-08
	9.512916416116024e-07
	9.941868928297191e-08
	2.698094328284307e-01

 14	1.400000000000000e-01
	-5.656060522085111e-15
	-3.959588894413310e-19
	-1.178970034945765e-14
	2.124321269129493e-08
	1.046560462380044e-06
	1.094002558434605e-07
	2.698094337511310e-01

 15	1.500000000000000e-01
	-5.587779436626942e-15
	-4.068049232341061e-19
	-1.197150014380081e-14
	2.322191207627450e-08
	1.151541106264690e-06
	1.203822511857342e-07
	2.698094347671067e-01

 16	1.600000000000000e-01
	-5.520449101543541e-15
	-4.179127771460748e-19
	-1.215271924605746e-14
	2.537187354885466e-08
	1.267269183981964e-06
	1.324668795802310e-07
	2.698094358860343e-01

 17	1.700000000000000e-01
	-5.454089276853039e-15
	-4.292874972546024e-19
	-1.233327015911052e-14
	2.770626195534174e-08
	1.394896664399767e-06
	1.457672727929434e-07
	2.698094371186526e-01

 18	1.800000000000000e-01
	-5.388718730655179e-15
	-4.409341995305246e-19
	-1.251306680148763e-14
	3.023905683818835e-08
	1.535704915346339e-06
	1.604087178550548e-07
	2.698094384768808e-01

 19	1.900000000000000e-01
	-5.324355203802099e-15
	-4.528580710765933e-19
	-1.269202465468084e-14
	3.298508098326118e-08
	1.691118983338104e-06
	1.765300213860278e-07
	2.698094399739605e-01

 20	2.000000000000000e-01
	-5.261015378232306e-15
	-4.650643714337927e-19
	-1.287006090436311e-14
	3.596002760440913e-08
	1.862723163573085e-06
	1.942850231254750e-07
	2.698094416246087e-01

 21	2.100000000000000e-01
	-5.198714849029364e-15
	-4.775584339572446e-19
	-1.304709457504910e-14
	3.918048586345491e-08
	2.052277897950681e-06
	2.138442717776906e-07
	2.698094434451930e-01

 22	2.200000000000001e-01
	-5.137468100246715e-15
	-4.903456672638178e-19
	-1.322304665778899e-14
	4.266396440819746e-08
	2.261738021304078e-06
	2.353968765659280e-07
	2.698094454539112e-01

 23	2.300000000000001e-01
	-5.077288484520991e-15
	-5.034315567527403e-19
	-1.339784023052379e-14
	4.642891259687855e-08
	2.493272354024134e-06
	2.591525479889639e-07
	2.698094476710123e-01

 24	2.400000000000001e-01
	-5.018188206476333e-15
	-5.168216662012377e-19
	-1.357140057077573e-14
	5.049473906520140e-08
	2.749284612411669e-06
	2.853438411242333e-07
	2.698094501190287e-01

 25	2.500000000000001e-01
	-4.960178309903471e-15
	-5.305216394367086e-19
	-1.374365526039065e-14
	5.488182728157655e-08
	3.032435576067455e-06
	3.142286143792496e-07
	2.698094528230319e-01

 26	2.600000000000001e-01
	-4.903268668679030e-15
	-5.445372020869663e-19
	-1.391453428209465e-14
	5.961154772812702e-08
	3.345666414157524e-06
	3.460927158031485e-07
	2.698094558109220e-01

 27	2.700000000000001e-01
	-4.847467981372404e-15
	-5.588741634100381e-19
	-1.408397010767332e-14
	6.470626633940140e-08
	3.692223029329750e-06
	3.812529078777557e-07
	2.698094591137321e-01

 28	2.800000000000001e-01
	-4.792783769470851e-15
	-5.735384182051015e-19
	-1.425189777762718e-14
	7.018934882797703e-08
	4.075681229407490e-06
	4.200600400563168e-07
	2.698094627659806e-01

 29	2.900000000000001e-01
	-4.739222379136947e-15
	-5.885359488057495e-19
	-1.441825497220328e-14
	7.608516052651867e-08
	4.499972482935549e-06
	4.629024761531732e-07
	2.698094668060422e-01

 30	3.000000000000001e-01
	-4.686788986397802e-15
	-6.038728271572226e-19
	-1.458298207374685e-14
	8.241906137962648e-08
	4.969409955603884e-06
	5.102097809566063e-07
	2.698094712765511e-01

 31	3.100000000000001e-01
	-4.635487605651044e-15
	-6.195552169785860e-19
	-1.474602222036160e-14
	8.921739572637101e-08
	5.488714461184897e-06
	5.624566670932514e-07
	2.698094762248437e-01

 32	3.200000000000001e-01
	-4.585321101359882e-15
	-6.355893760114072e-19
	-1.490732135090945e-14
	9.650747652594859e-08
	6.063039893833147e-06
	6.201671991767002e-07
	2.698094817034386e-01

 33	3.300000000000001e-01
	-4.536291202797712e-15
	-6.519816583560215e-19
	-1.506682824142214e-14
	1.043175636948715e-07
	6.697997639669003e-06
	6.839192475974375e-07
	2.698094877705446e-01

 34	3.400000000000001e-01
	-4.488398521692324e-15
	-6.687385168966085e-19
	-1.522449453303623e-14
	1.126768362447165e-07
	7.399679396091550e-06
	7.543491789421005e-07
	2.698094944906083e-01

 35	3.500000000000001e-01
	-4.441642572610736e-15
	-6.858665058162576e-19
	-1.538027475160019e-14
	1.216153579351137e-07
	8.174677759178553e-06
	8.321567639712711e-07
	2.698095019348936e-01

 36	3.600000000000002e-01
	-4.396021795917751e-15
	-7.033722832033368e-19
	-1.553412631913750e-14
	1.311640361876475e-07
	9.030103875117714e-06
	9.181102773617062e-07
	2.698095101821028e-01

 37	3.700000000000002e-01
	-4.351533583134690e-15
	-7.212626137500630e-19
	-1.568600955738268e-14
	1.413545740430062e-07
	9.973601393482381e-06
	1.013051756080563e-06
	2.698095193190155e-01

 38	3.800000000000002e-01
	-4.308174304520069e-15
	-7.395443715444374e-19
	-1.583588768363615e-14
	1.522194149862893e-07
	1.101335591121904e-05
	1.117902375382586e-06
	2.698095294411755e-01

 39	3.900000000000002e-01
	-4.265939338689373e-15
	-7.582245429571766e-19
	-1.598372679921266e-14
	1.637916805142408e-07
	1.215809905959795e-05
	1.233667893114672e-06
	2.698095406535860e-01

 40	4.000000000000002e-01
	-4.224823104089151e-15
	-7.773102296239203e-19
	-1.612949587078129e-14
	1.761051003734011e-07
	1.341710636538123e-05
	1.361444104414279e-06
	2.698095530714316e-01

 41	4.100000000000002e-01
	-4.184819092138955e-15
	-7.968086515246636e-19
	-1.627316670491736e-14
	1.891939354600465e-07
	1.480018801543941e-05
	1.502422240172676e-06
	2.698095668208175e-01

 42	4.200000000000002e-01
	-4.145919901854337e-15
	-8.167271501612393e-19
	-1.641471391620565e-14
	2.030928934413368e-07
	1.631767167427447e-05
	1.657894234007125e-06
	2.698095820395085e-01

 43	4.300000000000002e-01
	-4.108117275765507e-15
	-8.370731918340062e-19
	-1.655411488924976e-14
	2.178370372322434e-07
	1.798037654943256e-05
	1.829257774185373e-06
	2.698095988776716e-01

 44	4.400000000000002e-01
	-4.071402136947725e-15
	-8.578543710190148e-19
	-1.669134973495588e-14
	2.334616865445241e-07
	1.979957797328071e-05
	2.018021049238625e-06
	2.698096174986114e-01

 45	4.500000000000002e-01
	-4.035764626982918e-15
	-8.790784138472850e-19
	-1.682640124146992e-14
	2.500023128118292e-07
	2.178696187316681e-05
	2.225807089176236e-06
	2.698096380794686e-01

 46	4.600000000000002e-01
	-4.001194144675750e-15
	-9.007531816867148e-19
	-1.695925482015385e-14
	2.674944278884915e-07
	2.395456863690027e-05
	2.454357598583671e-06
	2.698096608118921e-01

 47	4.700000000000003e-01
	-3.967679385352200e-15
	-9.228866748288260e-19
	-1.708989844699249e-14
	2.859734670179398e-07
	2.631472604717208e-05
	2.705536173762802e-06
	2.698096859026700e-01

 48	4.800000000000003e-01
	-3.935208380574122e-15
	-9.454870362812128e-19
	-1.721832259982490e-14
	3.054746666690857e-07
	2.887997115623189e-05
	2.981330793775036e-06
	2.698097135742678e-01

 49	4.900000000000003e-01
	-3.903768538109796e-15
	-9.685625556674857e-19
	-1.734452019179304e-14
	3.260329379439550e-07
	3.166296119882634e-05
	3.283855475071781e-06
	2.698097440653262e-01

 50	5.000000000000002e-01
	-3.873346682006683e-15
	-9.921216732359319e-19
	-1.746848650140067e-14
	3.476827363663680e-07
	3.467637389373947e-05
	3.615350981624250e-06
	2.698097776310196e-01

 51	5.100000000000002e-01
	-3.843929092620713e-15
	-1.016172983978922e-18
	-1.759021909956788e-14
	3.704579289669307e-07
	3.793279775735782e-05
	3.978184487318519e-06
	2.698098145433352e-01

 52	5.200000000000002e-01
	-3.815501546463288e-15
	-1.040725241864346e-18
	-1.770971777406381e-14
	3.943916596829619e-07
	4.144461334035467e-05
	4.374848095052523e-06
	2.698098550911911e-01

 53	5.300000000000002e-01
	-3.788049355736153e-15
	-1.065787364181312e-18
	-1.782698445168893e-14
	4.195162141900269e-07
	4.522386659314166e-05
	4.807956127554872e-06
	2.698098995804362e-01

 54	5.400000000000003e-01
	-3.761557407431832e-15
	-1.091368436001486e-18
	-1.794202311857077e-14
	4.458628853726548e-07
	4.928213585846449e-05
	5.280241118479094e-06
	2.698099483336525e-01

 55	5.500000000000003e-01
	-3.736010201886501e-15
	-1.117477714758520e-18
	-1.805483973892468e-14
	4.734618407223669e-07
	5.363039427058227e-05
	5.794548448732955e-06
	2.698100016898075e-01

 56	5.600000000000003e-01
	-3.711391890680419e-15
	-1.144124634947275e-18
	-1.816544217261903e-14
	5.023419930190902e-07
	5.827886959956456e-05
	6.353829592124258e-06
	2.698100600036903e-01

 57	5.700000000000003e-01
	-3.687686313789987e-15
	-1.171318812945337e-18
	-1.827384009187080e-14
	5.325308757040709e-07
	6.323690380566101e-05
	6.961133955957546e-06
	2.698101236451613e-01

 58	5.800000000000003e-01
	-3.664877035904073e-15
	-1.199070051958775e-18
	-1.838004489738305e-14
	5.640545243862667e-07
	6.851281475210388e-05
	7.619599325830822e-06
	2.698101929981833e-01

 59	5.900000000000003e-01
	-3.642947381826071e-15
	-1.227388347095042e-18
	-1.848406963421993e-14
	5.969373659372301e-07
	7.411376265533957e-05
	8.332440949071184e-06
	2.698102684596457e-01

 60	6.000000000000003e-01
	-3.621880470891263e-15
	-1.256283890564943e-18
	-1.858592890770028e-14
	6.312021166195128e-07
	8.004562392108900e-05
	9.102939317446065e-06
	2.698103504379566e-01

 61	6.100000000000003e-01
	-3.601659250337993e-15
	-1.285767077016912e-18
	-1.868563879957283e-14
	6.668696906589189e-07
	8.631287501598209e-05
	9.934426736339047e-06
	2.698104393514485e-01

 62	6.200000000000003e-01
	-3.582266527578679e-15
	-1.315848509006259e-18
	-1.878321678472084e-14
	7.039591206104902e-07
	9.291848895321198e-05
	1.083027279378869e-05
	2.698105356265597e-01

 63	6.300000000000003e-01
	-3.563685001325014e-15
	-1.346539002601866e-18
	-1.887868164862616e-14
	7.424874907810919e-07
	9.986384682451320e-05
	1.179386886790402e-05
	2.698106396958407e-01

 64	6.400000000000003e-01
	-3.545897291529096e-15
	-1.377849593134270e-18
	-1.897205340580639e-14
	7.824698848584166e-07
	1.071486665905326e-04
	1.282861183445606e-05
	2.698107519957758e-01

 65	6.500000000000004e-01
	-3.528885968109440e-15
	-1.409791541087675e-18
	-1.906335321942114e-14
	8.239193487578381e-07
	1.147709510508448e-04
	1.393788715716332e-05
	2.698108729644801e-01

 66	6.600000000000004e-01
	-3.512633578437908e-15
	-1.442376338139758e-18
	-1.915260332222808e-14
	8.668468695370098e-07
	1.227269565600800e-04
	1.512505156067911e-05
	2.698110030392376e-01

 67	6.700000000000004e-01
	-3.497122673570167e-15
	-1.475615713352517e-18
	-1.923982693905104e-14
	9.112613710454324e-07
	1.310111836470119e-04
	1.639341549993344e-05
	2.698111426539873e-01

 68	6.800000000000004e-01
	-3.482335833208334e-15
	-1.509521639518115e-18
	-1.932504821090815e-14
	9.571697267766526e-07
	1.396163902409236e-04
	1.774622564881916e-05
	2.698112922367247e-01

 69	6.900000000000004e-01
	-3.468255689390482e-15
	-1.544106339663862e-18
	-1.940829212093084e-14
	1.004576790177396e-06
	1.485336277276409e-04
	1.918664763584765e-05
	2.698114522068912e-01

 70	7.000000000000004e-01
	-3.454864948906888e-15
	-1.579382293719796e-18
	-1.948958442219054e-14
	1.053485442446221e-06
	1.577522995616344e-04
	2.071774925414180e-05
	2.698116229727821e-01

 71	7.100000000000004e-01
	-3.442146414448474e-15
	-1.615362245354187e-18
	-1.956895156753338e-14
	1.103896657628711e-06
	1.672602416663651e-04
	2.234248436790440e-05
	2.698118049290092e-01

 72	7.200000000000004e-01
	-3.430083004496632e-15
	-1.652059208980371e-18
	-1.964642064151138e-14
	1.155809584592333e-06
	1.770438233786350e-04
	2.406367772740587e-05
	2.698119984540571e-01

 73	7.300000000000004e-01
	-3.418657771968978e-15
	-1.689486476940708e-18
	-1.972201929448281e-14
	1.209221645247167e-06
	1.870880672494531e-04
	2.588401088982992e-05
	2.698122039079739e-01

 74	7.400000000000004e-01
	-3.407853921638584e-15
	-1.727657626871778e-18
	-1.979577567894283e-14
	1.264128648173885e-06
	1.973767856178408e-04
	2.780600942440194e-05
	2.698124216302198e-01

 75	7.500000000000004e-01
	-3.397654826348263e-15
	-1.766586529256656e-18
	-1.986771838813277e-14
	1.320524916632534e-06
	2.078927315371838e-04
	2.983203155763554e-05
	2.698126519377389e-01

 76	7.600000000000005e-01
	-3.388044042044435e-15
	-1.806287355169321e-18
	-1.993787639696495e-14
	1.378403429759523e-06
	2.186177613658917e-04
	3.196425838892534e-05
	2.698128951232238e-01

 77	7.700000000000005e-01
	-3.379005321657914e-15
	-1.846774584216804e-18
	-2.000627900528884e-14
	1.437755975618711e-06
	2.295330061419205e-04
	3.420468577878167e-05
	2.698131514536684e-01

 78	7.800000000000005e-01
	-3.370522627861415e-15
	-1.888063012685236e-18
	-2.007295578351440e-14
	1.498573314659722e-06
	2.406190487482536e-04
	3.655511798257521e-05
	2.698134211691658e-01

 79	7.900000000000005e-01
	-3.362580144735842e-15
	-1.930167761896031e-18
	-2.013793652059856e-14
	1.560845352053520e-06
	2.518561038441615e-04
	3.901716307248445e-05
	2.698137044820043e-01

 80	8.000000000000005e-01
	-3.355162288378875e-15
	-1.973104286778042e-18
	-2.020125117439244e-14
	1.624561317323942e-06
	2.632241975829974e-04
	4.159223016025527e-05
	2.698140015760477e-01

 81	8.100000000000005e-01
	-3.348253716491385e-15
	-2.016888384663189e-18
	-2.026292982433812e-14
	1.689709949674163e-06
	2.747033442563421e-04
	4.428152840412466e-05
	2.698143126064170e-01

 82	8.200000000000005e-01
	-3.341839336978036e-15
	-2.061536204312015e-18
	-2.032300262649696e-14
	1.756279687418382e-06
	2.862737171891830e-04
	4.708606775552895e-05
	2.698146376994543e-01

 83	8.300000000000005e-01
	-3.335904315599586e-15
	-2.107064255176169e-18
	-2.038149977088387e-14
	1.824258859970024e-06
	2.979158114523063e-04
	5.000666137563334e-05
	2.698149769529836e-01

 84	8.400000000000005e-01
	-3.330434082715210e-15
	-2.153489416906363e-18
	-2.043845144107623e-14
	1.893635880906576e-06
	3.096105962455280e-04
	5.304392962879475e-05
	2.698153304368162e-01

 85	8.500000000000005e-01
	-3.325414339153466e-15
	-2.200828949112463e-18
	-2.049388777606048e-14
	1.964399440724078e-06
	3.213396551271955e-04
	5.619830554018395e-05
	2.698156981935455e-01

 86	8.600000000000005e-01
	-3.320831061250938e-15
	-2.249100501384153e-18
	-2.054783883427409e-14
	2.036538698009745e-06
	3.330853126100006e-04
	5.947004158828689e-05
	2.698160802395256e-01

 87	8.700000000000006e-01
	-3.316670505097880e-15
	-2.298322123581295e-18
	-2.060033455979648e-14
	2.110043467893470e-06
	3.448307459984881e-04
	6.285921768996203e-05
	2.698164765661018e-01

 88	8.800000000000006e-01
	-3.312919210029501e-15
	-2.348512276401765e-18
	-2.065140475063842e-14
	2.184904406786541e-06
	3.565600816992101e-04
	6.636575022630054e-05
	2.698168871409832e-01

 89	8.900000000000006e-01
	-3.309564001402210e-15
	-2.399689842236064e-18
	-2.070107902907576e-14
	2.261113192572980e-06
	3.682584755797579e-04
	6.998940195157438e-05
	2.698173119098038e-01

 90	9.000000000000006e-01
	-3.306591992692859e-15
	-2.451874136318515e-18
	-2.074938681397131e-14
	2.338662699583371e-06
	3.799121772796331e-04
	7.372979262500011e-05
	2.698177507977761e-01

 91	9.100000000000006e-01
	-3.303990586958975e-15
	-2.505084918183950e-18
	-2.079635729502513e-14
	2.417547167848205e-06
	3.915085786764847e-04
	7.758641020560309e-05
	2.698182037114581e-01

 92	9.200000000000006e-01
	-3.301747477697403e-15
	-2.559342403440806e-18
	-2.084201940889220e-14
	2.497762366294885e-06
	4.030362469802672e-04
	8.155862245388381e-05
	2.698186705405904e-01

 93	9.300000000000006e-01
	-3.299850649137699e-15
	-2.614667275869896e-18
	-2.088640181710486e-14
	2.579305749717026e-06
	4.144849431613098e-04
	8.564568878993291e-05
	2.698191511599622e-01

 94	9.400000000000006e-01
	-3.298288376006036e-15
	-2.671080699860606e-18
	-2.092953288573587e-14
	2.662176609503137e-06
	4.258456266135604e-04
	8.984677226570551e-05
	2.698196454313062e-01

 95	9.500000000000006e-01
	-3.297049222794496e-15
	-2.728604333195068e-18
	-2.097144066673734e-14
	2.746376218263113e-06
	4.371104471106454e-04
	9.416095151900324e-05
	2.698201532051764e-01

 96	9.600000000000006e-01
	-3.296122042569333e-15
	-2.787260340191973e-18
	-2.101215288089023e-14
	2.831907968633226e-06
	4.482727252300914e-04
	9.858723258792425e-05
	2.698206743227946e-01

 97	9.700000000000006e-01
	-3.295495975351340e-15
	-2.847071405221262e-18
	-2.105169690229884e-14
	2.918777506671963e-06
	4.593269225015095e-04
	1.031245604767089e-04
	2.698212086178691e-01

 98	9.800000000000006e-01
	-3.295160446099661e-15
	-2.908060746603329e-18
	-2.109009974436482e-14
	3.006992860380681e-06
	4.702686025804860e-04
	1.077718303767628e-04
	2.698217559183189e-01

 99	9.900000000000007e-01
	-3.295105162329872e-15
	-2.970252130903500e-18
	-2.112738804717572e-14
	3.096564563992394e-06
	4.810943847639098e-04
	1.125278984597139e-04
	2.698223160479437e-01

 100	1.000000000000001e+00
	-3.295320111395613e-15
	-3.033669887637281e-18
	-2.116358806624339e-14
	3.187505778771626e-06
	4.918018911487684e-04
	1.173915921725105e-04
	2.698228888279802e-01

 101	1.010000000000001e+00
	-3.295795557462334e-15
	-3.098338924397354e-18
	-2.119872566252810e-14
