Title: ** sch_path: /home/andylithia/openmpw/project-yatsuhashi-chip1/xschem/gmid_test/nmos_test.sch
Date: Sun Jul 17 22:51:45  2022
Plotname: DC transfer characteristic
Flags: real
No. Variables: 8
No. Points: 181
Variables:
	0	v(v-sweep)	voltage
	1	@m.xm1.msky130_fd_pr__nfet_01v8[cgb]	capacitance
	2	@m.xm1.msky130_fd_pr__nfet_01v8[cgd]	capacitance
	3	@m.xm1.msky130_fd_pr__nfet_01v8[cgs]	capacitance
	4	@m.xm1.msky130_fd_pr__nfet_01v8[gds]	admittance
	5	@m.xm1.msky130_fd_pr__nfet_01v8[gm]	admittance
	6	i(@m.xm1.msky130_fd_pr__nfet_01v8[id])	current
	7	v(@m.xm1.msky130_fd_pr__nfet_01v8[vth])	voltage
Values:
 0	0.000000000000000e+00
	-1.169665907416779e-14
	-5.808755341243383e-18
	-2.257469781281463e-14
	2.416812771031251e-08
	7.943645802318141e-07
	1.007277217578403e-07
	1.855707923141444e-01

 1	1.000000000000000e-02
	-1.156858732529756e-14
	-5.966696119117660e-18
	-2.287857095452166e-14
	2.604954825825517e-08
	8.594302534080857e-07
	1.089923541663539e-07
	1.855707933086743e-01

 2	2.000000000000000e-02
	-1.144219162454473e-14
	-6.129046547059122e-18
	-2.318192258032150e-14
	2.806976678815580e-08
	9.299282353958095e-07
	1.179344236038855e-07
	1.855707943847309e-01

 3	3.000000000000000e-02
	-1.131749716635945e-14
	-6.295935365218059e-18
	-2.348464823212966e-14
	3.023822500614173e-08
	1.006336929034071e-06
	1.276106088044900e-07
	1.855707955491361e-01

 4	4.000000000000000e-02
	-1.119452829487914e-14
	-6.467495377436502e-18
	-2.378664421358253e-14
	3.256492956683520e-08
	1.089180480136405e-06
	1.380825975178177e-07
	1.855707968093130e-01

 5	5.000000000000000e-02
	-1.107330846008682e-14
	-6.643863593874391e-18
	-2.408780771686539e-14
	3.506047906025272e-08
	1.179033458854045e-06
	1.494175669637643e-07
	1.855707981733487e-01

 6	6.000000000000000e-02
	-1.095386017634975e-14
	-6.825181379223712e-18
	-2.438803694730492e-14
	3.773609175891189e-08
	1.276526016530097e-06
	1.616887134438470e-07
	1.855707996500520e-01

 7	7.000000000000001e-02
	-1.083620498341715e-14
	-7.011594606747608e-18
	-2.468723124542189e-14
	4.060363411172620e-08
	1.382349559910684e-06
	1.749758360714919e-07
	1.855708012490320e-01

 8	8.000000000000000e-02
	-1.072036340994810e-14
	-7.203253818402497e-18
	-2.498529120615023e-14
	4.367564996922856e-08
	1.497262986863126e-06
	1.893659800136295e-07
	1.855708029807623e-01

 9	9.000000000000000e-02
	-1.060635493963225e-14
	-7.400314391303858e-18
	-2.528211879493813e-14
	4.696539052264477e-08
	1.622099529912058e-06
	2.049541450883016e-07
	1.855708048566822e-01

 10	9.999999999999999e-02
	-1.049419797995661e-14
	-7.602936710816609e-18
	-2.557761746046231e-14
	5.048684493745245e-08
	1.757774255890687e-06
	2.218440660363112e-07
	1.855708068892760e-01

 11	1.100000000000000e-01
	-1.038390983366358e-14
	-7.811286350559798e-18
	-2.587169224369615e-14
	5.425477166020048e-08
	1.905292271751171e-06
	2.401490712766842e-07
	1.855708090921877e-01

 12	1.200000000000000e-01
	-1.027550667293537e-14
	-8.025534259629873e-18
	-2.616424988309053e-14
	5.828473037567273e-08
	2.065757688019707e-06
	2.599930274637683e-07
	1.855708114803312e-01

 13	1.300000000000000e-01
	-1.016900351633185e-14
	-8.245856957363491e-18
	-2.645519891563871e-14
	6.259311458986284e-08
	2.240383392436569e-06
	2.815113776841419e-07
	1.855708140700079e-01

 14	1.400000000000000e-01
	-1.006441420849865e-14
	-8.472436735972497e-18
	-2.674444977361367e-14
	6.719718481275803e-08
	2.430501686904571e-06
	3.048522816602091e-07
	1.855708168790566e-01

 15	1.500000000000000e-01
	-9.961751402654027e-15
	-8.705461871404381e-18
	-2.703191487678409e-14
	7.211510231360881e-08
	2.637575840885385e-06
	3.301778668592083e-07
	1.855708199269950e-01

 16	1.600000000000000e-01
	-9.861026545852922e-15
	-8.945126842793345e-18
	-2.731750871993101e-14
	7.736596342016902e-08
	2.863212613725327e-06
	3.576655999348911e-07
	1.855708232351914e-01

 17	1.700000000000000e-01
	-9.762249867018978e-15
	-9.191632560890152e-18
	-2.760114795550629e-14
	8.296983433241039e-08
	3.109175796950117e-06
	3.875097884474868e-07
	1.855708268270393e-01

 18	1.800000000000000e-01
	-9.665430367724836e-15
	-9.445186605873051e-18
	-2.788275147129185e-14
	8.894778642034330e-08
	3.377400825216098e-06
	4.199232233067756e-07
	1.855708307281593e-01

 19	1.900000000000000e-01
	-9.570575815693896e-15
	-9.706003474964946e-18
	-2.816224046293738e-14
	9.532193197494431e-08
	3.670010501217223e-06
	4.551389728539319e-07
	1.855708349666151e-01

 20	2.000000000000000e-01
	-9.477692740987215e-15
	-9.974304840301344e-18
	-2.843953850127399e-14
	1.021154603807807e-07
	3.989331875283356e-06
	4.934123399289009e-07
	1.855708395731449e-01

 21	2.100000000000000e-01
	-9.386786434831885e-15
	-1.025031981751511e-17
	-2.871457159431818e-14
	1.093526746786048e-07
	4.337914314522833e-06
	5.350229936488290e-07
	1.855708445814299e-01

 22	2.200000000000001e-01
	-9.297860951038763e-15
	-1.053428524552850e-17
	-2.898726824390292e-14
	1.170590284863318e-07
	4.718548789017964e-06
	5.802772879363159e-07
	1.855708500283558e-01

 23	2.300000000000001e-01
	-9.210919109950907e-15
	-1.082644597806523e-17
	-2.925755949688699e-14
	1.252611632469422e-07
	5.134288393619138e-06
	6.295107790672717e-07
	1.855708559543334e-01

 24	2.400000000000001e-01
	-9.125962504856145e-15
	-1.112705518742273e-17
	-2.952537899091739e-14
	1.339869457725335e-07
	5.588470113162391e-06
	6.830909546417110e-07
	1.855708624036196e-01

 25	2.500000000000001e-01
	-9.042991510791024e-15
	-1.143637468106902e-17
	-2.979066299473431e-14
	1.432655060545743e-07
	6.084737826301966e-06
	7.414201863970278e-07
	1.855708694246689e-01

 26	2.600000000000001e-01
	-8.962005295657733e-15
	-1.175467523165849e-17
	-3.005335044302756e-14
	1.531272753116534e-07
	6.627066528469597e-06
	8.049389191631546e-07
	1.855708770705269e-01

 27	2.700000000000001e-01
	-8.883001833568542e-15
	-1.208223692109354e-17
	-3.031338296587155e-14
	1.636040242477769e-07
	7.219787737620240e-06
	8.741291079816293e-07
	1.855708853992394e-01

 28	2.800000000000001e-01
	-8.805977920329057e-15
	-1.241934949928049e-17
	-3.057070491278187e-14
	1.747289014963596e-07
	7.867616027281289e-06
	9.495179149526181e-07
	1.855708944742990e-01

 29	2.900000000000001e-01
	-8.730929190964874e-15
	-1.276631275827437e-17
	-3.082526337145346e-14
	1.865364722278434e-07
	8.575676609907362e-06
	1.031681676713225e-06
	1.855709043651272e-01

 30	3.000000000000001e-01
	-8.657850139193484e-15
	-1.312343692253261e-17
	-3.107700818125672e-14
	1.990627569023297e-07
	9.349533869588074e-06
	1.121250152562161e-06
	1.855709151475784e-01

 31	3.100000000000001e-01
	-8.586734138739169e-15
	-1.349104305603442e-17
	-3.132589194158114e-14
	2.123452701527116e-07
	1.019522071673259e-05
	1.218911062105237e-06
	1.855709269044940e-01

 32	3.200000000000001e-01
	-8.517573466385339e-15
	-1.386946348706791e-17
	-3.157187001513211e-14
	2.264230597890356e-07
	1.111926860848335e-05
	1.325414919879717e-06
	1.855709397262820e-01

 33	3.300000000000001e-01
	-8.450359326655957e-15
	-1.425904225152038e-17
	-3.181490052629960e-14
	2.413367459209562e-07
	1.212873804734513e-05
	1.441580172697467e-06
	1.855709537115343e-01

 34	3.400000000000001e-01
	-8.385081878016720e-15
	-1.466013555555434e-17
	-3.205494435472785e-14
	2.571285602026121e-07
	1.323124933698149e-05
	1.568298643404904e-06
	1.855709689676934e-01

 35	3.500000000000001e-01
	-8.321730260483228e-15
	-1.507311225859500e-17
	-3.229196512423043e-14
	2.738423852133326e-07
	1.443501333851602e-05
	1.706541282370065e-06
	1.855709856117341e-01

 36	3.600000000000002e-01
	-8.260292624524125e-15
	-1.549835437760267e-17
	-3.252592918720203e-14
	2.915237939981414e-07
	1.574886193322942e-05
	1.857364225252778e-06
	1.855710037709010e-01

 37	3.700000000000002e-01
	-8.200756161145352e-15
	-1.593625761365623e-17
	-3.275680560468986e-14
	3.102200898049185e-07
	1.718227785862301e-05
	2.021915152478508e-06
	1.855710235834719e-01

 38	3.800000000000002e-01
	-8.143107133042130e-15
	-1.638723190192293e-17
	-3.298456612229627e-14
	3.299803460701303e-07
	1.874542354484035e-05
	2.201439942305136e-06
	1.855710451995579e-01

 39	3.900000000000002e-01
	-8.087330906705398e-15
	-1.685170198614546e-17
	-3.320918514209069e-14
	3.508554467229127e-07
	2.044916853793342e-05
	2.397289605437713e-06
	1.855710687819508e-01

 40	4.000000000000002e-01
	-8.033411985370312e-15
	-1.733010801884489e-17
	-3.343063969071687e-14
	3.728981268984135e-07
	2.230511505606021e-05
	2.610927484807648e-06
	1.855710945069803e-01

 41	4.100000000000002e-01
	-7.981334042695488e-15
	-1.782290618848536e-17
	-3.364890938388637e-14
	3.961630141759083e-07
	2.432562118511857e-05
	2.843936699391906e-06
	1.855711225654096e-01

 42	4.200000000000002e-01
	-7.931079957063391e-15
	-1.833056937492405e-17
	-3.386397638745379e-14
	4.207066704861638e-07
	2.652382118241315e-05
	3.098027805820011e-06
	1.855711531633753e-01

 43	4.300000000000002e-01
	-7.882631846394077e-15
	-1.885358783453490e-17
	-3.407582537527426e-14
	4.465876348662509e-07
	2.891364232164479e-05
	3.375046646021820e-06
	1.855711865233190e-01

 44	4.400000000000002e-01
	-7.835971103366875e-15
	-1.939246991646830e-17
	-3.428444348404440e-14
	4.738664672791237e-07
	3.150981768083667e-05
	3.676982343337193e-06
	1.855712228849503e-01

 45	4.500000000000002e-01
	-7.791078430947341e-15
	-1.994774281157937e-17
	-3.448982026533181e-14
	5.026057937605899e-07
	3.432789424790414e-05
	4.005975403383670e-06
	1.855712625062345e-01

 46	4.600000000000002e-01
	-7.747933878119442e-15
	-2.051995333565315e-17
	-3.469194763499796e-14
	5.328703532087362e-07
	3.738423569764532e-05
	4.364325869613965e-06
	1.855713056643717e-01

 47	4.700000000000003e-01
	-7.706516875726105e-15
	-2.110966874862548e-17
	-3.489081982022064e-14
	5.647270461909531e-07
	4.069601918021824e-05
	4.754501476954784e-06
	1.855713526567690e-01

 48	4.800000000000003e-01
	-7.666806272325262e-15
	-2.171747761159701e-17
	-3.508643330431961e-14
	5.982449862127113e-07
	4.428122545600217e-05
	5.179145740283616e-06
	1.855714038020300e-01

 49	4.900000000000003e-01
	-7.628780369971189e-15
	-2.234399068353068e-17
	-3.527878676958994e-14
	6.334955539710588e-07
	4.815862171642342e-05
	5.641085907862809e-06
	1.855714594409062e-01

 50	5.000000000000002e-01
	-7.592416959835402e-15
	-2.298984185962598e-17
	-3.546788103834394e-14
	6.705524552054954e-07
	5.234773644614816e-05
	6.143340703313539e-06
	1.855715199372278e-01

 51	5.100000000000002e-01
	-7.557693357585246e-15
	-2.365568915346631e-17
	-3.565371901236010e-14
	7.094917828606619e-07
	5.686882571023678e-05
	6.689127773395215e-06
	1.855715856788040e-01

 52	5.200000000000002e-01
	-7.524586438442016e-15
	-2.434221572515030e-17
	-3.583630561093415e-14
	7.503920843903556e-07
	6.174283029156714e-05
	7.281870752888516e-06
	1.855716570782678e-01

 53	5.300000000000002e-01
	-7.493072671845138e-15
	-2.505013095773242e-17
	-3.601564770772322e-14
	7.933344351622021e-07
	6.699132316003754e-05
	7.925205852401781e-06
	1.855717345738705e-01

 54	5.400000000000003e-01
	-7.463128155652700e-15
	-2.578017158443066e-17
	-3.619175406656942e-14
	8.384025190680738e-07
	7.263644682656491e-05
	8.622987870081347e-06
	1.855718186302058e-01

 55	5.500000000000003e-01
	-7.434728649813190e-15
	-2.653310286918092e-17
	-3.636463527648455e-14
	8.856827176086992e-07
	7.870084022223291e-05
	9.379295524160833e-06
	1.855719097388517e-01

 56	5.600000000000003e-01
	-7.407849609447542e-15
	-2.730971984326845e-17
	-3.653430368597140e-14
	9.352642089034715e-07
	8.520755484639326e-05
	1.019843600019588e-05
	1.855720084189085e-01

 57	5.700000000000003e-01
	-7.382466217284990e-15
	-2.811084860089933e-17
	-3.670077333685212e-14
	9.872390782796747e-07
	9.217996004696135e-05
	1.108494860485504e-05
	1.855721152174396e-01

 58	5.800000000000003e-01
	-7.358553415400409e-15
	-2.893734765674520e-17
	-3.686405989776647e-14
	1.041702442321316e-06
	9.964163743110924e-05
	1.204360741743808e-05
	1.855722307097875e-01

 59	5.900000000000003e-01
	-7.336085936205116e-15
	-2.979010936864234e-17
	-3.702418059749850e-14
	1.098752588508287e-06
	1.076162645541239e-04
	1.307942283101764e-05
	1.855723554997550e-01

 60	6.000000000000003e-01
	-7.315038332647439e-15
	-3.067006142881681e-17
	-3.718115415828081e-14
	1.158491132853667e-06
	1.161274881969619e-04
	1.419764187738881e-05
	1.855724902196444e-01

 61	6.100000000000003e-01
	-7.295385007583335e-15
	-3.157816842717206e-17
	-3.733500072922086e-14
	1.221023198253145e-06
	1.251987877171335e-04
	1.540374723398793e-05
	1.855726355301209e-01

 62	6.200000000000003e-01
	-7.277100242281569e-15
	-3.251543349037709e-17
	-3.748574181998476e-14
	1.286457616598135e-06
	1.348533291405963e-04
	1.670345481670634e-05
	1.855727921199362e-01

 63	6.300000000000003e-01
	-7.260158224031684e-15
	-3.348290000069696e-17
	-3.763340023486847e-14
	1.354907158076387e-06
	1.451138108514913e-04
	1.810270987015866e-05
	1.855729607054376e-01

 64	6.400000000000003e-01
	-7.244533072827273e-15
	-3.448165339871951e-17
	-3.777800000737712e-14
	1.426488791493445e-06
	1.560023019284089e-04
	1.960768147650157e-05
	1.855731420299170e-01

 65	6.500000000000004e-01
	-7.230198867099871e-15
	-3.551282307435628e-17
	-3.791956633542797e-14
	1.501323979899780e-06
	1.675400743667188e-04
	2.122475541536070e-05
	1.855733368627276e-01

 66	6.600000000000004e-01
	-7.217129668483917e-15
	-3.657758435073617e-17
	-3.805812551728258e-14
	1.579539016305181e-06
	1.797474306121297e-04
	2.296052532076382e-05
	1.855735459982429e-01

 67	6.700000000000004e-01
	-7.205299545594525e-15
	-3.767716056586887e-17
	-3.819370488830919e-14
	1.661265404810515e-06
	1.926435280066958e-04
	2.482178209614412e-05
	1.855737702545487e-01

 68	6.800000000000004e-01
	-7.194682596805411e-15
	-3.881282525720586e-17
	-3.832633275866641e-14
	1.746640293091510e-06
	2.062462019102020e-04
	2.681550156531742e-05
	1.855740104719810e-01

 69	6.900000000000004e-01
	-7.185252972015495e-15
	-3.998590445452702e-17
	-3.845603835199414e-14
	1.835806962839220e-06
	2.205717894027123e-04
	2.894883035572627e-05
	1.855742675114075e-01

 70	7.000000000000004e-01
	-7.176984893396935e-15
	-4.119777908685738e-17
	-3.858285174518903e-14
	1.928915385503929e-06
	2.356349555932458e-04
	3.122907002992910e-05
	1.855745422523289e-01

 71	7.100000000000004e-01
	-7.169852675119151e-15
	-4.244988750945067e-17
	-3.870680380933661e-14
	2.026122851514804e-06
	2.514485246506843e-04
	3.366365950205914e-05
	1.855748355907478e-01

 72	7.200000000000004e-01
	-7.163830742047352e-15
	-4.374372815718388e-17
	-3.882792615186271e-14
	2.127594682068844e-06
	2.680233177320379e-04
	3.626015579747768e-05
	1.855751484368725e-01

 73	7.300000000000004e-01
	-7.158893647414688e-15
	-4.508086233108098e-17
	-3.894625105996373e-14
	2.233505033613989e-06
	2.853680000064817e-04
	3.902621323575884e-05
	1.855754817125977e-01

 74	7.400000000000004e-01
	-7.155016089471290e-15
	-4.646291712502713e-17
	-3.906181144536543e-14
	2.344037806310214e-06
	3.034889389581723e-04
	4.196956113908896e-05
	1.855758363488290e-01

 75	7.500000000000004e-01
	-7.152172927114131e-15
	-4.789158850013126e-17
	-3.917464079045640e-14
	2.459387669060422e-06
	3.223900760947121e-04
	4.509798018976094e-05
	1.855762132826437e-01

 76	7.600000000000005e-01
	-7.150339194504683e-15
	-4.936864451460539e-17
	-3.928477309583443e-14
	2.579761215184195e-06
	3.420728140898673e-04
	4.841927758125393e-05
	1.855766134543045e-01

 77	7.700000000000005e-01
	-7.149490114681755e-15
	-5.089592871745844e-17
	-3.939224282930037e-14
	2.705378264492475e-06
	3.625359212487587e-04
	5.194126112701974e-05
	1.855770378041344e-01

 78	7.800000000000005e-01
	-7.149601112180548e-15
	-5.247536371473500e-17
	-3.949708487632531e-14
	2.836473329443671e-06
	3.837754550017498e-04
	5.567171250907959e-05
	1.855774872693230e-01

 79	7.900000000000005e-01
	-7.150647824667677e-15
	-5.410895491754297e-17
	-3.959933449201639e-14
	2.973297265265908e-06
	4.057847059121207e-04
	5.961835986454586e-05
	1.855779627806095e-01

 80	8.000000000000005e-01
	-7.152606113605908e-15
	-5.579879448157189e-17
	-3.969902725459645e-14
	3.116119126461616e-06
	4.285541634247622e-04
	6.378884992173113e-05
	1.855784652589422e-01

 81	8.100000000000005e-01
	-7.155452073961676e-15
	-5.754706544836092e-17
	-3.979619902041140e-14
	3.265228255031655e-06
	4.520715042932843e-04
	6.819071990835932e-05
	1.855789956121024e-01

 82	8.200000000000005e-01
	-7.159162042969800e-15
	-5.935604609911954e-17
	-3.989088588047399e-14
	3.420936629133094e-06
	4.763216043058218e-04
	7.283136946217889e-05
	1.855795547313174e-01

 83	8.300000000000005e-01
	-7.163712607971192e-15
	-6.122811453247659e-17
	-3.998312411854747e-14
	3.583581504799528e-06
	5.012865735914480e-04
	7.771803277877365e-05
	1.855801434879142e-01

 84	8.400000000000005e-01
	-7.169080613339270e-15
	-6.316575347815417e-17
	-4.007295017076962e-14
	3.753528387902799e-06
	5.269458154362334e-04
	8.285775123241141e-05
	1.855807627300214e-01

 85	8.500000000000005e-01
	-7.175243166511976e-15
	-6.517155535919535e-17
	-4.016040058681301e-14
	3.931174378832316e-06
	5.532761081775842e-04
	8.825734670323106e-05
	1.855814132793566e-01

 86	8.600000000000005e-01
	-7.182177643145801e-15
	-6.724822761605076e-17
	-4.024551199257550e-14
	4.116951938548768e-06
	5.802517093850055e-04
	9.392339583791475e-05
	1.855820959281161e-01

 87	8.700000000000006e-01
	-7.189861691410196e-15
	-6.939859830651575e-17
	-4.032832105438862e-14
	4.311333131890876e-06
	6.078444811823436e-04
	9.986220546126520e-05
	1.855828114360281e-01

 88	8.800000000000006e-01
	-7.198273235438149e-15
	-7.162562199626459e-17
	-4.040886444473266e-14
	4.514834412467113e-06
	6.360240352281253e-04
	1.060797893429291e-04
	1.855835605275343e-01

 89	8.900000000000006e-01
	-7.207390477951856e-15
	-7.393238595547549e-17
	-4.048717880944004e-14
	4.728022023370003e-06
	6.647578955534683e-04
	1.125818465070126e-04
	1.855843438891792e-01

 90	9.000000000000006e-01
	-7.217191902079946e-15
	-7.632211667784134e-17
	-4.056330073636941e-14
	4.951518099577233e-06
	6.940116771677005e-04
	1.193737412528497e-04
	1.855851621671927e-01

 91	9.100000000000006e-01
	-7.227656272383772e-15
	-7.879818673909600e-17
	-4.063726672552836e-14
	5.186007571562945e-06
	7.237492780851289e-04
	1.264604850329181e-04
	1.855860159653117e-01

 92	9.200000000000006e-01
	-7.238762635109199e-15
	-8.136412201306961e-17
	-4.070911316062170e-14
	5.432245985712413e-06
	7.539330822070688e-04
	1.338467203093021e-04
	1.855869058428123e-01

 93	9.300000000000006e-01
	-7.250490317681166e-15
	-8.402360926412257e-17
	-4.077887628199910e-14
	5.691068376055375e-06
	7.845241703138025e-04
	1.415367064834578e-04
	1.855878323128279e-01

 94	9.400000000000006e-01
	-7.262818927455956e-15
	-8.678050413582920e-17
	-4.084659216097519e-14
	5.963399344142344e-06
	8.154825362838400e-04
	1.495343079658671e-04
	1.855887958408898e-01

 95	9.500000000000006e-01
	-7.275728349747529e-15
	-8.963883955665852e-17
	-4.091229667549254e-14
	6.250264530211271e-06
	8.467673055625864e-04
	1.578429844227969e-04
	1.855897968437597e-01

 96	9.600000000000006e-01
	-7.289198745141898e-15
	-9.260283458445356e-17
	-4.097602548709756e-14
	6.552803689883576e-06
	8.783369528486295e-04
	1.664657832073041e-04
	1.855908356885014e-01

 97	9.700000000000006e-01
	-7.303210546114471e-15
	-9.567690371248837e-17
	-4.103781401919607e-14
	6.872285627378170e-06
	9.101495159504702e-04
	1.754053339511715e-04
	1.855919126918419e-01

 98	9.800000000000006e-01
	-7.317744452962628e-15
	-9.886566666097128e-17
	-4.109769743655707e-14
	7.210125279704673e-06
	9.421628027864300e-04
	1.846638452641002e-04
	1.855930281197589e-01

 99	9.900000000000007e-01
	-7.332781429066807e-15
	-1.021739586789004e-16
	-4.115571062602888e-14
	7.567903297741724e-06
	9.743345885498306e-04
	1.942431034564022e-04
	1.855941821873291e-01

 100	1.000000000000001e+00
	-7.348302695491225e-15
	-1.056068413822823e-16
	-4.121188817843349e-14
	7.947388531012688e-06
	1.006622800134956e-03
	2.041444731720537e-04
	1.855953750588122e-01

 101	1.010000000000001e+00
	-7.364289724934581e-15
	-1.091696141558538e-16
	-4.126626437160281e-14
