Title: ** sch_path: /home/andylithia/openmpw/project-yatsuhashi-chip1/xschem/gmid_test/nmos_test.sch
Date: Sun Jul 17 22:51:45  2022
Plotname: DC transfer characteristic
Flags: real
No. Variables: 8
No. Points: 181
Variables:
	0	v(v-sweep)	voltage
	1	@m.xm1.msky130_fd_pr__nfet_01v8[cgb]	capacitance
	2	@m.xm1.msky130_fd_pr__nfet_01v8[cgd]	capacitance
	3	@m.xm1.msky130_fd_pr__nfet_01v8[cgs]	capacitance
	4	@m.xm1.msky130_fd_pr__nfet_01v8[gds]	admittance
	5	@m.xm1.msky130_fd_pr__nfet_01v8[gm]	admittance
	6	i(@m.xm1.msky130_fd_pr__nfet_01v8[id])	current
	7	v(@m.xm1.msky130_fd_pr__nfet_01v8[vth])	voltage
Values:
 0	0.000000000000000e+00
	-4.619926014950892e-15
	-8.106980413638681e-19
	-5.492947034541496e-15
	2.791271912332003e-08
	1.000434154707689e-06
	1.043235313143199e-07
	3.170506731939476e-01

 1	1.000000000000000e-02
	-4.569653386142165e-15
	-8.376598961763677e-19
	-5.604507756756426e-15
	3.067697514184361e-08
	1.099570435350218e-06
	1.148158495506365e-07
	3.170506743329075e-01

 2	2.000000000000000e-02
	-4.519724300893922e-15
	-8.654930671946705e-19
	-5.716711108878678e-15
	3.370626671275259e-08
	1.208390222484017e-06
	1.263471984436831e-07
	3.170506755846573e-01

 3	3.000000000000000e-02
	-4.470155582234377e-15
	-8.942232236985077e-19
	-5.829505698113737e-15
	3.702476509443510e-08
	1.327836126082862e-06
	1.390190513075404e-07
	3.170506769602138e-01

 4	4.000000000000000e-02
	-4.420964094235951e-15
	-9.238767134944628e-19
	-5.942839159164020e-15
	4.065867593442363e-08
	1.458945020592265e-06
	1.529427708183030e-07
	3.170506784716655e-01

 5	5.000000000000000e-02
	-4.372166699686586e-15
	-9.544805826638854e-19
	-6.056658243610502e-15
	4.463638824542827e-08
	1.602858240522808e-06
	1.682406016612515e-07
	3.170506801322831e-01

 6	6.000000000000000e-02
	-4.323780217812684e-15
	-9.860625962082541e-19
	-6.170908912260831e-15
	4.898863153561438e-08
	1.760833011411441e-06
	1.850467711832991e-07
	3.170506819566364e-01

 7	7.000000000000001e-02
	-4.275821382202646e-15
	-1.018651259634235e-18
	-6.285536430149244e-15
	5.374864121514117e-08
	1.934255276308117e-06
	2.035087111894636e-07
	3.170506839607333e-01

 8	8.000000000000000e-02
	-4.228306799080435e-15
	-1.052275841522157e-18
	-6.400485463859291e-15
	5.895233236272371e-08
	2.124654097139009e-06
	2.237884157183628e-07
	3.170506861621604e-01

 9	9.000000000000000e-02
	-4.181252906078433e-15
	-1.086966397122392e-18
	-6.515700180825764e-15
	6.463848189325156e-08
	2.333717830996881e-06
	2.460639515273599e-07
	3.170506885802445e-01

 10	9.999999999999999e-02
	-4.134675931657533e-15
	-1.122753793024669e-18
	-6.631124350260884e-15
	7.084891912039751e-08
	2.563312303516335e-06
	2.705311401278091e-07
	3.170506912362479e-01

 11	1.100000000000000e-01
	-4.088591855320178e-15
	-1.159669732947477e-18
	-6.746701445340699e-15
	7.762872465680146e-08
	2.815501224837749e-06
	2.974054325481817e-07
	3.170506941535621e-01

 12	1.200000000000000e-01
	-4.043016368759073e-15
	-1.197746784694574e-18
	-6.862374746279163e-15
	8.502643753893503e-08
	3.092569117991869e-06
	3.269240005785391e-07
	3.170506973579311e-01

 13	1.300000000000000e-01
	-3.997964838080119e-15
	-1.237018408327227e-18
	-6.978087443912645e-15
	9.309427040452017e-08
	3.397047054496517e-06
	3.593480710724183e-07
	3.170507008777181e-01

 14	1.400000000000000e-01
	-3.953452267233460e-15
	-1.277518985602126e-18
	-7.093782743414627e-15
	1.018883324877447e-07
	3.731741517073314e-06
	3.949655329556587e-07
	3.170507047441768e-01

 15	1.500000000000000e-01
	-3.909493262780538e-15
	-1.319283850725542e-18
	-7.209403967759291e-15
	1.114688601318322e-07
	4.099766734053771e-06
	4.340938499142575e-07
	3.170507089917749e-01

 16	1.600000000000000e-01
	-3.866102000118716e-15
	-1.362349322475940e-18
	-7.324894660554582e-15
	1.219004544504958e-07
	4.504580853490422e-06
	4.770833152974221e-07
	3.170507136585409e-01

 17	1.700000000000000e-01
	-3.823292191277714e-15
	-1.406752737748612e-18
	-7.440198687868790e-15
	1.332523256999096e-07
	4.950026346277144e-06
	5.243206895602363e-07
	3.170507187864670e-01

 18	1.800000000000000e-01
	-3.781077054393966e-15
	-1.452532486576873e-18
	-7.555260338681617e-15
	1.455985438518663e-07
	5.440375045587254e-06
	5.762332645562002e-07
	3.170507244219482e-01

 19	1.900000000000000e-01
	-3.739469284960625e-15
	-1.499728048686401e-18
	-7.670024423598401e-15
	1.590182947875031e-07
	5.980378243320258e-06
	6.332934031336692e-07
	3.170507306162644e-01

 20	2.000000000000000e-01
	-3.698481028941603e-15
	-1.548380031640322e-18
	-7.784436371476751e-15
	1.735961414601250e-07
	6.575322271451449e-06
	6.960236067378789e-07
	3.170507374261509e-01

 21	2.100000000000000e-01
	-3.658123857828342e-15
	-1.598530210635485e-18
	-7.898442323628460e-15
	1.894222893064191e-07
	7.231089995428463e-06
	7.650021680023431e-07
	3.170507449143947e-01

 22	2.200000000000001e-01
	-3.618408745708100e-15
	-1.650221570010457e-18
	-8.011989225272753e-15
	2.065928551181809e-07
	7.954228636028577e-06
	8.408694695384723e-07
	3.170507531505299e-01

 23	2.300000000000001e-01
	-3.579346048401959e-15
	-1.703498346529964e-18
	-8.125024913934697e-15
	2.252101385231239e-07
	8.752024313163777e-06
	9.243349941919391e-07
	3.170507622115878e-01

 24	2.400000000000001e-01
	-3.540945484720108e-15
	-1.758406074510785e-18
	-8.237498204499703e-15
	2.453828951638252e-07
	9.632583667535512e-06
	1.016185115792051e-06
	3.170507721829590e-01

 25	2.500000000000001e-01
	-3.503216119871289e-15
	-1.814991632857984e-18
	-8.349358970655833e-15
	2.672266106099089e-07
	1.060492286119446e-05
	1.117291742719042e-06
	3.170507831593185e-01

 26	2.600000000000001e-01
	-3.466166351052139e-15
	-1.873303294082058e-18
	-8.460558222475707e-15
	2.908637739905896e-07
	1.167906418316931e-05
	1.228621889264689e-06
	3.170507952456674e-01

 27	2.700000000000001e-01
	-3.429803895231569e-15
	-1.933390775370454e-18
	-8.571048179912483e-15
	3.164241502941196e-07
	1.286614038857155e-05
	1.351248251551653e-06
	3.170508085584925e-01

 28	2.800000000000001e-01
	-3.394135779134154e-15
	-1.995305291790832e-18
	-8.680782342008274e-15
	3.440450502482111e-07
	1.417850677610712e-05
	1.486360865462535e-06
	3.170508232270179e-01

 29	2.900000000000001e-01
	-3.359168331416266e-15
	-2.059099611705320e-18
	-8.789715551636167e-15
	3.738715966717218e-07
	1.562986085697307e-05
	1.635279923338234e-06
	3.170508393946082e-01

 30	3.000000000000001e-01
	-3.324907177017974e-15
	-2.124828114479598e-18
	-8.897804055623071e-15
	4.060569861741436e-07
	1.723536928517694e-05
	1.799469823842192e-06
	3.170508572202893e-01

 31	3.100000000000001e-01
	-3.291357233663840e-15
	-2.192546850574211e-18
	-9.005005560124761e-15
	4.407627450758020e-07
	1.901180150319080e-05
	1.980554525027802e-06
	3.170508768804178e-01

 32	3.200000000000001e-01
	-3.258522710476077e-15
	-2.262313604109118e-18
	-9.111279281150458e-15
	4.781589784291263e-07
	2.097766930591140e-05
	2.180334263952222e-06
	3.170508985705015e-01

 33	3.300000000000001e-01
	-3.226407108654215e-15
	-2.334187957997278e-18
	-9.216585990159424e-15
	5.184246110402558e-07
	2.315337123921401e-05
	2.400803696796866e-06
	3.170509225071626e-01

 34	3.400000000000001e-01
	-3.195013224166825e-15
	-2.408231361747981e-18
	-9.320888054677137e-15
	5.617476194208220e-07
	2.556134042695933e-05
	2.644171501023367e-06
	3.170509489302776e-01

 35	3.500000000000001e-01
	-3.164343152392642e-15
	-2.484507202044545e-18
	-9.424149473903860e-15
	6.083252536425486e-07
	2.822619406332855e-05
	2.912881465263584e-06
	3.170509781052572e-01

 36	3.600000000000002e-01
	-3.134398294641016e-15
	-2.563080876207756e-18
	-9.526335909312189e-15
	6.583642481218475e-07
	3.117488241837276e-05
	3.209635073075589e-06
	3.170510103255121e-01

 37	3.700000000000002e-01
	-3.105179366474526e-15
	-2.644019868660339e-18
	-9.627414710254503e-15
	7.120810204285024e-07
	3.443683478792372e-05
	3.537415563098337e-06
	3.170510459150583e-01

 38	3.800000000000002e-01
	-3.076686407750676e-15
	-2.727393830515846e-18
	-9.727354934623229e-15
	7.697018572905783e-07
	3.804409938060393e-05
	3.899513420252382e-06
	3.170510852312955e-01

 39	3.900000000000002e-01
	-3.048918794293802e-15
	-2.813274662419441e-18
	-9.826127364629470e-15
	8.314630870573647e-07
	4.203147368285187e-05
	4.299553220290382e-06
	3.170511286679161e-01

 40	4.000000000000002e-01
	-3.021875251103811e-15
	-2.901736600776226e-18
	-9.923704517785468e-15
	8.976112379816033e-07
	4.643662138810596e-05
	4.741521713110365e-06
	3.170511766579659e-01

 41	4.100000000000002e-01
	-2.995553867004033e-15
	-2.992856307509632e-18
	-1.002006065319644e-14
	9.684031817914927e-07
	5.130017153152781e-05
	5.229796988845789e-06
	3.170512296770077e-01

 42	4.200000000000002e-01
	-2.969952110627428e-15
	-3.086712963498945e-18
	-1.011517177328506e-14
	1.044106262139469e-06
	5.666579505221494e-05
	5.769178525008620e-06
	3.170512882463865e-01

 43	4.300000000000002e-01
	-2.945066847637530e-15
	-3.183388365854366e-18
	-1.020901562108877e-14
	1.124998407637861e-06
	6.258025362858096e-05
	6.364917863231755e-06
	3.170513529365714e-01

 44	4.400000000000002e-01
	-2.920894359078831e-15
	-3.282967029194246e-18
	-1.030157167328524e-14
	1.211368229318252e-06
	6.909341531944469e-05
	7.022749610961630e-06
	3.170514243705210e-01

 45	4.500000000000002e-01
	-2.897430360749868e-15
	-3.385536291100341e-18
	-1.039282112911544e-14
	1.303515102479658e-06
	7.625823131531119e-05
	7.748922407533580e-06
	3.170515032270412e-01

 46	4.600000000000002e-01
	-2.874670023492136e-15
	-3.491186421932844e-18
	-1.048274689538486e-14
	1.401749233016967e-06
	8.413066798469273e-05
	8.550229436387174e-06
	3.170515902441174e-01

 47	4.700000000000003e-01
	-2.852607994287577e-15
	-3.600010739199107e-18
	-1.057133356773566e-14
	1.506391708442918e-06
	9.276958841329623e-05
	9.434038006959530e-06
	3.170516862221155e-01

 48	4.800000000000003e-01
	-2.831238418058610e-15
	-3.712105726678906e-18
	-1.065856740838990e-14
	1.617774533928784e-06
	1.022365778034641e-04
	1.040831767246795e-05
	3.170517920268452e-01

 49	4.900000000000003e-01
	-2.810554960065766e-15
	-3.827571158517988e-18
	-1.074443632057238e-14
	1.736240653788136e-06
	1.125957074504912e-04
	1.148166629505870e-05
	3.170519085923905e-01

 50	5.000000000000002e-01
	-2.790550828799774e-15
	-3.946510228514684e-18
	-1.082892981982734e-14
	1.862143958908439e-06
	1.239132325619032e-04
	1.266333341954803e-05
	3.170520369236513e-01

 51	5.100000000000002e-01
	-2.771218799267573e-15
	-4.069029684834448e-18
	-1.091203900244739e-14
	1.995849280692908e-06
	1.362572199525891e-04
	1.396324027332006e-05
	3.170521780985079e-01

 52	5.200000000000002e-01
	-2.752551236574456e-15
	-4.195239970397989e-18
	-1.099375651123574e-14
	2.137732372103261e-06
	1.496971026446365e-04
	1.539199567510049e-05
	3.170523332695626e-01

 53	5.300000000000002e-01
	-2.734540119707545e-15
	-4.325255369202744e-18
	-1.107407649882529e-14
	2.288179876389945e-06
	1.643031596313142e-04
	1.696090711164448e-05
	3.170525036653279e-01

 54	5.400000000000003e-01
	-2.717177065429927e-15
	-4.459194158848044e-18
	-1.115299458877663e-14
	2.447589284051933e-06
	1.801459205269345e-04
	1.868198623117319e-05
	3.170526905908262e-01

 55	5.500000000000003e-01
	-2.700453352198233e-15
	-4.597178769549710e-18
	-1.123050783467721e-14
	2.616368878482052e-06
	1.972954965064099e-04
	2.056794800796587e-05
	3.170528954274958e-01

 56	5.600000000000003e-01
	-2.684359944020928e-15
	-4.739335949941291e-18
	-1.130661467746090e-14
	2.794937670620122e-06
	2.158208408174095e-04
	2.263220285593292e-05
	3.170531196323325e-01

 57	5.700000000000003e-01
	-2.668887514178940e-15
	-4.885796939976005e-18
	-1.138131490116384e-14
	2.983725322753774e-06
	2.357889441902720e-04
	2.488884101208503e-05
	3.170533647361815e-01

 58	5.800000000000003e-01
	-2.654026468734846e-15
	-5.036697651256716e-18
	-1.145460958732810e-14
	3.183172061374395e-06
	2.572639726306970e-04
	2.735260857497751e-05
	3.170536323411265e-01

 59	5.900000000000003e-01
	-2.639766969761723e-15
	-5.192178855137860e-18
	-1.152650106825890e-14
	3.393728578714626e-06
	2.803063573007669e-04
	3.003887466935124e-05
	3.170539241169271e-01

 60	6.000000000000003e-01
	-2.626098958227443e-15
	-5.352386378961127e-18
	-1.159699287933571e-14
	3.615855922269140e-06
	3.049718484076718e-04
	3.296358931659231e-05
	3.170542417964222e-01

 61	6.100000000000003e-01
	-2.613012176475275e-15
	-5.517471310801895e-18
	-1.166608971056967e-14
	3.850025371235735e-06
	3.313105471499007e-04
	3.614323172081369e-05
	3.170545871699086e-01

 62	6.200000000000003e-01
	-2.600496190246494e-15
	-5.687590213124941e-18
	-1.173379735759311e-14
	4.096718298422848e-06
	3.593659317347676e-04
	3.959474883111350e-05
	3.170549620784566e-01

 63	6.300000000000003e-01
	-2.588540410195705e-15
	-5.862905345765037e-18
	-1.180012267225823e-14
	4.356426015761519e-06
	3.891738951916726e-04
	4.333548420973400e-05
	3.170553684061795e-01

 64	6.400000000000003e-01
	-2.577134112854225e-15
	-6.043584898671262e-18
	-1.186507351301430e-14
	4.629649601155132e-06
	4.207618140757732e-04
	4.738309742049677e-05
	3.170558080714614e-01

 65	6.500000000000004e-01
	-2.566266461002072e-15
	-6.229803234874408e-18
	-1.192865869522321e-14
	4.916899704013773e-06
	4.541476681031623e-04
	5.175547434812788e-05
	3.170562830172070e-01

 66	6.600000000000004e-01
	-2.555926523413316e-15
	-6.421741144161730e-18
	-1.199088794156455e-14
	5.218696326479402e-06
	4.893392312070536e-04
	5.647062906234220e-05
	3.170567952001844e-01

 67	6.700000000000004e-01
	-2.546103293944403e-15
	-6.619586107967423e-18
	-1.205177183267275e-14
	5.535568577074363e-06
	5.263333543926652e-04
	6.154659804546677e-05
	3.170573465795202e-01

 68	6.800000000000004e-01
	-2.536785709939388e-15
	-6.823532576015466e-18
	-1.211132175813863e-14
	5.868054393326133e-06
	5.651153600520153e-04
	6.700132780310808e-05
	3.170579391044860e-01

 69	6.900000000000004e-01
	-2.527962669930237e-15
	-7.033782255277056e-18
	-1.216954986799921e-14
	6.216700229862213e-06
	6.056585660552140e-04
	7.285255706771754e-05
	3.170585747017117e-01

 70	7.000000000000004e-01
	-2.519623050614248e-15
	-7.250544411840394e-18
	-1.222646902483056e-14
	6.582060708556632e-06
	6.479239559627703e-04
	7.911769497859173e-05
	3.170592552619428e-01

 71	7.100000000000004e-01
	-2.511755723094895e-15
	-7.474036186316917e-18
	-1.228209275654877e-14
	6.964698227563360e-06
	6.918600091303982e-04
	8.581369677264579e-05
	3.170599826265361e-01

 72	7.200000000000004e-01
	-2.504349568375562e-15
	-7.704482923446796e-18
	-1.233643521001599e-14
	7.365182526512858e-06
	7.374027013577023e-04
	9.295693864249670e-05
	3.170607585738817e-01

 73	7.300000000000004e-01
	-2.497393492099502e-15
	-7.942118516601479e-18
	-1.238951110553944e-14
	7.784090205788071e-06
	7.844756831447347e-04
	1.005630935069110e-04
	3.170615848059036e-01

 74	7.400000000000004e-01
	-2.490876438532273e-15
	-8.187185767919519e-18
	-1.244133569234299e-14
	8.222004198637894e-06
	8.329906386690511e-04
	1.086470094892791e-04
	3.170624629348644e-01

 75	7.500000000000004e-01
	-2.484787403786186e-15
	-8.439936764853201e-18
	-1.249192470508260e-14
	8.679513195927553e-06
	8.828478244047735e-04
	1.172225929095232e-04
	3.170633944706757e-01

 76	7.600000000000005e-01
	-2.479115448288935e-15
	-8.700633273947149e-18
	-1.254129432146914e-14
	9.157211024554555e-06
	9.339367820132101e-04
	1.263026975620290e-04
	3.170643808088663e-01

 77	7.700000000000005e-01
	-2.473849708501256e-15
	-8.969547152715765e-18
	-1.258946112105457e-14
	9.655695981946669e-06
	9.861372158893101e-04
	1.358990219764795e-04
	3.170654232194417e-01

 78	7.800000000000005e-01
	-2.468979407890886e-15
	-9.246960780533074e-18
	-1.263644204522985e-14
	1.017557013057998e-05
	1.039320021700469e-03
	1.460220162412573e-04
	3.170665228367637e-01

 79	7.900000000000005e-01
	-2.464493867172262e-15
	-9.533167509502057e-18
	-1.268225435847609e-14
	1.071743855805790e-05
	1.093348448547772e-03
	1.566807998129117e-04
	3.170676806506431e-01

 80	8.000000000000005e-01
	-2.460382513823350e-15
	-9.828472136320638e-18
	-1.272691561090392e-14
	1.128190860993617e-05
	1.148079374148532e-03
	1.678830915443887e-04
	3.170688974987367e-01

 81	8.100000000000005e-01
	-2.456634890892987e-15
	-1.013319139622064e-17
	-1.277044360210909e-14
	1.186958910409786e-05
	1.203364669795579e-03
	1.796351529444406e-04
	3.170701740603994e-01

 82	8.200000000000005e-01
	-2.453240665113515e-15
	-1.044765448011076e-17
	-1.281285634636665e-14
	1.248108953702456e-05
	1.259052629883756e-03
	1.919417454374275e-04
	3.170715108520504e-01

 83	8.300000000000005e-01
	-2.450189634335040e-15
	-1.077220357612034e-17
	-1.285417203918011e-14
	1.311701929370982e-05
	1.314989439568090e-03
	2.048061021336105e-04
	3.170729082241074e-01

 84	8.400000000000005e-01
	-2.447471734299048e-15
	-1.110719443680215e-17
	-1.289440902519619e-14
	1.377798687416063e-05
	1.371020653661052e-03
	2.182299143526101e-04
	3.170743663595329e-01

 85	8.500000000000005e-01
	-2.445077044769995e-15
	-1.145299697331794e-17
	-1.293358576749063e-14
	1.446459915038119e-05
	1.426992660187014e-03
	2.322133328747290e-04
	3.170758852739742e-01

 86	8.600000000000005e-01
	-2.442995795044501e-15
	-1.180999587800893e-17
	-1.297172081822585e-14
	1.517746066838396e-05
	1.482754103057309e-03
	2.467549836338136e-04
	3.170774648174625e-01

 87	8.700000000000006e-01
	-2.441218368858856e-15
	-1.217859127681450e-17
	-1.300883279067587e-14
	1.591717301008864e-05
	1.538157240048249e-03
	2.618519973182624e-04
	3.170791046776444e-01

 88	8.800000000000006e-01
	-2.439735308715626e-15
	-1.255919941309289e-17
	-1.304494033261026e-14
	1.668433422993487e-05
	1.593059214572604e-03
	2.775000521201418e-04
	3.170808043844162e-01

 89	8.900000000000006e-01
	-2.438537319651257e-15
	-1.295225336446752e-17
	-1.308006210102438e-14
	1.747953838063208e-05
	1.647323222527061e-03
	2.936934286713240e-04
	3.170825633158947e-01

 90	9.000000000000006e-01
	-2.437615272466555e-15
	-1.335820379441527e-17
	-1.311421673819924e-14
	1.830337514171225e-05
	1.700819558657592e-03
	3.104250760345061e-04
	3.170843807055816e-01

 91	9.100000000000006e-01
	-2.436960206442386e-15
	-1.377751974039545e-17
	-1.314742284907128e-14
	1.915642956345374e-05
	1.753426530286227e-03
	3.276866874788379e-04
	3.170862556506024e-01

 92	9.200000000000006e-01
	-2.436563331562838e-15
	-1.421068944041683e-17
	-1.317969897988874e-14
	2.003928193734335e-05
	1.805031229761541e-03
	3.454687846665384e-04
	3.170881871208425e-01

 93	9.300000000000006e-01
	-2.436416030268424e-15
	-1.465822120003423e-17
	-1.321106359812859e-14
	2.095250780257691e-05
	1.855530160510034e-03
	3.637608088087286e-04
	3.170901739688435e-01

 94	9.400000000000006e-01
	-2.436509858761626e-15
	-1.512064430186809e-17
	-1.324153507364525e-14
	2.189667809622398e-05
	1.904829714965941e-03
	3.825512173152310e-04
	3.170922149403171e-01

 95	9.500000000000006e-01
	-2.436836547886735e-15
	-1.559850995985345e-17
	-1.327113166102034e-14
	2.287235945266181e-05
	1.952846505846033e-03
	4.018275844626712e-04
	3.170943086850550e-01

 96	9.600000000000006e-01
	-2.437388003606153e-15
	-1.609239232052896e-17
	-1.329987148308023e-14
	2.388011465576476e-05
	1.999507555131762e-03
	4.215767046350143e-04
	3.170964537681654e-01

 97	9.700000000000006e-01
	-2.438156307094435e-15
	-1.660288951380485e-17
	-1.332777251554675e-14
	2.492050324520833e-05
	2.044750347663821e-03
	4.417846967479200e-04
	3.170986486813999e-01

 98	9.800000000000006e-01
	-2.439133714471257e-15
	-1.713062475576579e-17
	-1.335485257278498e-14
	2.599408227614384e-05
	2.088522758398403e-03
	4.624371085486489e-04
	3.171008918544870e-01

 99	9.900000000000007e-01
	-2.440312656193935e-15
	-1.767624750619915e-17
	-1.338112929461072e-14
	2.710140722950508e-05
	2.130782864098113e-03
	4.835190195831064e-04
	3.171031816663152e-01

 100	1.000000000000001e+00
	-2.441685736129454e-15
	-1.824043468367625e-17
	-1.340662013411925e-14
	2.824303306835267e-05
	2.171498651525383e-03
	5.050151417362849e-04
	3.171055164558538e-01

 101	1.010000000000001e+00
	-2.443245730325580e-15
	-1.882389194115570e-17
	-1.343134234649656e-14
