Title: ** sch_path: /home/andylithia/openmpw/project-yatsuhashi-chip1/xschem/gmid_test/nmos_test.sch
Date: Tue Jul 19 23:15:45  2022
Plotname: DC transfer characteristic
Flags: real
No. Variables: 8
No. Points: 181
Variables:
	0	v(v-sweep)	voltage
	1	@m.xm1.msky130_fd_pr__nfet_01v8[cgb]	capacitance
	2	@m.xm1.msky130_fd_pr__nfet_01v8[cgd]	capacitance
	3	@m.xm1.msky130_fd_pr__nfet_01v8[cgs]	capacitance
	4	@m.xm1.msky130_fd_pr__nfet_01v8[gds]	admittance
	5	@m.xm1.msky130_fd_pr__nfet_01v8[gm]	admittance
	6	i(@m.xm1.msky130_fd_pr__nfet_01v8[id])	current
	7	v(@m.xm1.msky130_fd_pr__nfet_01v8[vth])	voltage
Values:
 0	0.000000000000000e+00
	-8.102006789580675e-15
	-4.961717144051341e-19
	-1.415968096637264e-14
	2.969513831057435e-08
	1.192253948308753e-06
	1.457574282056909e-07
	2.179627034368588e-01

 1	1.000000000000000e-02
	-8.012226208783454e-15
	-5.082876332220003e-19
	-1.436937320951565e-14
	3.213803062140388e-08
	1.292556607327284e-06
	1.581747387415920e-07
	2.179627044242539e-01

 2	2.000000000000000e-02
	-7.923497299500870e-15
	-5.206735851084920e-19
	-1.457900619938037e-14
	3.477217495555344e-08
	1.401286693729501e-06
	1.716366320600651e-07
	2.179627054953676e-01

 3	3.000000000000000e-02
	-7.835840943889970e-15
	-5.333347038955003e-19
	-1.478850109375394e-14
	3.761144758770263e-08
	1.519171749110945e-06
	1.862309665482413e-07
	2.179627066573520e-01

 4	4.000000000000000e-02
	-7.749277508416372e-15
	-5.462762021352907e-19
	-1.499777925575317e-14
	4.067061471737191e-08
	1.647006609068777e-06
	2.020532070542270e-07
	2.179627079179908e-01

 5	5.000000000000000e-02
	-7.663826803915679e-15
	-5.595033723509553e-19
	-1.520676236072835e-14
	4.396537794169284e-08
	1.785660215121136e-06
	2.192071313092287e-07
	2.179627092857675e-01

 6	6.000000000000000e-02
	-7.579508047292276e-15
	-5.730215883286415e-19
	-1.541537250226237e-14
	4.751242098733116e-08
	1.936083146483561e-06
	2.378056080109340e-07
	2.179627107699290e-01

 7	7.000000000000001e-02
	-7.496339824946211e-15
	-5.868363064537578e-19
	-1.562353229697567e-14
	5.132945764215288e-08
	2.099315941558127e-06
	2.579714541118458e-07
	2.179627123805663e-01

 8	8.000000000000000e-02
	-7.414340058013249e-15
	-6.009530670929365e-19
	-1.583116498785260e-14
	5.543528081759526e-08
	2.276498283676316e-06
	2.798383795783450e-07
	2.179627141286900e-01

 9	9.000000000000000e-02
	-7.333525969496079e-15
	-6.153774960232306e-19
	-1.603819454581091e-14
	5.984981266265902e-08
	2.468879130210797e-06
	3.035520286545240e-07
	2.179627160263317e-01

 10	9.999999999999999e-02
	-7.253914053358027e-15
	-6.301153059100467e-19
	-1.624454576924428e-14
	6.459415564011690e-08
	2.677827868538165e-06
	3.292711274781227e-07
	2.179627180866380e-01

 11	1.100000000000000e-01
	-7.175520045643274e-15
	-6.451722978354710e-19
	-1.645014438127554e-14
	6.969064446480776e-08
	2.904846586374535e-06
	3.571687487510350e-07
	2.179627203239910e-01

 12	1.200000000000000e-01
	-7.098358897679838e-15
	-6.605543628785318e-19
	-1.665491712446945e-14
	7.516289879290393e-08
	3.151583547587964e-06
	3.874337050604631e-07
	2.179627227541309e-01

 13	1.300000000000000e-01
	-7.022444751414334e-15
	-6.762674837490758e-19
	-1.685879185276375e-14
	8.103587653975835e-08
	3.419847967559272e-06
	4.202720833731175e-07
	2.179627253942950e-01

 14	1.400000000000000e-01
	-6.947790916918831e-15
	-6.923177364766691e-19
	-1.706169762039005e-14
	8.733592769235227e-08
	3.711626184342406e-06
	4.559089341770965e-07
	2.179627282633713e-01

 15	1.500000000000000e-01
	-6.874409852102986e-15
	-7.087112921564208e-19
	-1.726356476756869e-14
	9.409084847054334e-08
	4.029099323071487e-06
	4.945901297153402e-07
	2.179627313820767e-01

 16	1.600000000000000e-01
	-6.802313144655245e-15
	-7.254544187530276e-19
	-1.746432500277658e-14
	1.013299356792571e-07
	4.374662551056248e-06
	5.365844067300500e-07
	2.179627347731349e-01

 17	1.700000000000000e-01
	-6.731511496230327e-15
	-7.425534829650371e-19
	-1.766391148139962e-14
	1.090840410813962e-07
	4.750946019558677e-06
	5.821856101055412e-07
	2.179627384614959e-01

 18	1.800000000000000e-01
	-6.662014708890217e-15
	-7.600149521505115e-19
	-1.786225888059948e-14
	1.173856256087261e-07
	5.160837585095205e-06
	6.317151547427698e-07
	2.179627424745579e-01

 19	1.900000000000000e-01
	-6.593831673799548e-15
	-7.778453963163595e-19
	-1.805930347023748e-14
	1.262688132151711e-07
	5.607507397971262e-06
	6.855247239027556e-07
	2.179627468424399e-01

 20	2.000000000000000e-01
	-6.526970362166683e-15
	-7.960514901722129e-19
	-1.825498317971792e-14
	1.357694441639715e-07
	6.094434438336293e-06
	7.439992230982013e-07
	2.179627515982462e-01

 21	2.100000000000000e-01
	-6.461437818415170e-15
	-8.146400152513950e-19
	-1.844923766062696e-14
	1.459251275268537e-07
	6.625435070019097e-06
	8.075600093668578e-07
	2.179627567783835e-01

 22	2.200000000000001e-01
	-6.397240155562053e-15
	-8.336178620999086e-19
	-1.864200834506212e-14
	1.567752926599319e-07
	7.204693669445677e-06
	8.766684164004438e-07
	2.179627624229104e-01

 23	2.300000000000001e-01
	-6.334382552771923e-15
	-8.529920325354763e-19
	-1.883323849956468e-14
	1.683612394073847e-07
	7.836795370707658e-06
	9.518295964971226e-07
	2.179627685759148e-01

 24	2.400000000000001e-01
	-6.272869255048947e-15
	-8.727696419785727e-19
	-1.902287327458401e-14
	1.807261867700299e-07
	8.526760947998827e-06
	1.033596700619478e-06
	2.179627752859210e-01

 25	2.500000000000001e-01
	-6.212703575022135e-15
	-8.929579218566154e-19
	-1.921085974942018e-14
	1.939153197618428e-07
	9.280083832831365e-06
	1.122575417935708e-06
	2.179627826063522e-01

 26	2.600000000000001e-01
	-6.153887896772263e-15
	-9.135642220834502e-19
	-1.939714697260899e-14
	2.079758341632302e-07
	1.010276923535896e-05
	1.219428896058509e-06
	2.179627905960343e-01

 27	2.700000000000001e-01
	-6.096423681643384e-15
	-9.345960136160632e-19
	-1.958168599773048e-14
	2.229569788655074e-07
	1.100137530646583e-05
	1.324883062729079e-06
	2.179627993197361e-01

 28	2.800000000000001e-01
	-6.040311475975686e-15
	-9.560608910894894e-19
	-1.976442991463794e-14
	2.389100954865086e-07
	1.198305623975877e-05
	1.439732368875394e-06
	2.179628088487713e-01

 29	2.900000000000001e-01
	-5.985550920691431e-15
	-9.779665755329861e-19
	-1.994533387612176e-14
	2.558886549228319e-07
	1.305560717001186e-05
	1.564845971755728e-06
	2.179628192616523e-01

 30	3.000000000000001e-01
	-5.932140762660745e-15
	-1.000320917167789e-18
	-2.012435512003749e-14
	2.739482904897732e-07
	1.422751067679367e-05
	1.701174375227445e-06
	2.179628306448043e-01

 31	3.100000000000001e-01
	-5.880078867769722e-15
	-1.023131898289845e-18
	-2.030145298694357e-14
	2.931468272857833e-07
	1.550798464889083e-05
	1.849756542005871e-06
	2.179628430933314e-01

 32	3.200000000000001e-01
	-5.829362235609459e-15
	-1.046407636238105e-18
	-2.047658893330763e-14
	3.135443074043012e-07
	1.690703120673805e-05
	2.011727490044158e-06
	2.179628567118638e-01

 33	3.300000000000001e-01
	-5.779987015701015e-15
	-1.070156386451148e-18
	-2.064972654035590e-14
	3.352030106023815e-07
	1.843548631653450e-05
	2.188326381822071e-06
	2.179628716154569e-01

 34	3.400000000000001e-01
	-5.731948525168617e-15
	-1.094386545613593e-18
	-2.082083151865168e-14
	3.581874700226813e-07
	2.010506966132898e-05
	2.380905111327231e-06
	2.179628879305834e-01

 35	3.500000000000001e-01
	-5.685241267770650e-15
	-1.119106654894619e-18
	-2.098987170850306e-14
	3.825644825535680e-07
	2.192843426155601e-05
	2.590937388802784e-06
	2.179629057961756e-01

 36	3.600000000000002e-01
	-5.639858954196403e-15
	-1.144325403280198e-18
	-2.115681707630996e-14
	4.084031134012045e-07
	2.391921526089954e-05
	2.820028317875797e-06
	2.179629253647737e-01

 37	3.700000000000002e-01
	-5.595794523534462e-15
	-1.170051631001761e-18
	-2.132163970697288e-14
	4.357746944384287e-07
	2.609207721380323e-05
	3.069924453441700e-06
	2.179629468037308e-01

 38	3.800000000000002e-01
	-5.553040165818216e-15
	-1.196294333062520e-18
	-2.148431379249455e-14
	4.647528158877249e-07
	2.846275912945376e-05
	3.342524321632225e-06
	2.179629702965135e-01

 39	3.900000000000002e-01
	-5.511587345552964e-15
	-1.223062662864373e-18
	-2.164481561691476e-14
	4.954133108905525e-07
	3.104811644493398e-05
	3.639889375328185e-06
	2.179629960440878e-01

 40	4.000000000000002e-01
	-5.471426826128950e-15
	-1.250365935937303e-18
	-2.180312353772726e-14
	5.278342325129398e-07
	3.386615901900093e-05
	3.964255349993661e-06
	2.179630242663831e-01

 41	4.100000000000002e-01
	-5.432548695025198e-15
	-1.278213633773336e-18
	-2.195921796393399e-14
	5.620958227381438e-07
	3.693608415936514e-05
	4.318043975122148e-06
	2.179630552038274e-01

 42	4.200000000000002e-01
	-5.394942389709543e-15
	-1.306615407767713e-18
	-2.211308133089792e-14
	5.982804730018005e-07
	4.027830362246871e-05
	4.703874986333989e-06
	2.179630891190004e-01

 43	4.300000000000002e-01
	-5.358596724141090e-15
	-1.335581083269466e-18
	-2.226469807216226e-14
	6.364726758343308e-07
	4.391446345789042e-05
	5.124578372210723e-06
	2.179631262983103e-01

 44	4.400000000000002e-01
	-5.323499915783334e-15
	-1.365120663743674e-18
	-2.241405458840589e-14
	6.767589671892803e-07
	4.786745551209998e-05
	5.583206778368968e-06
	2.179631670538004e-01

 45	4.500000000000002e-01
	-5.289639613037312e-15
	-1.395244335048319e-18
	-2.256113921371053e-14
	7.192278590565279e-07
	5.216141936113810e-05
	6.083047979185241e-06
	2.179632117249704e-01

 46	4.600000000000002e-01
	-5.257002923006754e-15
	-1.425962469828032e-18
	-2.270594217931555e-14
	7.639697619854294e-07
	5.682173341170452e-05
	6.627637315106961e-06
	2.179632606806872e-01

 47	4.700000000000003e-01
	-5.225576439509096e-15
	-1.457285632027245e-18
	-2.284845557503984e-14
	8.110768971767061e-07
	6.187499389815561e-05
	7.220769980801368e-06
	2.179633143211295e-01

 48	4.800000000000003e-01
	-5.195346271249476e-15
	-1.489224581525755e-18
	-2.298867330854916e-14
	8.606431978433276e-07
	6.734898051202660e-05
	7.866513036692123e-06
	2.179633730797506e-01

 49	4.900000000000003e-01
	-5.166298070076971e-15
	-1.521790278899447e-18
	-2.312659106264853e-14
	9.127641995904206e-07
	7.327260743390122e-05
	8.569217003939546e-06
	2.179634374252894e-01

 50	5.000000000000002e-01
	-5.138417059245961e-15
	-1.554993890308814e-18
	-2.326220625077837e-14
	9.675369196237468e-07
	7.967585859766136e-05
	9.333526890898614e-06
	2.179635078637391e-01

 51	5.100000000000002e-01
	-5.111688061608745e-15
	-1.588846792518523e-18
	-2.339551797089057e-14
	1.025059724664862e-06
	8.658970610690279e-05
	1.016439248780842e-05
	2.179635849403206e-01

 52	5.200000000000002e-01
	-5.086095527668488e-15
	-1.623360578051063e-18
	-2.352652695788012e-14
	1.085432187530379e-06
	9.404601084495791e-05
	1.106707775625029e-05
	2.179636692413858e-01

 53	5.300000000000002e-01
	-5.061623563425721e-15
	-1.658547060477474e-18
	-2.365523553474358e-14
	1.148754932422263e-06
	1.020774044752549e-04
	1.204716913107709e-05
	2.179637613962493e-01

 54	5.400000000000003e-01
	-5.038255957955003e-15
	-1.694418279848493e-18
	-2.378164756263292e-14
	1.215129469076183e-06
	1.107171522188522e-04
	1.311058254541046e-05
	2.179638620789265e-01

 55	5.500000000000003e-01
	-5.015976210651811e-15
	-1.730986508269523e-18
	-2.390576838997028e-14
	1.284658016026066e-06
	1.199989960214020e-04
	1.426356898428246e-05
	2.179639720096891e-01

 56	5.600000000000003e-01
	-4.994767558094376e-15
	-1.768264255622884e-18
	-2.402760480078210e-14
	1.357443313363485e-06
	1.299569779819549e-04
	1.551271836989824e-05
	2.179640919565012e-01

 57	5.700000000000003e-01
	-4.974613000467816e-15
	-1.806264275441003e-18
	-2.414716496241001e-14
	1.433588425501850e-06
	1.406252442096901e-04
	1.686496158168824e-05
	2.179642227361788e-01

 58	5.800000000000003e-01
	-4.955495327502877e-15
	-1.844999570934009e-18
	-2.426445837274695e-14
	1.513196534594248e-06
	1.520378295990711e-04
	1.832757041758615e-05
	2.179643652153405e-01

 59	5.900000000000003e-01
	-4.937397143884847e-15
	-1.884483401175907e-18
	-2.437949580714361e-14
	1.596370725401292e-06
	1.642284243656598e-04
	1.990815530964442e-05
	2.179645203110430e-01

 60	6.000000000000003e-01
	-4.920300894091955e-15
	-1.924729287452865e-18
	-2.449228926512419e-14
	1.683213762558073e-06
	1.772301235587422e-04
	2.161466061739682e-05
	2.179646889910853e-01

 61	6.100000000000003e-01
	-4.904188886626775e-15
	-1.965751019778168e-18
	-2.460285191704335e-14
	1.773827861346615e-06
	1.910751611570686e-04
	2.345535733651385e-05
	2.179648722739281e-01

 62	6.200000000000003e-01
	-4.889043317607442e-15
	-2.007562663577708e-18
	-2.471119805081091e-14
	1.868314453238950e-06
	2.057946307529395e-04
	2.543883307838240e-05
	2.179650712282047e-01

 63	6.300000000000003e-01
	-4.874846293689460e-15
	-2.050178566550393e-18
	-2.481734301880372e-14
	1.966773947634091e-06
	2.214181952292482e-04
	2.757397919833236e-05
	2.179652869717819e-01

 64	6.400000000000003e-01
	-4.861579854291986e-15
	-2.093613365708456e-18
	-2.492130318507831e-14
	2.069305491366597e-06
	2.379737882244827e-04
	2.986997497628589e-05
	2.179655206703159e-01

 65	6.500000000000004e-01
	-4.849225993106653e-15
	-2.137881994601277e-18
	-2.502309587299002e-14
	2.176006727711466e-06
	2.554873105518311e-04
	3.233626878346454e-05
	2.179657735353100e-01

 66	6.600000000000004e-01
	-4.837766678869543e-15
	-2.182999690728440e-18
	-2.512273931331900e-14
	2.286973556747387e-06
	2.739823250798972e-04
	3.498255620223790e-05
	2.179660468216344e-01

 67	6.700000000000004e-01
	-4.827183875380559e-15
	-2.228982003146855e-18
	-2.522025259299597e-14
	2.402299899063571e-06
	2.934797538829365e-04
	3.781875510285391e-05
	2.179663418244455e-01

 68	6.800000000000004e-01
	-4.817459560757908e-15
	-2.275844800276423e-18
	-2.531565560451368e-14
	2.522077464900318e-06
	3.139975817171474e-04
	4.085497772018743e-05
	2.179666598756051e-01

 69	6.900000000000004e-01
	-4.808575745917383e-15
	-2.323604277910105e-18
	-2.540896899610480e-14
	2.646395530899257e-06
	3.355505700661908e-04
	4.410149981525948e-05
	2.179670023394575e-01

 70	7.000000000000004e-01
	-4.800514492270180e-15
	-2.372276967433414e-18
	-2.550021412275862e-14
	2.775340726698289e-06
	3.581499861137380e-04
	4.756872704935024e-05
	2.179673706081050e-01

 71	7.100000000000004e-01
	-4.793257928634573e-15
	-2.421879744259240e-18
	-2.558941299814430e-14
	2.908996833640134e-06
	3.818033510357555e-04
	5.126715874240469e-05
	2.179677660960874e-01

 72	7.200000000000004e-01
	-4.786788267360462e-15
	-2.472429836483138e-18
	-2.567658824750082e-14
	3.047444597865373e-06
	4.065142119531453e-04
	5.520734923116302e-05
	2.179681902345920e-01

 73	7.300000000000004e-01
	-4.781087819666923e-15
	-2.523944833765819e-18
	-2.576176306154913e-14
	3.190761560032215e-06
	4.322819417421958e-04
	5.939986708524936e-05
	2.179686444651423e-01

 74	7.400000000000004e-01
	-4.776139010196570e-15
	-2.576442696447981e-18
	-2.584496115147439e-14
	3.339021903841290e-06
	4.591015706632056e-04
	6.385525248029465e-05
	2.179691302328932e-01

 75	7.500000000000004e-01
	-4.771924390791471e-15
	-2.629941764904505e-18
	-2.592620670502244e-14
	3.492296325446809e-06
	4.869636534373170e-04
	6.858397306520691e-05
	2.179696489795390e-01

 76	7.600000000000005e-01
	-4.768426653497995e-15
	-2.684460769144256e-18
	-2.600552434374780e-14
	3.650651925702600e-06
	5.158541749806260e-04
	7.359637869493025e-05
	2.179702021359244e-01

 77	7.700000000000005e-01
	-4.765628642809733e-15
	-2.740018838661183e-18
	-2.608293908144588e-14
	3.814152127026184e-06
	5.457544974991061e-04
	7.890265542964097e-05
	2.179707911144364e-01

 78	7.800000000000005e-01
	-4.763513367159154e-15
	-2.796635512545781e-18
	-2.615847628379686e-14
	3.982856616465690e-06
	5.766413510660992e-04
	8.451277922545432e-05
	2.179714173012565e-01

 79	7.900000000000005e-01
	-4.762064009670290e-15
	-2.854330749861385e-18
	-2.623216162924441e-14
	4.156821316327740e-06
	6.084868691574682e-04
	9.043646975969986e-05
	2.179720820485735e-01

 80	8.000000000000005e-01
	-4.761263938186143e-15
	-2.913124940294858e-18
	-2.630402107112706e-14
	4.336098383471033e-06
	6.412586699213292e-04
	9.668314484504459e-05
	2.179727866668266e-01

 81	8.100000000000005e-01
	-4.761096714585898e-15
	-2.973038915087342e-18
	-2.637408080107662e-14
	4.520736238095435e-06
	6.749199832251792e-04
	1.032618758907775e-04
	2.179735324171152e-01

 82	8.200000000000005e-01
	-4.761546103407973e-15
	-3.034093958255105e-18
	-2.644236721369335e-14
	4.710779622565171e-06
	7.094298227703971e-04
	1.101813448661706e-04
	2.179743205038361e-01

 83	8.300000000000005e-01
	-4.762596079796003e-15
	-3.096311818106391e-18
	-2.650890687250416e-14
	4.906269690501189e-06
	7.447432018103198e-04
	1.174498032098516e-04
	2.179751520676570e-01

 84	8.400000000000005e-01
	-4.764230836785911e-15
	-3.159714719064907e-18
	-2.657372647720622e-14
	5.107244126068912e-06
	7.808113902720480e-04
	1.250750331106797e-04
	2.179760281789348e-01

 85	8.500000000000005e-01
	-4.766434791952700e-15
	-3.224325373806875e-18
	-2.663685283219538e-14
	5.313737293079681e-06
	8.175822103821415e-04
	1.330643115600034e-04
	2.179769498316290e-01

 86	8.600000000000005e-01
	-4.769192593436373e-15
	-3.290166995722604e-18
	-2.669831281637514e-14
	5.525780413222015e-06
	8.550003672495942e-04
	1.414243775427876e-04
	2.179779179378125e-01

 87	8.700000000000006e-01
	-4.772489125367117e-15
	-3.357263311710938e-18
	-2.675813335423921e-14
	5.743401772448970e-06
	8.930078102820592e-04
	1.501614026965858e-04
	2.179789333228501e-01

 88	8.800000000000006e-01
	-4.776309512709835e-15
	-3.425638575317632e-18
	-2.681634138821847e-14
	5.966626954277188e-06
	9.315441208173704e-04
	1.592809657234788e-04
	2.179799967212812e-01

 89	8.900000000000006e-01
	-4.780639125548975e-15
	-3.495317580226972e-18
	-2.687296385227925e-14
	6.195479098504570e-06
	9.705469209532029e-04
	1.687880307917623e-04
	2.179811087734747e-01

 90	9.000000000000006e-01
	-4.785463582834450e-15
	-3.566325674118892e-18
	-2.692802764675904e-14
	6.429979183633328e-06
	1.009952298262197e-03
	1.786869301123572e-04
	2.179822700230825e-01

 91	9.100000000000006e-01
	-4.790768755609665e-15
	-3.638688772901904e-18
	-2.698155961442281e-14
	6.670146331097061e-06
	1.049695240893704e-03
	1.889813508207422e-04
	2.179834809152921e-01

 92	9.200000000000006e-01
	-4.796540769742991e-15
	-3.712433375334503e-18
	-2.703358651772063e-14
	6.915998129235972e-06
	1.089710077488579e-03
	1.996743262396836e-04
	2.179847417959212e-01

 93	9.300000000000006e-01
	-4.802766008183498e-15
	-3.787586578047022e-18
	-2.708413501722679e-14
	7.167550974848077e-06
	1.129930916369954e-03
	2.107682315424028e-04
	2.179860529113179e-01

 94	9.400000000000006e-01
	-4.809431112762254e-15
	-3.864176090976993e-18
	-2.713323165123768e-14
	7.424820430065461e-06
	1.170292078616187e-03
	2.222647837810752e-04
	2.179874144090542e-01

 95	9.500000000000006e-01
	-4.816522985559838e-15
	-3.942230253231589e-18
	-2.718090281650482e-14
	7.687821592263233e-06
	1.210728519865697e-03
	2.341650461927299e-04
	2.179888263394005e-01

 96	9.600000000000006e-01
	-4.824028789860915e-15
	-4.021778049390849e-18
	-2.722717475007838e-14
	7.956569474707836e-06
	1.251176236038156e-03
	2.464694366448121e-04
	2.179902886575119e-01

 97	9.700000000000006e-01
	-4.831935950716093e-15
	-4.102849126266851e-18
	-2.727207351223431e-14
	8.231079395683583e-06
	1.291572648570339e-03
	2.591777400364938e-04
	2.179918012262927e-01

 98	9.800000000000006e-01
	-4.840232155131362e-15
	-4.185473810132752e-18
	-2.731562497045846e-14
	8.511367373905208e-06
	1.331856965245660e-03
	2.722891244302607e-04
	2.179933638198828e-01

 99	9.900000000000007e-01
	-4.848905351904761e-15
	-4.269683124439018e-18
	-2.735785478445903e-14
	8.797450528123225e-06
	1.371970513229050e-03
	2.858021606517514e-04
	2.179949761276976e-01

 100	1.000000000000001e+00
	-4.857943751129570e-15
	-4.355508808031497e-18
	-2.739878839217897e-14
	9.089347478956957e-06
	1.411857041489143e-03
	2.997148450648658e-04
	2.179966377589425e-01

 101	1.010000000000001e+00
	-4.867335823383354e-15
	-4.442983333888969e-18
	-2.743845099677788e-14
