Title: ** sch_path: /home/andylithia/openmpw/project-yatsuhashi-chip1/xschem/gmid_test/nmos_test.sch
Date: Sun Jul 17 22:51:45  2022
Plotname: DC transfer characteristic
Flags: real
No. Variables: 8
No. Points: 181
Variables:
	0	v(v-sweep)	voltage
	1	@m.xm1.msky130_fd_pr__nfet_01v8[cgb]	capacitance
	2	@m.xm1.msky130_fd_pr__nfet_01v8[cgd]	capacitance
	3	@m.xm1.msky130_fd_pr__nfet_01v8[cgs]	capacitance
	4	@m.xm1.msky130_fd_pr__nfet_01v8[gds]	admittance
	5	@m.xm1.msky130_fd_pr__nfet_01v8[gm]	admittance
	6	i(@m.xm1.msky130_fd_pr__nfet_01v8[id])	current
	7	v(@m.xm1.msky130_fd_pr__nfet_01v8[vth])	voltage
Values:
 0	0.000000000000000e+00
	-1.864834380107346e-14
	-1.167417237233872e-17
	-3.975147477629654e-14
	4.953059040124755e-08
	1.533574257686269e-06
	2.088613910812419e-07
	1.522205804222226e-01

 1	1.000000000000000e-02
	-1.845417319596204e-14
	-1.197794862014574e-17
	-4.022116775528182e-14
	5.307179062875762e-08
	1.650813270050017e-06
	2.247759397841037e-07
	1.522205823631703e-01

 2	2.000000000000000e-02
	-1.826289940676279e-14
	-1.228996860245512e-17
	-4.068937726362456e-14
	5.685200877467814e-08
	1.777271141641529e-06
	2.419083556638059e-07
	1.522205844526689e-01

 3	3.000000000000000e-02
	-1.807455093036014e-14
	-1.261047085134679e-17
	-4.115596467911612e-14
	6.088605935891106e-08
	1.913719630997322e-06
	2.603546300434819e-07
	1.522205867024268e-01

 4	4.000000000000000e-02
	-1.788915494487012e-14
	-1.293970147100396e-17
	-4.162079297992162e-14
	6.518956229077556e-08
	2.061000629286206e-06
	2.802188170994696e-07
	1.522205891251418e-01

 5	5.000000000000000e-02
	-1.770673726496133e-14
	-1.327791440572431e-17
	-4.208372688462327e-14
	6.977897806388352e-08
	2.220032881736593e-06
	3.016137682861353e-07
	1.522205917345833e-01

 6	6.000000000000000e-02
	-1.752732230031737e-14
	-1.362537171848843e-17
	-4.254463298861257e-14
	7.467164394138727e-08
	2.391819334993372e-06
	3.246619370630864e-07
	1.522205945456879e-01

 7	7.000000000000001e-02
	-1.735093301729157e-14
	-1.398234388053944e-17
	-4.300337989655592e-14
	7.988581113438115e-08
	2.577455159983985e-06
	3.494962604297000e-07
	1.522205975746799e-01

 8	8.000000000000000e-02
	-1.717759090379567e-14
	-1.434911007246097e-17
	-4.345983835067333e-14
	8.544068297598993e-08
	2.778136502244818e-06
	3.762611242797281e-07
	1.522206008391763e-01

 9	9.000000000000000e-02
	-1.700731593745447e-14
	-1.472595849725081e-17
	-4.391388135458091e-14
	9.135645409354930e-08
	2.995170013900674e-06
	4.051134201193446e-07
	1.522206043583170e-01

 10	9.999999999999999e-02
	-1.684012655705041e-14
	-1.511318670592026e-17
	-4.436538429246374e-14
	9.765435058130167e-08
	3.229983223558025e-06
	4.362237012444723e-07
	1.522206081529203e-01

 11	1.100000000000000e-01
	-1.667603963727115e-14
	-1.551110193617300e-17
	-4.481422504336456e-14
	1.043566711762396e-07
	3.484135802211495e-06
	4.697774470453122e-07
	1.522206122456159e-01

 12	1.200000000000000e-01
	-1.651507046676542e-14
	-1.592002146473818e-17
	-4.526028409038409e-14
	1.114868294399795e-07
	3.759331784809088e-06
	5.059764446945706e-07
	1.522206166610304e-01

 13	1.300000000000000e-01
	-1.635723272950248e-14
	-1.634027297396858e-17
	-4.570344462461170e-14
	1.190693969501349e-07
	4.057432808315146e-06
	5.450402980789467e-07
	1.522206214259630e-01

 14	1.400000000000000e-01
	-1.620253848942110e-14
	-1.677219493333748e-17
	-4.614359264361888e-14
	1.271301475052201e-07
	4.380472427867621e-06
	5.872080744455799e-07
	1.522206265695897e-01

 15	1.500000000000000e-01
	-1.605099817834593e-14
	-1.721613699650150e-17
	-4.658061704436704e-14
	1.356961023480262e-07
	4.730671572873601e-06
	6.327400998528953e-07
	1.522206321236823e-01

 16	1.600000000000000e-01
	-1.590262058713988e-14
	-1.767246041462855e-17
	-4.701440971039898e-14
	1.447955764133846e-07
	5.110455204530107e-06
	6.819199151322482e-07
	1.522206381228496e-01

 17	1.700000000000000e-01
	-1.575741286005188e-14
	-1.814153846672475e-17
	-4.744486559320237e-14
	1.544582256074484e-07
	5.522470235201345e-06
	7.350564046768434e-07
	1.522206446047897e-01

 18	1.800000000000000e-01
	-1.561538049221270e-14
	-1.862375690772557e-17
	-4.787188278765077e-14
	1.647150951270538e-07
	5.969604768223344e-06
	7.924861109698707e-07
	1.522206516105834e-01

 19	1.900000000000000e-01
	-1.547652733022203e-14
	-1.911951443516382e-17
	-4.829536260144757e-14
	1.755986688293160e-07
	6.455008713932267e-06
	8.545757483363447e-07
	1.522206591849933e-01

 20	2.000000000000000e-01
	-1.534085557576311e-14
	-1.962922317525391e-17
	-4.871520961851564e-14
	1.871429196635019e-07
	6.982115833901755e-06
	9.217249299425093e-07
	1.522206673768017e-01

 21	2.100000000000000e-01
	-1.520836579217346e-14
	-2.015330918928689e-17
	-4.913133175629511e-14
	1.993833611792871e-07
	7.554667260407062e-06
	9.943691225625387e-07
	1.522206762391647e-01

 22	2.200000000000001e-01
	-1.507905691389428e-14
	-2.069221300125833e-17
	-4.954364031692711e-14
	2.123571001278763e-07
	8.176736531874486e-06
	1.072982844071714e-06
	1.522206858300152e-01

 23	2.300000000000001e-01
	-1.495292625871295e-14
	-2.124639014772056e-17
	-4.995205003232380e-14
	2.261028901751739e-07
	8.852756177394644e-06
	1.158083118995556e-06
	1.522206962124742e-01

 24	2.400000000000001e-01
	-1.482996954270863e-14
	-2.181631175087247e-17
	-5.035647910313719e-14
	2.406611867490986e-07
	9.587545874132651e-06
	1.250233207729434e-06
	1.522207074553105e-01

 25	2.500000000000001e-01
	-1.471018089780454e-14
	-2.240246511597244e-17
	-5.075684923166020e-14
	2.560742030465821e-07
	1.038634219052675e-05
	1.350046625227954e-06
	1.522207196334328e-01

 26	2.600000000000001e-01
	-1.459355289182482e-14
	-2.300535435420448e-17
	-5.115308564870803e-14
	2.723859672295205e-07
	1.125482991538543e-05
	1.458191465029223e-06
	1.522207328284215e-01

 27	2.700000000000001e-01
	-1.448007655095066e-14
	-2.362550103218568e-17
	-5.154511713454549e-14
	2.896423808432908e-07
	1.219917495824250e-05
	1.575395044407589e-06
	1.522207471290833e-01

 28	2.800000000000001e-01
	-1.436974138446472e-14
	-2.426344484936245e-17
	-5.193287603393808e-14
	3.078912784961532e-07
	1.322605878947442e-05
	1.702448886218091e-06
	1.522207626320791e-01

 29	2.900000000000001e-01
	-1.426253541166973e-14
	-2.491974434461138e-17
	-5.231629826542407e-14
	3.271824888435012e-07
	1.434271436962179e-05
	1.840214052587345e-06
	1.522207794425623e-01

 30	3.000000000000001e-01
	-1.415844519086432e-14
	-2.559497763341710e-17
	-5.269532332491457e-14
	3.475678969270367e-07
	1.555696349596474e-05
	1.989626844993061e-06
	1.522207976748814e-01

 31	3.100000000000001e-01
	-1.405745585025560e-14
	-2.628974317708109e-17
	-5.306989428374389e-14
	3.691015079261182e-07
	1.687725547061109e-05
	2.151704884437122e-06
	1.522208174533201e-01

 32	3.200000000000001e-01
	-1.395955112068648e-14
	-2.700466058547955e-17
	-5.343995778130475e-14
	3.918395123866664e-07
	1.831270696809473e-05
	2.327553584328771e-06
	1.522208389128946e-01

 33	3.300000000000001e-01
	-1.386471337005389e-14
	-2.774037145497338e-17
	-5.380546401241340e-14
	4.158403530023698e-07
	1.987314295172170e-05
	2.518373027331224e-06
	1.522208622001902e-01

 34	3.400000000000001e-01
	-1.377292363929193e-14
	-2.849754024315049e-17
	-5.416636670956273e-14
	4.411647930337071e-07
	2.156913845663968e-05
	2.725465255761150e-06
	1.522208874742539e-01

 35	3.500000000000001e-01
	-1.368416167979486e-14
	-2.927685518217244e-17
	-5.452262312022780e-14
	4.678759864626218e-07
	2.341206102388737e-05
	2.950241983141371e-06
	1.522209149075393e-01

 36	3.600000000000002e-01
	-1.359840599215301e-14
	-3.007902923258254e-17
	-5.487419397940084e-14
	4.960395499951391e-07
	2.541411353359376e-05
	3.194232732169305e-06
	1.522209446869000e-01

 37	3.700000000000002e-01
	-1.351563386607508e-14
	-3.090480107953366e-17
	-5.522104347753866e-14
	5.257236370405864e-07
	2.758837714717791e-05
	3.459093401652249e-06
	1.522209770146376e-01

 38	3.800000000000002e-01
	-1.343582142137190e-14
	-3.175493617349794e-17
	-5.556313922411266e-14
	5.569990138153617e-07
	2.994885402806279e-05
	3.746615261856707e-06
	1.522210121095998e-01

 39	3.900000000000002e-01
	-1.335894364987668e-14
	-3.263022781761295e-17
	-5.590045220695839e-14
	5.899391377411844e-07
	3.251050946831907e-05
	4.058734374201217e-06
	1.522210502083412e-01

 40	4.000000000000002e-01
	-1.328497445817769e-14
	-3.353149830396089e-17
	-5.623295674762787e-14
	6.246202383335458e-07
	3.528931300515325e-05
	4.397541427276950e-06
	1.522210915663207e-01

 41	4.100000000000002e-01
	-1.321388671104251e-14
	-3.445960010116071e-17
	-5.656063045295006e-14
	6.611214008054917e-07
	3.830227806665867e-05
	4.765291976793175e-06
	1.522211364591513e-01

 42	4.200000000000002e-01
	-1.314565227541425e-14
	-3.541541709581193e-17
	-5.688345416301027e-14
	6.995246526463404e-07
	4.156749964128007e-05
	5.164417072210513e-06
	1.522211851839022e-01

 43	4.300000000000002e-01
	-1.308024206486192e-14
	-3.639986589043530e-17
	-5.720141189576186e-14
	7.399150534743236e-07
	4.510418942059256e-05
	5.597534247540287e-06
	1.522212380604442e-01

 44	4.400000000000002e-01
	-1.301762608437119e-14
	-3.741389716071730e-17
	-5.751449078848443e-14
	7.823807885079198e-07
	4.893270782095393e-05
	6.067458848058320e-06
	1.522212954328400e-01

 45	4.500000000000002e-01
	-1.295777347536351e-14
	-3.845849707499984e-17
	-5.782268103630535e-14
	8.270132660533414e-07
	5.307459224715345e-05
	6.577215658519290e-06
	1.522213576707485e-01

 46	4.600000000000002e-01
	-1.290065256083580e-14
	-3.953468877910958e-17
	-5.812597582799995e-14
	8.739072194659436e-07
	5.755258092119254e-05
	7.130050791879090e-06
	1.522214251709041e-01

 47	4.700000000000003e-01
	-1.284623089051536e-14
	-4.064353394981034e-17
	-5.842437127928753e-14
	9.231608141134811e-07
	6.239063156282929e-05
	7.729443790577036e-06
	1.522214983585724e-01

 48	4.800000000000003e-01
	-1.279447528592945e-14
	-4.178613442029600e-17
	-5.871786636383655e-14
	9.748757599484791e-07
	6.761393417645507e-05
	8.379119885121492e-06
	1.522215776890611e-01

 49	4.900000000000003e-01
	-1.274535188529165e-14
	-4.296363388136714e-17
	-5.900646284219319e-14
	1.029157430389031e-06
	7.324891717248716e-05
	9.083062347129983e-06
	1.522216636492212e-01

 50	5.000000000000002e-01
	-1.269882618811240e-14
	-4.417721966208911e-17
	-5.929016518884250e-14
	1.086114988311696e-06
	7.932324603184785e-05
	9.845524866143804e-06
	1.522217567589740e-01

 51	5.100000000000002e-01
	-1.265486309944375e-14
	-4.542812459397648e-17
	-5.956898051761062e-14
	1.145861520080005e-06
	8.586581371059797e-05
	1.067104387155746e-05
	1.522218575727965e-01

 52	5.200000000000002e-01
	-1.261342697367413e-14
	-4.671762896291303e-17
	-5.984291850561101e-14
	1.208514178667882e-06
	9.290672197955635e-05
	1.156445071294399e-05
	1.522219666812200e-01

 53	5.300000000000002e-01
	-1.257448165779174e-14
	-4.804706255329431e-17
	-6.011199131593473e-14
	1.274194337092535e-06
	1.004772529021922e-04
	1.253088360404102e-05
	1.522220847122802e-01

 54	5.400000000000003e-01
	-1.253799053404131e-14
	-4.941780678907959e-17
	-6.037621351927863e-14
	1.343027753546902e-06
	1.086098296743238e-04
	1.357579922777761e-05
	1.522222123329431e-01

 55	5.500000000000003e-01
	-1.250391656190089e-14
	-5.083129697672440e-17
	-6.063560201470370e-14
	1.415144749821197e-06
	1.173379660825239e-04
	1.470498389211421e-05
	1.522223502504459e-01

 56	5.600000000000003e-01
	-1.247222231931309e-14
	-5.228902465520429e-17
	-6.089017594970421e-14
	1.490680404828229e-06
	1.266962038856517e-04
	1.592456411925863e-05
	1.522224992136088e-01

 57	5.700000000000003e-01
	-1.244287004310578e-14
	-5.379254005864953e-17
	-6.113995663976973e-14
	1.569774765301955e-06
	1.367200374866295e-04
	1.724101654416845e-05
	1.522226600140156e-01

 58	5.800000000000003e-01
	-1.241582166854553e-14
	-5.534345469738015e-17
	-6.138496748760966e-14
	1.652573076025456e-06
	1.474458253402621e-04
	1.866117699230060e-05
	1.522228334871405e-01

 59	5.900000000000003e-01
	-1.239103886796756e-14
	-5.694344406347391e-17
	-6.162523390220814e-14
	1.739226032267914e-06
	1.589106876381674e-04
	2.019224860149683e-05
	1.522230205133139e-01

 60	6.000000000000003e-01
	-1.236848308843387e-14
	-5.859425046730259e-17
	-6.186078321786687e-14
	1.829890057473239e-06
	1.711523899240832e-04
	2.184180884885336e-05
	1.522232220185780e-01

 61	6.100000000000003e-01
	-1.234811558837315e-14
	-6.029768601183322e-17
	-6.209164461338869e-14
	1.924727609651162e-06
	1.842092124220004e-04
	2.361781534059779e-05
	1.522234389754017e-01

 62	6.200000000000003e-01
	-1.232989747315994e-14
	-6.205563571188008e-17
	-6.231784903154866e-14
	2.023907520379713e-06
	1.981198050054842e-04
	2.552861022155265e-05
	1.522236724031831e-01

 63	6.300000000000003e-01
	-1.231378972959739e-14
	-6.387006076582891e-17
	-6.253942909898754e-14
	2.127605370840567e-06
	2.129230278983494e-04
	2.758292306084604e-05
	1.522239233686240e-01

 64	6.400000000000003e-01
	-1.229975325926741e-14
	-6.574300198782806e-17
	-6.275641904666276e-14
	2.236003909884957e-06
	2.286577783737863e-04
	2.978987207234046e-05
	1.522241929858440e-01

 65	6.500000000000004e-01
	-1.228774891072090e-14
	-6.767658340881663e-17
	-6.296885463097605e-14
	2.349293519770960e-06
	2.453628039090967e-04
	3.215896353186220e-05
	1.522244824163141e-01

 66	6.600000000000004e-01
	-1.227773751047932e-14
	-6.967301605525828e-17
	-6.317677305569788e-14
	2.467672735935173e-06
	2.630765024548751e-04
	3.470008925892310e-05
	1.522247928685464e-01

 67	6.700000000000004e-01
	-1.226967989282667e-14
	-7.173460191489898e-17
	-6.338021289479520e-14
	2.591348827969856e-06
	2.818367106879437e-04
	3.742352203828278e-05
	1.522251255975133e-01

 68	6.800000000000004e-01
	-1.226353692837126e-14
	-7.386373809939208e-17
	-6.357921401626528e-14
	2.720538449882032e-06
	3.016804813338369e-04
	4.033990886649710e-05
	1.522254819038244e-01

 69	6.900000000000004e-01
	-1.225926955136150e-14
	-7.606292121415454e-17
	-6.377381750707025e-14
	2.855468368727366e-06
	3.226438508638203e-04
	4.346026192059321e-05
	1.522258631326199e-01

 70	7.000000000000004e-01
	-1.225683878574275e-14
	-7.833475194638748e-17
	-6.396406559925868e-14
	2.996376281851475e-06
	3.447615990893512e-04
	4.679594716017959e-05
	1.522262706721743e-01

 71	7.100000000000004e-01
	-1.225620576994375e-14
	-8.068193988278351e-17
	-6.415000159735658e-14
	3.143511734253642e-06
	3.680670023896363e-04
	5.035867049064420e-05
	1.522267059521979e-01

 72	7.200000000000004e-01
	-1.225733178038652e-14
	-8.310730856906447e-17
	-6.433166980709935e-14
	3.297137149030627e-06
	3.925915825108692e-04
	5.416046143350779e-05
	1.522271704418553e-01

 73	7.300000000000004e-01
	-1.226017825371300e-14
	-8.561380082415378e-17
	-6.450911546557302e-14
	3.457528985486196e-06
	4.183648530643264e-04
	5.821365427038562e-05
	1.522276656474555e-01

 74	7.400000000000004e-01
	-1.226470680772650e-14
	-8.820448432247775e-17
	-6.468238467282443e-14
	3.624979041331317e-06
	4.454140660199941e-04
	6.253086664919058e-05
	1.522281931098436e-01

 75	7.500000000000004e-01
	-1.227087926104692e-14
	-9.088255745859777e-17
	-6.485152432499473e-14
	3.799795917483226e-06
	4.737639606378908e-04
	6.712497566495912e-05
	1.522287544014892e-01

 76	7.600000000000005e-01
	-1.227865765148118e-14
	-9.365135550918003e-17
	-6.501658204902371e-14
	3.982306666337211e-06
	5.034365173963475e-04
	7.200909145276280e-05
	1.522293511232746e-01

 77	7.700000000000005e-01
	-1.228800425311136e-14
	-9.651435710807362e-17
	-6.517760613896727e-14
	4.172858647077053e-06
	5.344507195605272e-04
	7.719652835623867e-05
	1.522299849009772e-01

 78	7.800000000000005e-01
	-1.229888159210584e-14
	-9.947519105113043e-17
	-6.533464549396443e-14
	4.371821614662648e-06
	5.668223250816292e-04
	8.270077376200922e-05
	1.522306573814741e-01

 79	7.900000000000005e-01
	-1.231125246125937e-14
	-1.025376434482791e-16
	-6.548774955788357e-14
	4.579590072649048e-06
	6.005636515238781e-04
	8.853545471726312e-05
	1.522313702286877e-01

 80	8.000000000000005e-01
	-1.232507993326894e-14
	-1.057056652413161e-16
	-6.563696826067518e-14
	4.796585924025011e-06
	6.356833766797657e-04
	9.471430247461696e-05
	1.522321251192569e-01

 81	8.100000000000005e-01
	-1.234032737275485e-14
	-1.089833801068158e-16
	-6.578235196144995e-14
	5.023261458899898e-06
	6.721863574519052e-04
	1.012511151346223e-04
	1.522329237379988e-01

 82	8.200000000000005e-01
	-1.235695844703528e-14
	-1.123750927646211e-16
	-6.592395139329930e-14
	5.260102723221644e-06
	7.100734694512106e-04
	1.081597185814835e-04
	1.522337677731430e-01

 83	8.300000000000005e-01
	-1.237493713566578e-14
	-1.158852977134273e-16
	-6.606181760986837e-14
	5.507633318899951e-06
	7.493414695853109e-04
	1.154539259311934e-04
	1.522346589113995e-01

 84	8.400000000000005e-01
	-1.239422773875300e-14
	-1.195186884161026e-16
	-6.619600193368970e-14
	5.766418692889231e-06
	7.899828836892353e-04
	1.231474957329742e-04
	1.522355988328573e-01

 85	8.500000000000005e-01
	-1.241479488405550e-14
	-1.232801669585571e-16
	-6.632655590627904e-14
	6.037070981131327e-06
	8.319859209837855e-04
	1.312540891841000e-04
	1.522365892057664e-01

 86	8.600000000000005e-01
	-1.243660353288177e-14
	-1.271748542071799e-16
	-6.645353123999438e-14
	6.320254482983078e-06
	8.753344168386717e-04
	1.397872266345120e-04
	1.522376316812325e-01

 87	8.700000000000006e-01
	-1.245961898479859e-14
	-1.312081004911698e-16
	-6.657697977165114e-14
	6.616691853110657e-06
	9.200078049709239e-04
	1.487602436706670e-04
	1.522387278878624e-01

 88	8.800000000000006e-01
	-1.248380688115998e-14
	-1.353854968374116e-16
	-6.669695341788847e-14
	6.927171111125235e-06
	9.659811198289667e-04
	1.581862470774446e-04
	1.522398794263724e-01

 89	8.900000000000006e-01
	-1.250913320746979e-14
	-1.397128867868765e-16
	-6.681350413227297e-14
	7.252553584824893e-06
	1.013225029504417e-03
	1.680780709823761e-04
	1.522410878642339e-01

 90	9.000000000000006e-01
	-1.253556429458861e-14
	-1.441963788230374e-16
	-6.692668386412883e-14
	7.593782921230744e-06
	1.061705899083066e-03
	1.784482334876816e-04
	1.522423547303761e-01

 91	9.100000000000006e-01
	-1.256306681879615e-14
	-1.488423594442337e-16
	-6.703654451907471e-14
	7.951895321180471e-06
	1.111385883900142e-03
	1.893088940924307e-04
	1.522436815099596e-01

 92	9.200000000000006e-01
	-1.259160780071992e-14
	-1.536575069134371e-16
	-6.714313792125056e-14
	8.328031178695512e-06
	1.162223051709408e-03
	2.006718121994512e-04
	1.522450696393129e-01

 93	9.300000000000006e-01
	-1.262115460314003e-14
	-1.586488057205100e-16
	-6.724651577721210e-14
	8.723448336418701e-06
	1.214171532317704e-03
	2.125483069893428e-04
	1.522465205010087e-01

 94	9.400000000000006e-01
	-1.265167492767943e-14
	-1.638235617936162e-16
	-6.734672964146902e-14
	9.139537204029909e-06
	1.267181692782550e-03
	2.249492189271201e-04
	1.522480354191477e-01

 95	9.500000000000006e-01
	-1.268313681038810e-14
	-1.691894184981588e-16
	-6.744383088364141e-14
	9.577838028774228e-06
	1.321200335826493e-03
	2.378848731456837e-04
	1.522496156548771e-01

 96	9.600000000000006e-01
	-1.271550861622887e-14
	-1.747543734633237e-16
	-6.753787065720761e-14
	1.004006065738673e-05
	1.376170918692977e-03
	2.513650449246167e-04
	1.522512624021494e-01

 97	9.700000000000006e-01
	-1.274875903247151e-14
	-1.805267962780029e-16
	-6.762889986981278e-14
	1.052810718834593e-05
	1.432033789259163e-03
	2.653989274529231e-04
	1.522529767837827e-01

 98	9.800000000000006e-01
	-1.278285706100018e-14
	-1.865154470997142e-16
	-6.771696915510977e-14
	1.104409798443075e-05
	1.488726435834097e-03
	2.799951020304767e-04
	1.522547598477954e-01

 99	9.900000000000007e-01
	-1.281777200953963e-14
	-1.927294962218184e-16
	-6.780212884609776e-14
	1.159040160027260e-05
	1.546183746707238e-03
	2.951615108253143e-04
	1.522566125640895e-01

 100	1.000000000000001e+00
	-1.285347348180181e-14
	-1.991785446462430e-16
	-6.788442894992709e-14
	1.216966928073641e-05
	1.604338275172866e-03
	3.109054322628290e-04
	1.522585358214131e-01

 101	1.010000000000001e+00
	-1.288993136655646e-14
	-2.058726457105263e-16
	-6.796391912413483e-14
