Title: ** sch_path: /home/andylithia/openmpw/project-yatsuhashi-chip1/xschem/gmid_test/nmos_test.sch
Date: Sun Jul 17 22:51:45  2022
Plotname: DC transfer characteristic
Flags: real
No. Variables: 8
No. Points: 181
Variables:
	0	v(v-sweep)	voltage
	1	@m.xm1.msky130_fd_pr__nfet_01v8[cgb]	capacitance
	2	@m.xm1.msky130_fd_pr__nfet_01v8[cgd]	capacitance
	3	@m.xm1.msky130_fd_pr__nfet_01v8[cgs]	capacitance
	4	@m.xm1.msky130_fd_pr__nfet_01v8[gds]	admittance
	5	@m.xm1.msky130_fd_pr__nfet_01v8[gm]	admittance
	6	i(@m.xm1.msky130_fd_pr__nfet_01v8[id])	current
	7	v(@m.xm1.msky130_fd_pr__nfet_01v8[vth])	voltage
Values:
 0	0.000000000000000e+00
	-1.481310878235047e-14
	-8.368387750494169e-18
	-3.019324834207748e-14
	2.836106470150541e-08
	9.089288000646193e-07
	1.192767513436567e-07
	1.670726593456963e-01

 1	1.000000000000000e-02
	-1.465440590261195e-14
	-8.591485835879837e-18
	-3.057360304666920e-14
	3.047781324291454e-08
	9.809918086254105e-07
	1.287216698440338e-07
	1.670726604930247e-01

 2	2.000000000000000e-02
	-1.449792924135030e-14
	-8.820743552706352e-18
	-3.095299984747060e-14
	3.274391899405485e-08
	1.058910083621699e-06
	1.389160920901373e-07
	1.670726617314112e-01

 3	3.000000000000000e-02
	-1.434370595525433e-14
	-9.056340699442160e-18
	-3.133131732554184e-14
	3.516907081984129e-08
	1.143188329078639e-06
	1.499210566405987e-07
	1.670726630682685e-01

 4	4.000000000000000e-02
	-1.419176211464702e-14
	-9.298462797675831e-18
	-3.170843524487157e-14
	3.776350866013502e-08
	1.234378489306825e-06
	1.618028815509469e-07
	1.670726645116575e-01

 5	5.000000000000000e-02
	-1.404212265898047e-14
	-9.547301295014461e-18
	-3.208423468711723e-14
	4.053804851677040e-08
	1.333084439007777e-06
	1.746336598595491e-07
	1.670726660703354e-01

 6	6.000000000000000e-02
	-1.389481135512969e-14
	-9.803053775990060e-18
	-3.245859818331556e-14
	4.350410812359842e-08
	1.439967129184321e-06
	1.884918042223575e-07
	1.670726677538322e-01

 7	7.000000000000001e-02
	-1.374985075855041e-14
	-1.006592418132904e-17
	-3.283140984227115e-14
	4.667373329266223e-08
	1.555750226714958e-06
	2.034626454421360e-07
	1.670726695725176e-01

 8	8.000000000000000e-02
	-1.360726217735683e-14
	-1.033612303594768e-17
	-3.320255547534157e-14
	5.005962492854267e-08
	1.681226287344422e-06
	2.196390900258837e-07
	1.670726715376836e-01

 9	9.000000000000000e-02
	-1.346706563936659e-14
	-1.061386768605734e-17
	-3.357192271735207e-14
	5.367516670192915e-08
	1.817263503625691e-06
	2.371223423107728e-07
	1.670726736616232e-01

 10	9.999999999999999e-02
	-1.332927986215088e-14
	-1.089938254578241e-17
	-3.393940114338476e-14
	5.753445337252557e-08
	1.964813070976813e-06
	2.560226971224163e-07
	1.670726759577465e-01

 11	1.100000000000000e-01
	-1.319392222611765e-14
	-1.119289935370991e-17
	-3.430488238120678e-14
	6.165231975061321e-08
	2.124917216443999e-06
	2.764604093684039e-07
	1.670726784406637e-01

 12	1.200000000000000e-01
	-1.306100875064842e-14
	-1.149465743981281e-17
	-3.466826021911117e-14
	6.604437028581529e-08
	2.298717935931506e-06
	2.985666474217678e-07
	1.670726811263185e-01

 13	1.300000000000000e-01
	-1.293055407329670e-14
	-1.180490400320995e-17
	-3.502943070896840e-14
	7.072700927101881e-08
	2.487466486514084e-06
	3.224845376113987e-07
	1.670726840321066e-01

 14	1.400000000000000e-01
	-1.280257143205010e-14
	-1.212389440124574e-17
	-3.538829226429712e-14
	7.571747164885744e-08
	2.692533680916894e-06
	3.483703076050763e-07
	1.670726871770161e-01

 15	1.500000000000000e-01
	-1.267707265064618e-14
	-1.245189245039957e-17
	-3.574474575318507e-14
	8.103385440775702e-08
	2.915421031261126e-06
	3.763945369421167e-07
	1.670726905817781e-01

 16	1.600000000000000e-01
	-1.255406812692536e-14
	-1.278917073955548e-17
	-3.609869458590624e-14
	8.669514855426694e-08
	3.157772788648929e-06
	4.067435234413990e-07
	1.670726942690393e-01

 17	1.700000000000000e-01
	-1.243356682419289e-14
	-1.313601095619469e-17
	-3.645004479710184e-14
	9.272127164821256e-08
	3.421388924012812e-06
	4.396207746710223e-07
	1.670726982635366e-01

 18	1.800000000000000e-01
	-1.231557626555541e-14
	-1.349270422609276e-17
	-3.679870512240881e-14
	9.913310088718699e-08
	3.708239093788338e-06
	4.752486341112660e-07
	1.670727025922953e-01

 19	1.900000000000000e-01
	-1.220010253118811e-14
	-1.385955146713942e-17
	-3.714458706943968e-14
	1.059525067269793e-07
	4.020477631286688e-06
	5.138700520653159e-07
	1.670727072848511e-01

 20	2.000000000000000e-01
	-1.208715025847999e-14
	-1.423686375792648e-17
	-3.748760498303805e-14
	1.132023870248265e-07
	4.360459601040394e-06
	5.557505117637462e-07
	1.670727123734748e-01

 21	2.100000000000000e-01
	-1.197672264499852e-14
	-1.462496272177729e-17
	-3.782767610474924e-14
	1.209067016927292e-07
	4.730757948760143e-06
	6.011801214588347e-07
	1.670727178934403e-01

 22	2.200000000000001e-01
	-1.186882145420558e-14
	-1.502418092693635e-17
	-3.816472062646975e-14
	1.290905078487251e-07
	5.134181773764566e-06
	6.504758836034417e-07
	1.670727238832815e-01

 23	2.300000000000001e-01
	-1.176344702385146e-14
	-1.543486230365355e-17
	-3.849866173825215e-14
	1.377799954547128e-07
	5.573795743704793e-06
	7.039841524430348e-07
	1.670727303851084e-01

 24	2.400000000000001e-01
	-1.166059827696587e-14
	-1.585736257895818e-17
	-3.882942567026472e-14
	1.470025234305016e-07
	6.052940662995983e-06
	7.620832915070381e-07
	1.670727374449289e-01

 25	2.500000000000001e-01
	-1.156027273535921e-14
	-1.629204972993837e-17
	-3.915694172892162e-14
	1.567866562349416e-07
	6.575255196462657e-06
	8.251865425509651e-07
	1.670727451129835e-01

 26	2.600000000000001e-01
	-1.146246653554186e-14
	-1.673930445639045e-17
	-3.948114232721559e-14
	1.671622009065504e-07
	7.144698738199491e-06
	8.937451174594136e-07
	1.670727534441388e-01

 27	2.700000000000001e-01
	-1.136717444696399e-14
	-1.719952067374616e-17
	-3.980196300930420e-14
	1.781602445579258e-07
	7.765575402438009e-06
	9.682515244552178e-07
	1.670727624982821e-01

 28	2.800000000000001e-01
	-1.127438989247348e-14
	-1.767310602723296e-17
	-4.011934246941556e-14
	1.898131923204562e-07
	8.442559098193069e-06
	1.049243139653741e-06
	1.670727723407608e-01

 29	2.900000000000001e-01
	-1.118410497088587e-14
	-1.816048242826568e-17
	-4.043322256515553e-14
	2.021548057386067e-07
	9.180719632564343e-06
	1.137306034535831e-06
	1.670727830428479e-01

 30	3.000000000000001e-01
	-1.109631048155600e-14
	-1.866208661412263e-17
	-4.074354832531361e-14
	2.152202416162699e-07
	9.985549768717443e-06
	1.233079069268399e-06
	1.670727946822368e-01

 31	3.100000000000001e-01
	-1.101099595083861e-14
	-1.917837073201363e-17
	-4.105026795227826e-14
	2.290460913215950e-07
	1.086299314372673e-05
	1.337258260958655e-06
	1.670728073435740e-01

 32	3.200000000000001e-01
	-1.092814966032207e-14
	-1.970980294870019e-17
	-4.135333281918546e-14
	2.436704205613607e-07
	1.181947292860943e-05
	1.450601434866477e-06
	1.670728211190339e-01

 33	3.300000000000001e-01
	-1.084775867671719e-14
	-2.025686808689331e-17
	-4.165269746193862e-14
	2.591328096415367e-07
	1.286192108803676e-05
	1.573933165299488e-06
	1.670728361089084e-01

 34	3.400000000000001e-01
	-1.076980888328192e-14
	-2.082006828971098e-17
	-4.194831956624710e-14
	2.754743942372666e-07
	1.399780807042017e-05
	1.708150011356617e-06
	1.670728524222461e-01

 35	3.500000000000001e-01
	-1.069428501266181e-14
	-2.139992371454580e-17
	-4.224015994984165e-14
	2.927379067033921e-07
	1.523517273044275e-05
	1.854226050850229e-06
	1.670728701775427e-01

 36	3.600000000000002e-01
	-1.062117068102412e-14
	-2.199697325777169e-17
	-4.252818254003762e-14
	3.109677179660486e-07
	1.658265225578704e-05
	2.013218713606856e-06
	1.670728895034235e-01

 37	3.700000000000002e-01
	-1.055044842336576e-14
	-2.261177531177341e-17
	-4.281235434682049e-14
	3.302098800467857e-07
	1.804951183798342e-05
	2.186274912903354e-06
	1.670729105394119e-01

 38	3.800000000000002e-01
	-1.048209972987280e-14
	-2.324490855588093e-17
	-4.309264543164076e-14
	3.505121692839587e-07
	1.964567379426644e-05
	2.374637471030351e-06
	1.670729334367063e-01

 39	3.900000000000002e-01
	-1.041610508321250e-14
	-2.389697278286265e-17
	-4.336902887210921e-14
	3.719241303314349e-07
	2.138174581337352e-05
	2.579651831871994e-06
	1.670729583589940e-01

 40	4.000000000000002e-01
	-1.035244399663802e-14
	-2.456858976271322e-17
	-4.364148072279079e-14
	3.944971210329505e-07
	2.326904796377890e-05
	2.802773049946946e-06
	1.670729854833029e-01

 41	4.100000000000002e-01
	-1.029109505278914e-14
	-2.526040414557770e-17
	-4.390997997229892e-14
	4.182843582917567e-07
	2.531963806839158e-05
	3.045573041566133e-06
	1.670730150008899e-01

 42	4.200000000000002e-01
	-1.023203594307307e-14
	-2.597308440573677e-17
	-4.417450849689758e-14
	4.433409650802789e-07
	2.754633501581817e-05
	3.309748079630745e-06
	1.670730471181465e-01

 43	4.300000000000002e-01
	-1.017524350751234e-14
	-2.670732382868392e-17
	-4.443505101082062e-14
	4.697240187637206e-07
	2.996273954553395e-05
	3.597126509127803e-06
	1.670730820575437e-01

 44	4.400000000000002e-01
	-1.012069377494904e-14
	-2.746384154343866e-17
	-4.469159501352003e-14
	4.974926009456485e-07
	3.258325201342990e-05
	3.909676655595494e-06
	1.670731200585927e-01

 45	4.500000000000002e-01
	-1.006836200349815e-14
	-2.824338360234455e-17
	-4.494413073405603e-14
	5.267078490832095e-07
	3.542308661600913e-05
	4.249514893749755e-06
	1.670731613788246e-01

 46	4.600000000000002e-01
	-1.001822272114499e-14
	-2.904672411072359e-17
	-4.519265107284311e-14
	5.574330101654777e-07
	3.849828152683544e-05
	4.618913838116446e-06
	1.670732062947932e-01

 47	4.700000000000003e-01
	-9.970249766385961e-15
	-2.987466640888952e-17
	-4.543715154096468e-14
	5.897334968015873e-07
	4.182570437864256e-05
	5.020310611943360e-06
	1.670732551030689e-01

 48	4.800000000000003e-01
	-9.924416328815322e-15
	-3.072804430914820e-17
	-4.567763019726850e-14
	6.236769461263237e-07
	4.542305250973680e-05
	5.456315144917655e-06
	1.670733081212713e-01

 49	4.900000000000003e-01
	-9.880694989563685e-15
	-3.160772339056494e-17
	-4.591408758345416e-14
	6.593332820013152e-07
	4.930884738502436e-05
	5.929718444353429e-06
	1.670733656890430e-01

 50	5.000000000000002e-01
	-9.839057761499787e-15
	-3.251460235440425e-17
	-4.614652665735833e-14
	6.967747810702503e-07
	5.350242260114785e-05
	6.443500778601067e-06
	1.670734281690828e-01

 51	5.100000000000002e-01
	-9.799476129108446e-15
	-3.344961444334673e-17
	-4.637495272464529e-14
	7.360761433190406e-07
	5.802390489293810e-05
	7.000839705559078e-06
	1.670734959480838e-01

 52	5.200000000000002e-01
	-9.761921087964998e-15
	-3.441372892770009e-17
	-4.659937336910069e-14
	7.773145678964303e-07
	6.289418757557245e-05
	7.605117873411441e-06
	1.670735694377079e-01

 53	5.300000000000002e-01
	-9.726363183728158e-15
	-3.540795266204258e-17
	-4.681979838172740e-14
	8.205698350703597e-07
	6.813489588456703e-05
	8.259930515191574e-06
	1.670736490754826e-01

 54	5.400000000000003e-01
	-9.692772550578843e-15
	-3.643333171589355e-17
	-4.703623968883440e-14
	8.659243953306443e-07
	7.376834371474821e-05
	8.969092553575798e-06
	1.670737353256686e-01

 55	5.500000000000003e-01
	-9.661118949037592e-15
	-3.749095308221062e-17
	-4.724871127930487e-14
	9.134634668020200e-07
	7.981748131050729e-05
	9.736645227569139e-06
	1.670738286800615e-01

 56	5.600000000000003e-01
	-9.631371803095602e-15
	-3.858194646772229e-17
	-4.745722913122530e-14
	9.632751423047093e-07
	8.630583352344493e-05
	1.056686214857655e-05
	1.670739296587274e-01

 57	5.700000000000003e-01
	-9.603500236600804e-15
	-3.970748616931484e-17
	-4.766181113805016e-14
	1.015450507594939e-06
	9.325742833041263e-05
	1.146425468989079e-05
	1.670740388106460e-01

 58	5.800000000000003e-01
	-9.577473108844266e-15
	-4.086879304091935e-17
	-4.786247703446996e-14
	1.070083772537205e-06
	1.006967153950605e-04
	1.243357661099773e-05
	1.670741567142861e-01

 59	5.900000000000003e-01
	-9.553259049295490e-15
	-4.206713655560157e-17
	-4.805924832214596e-14
	1.127272417206884e-06
	1.086484745592714e-04
	1.347982781644481e-05
	1.670742839780409e-01

 60	6.000000000000003e-01
	-9.530826491441267e-15
	-4.330383696779521e-17
	-4.825214819546483e-14
	1.187117355197907e-06
	1.171377142667812e-04
	1.460825714845135e-05
	1.670744212405803e-01

 61	6.100000000000003e-01
	-9.510143705685073e-15
	-4.458026758090471e-17
	-4.844120146746352e-14
	1.249723116720056e-06
	1.261895600492257e-04
	1.582436411310357e-05
	1.670745691710364e-01

 62	6.200000000000003e-01
	-9.491178831270126e-15
	-4.589785712576328e-17
	-4.862643449606230e-14
	1.315198054416599e-06
	1.358291333436064e-04
	1.713389944196893e-05
	1.670747284690861e-01

 63	6.300000000000003e-01
	-9.473899907191387e-15
	-4.725809225577768e-17
	-4.880787511074165e-14
	1.383654575220452e-06
	1.460814210583224e-04
	1.854286439440028e-05
	1.670748998648455e-01

 64	6.400000000000003e-01
	-9.458274902066724e-15
	-4.866252016484551e-17
	-4.898555253978815e-14
	1.455209401999762e-06
	1.569711364605574e-04
	2.005750871075180e-05
	1.670750841186317e-01

 65	6.500000000000004e-01
	-9.444271742940949e-15
	-5.011275133453266e-17
	-4.915949733822799e-14
	1.529983869227998e-06
	1.685225721187482e-04
	2.168432713327500e-05
	1.670752820205185e-01

 66	6.600000000000004e-01
	-9.431858343000506e-15
	-5.161046241729055e-17
	-4.932974131655894e-14
	1.608104257454350e-06
	1.807594457973787e-04
	2.343005441962236e-05
	1.670754943897406e-01

 67	6.700000000000004e-01
	-9.421002628178921e-15
	-5.315739926291553e-17
	-4.949631747038535e-14
	1.689702171956287e-06
	1.937047403646585e-04
	2.530165878370113e-05
	1.670757220738838e-01

 68	6.800000000000004e-01
	-9.411672562637878e-15
	-5.475538009580586e-17
	-4.965925991105187e-14
	1.774914971634119e-06
	2.073805389332833e-04
	2.730633371003352e-05
	1.670759659478922e-01

 69	6.900000000000004e-01
	-9.403836173110887e-15
	-5.640629885101715e-17
	-4.981860379736499e-14
	1.863886254968955e-06
	2.218078566071784e-04
	2.945148810077764e-05
	1.670762269128624e-01

 70	7.000000000000004e-01
	-9.397461572099996e-15
	-5.811212867753139e-17
	-4.997438526848489e-14
	1.956766410720821e-06
	2.370064703490187e-04
	3.174473472902139e-05
	1.670765058946480e-01

 71	7.100000000000004e-01
	-9.392516979918864e-15
	-5.987492561762708e-17
	-5.012664137806169e-14
	2.053713242007816e-06
	2.529947486108325e-04
	3.419387698778499e-05
	1.670768038422430e-01

 72	7.200000000000004e-01
	-9.388970745577528e-15
	-6.169683247173012e-17
	-5.027541002968530e-14
	2.154892673495511e-06
	2.697894824792403e-04
	3.680689394116652e-05
	1.670771217259635e-01

 73	7.300000000000004e-01
	-9.386791366507820e-15
	-6.358008285860661e-17
	-5.042072991370841e-14
	2.260479552658227e-06
	2.874057201742739e-04
	3.959192370205298e-05
	1.670774605354362e-01

 74	7.400000000000004e-01
	-9.385947507129629e-15
	-6.552700548134581e-17
	-5.056264044549954e-14
	2.370658557473581e-06
	3.058566068029074e-04
	4.255724517956119e-05
	1.670778212773836e-01

 75	7.500000000000004e-01
	-9.386408016260425e-15
	-6.754002861011199e-17
	-5.070118170517284e-14
	2.485625224506041e-06
	3.251532313021936e-04
	4.571125825859160e-05
	1.670782049732059e-01

 76	7.600000000000005e-01
	-9.388141943373575e-15
	-6.962168479323716e-17
	-5.083639437883807e-14
	2.605587113156635e-06
	3.453044825096455e-04
	4.906246249327106e-05
	1.670786126564198e-01

 77	7.700000000000005e-01
	-9.391118553710897e-15
	-7.177461580890951e-17
	-5.096831970140670e-14
	2.730765123945322e-06
	3.663169162682873e-04
	5.261943441534273e-05
	1.670790453698804e-01

 78	7.800000000000005e-01
	-9.395307342258091e-15
	-7.400157787029819e-17
	-5.109699940098571e-14
	2.861394991093617e-06
	3.881946354087871e-04
	5.639080357732249e-05
	1.670795041629004e-01

 79	7.900000000000005e-01
	-9.400678046592177e-15
	-7.630544709771758e-17
	-5.122247564488349e-14
	2.997728972447400e-06
	4.109391843510634e-04
	6.038522746822316e-05
	1.670799900881875e-01

 80	8.000000000000005e-01
	-9.407200658611823e-15
	-7.868922527212682e-17
	-5.134479098724945e-14
	3.140037762986658e-06
	4.345494599322630e-04
	6.461136545640434e-05
	1.670805041986944e-01

 81	8.100000000000005e-01
	-9.414845435162067e-15
	-8.115604588503962e-17
	-5.146398831836147e-14
	3.288612661892775e-06
	4.590216398983284e-04
	6.907785192936248e-05
	1.670810475443548e-01

 82	8.200000000000005e-01
	-9.423582907566603e-15
	-8.370918050072794e-17
	-5.158011081557275e-14
	3.443768027478772e-06
	4.843491302939884e-04
	7.379326881365160e-05
	1.670816211687499e-01

 83	8.300000000000005e-01
	-9.433383890080324e-15
	-8.635204544744845e-17
	-5.169320189592466e-14
	3.605844059348456e-06
	5.105225327535172e-04
	7.876611766932242e-05
	1.670822261057193e-01

 84	8.400000000000005e-01
	-9.444219487277248e-15
	-8.908820885529702e-17
	-5.180330517042635e-14
	3.775209953073897e-06
	5.375296324353659e-04
	8.400479156200395e-05
	1.670828633759380e-01

 85	8.500000000000005e-01
	-9.456061100387442e-15
	-9.192139805923266e-17
	-5.191046440000120e-14
	3.952267479631085e-06
	5.653554070616884e-04
	8.951754692176530e-05
	1.670835339835067e-01

 86	8.600000000000005e-01
	-9.468880432598411e-15
	-9.485550738677552e-17
	-5.201472345309341e-14
	4.137455050008934e-06
	5.939820572235721e-04
	9.531247560100338e-05
	1.670842389125467e-01

 87	8.700000000000006e-01
	-9.482649493335697e-15
	-9.789460635090608e-17
	-5.211612626492617e-14
	4.331252335043559e-06
	6.233890577993469e-04
	1.013974773436156e-04
	1.670849791238465e-01

 88	8.800000000000006e-01
	-9.497340601538263e-15
	-1.010429482697241e-16
	-5.221471679839955e-14
	4.534185521915516e-06
	6.535532300122293e-04
	1.077802328745740e-04
	1.670857555515867e-01

 89	8.900000000000006e-01
	-9.512926387943295e-15
	-1.043049793355398e-16
	-5.231053900661278e-14
	4.746833302225162e-06
	6.844488333300014e-04
	1.144681778126155e-04
	1.670865691001735e-01

 90	9.000000000000006e-01
	-9.529379796395375e-15
	-1.076853481572352e-16
	-5.240363679699295e-14
	4.969833702549873e-06
	7.160476760891672e-04
	1.214684775991732e-04
	1.670874206411648e-01

 91	9.100000000000006e-01
	-9.546674084194986e-15
	-1.111889158008624e-16
	-5.249405399701003e-14
	5.203891887387183e-06
	7.483192434138301e-04
	1.287880036238739e-04
	1.670883110103716e-01

 92	9.200000000000006e-01
	-9.564782821500015e-15
	-1.148207663547318e-16
	-5.258183432145490e-14
	5.449789087013655e-06
	7.812308407005118e-04
	1.364333107111072e-04
	1.670892410051084e-01

 93	9.300000000000006e-01
	-9.583679889794057e-15
	-1.185862180464784e-16
	-5.266702134125565e-14
	5.708392829777928e-06
	8.147477506580394e-04
	1.444106161134236e-04
	1.670902113816311e-01

 94	9.400000000000006e-01
	-9.603339479434560e-15
	-1.224908349409311e-16
	-5.274965845380531e-14
	5.980668690597761e-06
	8.488334016296965e-04
	1.527257801360447e-04
	1.670912228527660e-01

 95	9.500000000000006e-01
	-9.623736086293422e-15
	-1.265404392489126e-16
	-5.282978885477130e-14
	6.267693806036773e-06
	8.834495446854284e-04
	1.613842884928149e-04
	1.670922760857687e-01

 96	9.600000000000006e-01
	-9.644844507500356e-15
	-1.307411242785589e-16
	-5.290745551135724e-14
	6.570672452623865e-06
	9.185564367557023e-04
	1.703912364676662e-04
	1.670933717003764e-01

 97	9.700000000000006e-01
	-9.666639836301350e-15
	-1.350992680620526e-16
	-5.298270113698421e-14
	6.890954040661689e-06
	9.541130268854548e-04
	1.797513149273898e-04
	1.670945102671154e-01

 98	9.800000000000006e-01
	-9.689097456040085e-15
	-1.396215476922325e-16
	-5.305556816735836e-14
	7.230053942611739e-06
	9.900771425146002e-04
	1.894687982014060e-04
	1.670956923058096e-01

 99	9.900000000000007e-01
	-9.712193033272380e-15
	-1.443149544048535e-16
	-5.312609873789007e-14
	7.589677655626577e-06
	1.026405672537126e-03
	1.995475338124805e-04
	1.670969182843482e-01

 100	1.000000000000001e+00
	-9.735902510019582e-15
	-1.491868094439044e-16
	-5.319433466243000e-14
	7.971748894815951e-06
	1.063054743749295e-03
	2.099909340091831e-04
	1.670981886176297e-01

 101	1.010000000000001e+00
	-9.760202095169091e-15
	-1.542447807486936e-16
	-5.326031741328325e-14
