Title: ** sch_path: /home/andylithia/openmpw/project-yatsuhashi-chip1/xschem/gmid_test/nmos_test.sch
Date: Tue Jul 19 23:15:45  2022
Plotname: DC transfer characteristic
Flags: real
No. Variables: 8
No. Points: 181
Variables:
	0	v(v-sweep)	voltage
	1	@m.xm1.msky130_fd_pr__nfet_01v8[cgb]	capacitance
	2	@m.xm1.msky130_fd_pr__nfet_01v8[cgd]	capacitance
	3	@m.xm1.msky130_fd_pr__nfet_01v8[cgs]	capacitance
	4	@m.xm1.msky130_fd_pr__nfet_01v8[gds]	admittance
	5	@m.xm1.msky130_fd_pr__nfet_01v8[gm]	admittance
	6	i(@m.xm1.msky130_fd_pr__nfet_01v8[id])	current
	7	v(@m.xm1.msky130_fd_pr__nfet_01v8[vth])	voltage
Values:
 0	0.000000000000000e+00
	-1.102251125847657e-14
	-7.661691471827067e-19
	-2.047450894426374e-14
	1.663008260324568e-08
	6.688746393567849e-07
	8.289846059743421e-08
	1.960479829740842e-01

 1	1.000000000000000e-02
	-1.089969450478317e-14
	-7.846823124640234e-19
	-2.076434893773508e-14
	1.796928131708077e-08
	7.245211954117399e-07
	8.986171798954438e-08
	1.960479835506937e-01

 2	2.000000000000000e-02
	-1.077840183694510e-14
	-8.036053170662560e-19
	-2.105385603677357e-14
	1.941073394445736e-08
	7.848225335933271e-07
	9.740439256431121e-08
	1.960479841756969e-01

 3	3.000000000000000e-02
	-1.065866003786627e-14
	-8.229460086011899e-19
	-2.134292448436762e-14
	2.096163674521399e-08
	8.501828051428234e-07
	1.055750228108592e-07
	1.960479848532134e-01

 4	4.000000000000000e-02
	-1.054049508669533e-14
	-8.427123611512663e-19
	-2.163144912134727e-14
	2.262962965553814e-08
	9.210440055342614e-07
	1.144263748957985e-07
	1.960479855877338e-01

 5	5.000000000000000e-02
	-1.042393211022728e-14
	-8.629124774793243e-19
	-2.191932552416547e-14
	2.442281768029164e-08
	9.978898179258701e-07
	1.240158400048310e-07
	1.960479863841524e-01

 6	6.000000000000000e-02
	-1.030899533671466e-14
	-8.835545913087611e-19
	-2.220645014066562e-14
	2.634979279799177e-08
	1.081249853633587e-06
	1.344058720743266e-07
	1.960479872478079e-01

 7	7.000000000000001e-02
	-1.019570805218854e-14
	-9.046470696765217e-19
	-2.249272042347988e-14
	2.841965634732269e-08
	1.171704325897628e-06
	1.456644700626371e-07
	1.960479881845280e-01

 8	8.000000000000000e-02
	-1.008409255938037e-14
	-9.261984153616071e-19
	-2.277803496071220e-14
	3.064204185999840e-08
	1.269889195291915e-06
	1.578657092840476e-07
	1.960479892006790e-01

 9	9.000000000000000e-02
	-9.974170139326661e-15
	-9.482172693909369e-19
	-2.306229360357179e-14
	3.302713830065808e-08
	1.376501827091463e-06
	1.710903267217201e-07
	1.960479903032222e-01

 10	9.999999999999999e-02
	-9.865961015728266e-15
	-9.707124136255129e-19
	-2.334539759063563e-14
	3.558571367022078e-08
	1.492307202710626e-06
	1.854263656482702e-07
	1.960479914997642e-01

 11	1.100000000000000e-01
	-9.759484322126875e-15
	-9.936927734290509e-19
	-2.362724966843187e-14
	3.832913892475657e-08
	1.618144728894410e-06
	2.009698853117362e-07
	1.960479927986412e-01

 12	1.200000000000000e-01
	-9.654758071950094e-15
	-1.017167420421673e-18
	-2.390775420805399e-14
	4.126941215752465e-08
	1.754935689617805e-06
	2.178257418882724e-07
	1.960479942089731e-01

 13	1.300000000000000e-01
	-9.551799131467121e-15
	-1.041145575321010e-18
	-2.418681731752923e-14
	4.441918298724675e-08
	1.903691386543906e-06
	2.361084473570715e-07
	1.960479957407543e-01

 14	1.400000000000000e-01
	-9.450623195685898e-15
	-1.065636610873397e-18
	-2.446434694968436e-14
	4.779177709110130e-08
	2.065522014327074e-06
	2.559431134142257e-07
	1.960479974049509e-01

 15	1.500000000000000e-01
	-9.351244767212091e-15
	-1.090650054877788e-18
	-2.474025300527211e-14
	5.140122081621395e-08
	2.241646316925158e-06
	2.774664880049619e-07
	1.960479992135833e-01

 16	1.600000000000000e-01
	-9.253677138080653e-15
	-1.116195593304765e-18
	-2.501444743113643e-14
	5.526226579860358e-08
	2.433402070299598e-06
	3.008280925118072e-07
	1.960480011798470e-01

 17	1.700000000000000e-01
	-9.157932374558960e-15
	-1.142283073513193e-18
	-2.528684431322060e-14
	5.939041351369446e-08
	2.642257435324664e-06
	3.261914680830377e-07
	1.960480033182429e-01

 18	1.800000000000000e-01
	-9.064021304911246e-15
	-1.168922507567840e-18
	-2.555735996424050e-14
	6.380193967753539e-08
	2.869823222272857e-06
	3.537355400124302e-07
	1.960480056446890e-01

 19	1.900000000000000e-01
	-8.971953510103930e-15
	-1.196124075659540e-18
	-2.582591300586524e-14
	6.851391841276726e-08
	3.117866104764577e-06
	3.836561094782558e-07
	1.960480081766842e-01

 20	2.000000000000000e-01
	-8.881737317421001e-15
	-1.223898129631475e-18
	-2.609242444527270e-14
	7.354424608826460e-08
	3.388322816435593e-06
	4.161674823063244e-07
	1.960480109334740e-01

 21	2.100000000000000e-01
	-8.793379796949604e-15
	-1.252255196614280e-18
	-2.635681774596731e-14
	7.891166473609966e-08
	3.683315357642824e-06
	4.515042447257199e-07
	1.960480139362143e-01

 22	2.200000000000001e-01
	-8.706886760887093e-15
	-1.281205982771948e-18
	-2.661901889276874e-14
	8.463578494407783e-08
	4.005167232156190e-06
	4.899231963231841e-07
	1.960480172081837e-01

 23	2.300000000000001e-01
	-8.622262765610929e-15
	-1.310761377162590e-18
	-2.687895645090514e-14
	9.073710811667115e-08
	4.356420724834265e-06
	5.317054505583254e-07
	1.960480207749891e-01

 24	2.400000000000001e-01
	-8.539511116445993e-15
	-1.340932455715625e-18
	-2.713656161916313e-14
	9.723704799153896e-08
	4.739855220608164e-06
	5.771587132594927e-07
	1.960480246648132e-01

 25	2.500000000000001e-01
	-8.458633875054529e-15
	-1.371730485329336e-18
	-2.739176827707091e-14
	1.041579512931921e-07
	5.158506552576036e-06
	6.266197494624309e-07
	1.960480289086622e-01

 26	2.600000000000001e-01
	-8.379631869367747e-15
	-1.403166928091260e-18
	-2.764451302611090e-14
	1.115231173995235e-07
	5.615687352510404e-06
	6.804570487605348e-07
	1.960480335406585e-01

 27	2.700000000000001e-01
	-8.302504705970765e-15
	-1.435253445624196e-18
	-2.789473522497863e-14
	1.193568168911011e-07
	6.115008360502422e-06
	7.390736989873894e-07
	1.960480385983486e-01

 28	2.800000000000001e-01
	-8.227250784845922e-15
	-1.468001903561542e-18
	-2.814237701892697e-14
	1.276843088472026e-07
	6.660400631719201e-06
	8.029104775272100e-07
	1.960480441230352e-01

 29	2.900000000000001e-01
	-8.153867316375020e-15
	-1.501424376154215e-18
	-2.838738336325072e-14
	1.365318567465687e-07
	7.256138557274831e-06
	8.724491688250248e-07
	1.960480501601612e-01

 30	3.000000000000001e-01
	-8.082350340494355e-15
	-1.535533151013396e-18
	-2.862970204098933e-14
	1.459267428250004e-07
	7.906863592992104e-06
	9.482161157242555e-07
	1.960480567596824e-01

 31	3.100000000000001e-01
	-8.012694747893537e-15
	-1.570340733990851e-18
	-2.886928367493925e-14
	1.558972807358907e-07
	8.617608564361773e-06
	1.030786011070317e-06
	1.960480639765299e-01

 32	3.200000000000001e-01
	-7.944894303143561e-15
	-1.605859854201737e-18
	-2.910608173408873e-14
	1.664728263542088e-07
	9.393822388375098e-06
	1.120785934566098e-06
	1.960480718710497e-01

 33	3.300000000000001e-01
	-7.878941669638206e-15
	-1.642103469191915e-18
	-2.934005253459862e-14
	1.776837865586667e-07
	1.024139502320426e-05
	1.218899638123181e-06
	1.960480805095347e-01

 34	3.400000000000001e-01
	-7.814828436228104e-15
	-1.679084770254088e-18
	-2.957115523547341e-14
	1.895616258217311e-07
	1.116668242515287e-05
	1.325872080906772e-06
	1.960480899647451e-01

 35	3.500000000000001e-01
	-7.752545145426742e-15
	-1.716817187895610e-18
	-2.979935182907510e-14
	2.021388704320727e-07
	1.217653125911533e-05
	1.442514212899679e-06
	1.960481003165118e-01

 36	3.600000000000002e-01
	-7.692081323064542e-15
	-1.755314397462141e-18
	-3.002460712664938e-14
	2.154491101698826e-07
	1.327830307434441e-05
	1.569708003102178e-06
	1.960481116523495e-01

 37	3.700000000000002e-01
	-7.633425509267601e-15
	-1.794590324920502e-18
	-3.024688873904227e-14
	2.295269972516738e-07
	1.447989762202120e-05
	1.708411705424611e-06
	1.960481240681352e-01

 38	3.800000000000002e-01
	-7.576565290636323e-15
	-1.834659152804282e-18
	-3.046616705279747e-14
	2.444082423585155e-07
	1.578977495549616e-05
	1.859665351916103e-06
	1.960481376688098e-01

 39	3.900000000000002e-01
	-7.521487333500174e-15
	-1.875535326326753e-18
	-3.068241520183285e-14
	2.601296075598216e-07
	1.721697591871941e-05
	2.024596459202555e-06
	1.960481525691471e-01

 40	4.000000000000002e-01
	-7.468177418125037e-15
	-1.917233559664364e-18
	-3.089560903490313e-14
	2.767288959443931e-07
	1.877114059403104e-05
	2.204425929888551e-06
	1.960481688945450e-01

 41	4.100000000000002e-01
	-7.416620473750970e-15
	-1.959768842415027e-18
	-3.110572707906212e-14
	2.942449377714725e-07
	2.046252424794350e-05
	2.400474126223422e-06
	1.960481867818814e-01

 42	4.200000000000002e-01
	-7.366800614340166e-15
	-2.003156446236052e-18
	-3.131275049934409e-14
	3.127175729574208e-07
	2.230201028373617e-05
	2.614167088565357e-06
	1.960482063803817e-01

 43	4.300000000000002e-01
	-7.318701174916799e-15
	-2.047411931664984e-18
	-3.151666305488742e-14
	3.321876297184838e-07
	2.430111968358670e-05
	2.847042866129425e-06
	1.960482278525679e-01

 44	4.400000000000002e-01
	-7.272304748382797e-15
	-2.092551155128616e-18
	-3.171745105172855e-14
	3.526968991975120e-07
	2.647201640168827e-05
	3.100757922221777e-06
	1.960482513752027e-01

 45	4.500000000000002e-01
	-7.227593222697165e-15
	-2.138590276144205e-18
	-3.191510329249486e-14
	3.742881059123962e-07
	2.882750815445533e-05
	3.377093570691699e-06
	1.960482771403011e-01

 46	4.600000000000002e-01
	-7.184547818309047e-15
	-2.185545764718160e-18
	-3.210961102322770e-14
	3.970048738770772e-07
	3.138104204573475e-05
	3.677962394746794e-06
	1.960483053561531e-01

 47	4.700000000000003e-01
	-7.143149125738675e-15
	-2.233434408946347e-18
	-3.230096787756643e-14
	4.208916882623224e-07
	3.414669446508842e-05
	4.005414593647130e-06
	1.960483362483745e-01

 48	4.800000000000003e-01
	-7.103377143204325e-15
	-2.282273322821731e-18
	-3.248916981852343e-14
	4.459938524836153e-07
	3.713915470692273e-05
	4.361644197214255e-06
	1.960483700609734e-01

 49	4.900000000000003e-01
	-7.065211314197082e-15
	-2.332079954253921e-18
	-3.267421507807915e-14
	4.723574406275068e-07
	4.037370177865142e-05
	4.748995082660312e-06
	1.960484070574225e-01

 50	5.000000000000002e-01
	-7.028630564910063e-15
	-2.382872093306201e-18
	-3.285610409482295e-14
	5.000292451562868e-07
	4.386617389827344e-05
	5.169966723074542e-06
	1.960484475217485e-01

 51	5.100000000000002e-01
	-6.993613341432666e-15
	-2.434667880655946e-18
	-3.303483944986295e-14
	5.290567198637964e-07
	4.763293022667488e-05
	5.627219592122908e-06
	1.960484917595641e-01

 52	5.200000000000002e-01
	-6.960137646625930e-15
	-2.487485816282952e-18
	-3.321042580122283e-14
	5.594879180928561e-07
	5.169080443836703e-05
	6.123580145247669e-06
	1.960485400991361e-01

 53	5.300000000000002e-01
	-6.928181076598629e-15
	-2.541344768392928e-18
	-3.338286981694100e-14
	5.913714262677256e-07
	5.605704980686424e-05
	6.662045294046080e-06
	1.960485928923590e-01

 54	5.400000000000003e-01
	-6.897720856709754e-15
	-2.596263982581177e-18
	-3.355218010707957e-14
	6.247562928424656e-07
	6.074927556767839e-05
	7.245786287689054e-06
	1.960486505157069e-01

 55	5.500000000000003e-01
	-6.868733877027428e-15
	-2.652263091243424e-18
	-3.371836715484651e-14
	6.596919528189735e-07
	6.578537442299808e-05
	7.878151913368417e-06
	1.960487133711110e-01

 56	5.600000000000003e-01
	-6.841196727178916e-15
	-2.709362123239735e-18
	-3.388144324702731e-14
	6.962281480459762e-07
	7.118344116707334e-05
	8.562670926967741e-06
	1.960487818867302e-01

 57	5.700000000000003e-01
	-6.815085730532111e-15
	-2.767581513818308e-18
	-3.404142240391530e-14
	7.344148435724232e-07
	7.696168253934402e-05
	9.303053625574552e-06
	1.960488565176383e-01

 58	5.800000000000003e-01
	-6.790376977653215e-15
	-2.826942114806858e-18
	-3.419832030892303e-14
	7.743021403952645e-07
	8.313831855219393e-05
	1.010319247521754e-05
	1.960489377463711e-01

 59	5.900000000000003e-01
	-6.767046358990107e-15
	-2.887465205076947e-18
	-3.435215423804937e-14
	8.159401850116838e-07
	8.973147569016762e-05
	1.096716171042883e-05
	1.960490260833165e-01

 60	6.000000000000003e-01
	-6.745069596736616e-15
	-2.949172501291214e-18
	-3.450294298936820e-14
	8.593790762590699e-07
	9.675907253536746e-05
	1.189921582698752e-05
	1.960491220669657e-01

 61	6.100000000000003e-01
	-6.724422275836330e-15
	-3.012086168938923e-18
	-3.465070681269828e-14
	9.046687700015787e-07
	1.042386985369931e-04
	1.290378689557270e-05
	1.960492262639529e-01

 62	6.200000000000003e-01
	-6.705079874090163e-15
	-3.076228833668676e-18
	-3.479546733960400e-14
	9.518589822985918e-07
	1.121874868084144e-04
	1.398548063206346e-05
	1.960493392688813e-01

 63	6.300000000000003e-01
	-6.687017791336428e-15
	-3.141623592926706e-18
	-3.493724751386852e-14
	1.000999091767383e-06
	1.206219819994503e-04
	1.514907116989242e-05
	1.960494617039514e-01

 64	6.400000000000003e-01
	-6.670211377675720e-15
	-3.208294027909108e-18
	-3.507607152257309e-14
	1.052138041927865e-06
	1.295580044507969e-04
	1.639949449114839e-05
	1.960495942183141e-01

 65	6.500000000000004e-01
	-6.654635960718104e-15
	-3.276264215836178e-18
	-3.521196472790744e-14
	1.105324244390438e-06
	1.390105119877742e-04
	1.774184048596041e-05
	1.960497374871887e-01

 66	6.600000000000004e-01
	-6.640266871833712e-15
	-3.345558742559010e-18
	-3.534495359982706e-14
	1.160605483817231e-06
	1.489934608476065e-04
	1.918134362397911e-05
	1.960498922106957e-01

 67	6.700000000000004e-01
	-6.627079471391471e-15
	-3.416202715506787e-18
	-3.547506564966610e-14
	1.218028825650675e-06
	1.595196673540122e-04
	2.072337223733390e-05
	1.960500591124024e-01

 68	6.800000000000004e-01
	-6.615049172975654e-15
	-3.488221776984960e-18
	-3.560232936480436e-14
	1.277640527660052e-06
	1.706006720508950e-04
	2.237341643110366e-05
	1.960502389376041e-01

 69	6.900000000000004e-01
	-6.604151466571797e-15
	-3.561642117834463e-18
	-3.572677414448058e-14
	1.339485956404913e-06
	1.822466080794725e-04
	2.413707465485200e-05
	1.960504324512866e-01

 70	7.000000000000004e-01
	-6.594361940718464e-15
	-3.636490491461355e-18
	-3.584843023683512e-14
	1.403609509752440e-06
	1.944660756267036e-04
	2.602003898687053e-05
	1.960506404358283e-01

 71	7.100000000000004e-01
	-6.585656303623657e-15
	-3.712794228249335e-18
	-3.596732867725700e-14
	1.470054546612793e-06
	2.072660242844439e-04
	2.802807920114870e-05
	1.960508636884033e-01

 72	7.200000000000004e-01
	-6.578010403247955e-15
	-3.790581250364475e-18
	-3.608350122810359e-14
	1.538863325070972e-06
	2.206516451359562e-04
	3.016702570540095e-05
	1.960511030181211e-01

 73	7.300000000000004e-01
	-6.571400246359813e-15
	-3.869880086964304e-18
	-3.619698031985248e-14
	1.610076950094842e-06
	2.346262743277125e-04
	3.244275145638915e-05
	1.960513592429331e-01

 74	7.400000000000004e-01
	-6.565802016569773e-15
	-3.950719889823105e-18
	-3.630779899373955e-14
	1.683735331986128e-06
	2.491913097891879e-04
	3.486115297591973e-05
	1.960516331862802e-01

 75	7.500000000000004e-01
	-6.561192091354712e-15
	-4.033130449385883e-18
	-3.641599084592828e-14
	1.759877156713655e-06
	2.643461426317517e-04
	3.742813060688386e-05
	1.960519256735766e-01

 76	7.600000000000005e-01
	-6.557547058083777e-15
	-4.117142211261849e-18
	-3.652158997325060e-14
	1.838539869226429e-06
	2.800881045912530e-04
	4.014956816322152e-05
	1.960522375285071e-01

 77	7.700000000000005e-01
	-6.554843729060806e-15
	-4.202786293173237e-18
	-3.662463092055197e-14
	1.919759670788086e-06
	2.964124326796921e-04
	4.303131214035932e-05
	1.960525695691920e-01

 78	7.800000000000005e-01
	-6.553059155599935e-15
	-4.290094502370019e-18
	-3.672514862966753e-14
	2.003571531304730e-06
	3.133122519828026e-04
	4.607915066319324e-05
	1.960529226042877e-01

 79	7.900000000000005e-01
	-6.552170641152086e-15
	-4.379099353526324e-18
	-3.682317839005081e-14
	2.090009217536436e-06
	3.307785772867796e-04
	4.929879235680308e-05
	1.960532974290219e-01

 80	8.000000000000005e-01
	-6.552155753502687e-15
	-4.469834087131494e-18
	-3.691875579107046e-14
	2.179105337989814e-06
	3.488003339437771e-04
	5.269584533054650e-05
	1.960536948212494e-01

 81	8.100000000000005e-01
	-6.552992336061459e-15
	-4.562332688391920e-18
	-3.701191667598556e-14
	2.270891405187193e-06
	3.673643980980505e-04
	5.627579646883652e-05
	1.960541155375497e-01

 82	8.200000000000005e-01
	-6.554658518266937e-15
	-4.656629906657038e-18
	-3.710269709760517e-14
	2.365397915898877e-06
	3.864556560989646e-04
	6.004399122162767e-05
	1.960545603094351e-01

 83	8.300000000000005e-01
	-6.557132725129386e-15
	-4.752761275387880e-18
	-3.719113327563298e-14
	2.462654449811448e-06
	4.060570826303362e-04
	6.400561408440008e-05
	1.960550298397135e-01

 84	8.400000000000005e-01
	-6.560393685936574e-15
	-4.850763132681480e-18
	-3.727726155569349e-14
	2.562689786989357e-06
	4.261498367943985e-04
	6.816566995123896e-05
	1.960555247990523e-01

 85	8.500000000000005e-01
	-6.564420442147549e-15
	-4.950672642371279e-18
	-3.736111837003331e-14
	2.665532044372197e-06
	4.467133751098912e-04
	7.252896651556564e-05
	1.960560458227725e-01

 86	8.600000000000005e-01
	-6.569192354500829e-15
	-5.052527815718024e-18
	-3.744274019988517e-14
	2.771208831438489e-06
	4.677255801236977e-04
	7.710009788132385e-05
	1.960565935079530e-01

 87	8.700000000000006e-01
	-6.574689109363383e-15
	-5.156367533712165e-18
	-3.752216353948118e-14
	2.879747425062283e-06
	4.891629031001694e-04
	8.188342953320935e-05
	1.960571684108530e-01

 88	8.800000000000006e-01
	-6.580890724346995e-15
	-5.262231570005099e-18
	-3.759942486169725e-14
	2.991174963493114e-06
	5.110005190468194e-04
	8.688308479809570e-05
	1.960577710446781e-01

 89	8.900000000000006e-01
	-6.587777553220021e-15
	-5.370160614488261e-18
	-3.767456058530762e-14
	3.105518659306242e-06
	5.332124921638620e-04
	9.210293291147846e-05
	1.960584018777652e-01

 90	9.000000000000006e-01
	-6.595330290141034e-15
	-5.480196297542790e-18
	-3.774760704382681e-14
	3.222806031101680e-06
	5.557719496717250e-04
	9.754657878294318e-05
	1.960590613321348e-01

 91	9.100000000000006e-01
	-6.603529973242627e-15
	-5.592381214979196e-18
	-3.781860045591256e-14
	3.343065153678190e-06
	5.786512618770154e-04
	1.032173545336598e-04
	1.960597497824951e-01

 92	9.200000000000006e-01
	-6.612357987592298e-15
	-5.706758953688688e-18
	-3.788757689730232e-14
	3.466324926375830e-06
	6.018222262852467e-04
	1.091183128572198e-04
	1.960604675556617e-01

 93	9.300000000000006e-01
	-6.621796067557839e-15
	-5.823374118030946e-18
	-3.795457227425280e-14
	3.592615359268840e-06
	6.252562535575828e-04
	1.152522222331159e-04
	1.960612149303921e-01

 94	9.400000000000006e-01
	-6.631826298604728e-15
	-5.942272356980505e-18
	-3.801962229845097e-14
	3.721967876900643e-06
	6.489245531380377e-04
	1.216215640002250e-04
	1.960619921376743e-01

 95	9.500000000000006e-01
	-6.642431118551716e-15
	-6.063500392056857e-18
	-3.808276246336337e-14
	3.854415639287276e-06
	6.727983164451828e-04
	1.282285312762514e-04
	1.960627993613844e-01

 96	9.600000000000006e-01
	-6.653593318311616e-15
	-6.187106046064089e-18
	-3.814402802198884e-14
	3.989993879973411e-06
	6.968488956250655e-04
	1.350750296884856e-04
	1.960636367393568e-01

 97	9.700000000000006e-01
	-6.665296042143391e-15
	-6.313138272667545e-18
	-3.820345396597853e-14
	4.128740261008662e-06
	7.210479759964667e-04
	1.421626798618613e-04
	1.960645043648100e-01

 98	9.800000000000006e-01
	-6.677522787440799e-15
	-6.441647186832925e-18
	-3.826107500608682e-14
	4.270695244820637e-06
	7.453677404812179e-04
	1.494928215924040e-04
	1.960654022881117e-01

 99	9.900000000000007e-01
	-6.690257404083080e-15
	-6.572684096159372e-18
	-3.831692555391513e-14
	4.415902483095102e-06
	7.697810244962773e-04
	1.570665196179898e-04
	1.960663305188280e-01

 100	1.000000000000001e+00
	-6.703484093372256e-15
	-6.706301533134726e-18
	-3.837103970491009e-14
	4.564409222933136e-06
	7.942614599855629e-04
	1.648845708841076e-04
	1.960672890280575e-01

 101	1.010000000000001e+00
	-6.717187406580725e-15
	-6.842553288344461e-18
	-3.842345122257751e-14
