Title: ** sch_path: /home/andylithia/openmpw/project-yatsuhashi-chip1/xschem/gmid_test/nmos_test.sch
Date: Tue Jul 19 23:15:45  2022
Plotname: DC transfer characteristic
Flags: real
No. Variables: 8
No. Points: 181
Variables:
	0	v(v-sweep)	voltage
	1	@m.xm1.msky130_fd_pr__nfet_01v8[cgb]	capacitance
	2	@m.xm1.msky130_fd_pr__nfet_01v8[cgd]	capacitance
	3	@m.xm1.msky130_fd_pr__nfet_01v8[cgs]	capacitance
	4	@m.xm1.msky130_fd_pr__nfet_01v8[gds]	admittance
	5	@m.xm1.msky130_fd_pr__nfet_01v8[gm]	admittance
	6	i(@m.xm1.msky130_fd_pr__nfet_01v8[id])	current
	7	v(@m.xm1.msky130_fd_pr__nfet_01v8[vth])	voltage
Values:
 0	0.000000000000000e+00
	-1.066266463214312e-14
	-7.677900260351539e-19
	-2.025247209085541e-14
	3.518160586106406e-08
	1.362555367838660e-06
	1.744547024003008e-07
	1.924616332931273e-01

 1	1.000000000000000e-02
	-1.054665778920294e-14
	-7.857988885915865e-19
	-2.052695697894780e-14
	3.792033118065542e-08
	1.472125146018631e-06
	1.886210072777617e-07
	1.924616343863191e-01

 2	2.000000000000000e-02
	-1.043215687245064e-14
	-8.041954386560048e-19
	-2.080102731828973e-14
	4.086118113739927e-08
	1.590555002293092e-06
	2.039267155001674e-07
	1.924616355683628e-01

 3	3.000000000000000e-02
	-1.031918490368132e-14
	-8.229869353417058e-19
	-2.107458875277784e-14
	4.401790976638945e-08
	1.718588977550980e-06
	2.204640942372721e-07
	1.924616368465993e-01

 4	4.000000000000000e-02
	-1.020776416597264e-14
	-8.421807537562889e-19
	-2.134754753695867e-14
	4.740509251957118e-08
	1.857038562907279e-06
	2.383331830135006e-07
	1.924616382290067e-01

 5	5.000000000000000e-02
	-1.009791616319951e-14
	-8.617843870245397e-19
	-2.161981065082252e-14
	5.103816493328040e-08
	2.006789339227707e-06
	2.576425008707007e-07
	1.924616397242635e-01

 6	6.000000000000000e-02
	-9.989661581637497e-15
	-8.818054483728411e-19
	-2.189128591278075e-14
	5.493346225858356e-08
	2.168808282639073e-06
	2.785098232069527e-07
	1.924616413418141e-01

 7	7.000000000000001e-02
	-9.883020253729174e-15
	-9.022516732773989e-19
	-2.216188209054915e-14
	5.910826001158740e-08
	2.344151795445433e-06
	3.010630352452826e-07
	1.924616430919488e-01

 8	8.000000000000000e-02
	-9.778011124082332e-15
	-9.231309216777116e-19
	-2.243150900966892e-14
	6.358081539503210e-08
	2.533974525301796e-06
	3.254410696975997e-07
	1.924616449858751e-01

 9	9.000000000000000e-02
	-9.674652217759310e-15
	-9.444511802575556e-19
	-2.270007765940607e-14
	6.837040953640701e-08
	2.739539038786230e-06
	3.517949368341132e-07
	1.924616470358241e-01

 10	9.999999999999999e-02
	-9.572960610911304e-15
	-9.662205647957838e-19
	-2.296750029577955e-14
	7.349739048165164e-08
	2.962226418586497e-06
	3.802888558456296e-07
	1.924616492551390e-01

 11	1.100000000000000e-01
	-9.472952403801667e-15
	-9.884473225884702e-19
	-2.323369054148129e-14
	7.898321687707579e-08
	3.203547856288346e-06
	4.111014970921834e-07
	1.924616516583862e-01

 12	1.200000000000000e-01
	-9.374642696255781e-15
	-1.011139834945030e-18
	-2.349856348246134e-14
	8.485050226558352e-08
	3.465157315125764e-06
	4.444273455635777e-07
	1.924616542614849e-01

 13	1.300000000000000e-01
	-9.278045565565673e-15
	-1.034306619760218e-18
	-2.376203576096704e-14
	9.112305991656192e-08
	3.748865338916867e-06
	4.804781966307742e-07
	1.924616570818380e-01

 14	1.400000000000000e-01
	-9.183174046870443e-15
	-1.057956334163833e-18
	-2.402402566483646e-14
	9.782594810184601e-08
	4.056654084638230e-06
	5.194847959358074e-07
	1.924616601384862e-01

 15	1.500000000000000e-01
	-9.090040116024496e-15
	-1.082097777251078e-18
	-2.428445321286348e-14
	1.049855157230947e-07
	4.390693656551650e-06
	5.616986360454603e-07
	1.924616634522645e-01

 16	1.600000000000000e-01
	-8.998654674958168e-15
	-1.106739892895080e-18
	-2.454324023606407e-14
	1.126294481885686e-07
	4.753359819336035e-06
	6.073939232712897e-07
	1.924616670459927e-01

 17	1.700000000000000e-01
	-8.909027539526581e-15
	-1.131891772644061e-18
	-2.480031045469203e-14
	1.207868134298011e-07
	5.147253166133755e-06
	6.568697288263731e-07
	1.924616709446721e-01

 18	1.800000000000000e-01
	-8.821167429835122e-15
	-1.157562658705608e-18
	-2.505558955086647e-14
	1.294881079408718e-07
	5.575219814613114e-06
	7.104523392349817e-07
	1.924616751757111e-01

 19	1.900000000000000e-01
	-8.735081963021742e-15
	-1.183761947019951e-18
	-2.530900523669101e-14
	1.387653027150344e-07
	6.040373699890581e-06
	7.684978216223425e-07
	1.924616797691674e-01

 20	2.000000000000000e-01
	-8.650777648468894e-15
	-1.210499190425051e-18
	-2.556048731776056e-14
	1.486518889451104e-07
	6.546120527240753e-06
	8.313948201714723e-07
	1.924616847580148e-01

 21	2.100000000000000e-01
	-8.568259885410515e-15
	-1.237784101915383e-18
	-2.580996775196896e-14
	1.591829233455657e-07
	7.096183439741957e-06
	8.995676006259535e-07
	1.924616901784397e-01

 22	2.200000000000001e-01
	-8.487532962892194e-15
	-1.265626557997291e-18
	-2.605738070354752e-14
	1.703950729453078e-07
	7.694630446134496e-06
	9.734793602209926e-07
	1.924616960701683e-01

 23	2.300000000000001e-01
	-8.408600062036027e-15
	-1.294036602142794e-18
	-2.630266259228156e-14
	1.823266591910479e-07
	8.345903641984142e-06
	1.053635820818568e-06
	1.924617024768201e-01

 24	2.400000000000001e-01
	-8.331463260555127e-15
	-1.323024448345137e-18
	-2.654575213786857e-14
	1.950177011915697e-07
	9.054850242513969e-06
	1.140589123281364e-06
	1.924617094463013e-01

 25	2.500000000000001e-01
	-8.256123539456634e-15
	-1.352600484777590e-18
	-2.678659039939859e-14
	2.085099579234017e-07
	9.826755427968944e-06
	1.234942041218245e-06
	1.924617170312307e-01

 26	2.600000000000001e-01
	-8.182580791866357e-15
	-1.382775277559002e-18
	-2.702512080995353e-14
	2.228469692081526e-07
	1.066737698188557e-05
	1.337352532141958e-06
	1.924617252894038e-01

 27	2.700000000000001e-01
	-8.110833833902822e-15
	-1.413559574627920e-18
	-2.726128920633771e-14
	2.380740952611993e-07
	1.158298167894805e-05
	1.448538643766780e-06
	1.924617342843190e-01

 28	2.800000000000001e-01
	-8.040880417523600e-15
	-1.444964309728871e-18
	-2.749504385396902e-14
	2.542385546005967e-07
	1.258038335203940e-05
	1.569283792607828e-06
	1.924617440857203e-01

 29	2.900000000000001e-01
	-7.972717245262513e-15
	-1.477000606512263e-18
	-2.772633546697258e-14
	2.713894600937470e-07
	1.366698253746471e-05
	1.700442431187659e-06
	1.924617547702111e-01

 30	3.000000000000001e-01
	-7.906339986771797e-15
	-1.509679782752104e-18
	-2.795511722353591e-14
	2.895778529080010e-07
	1.485080756303205e-05
	1.842946118976819e-06
	1.924617664219113e-01

 31	3.100000000000001e-01
	-7.841743297080662e-15
	-1.543013354682848e-18
	-2.818134477659602e-14
	3.088567341194683e-07
	1.614055690562258e-05
	1.997810010652444e-06
	1.924617791331897e-01

 32	3.200000000000001e-01
	-7.778920836477166e-15
	-1.577013041459756e-18
	-2.840497625994518e-14
	3.292810937226757e-07
	1.754564260306680e-05
	2.166139773318895e-06
	1.924617930054212e-01

 33	3.300000000000001e-01
	-7.717865291919647e-15
	-1.611690769744469e-18
	-2.862597228984988e-14
	3.509079367714180e-07
	1.907623445958512e-05
	2.349138941954355e-06
	1.924618081498458e-01

 34	3.400000000000001e-01
	-7.658568399879672e-15
	-1.647058678419549e-18
	-2.884429596229470e-14
	3.737963063695089e-07
	2.074330473491486e-05
	2.548116719496753e-06
	1.924618246884744e-01

 35	3.500000000000001e-01
	-7.601020970518431e-15
	-1.683129123434713e-18
	-2.905991284596924e-14
	3.980073032182024e-07
	2.255867295471215e-05
	2.764496224620211e-06
	1.924618427550573e-01

 36	3.600000000000002e-01
	-7.545212913096546e-15
	-1.719914682788172e-18
	-2.927279097112798e-14
	4.236041014155877e-07
	2.453505042423806e-05
	2.999823186350781e-06
	1.924618624961597e-01

 37	3.700000000000002e-01
	-7.491133262516178e-15
	-1.757428161645978e-18
	-2.948290081446385e-14
	4.506519601925462e-07
	2.668608396916567e-05
	3.255775080200008e-06
	1.924618840722647e-01

 38	3.800000000000002e-01
	-7.438770206894838e-15
	-1.795682597602854e-18
	-2.969021528014057e-14
	4.792182312593938e-07
	2.902639836711642e-05
	3.534170695427915e-06
	1.924619076590061e-01

 39	3.900000000000002e-01
	-7.388111116069440e-15
	-1.834691266088262e-18
	-2.989470967714056e-14
	5.093723614285006e-07
	3.157163687203440e-05
	3.836980117375362e-06
	1.924619334484464e-01

 40	4.000000000000002e-01
	-7.339142570930040e-15
	-1.874467685920238e-18
	-3.009636169308947e-14
	5.411858901701372e-07
	3.433849917154306e-05
	4.166335102511587e-06
	1.924619616504424e-01

 41	4.100000000000002e-01
	-7.291850393483789e-15
	-1.915025625011637e-18
	-3.029515136472373e-14
	5.747324417526682e-07
	3.734477605607755e-05
	4.524539816932488e-06
	1.924619924941131e-01

 42	4.200000000000002e-01
	-7.246219677550082e-15
	-1.956379106231913e-18
	-3.049106104517431e-14
	6.100877116141685e-07
	4.060938001903448e-05
	4.914081901530195e-06
	1.924620262293686e-01

 43	4.300000000000002e-01
	-7.202234819990201e-15
	-1.998542413428127e-18
	-3.068407536824218e-14
	6.473294466108289e-07
	4.415237095077708e-05
	5.337643818956235e-06
	1.924620631285226e-01

 44	4.400000000000002e-01
	-7.159879552376234e-15
	-2.041530097609019e-18
	-3.087418120984442e-14
	6.865374187886112e-07
	4.799497603761296e-05
	5.798114428860848e-06
	1.924621034879946e-01

 45	4.500000000000002e-01
	-7.119136973006382e-15
	-2.085356983296993e-18
	-3.106136764681271e-14
	7.277933923296301e-07
	5.215960293151080e-05
	6.298600728766221e-06
	1.924621476300813e-01

 46	4.600000000000002e-01
	-7.079989579175872e-15
	-2.130038175050630e-18
	-3.124562591322715e-14
	7.711810833329582e-07
	5.666984521912086e-05
	6.842439688389250e-06
	1.924621959047864e-01

 47	4.700000000000003e-01
	-7.042419299616049e-15
	-2.175589064163269e-18
	-3.142694935446883e-14
	8.167861121030579e-07
	6.155047919157903e-05
	7.433210095367212e-06
	1.924622486917273e-01

 48	4.800000000000003e-01
	-7.006407527016599e-15
	-2.222025335541306e-18
	-3.160533337917464e-14
	8.646959476369015e-07
	6.682745090158166e-05
	8.074744320263069e-06
	1.924623064020913e-01

 49	4.900000000000003e-01
	-6.971935150549042e-15
	-2.269362974766824e-18
	-3.178077540927770e-14
	9.149998440250524e-07
	7.252785249342170e-05
	8.771139898573608e-06
	1.924623694806163e-01

 50	5.000000000000002e-01
	-6.938982588313392e-15
	-2.317618275349294e-18
	-3.195327482831409e-14
	9.677887685119101e-07
	7.867988680709142e-05
	9.526770817377895e-06
	1.924624384076254e-01

 51	5.100000000000002e-01
	-6.907529819632724e-15
	-2.366807846170993e-18
	-3.212283292817571e-14
	1.023155320997447e-06
	8.531281929124986e-05
	1.034629838442686e-05
	1.924625137010511e-01

 52	5.200000000000002e-01
	-6.877556417124450e-15
	-2.416948619131018e-18
	-3.228945285448613e-14
	1.081193644807071e-06
	9.245691631368992e-05
	1.123468154807252e-05
	1.924625959184579e-01

 53	5.300000000000002e-01
	-6.849041578480776e-15
	-2.468057856993012e-18
	-3.245313955077192e-14
	1.141999328608381e-06
	1.001433690336474e-04
	1.219718652768065e-05
	1.924626856590478e-01

 54	5.400000000000003e-01
	-6.821964157893996e-15
	-2.520153161441843e-18
	-3.261389970160070e-14
	1.205669299414397e-06
	1.084042020993893e-04
	1.323939560629545e-05
	1.924627835655872e-01

 55	5.500000000000003e-01
	-6.796302697067381e-15
	-2.573252481354291e-18
	-3.277174167484978e-14
	1.272301706681382e-06
	1.172721665580207e-04
	1.436721493055364e-05
	1.924628903262850e-01

 56	5.600000000000003e-01
	-6.772035455754580e-15
	-2.627374121290488e-18
	-3.292667546326798e-14
	1.341995797587844e-06
	1.267806165132450e-04
	1.558688115745148e-05
	1.924630066765336e-01

 57	5.700000000000003e-01
	-6.749140441776205e-15
	-2.682536750209616e-18
	-3.307871262548479e-14
	1.414851783667390e-06
	1.369633692409187e-04
	1.690496678377590e-05
	1.924631334005303e-01

 58	5.800000000000003e-01
	-6.727595440464586e-15
	-2.738759410418574e-18
	-3.322786622661880e-14
	1.490970699063944e-06
	1.478545486714993e-04
	1.832838399210402e-05
	1.924632713327077e-01

 59	5.900000000000003e-01
	-6.707378043492567e-15
	-2.796061526757060e-18
	-3.337415077862966e-14
	1.570454250781141e-06
	1.594884123716986e-04
	1.986438684747053e-05
	1.924634213589707e-01

 60	6.000000000000003e-01
	-6.688465677045608e-15
	-2.854462916027993e-18
	-3.351758218055245e-14
	1.653404661409569e-06
	1.718991624032665e-04
	2.152057168136067e-05
	1.924635844176629e-01

 61	6.100000000000003e-01
	-6.670835629300490e-15
	-2.913983796677344e-18
	-3.365817765874739e-14
	1.739924504933805e-06
	1.851207407021896e-04
	2.330487550479130e-05
	1.924637615002598e-01

 62	6.200000000000003e-01
	-6.654465077177354e-15
	-2.974644798731848e-18
	-3.379595570729179e-14
	1.830116536345696e-06
	1.991866099035575e-04
	2.522557230010152e-05
	1.924639536517415e-01

 63	6.300000000000003e-01
	-6.639331112335810e-15
	-3.036466974001832e-18
	-3.393093602863378e-14
	1.924083515919793e-06
	2.141295208317590e-04
	2.729126705181883e-05
	1.924641619705781e-01

 64	6.400000000000003e-01
	-6.625410766389267e-15
	-3.099471806554121e-18
	-3.406313947462166e-14
	2.021928029138434e-06
	2.299812681776131e-04
	2.951088739069330e-05
	1.924643876083429e-01

 65	6.500000000000004e-01
	-6.612681035314740e-15
	-3.163681223465490e-18
	-3.419258798801626e-14
	2.123752303388098e-06
	2.467724361880406e-04
	3.189367274177085e-05
	1.924646317688554e-01

 66	6.600000000000004e-01
	-6.601118903039534e-15
	-3.229117605862122e-18
	-3.431930454458602e-14
	2.229658022680564e-06
	2.645321364934449e-04
	3.444916088716367e-05
	1.924648957068740e-01

 67	6.700000000000004e-01
	-6.590701364188833e-15
	-3.295803800254017e-18
	-3.444331309587904e-14
	2.339746141782169e-06
	2.832877404864653e-04
	3.718717187692504e-05
	1.924651807262885e-01

 68	6.800000000000004e-01
	-6.581405445981265e-15
	-3.363763130172934e-18
	-3.456463851275935e-14
	2.454116701258064e-06
	3.030646089357771e-04
	4.011778924697854e-05
	1.924654881777643e-01

 69	6.900000000000004e-01
	-6.573208229263036e-15
	-3.433019408120787e-18
	-3.468330652978821e-14
	2.572868645053319e-06
	3.238858217626427e-04
	4.325133853116368e-05
	1.924658194558730e-01

 70	7.000000000000004e-01
	-6.566086868673928e-15
	-3.503596947839516e-18
	-3.479934369052412e-14
	2.696099642337729e-06
	3.457719111185749e-04
	4.659836308487219e-05
	1.924661759956504e-01

 71	7.100000000000004e-01
	-6.560018611940611e-15
	-3.575520576909153e-18
	-3.491277729381071e-14
	2.823905915430803e-06
	3.687406010720498e-04
	5.016959727003706e-05
	1.924665592685975e-01

 72	7.200000000000004e-01
	-6.554980818295951e-15
	-3.648815649684980e-18
	-3.502363534111374e-14
	2.956382075698145e-06
	3.928065573341248e-04
	5.397593708501339e-05
	1.924669707781164e-01

 73	7.300000000000004e-01
	-6.550950976025817e-15
	-3.723508060582650e-18
	-3.513194648496284e-14
	3.093620969364817e-06
	4.179811505204181e-04
	5.802840835759077e-05
	1.924674120544299e-01

 74	7.400000000000004e-01
	-6.547906719145568e-15
	-3.799624257720842e-18
	-3.523773997854920e-14
	3.235713535225273e-06
	4.442722364550784e-04
	6.233813265447569e-05
	1.924678846489527e-01

 75	7.500000000000004e-01
	-6.545825843212597e-15
	-3.877191256932392e-18
	-3.534104562652275e-14
	3.382748676239485e-06
	4.716839569667240e-04
	6.691629109542513e-05
	1.924683901281828e-01

 76	7.600000000000005e-01
	-6.544686320282266e-15
	-3.956236656153047e-18
	-3.544189373702797e-14
	3.534813146989880e-06
	5.002165645040293e-04
	7.177408629416292e-05
	1.924689300671642e-01

 77	7.700000000000005e-01
	-6.544466313016082e-15
	-4.036788650199898e-18
	-3.554031507501292e-14
	3.691991458933045e-06
	5.298662737085370e-04
	7.692270268060094e-05
	1.924695060425366e-01

 78	7.800000000000005e-01
	-6.545144187953953e-15
	-4.118876045949089e-18
	-3.563634081683959e-14
	3.854365805312023e-06
	5.606251428246117e-04
	8.237326548901629e-05
	1.924701196252568e-01

 79	7.900000000000005e-01
	-6.546698527962928e-15
	-4.202528277925320e-18
	-3.573000250621995e-14
	4.022016007499986e-06
	5.924809875035238e-04
	8.813679872404631e-05
	1.924707723730698e-01

 80	8.000000000000005e-01
	-6.549108143876754e-15
	-4.287775424313704e-18
	-3.582133201149735e-14
	4.195019484425536e-06
	6.254173291747689e-04
	9.422418244005275e-05
	1.924714658227731e-01

 81	8.100000000000005e-01
	-6.552352085341971e-15
	-4.374648223406576e-18
	-3.591036148428847e-14
	4.373451246582624e-06
	6.594133797183017e-04
	1.006461096889170e-04
	1.924722014824052e-01

 82	8.200000000000005e-01
	-6.556409650887513e-15
	-4.463178090497391e-18
	-3.599712331949669e-14
	4.557383915959272e-06
	6.944440636846733e-04
	1.074130435062460e-04
	1.924729808234070e-01

 83	8.300000000000005e-01
	-6.561260397235534e-15
	-4.553397135234423e-18
	-3.608165011670444e-14
	4.746887773028062e-06
	7.304800787846687e-04
	1.145351743157588e-04
	1.924738052728635e-01

 84	8.400000000000005e-01
	-6.566884147872352e-15
	-4.645338179447377e-18
	-3.616397464294846e-14
	4.942030831733806e-06
	7.674879948170509e-04
	1.220223781360498e-04
	1.924746762059067e-01

 85	8.500000000000005e-01
	-6.573261000900107e-15
	-4.739034775460473e-18
	-3.624412979687730e-14
	5.142878943190011e-06
	8.054303906334390e-04
	1.298841759726614e-04
	1.924755949384215e-01

 86	8.600000000000005e-01
	-6.580371336188516e-15
	-4.834521224906318e-18
	-3.632214857428906e-14
	5.349495928564988e-06
	8.442660281663439e-04
	1.381296947714976e-04
	1.924765627200635e-01

 87	8.700000000000006e-01
	-6.588195821848667e-15
	-4.931832598054863e-18
	-3.639806403504290e-14
	5.561943741397903e-06
	8.839500619815414e-04
	1.467676302968965e-04
	1.924775807277433e-01

 88	8.800000000000006e-01
	-6.596715420050506e-15
	-5.031004753672653e-18
	-3.647190927133557e-14
	5.780282659346834e-06
	9.244342822730845e-04
	1.558062122795036e-04
	1.924786500596374e-01

 89	8.900000000000006e-01
	-6.605911392205758e-15
	-5.132074359428232e-18
	-3.654371737733181e-14
	6.004571505133986e-06
	9.656673887097643e-04
	1.652531721555930e-04
	1.924797717297992e-01

 90	9.000000000000006e-01
	-6.615765303538770e-15
	-5.235078912860137e-18
	-3.661352142013469e-14
	6.234867896225685e-06
	1.007595292077697e-03
	1.751157136911402e-04
	1.924809466634118e-01

 91	9.100000000000006e-01
	-6.626259027068119e-15
	-5.340056762924705e-18
	-3.668135441208006e-14
	6.471228522569062e-06
	1.050161440254783e-03
	1.854004867511950e-04
	1.924821756927797e-01

 92	9.200000000000006e-01
	-6.637374747021379e-15
	-5.447047132140997e-18
	-3.674724928433689e-14
	6.713709451509803e-06
	1.093307164708473e-03
	1.961135644386428e-04
	1.924834595540788e-01

 93	9.300000000000006e-01
	-6.649094961705878e-15
	-5.556090139351282e-18
	-3.681123886179392e-14
	6.962366458838281e-06
	1.136972043435053e-03
	2.072604237868452e-04
	1.924847988848807e-01

 94	9.400000000000006e-01
	-6.661402485858289e-15
	-5.667226823118126e-18
	-3.687335583921056e-14
	7.217255384758689e-06
	1.181094276062137e-03
	2.188459301487343e-04
	1.924861942225073e-01

 95	9.500000000000006e-01
	-6.674280452495214e-15
	-5.780499165775836e-18
	-3.693363275860939e-14
	7.478432513451179e-06
	1.225611066719047e-03
	2.308743253814516e-04
	1.924876460031799e-01

 96	9.600000000000006e-01
	-6.687712314287615e-15
	-5.895950118159058e-18
	-3.699210198788533e-14
	7.745954974801980e-06
	1.270459010243470e-03
	2.433492198813981e-04
	1.924891545619898e-01

 97	9.700000000000006e-01
	-6.701681844480982e-15
	-6.013623625029672e-18
	-3.704879570060551e-14
	8.019881166812621e-06
	1.315574477335785e-03
	2.562735884803612e-04
	1.924907201336509e-01

 98	9.800000000000006e-01
	-6.716173137382799e-15
	-6.133564651225856e-18
	-3.710374585697352e-14
	8.300271197168723e-06
	1.360893994392009e-03
	2.696497701700383e-04
	1.924923428540052e-01

 99	9.900000000000007e-01
	-6.731170608439541e-15
	-6.255819208555896e-18
	-3.715698418592900e-14
	8.587187342450439e-06
	1.406354613937057e-03
	2.834794715804818e-04
	1.924940227622584e-01

 100	1.000000000000001e+00
	-6.746658993923397e-15
	-6.380434383462040e-18
	-3.720854216835514e-14
	8.880694523501228e-06
	1.451894271835726e-03
	2.977637740984504e-04
	1.924957598038726e-01

 101	1.010000000000001e+00
	-6.762623350250022e-15
	-6.507458365480807e-18
	-3.725845102136306e-14
