Title: ** sch_path: /home/andylithia/openmpw/project-yatsuhashi-chip1/xschem/gmid_test/nmos_test.sch
Date: Tue Jul 19 23:15:45  2022
Plotname: DC transfer characteristic
Flags: real
No. Variables: 8
No. Points: 181
Variables:
	0	v(v-sweep)	voltage
	1	@m.xm1.msky130_fd_pr__nfet_01v8[cgb]	capacitance
	2	@m.xm1.msky130_fd_pr__nfet_01v8[cgd]	capacitance
	3	@m.xm1.msky130_fd_pr__nfet_01v8[cgs]	capacitance
	4	@m.xm1.msky130_fd_pr__nfet_01v8[gds]	admittance
	5	@m.xm1.msky130_fd_pr__nfet_01v8[gm]	admittance
	6	i(@m.xm1.msky130_fd_pr__nfet_01v8[id])	current
	7	v(@m.xm1.msky130_fd_pr__nfet_01v8[vth])	voltage
Values:
 0	0.000000000000000e+00
	-6.605537136877802e-15
	-3.066859777721532e-19
	-1.010881089043039e-14
	4.028368461882735e-08
	1.658322544474636e-06
	1.933413224993279e-07
	2.567639286290126e-01

 1	1.000000000000000e-02
	-6.532842359058761e-15
	-3.147412070477402e-19
	-1.027538767680113e-14
	4.380078801683984e-08
	1.804394457292528e-06
	2.106447301197920e-07
	2.567639299742266e-01

 2	2.000000000000000e-02
	-6.460884820575561e-15
	-3.229884259818040e-19
	-1.044223280649855e-14
	4.761199840121172e-08
	1.963194494451775e-06
	2.294716029368905e-07
	2.567639314385587e-01

 3	3.000000000000000e-02
	-6.389684053875893e-15
	-3.314313448303169e-19
	-1.060927850084537e-14
	5.174032422243813e-08
	2.135842292742275e-06
	2.499547377843807e-07
	2.567639330325126e-01

 4	4.000000000000000e-02
	-6.319259297690131e-15
	-3.400737222027312e-19
	-1.077645672092511e-14
	5.621038921372059e-08
	2.323561067096411e-06
	2.722386373696269e-07
	2.567639347675351e-01

 5	5.000000000000000e-02
	-6.249629455623019e-15
	-3.489193656155948e-19
	-1.094369926889424e-14
	6.104852549374487e-08
	2.527688134585356e-06
	2.964805977433535e-07
	2.567639366561162e-01

 6	6.000000000000000e-02
	-6.180813055848193e-15
	-3.579721320840454e-19
	-1.111093788968573e-14
	6.628286994198669e-08
	2.749686601228580e-06
	3.228519067204507e-07
	2.567639387118759e-01

 7	7.000000000000001e-02
	-6.112828212018521e-15
	-3.672359287525511e-19
	-1.127810437279831e-14
	7.194346375128818e-08
	2.991158337800282e-06
	3.515391655014244e-07
	2.567639409496907e-01

 8	8.000000000000000e-02
	-6.045692585500745e-15
	-3.767147135668879e-19
	-1.144513065386724e-14
	7.806235503714008e-08
	3.253858381629905e-06
	3.827457470599361e-07
	2.567639433858068e-01

 9	9.000000000000000e-02
	-5.979423349038146e-15
	-3.864124959883548e-19
	-1.161194891571142e-14
	8.467370435616561e-08
	3.539710912410803e-06
	4.166934062864870e-07
	2.567639460379775e-01

 10	9.999999999999999e-02
	-5.914037151939390e-15
	-3.963333377520561e-19
	-1.177849168855434e-14
	9.181389295795217e-08
	3.850826961092524e-06
	4.536240584137540e-07
	2.567639489256249e-01

 11	1.100000000000000e-01
	-5.849550086885535e-15
	-4.064813536705171e-19
	-1.194469194912112e-14
	9.952163356459262e-08
	4.189524021831773e-06
	4.938017438945028e-07
	2.567639520700023e-01

 12	1.200000000000000e-01
	-5.785977658441066e-15
	-4.168607124839963e-19
	-1.211048321831765e-14
	1.078380834411373e-07
	4.558347747464196e-06
	5.375147996553041e-07
	2.567639554943830e-01

 13	1.300000000000000e-01
	-5.723334753347686e-15
	-4.274756377588862e-19
	-1.227579965720560e-14
	1.168069594877509e-07
	4.960095918740579e-06
	5.850782585034270e-07
	2.567639592242636e-01

 14	1.400000000000000e-01
	-5.661635612672393e-15
	-4.383304088353826e-19
	-1.244057616099439e-14
	1.264746550507564e-07
	5.397844886293106e-06
	6.368365004109844e-07
	2.567639632876137e-01

 15	1.500000000000000e-01
	-5.600893805873549e-15
	-4.494293618256954e-19
	-1.260474845078246e-14
	1.368903581150752e-07
	5.874978691556709e-06
	6.931661814277221e-07
	2.567639677151100e-01

 16	1.600000000000000e-01
	-5.541122206841324e-15
	-4.607768906639391e-19
	-1.276825316278775e-14
	1.481061705047918e-07
	6.395221078191982e-06
	7.544794680636377e-07
	2.567639725404454e-01

 17	1.700000000000000e-01
	-5.482332971959898e-15
	-4.723774482087437e-19
	-1.293102793482332e-14
	1.601772276820358e-07
	6.962670608421027e-06
	8.212276071148601e-07
	2.567639778006334e-01

 18	1.800000000000000e-01
	-5.424537520231262e-15
	-4.842355473998583e-19
	-1.309301148978362e-14
	1.731618186968461e-07
	7.581839098483420e-06
	8.939048630509940e-07
	2.567639835363660e-01

 19	1.900000000000000e-01
	-5.367746515491633e-15
	-4.963557624693950e-19
	-1.325414371592346e-14
	1.871215058025715e-07
	8.257693583499266e-06
	9.730528572076923e-07
	2.567639897924086e-01

 20	2.000000000000000e-01
	-5.311969850742987e-15
	-5.087427302090079e-19
	-1.341436574372559e-14
	2.021212432125747e-07
	8.995702013652631e-06
	1.059265345092317e-06
	2.567639966180352e-01

 21	2.100000000000000e-01
	-5.257216634613835e-15
	-5.214011512937797e-19
	-1.357362001916973e-14
	2.182294944347245e-07
	9.801882869998225e-06
	1.153193470065498e-06
	2.567640040675058e-01

 22	2.200000000000001e-01
	-5.203495179954695e-15
	-5.343357916635718e-19
	-1.373185037323146e-14
	2.355183475804069e-07
	1.068285886849795e-05
	1.255551533449946e-06
	2.567640122006064e-01

 23	2.300000000000001e-01
	-5.150812994565644e-15
	-5.475514839627877e-19
	-1.388900208745760e-14
	2.540636280048401e-07
	1.164591489422529e-05
	1.367123322675817e-06
	2.567640210832428e-01

 24	2.400000000000001e-01
	-5.099176774044465e-15
	-5.610531290393379e-19
	-1.404502195548275e-14
	2.739450075952763e-07
	1.269906027309954e-05
	1.488769040323689e-06
	2.567640307880866e-01

 25	2.500000000000001e-01
	-5.048592396736699e-15
	-5.748456975034713e-19
	-1.419985834036832e-14
	2.952461099833736e-07
	1.385109544507675e-05
	1.621432877788260e-06
	2.567640413953013e-01

 26	2.600000000000001e-01
	-4.999064920760249e-15
	-5.889342313471401e-19
	-1.435346122766566e-14
	3.180546109179125e-07
	1.511168304948835e-05
	1.766151277665640e-06
	2.567640529933367e-01

 27	2.700000000000001e-01
	-4.950598583070250e-15
	-6.033238456247780e-19
	-1.450578227412237e-14
	3.424623329941385e-07
	1.649142336924055e-05
	1.924061928760707e-06
	2.567640656798051e-01

 28	2.800000000000001e-01
	-4.903196800522436e-15
	-6.180197301958796e-19
	-1.465677485196977e-14
	3.685653338964801e-07
	1.800193400499869e-05
	2.096413536707001e-06
	2.567640795624374e-01

 29	2.900000000000001e-01
	-4.856862172886435e-15
	-6.330271515302327e-19
	-1.480639408874798e-14
	3.964639872726614e-07
	1.965593356248970e-05
	2.284576411469971e-06
	2.567640947601416e-01

 30	3.000000000000001e-01
	-4.811596487754039e-15
	-6.483514545763737e-19
	-1.495459690264355e-14
	4.262630553193641e-07
	2.146732903500306e-05
	2.490053910337534e-06
	2.567641114041518e-01

 31	3.100000000000001e-01
	-4.767400727281469e-15
	-6.639980646937037e-19
	-1.510134203333202e-14
	4.580717521229256e-07
	2.345130644856518e-05
	2.714494771255852e-06
	2.567641296392945e-01

 32	3.200000000000001e-01
	-4.724275076698953e-15
	-6.799724896491322e-19
	-1.524659006833626e-14
	4.920037967637158e-07
	2.562442420885359e-05
	2.959706366407494e-06
	2.567641496253579e-01

 33	3.300000000000001e-01
	-4.682218934516155e-15
	-6.962803216787913e-19
	-1.539030346492753e-14
	5.281774551597699e-07
	2.800470844671477e-05
	3.227668899613161e-06
	2.567641715385778e-01

 34	3.400000000000001e-01
	-4.641230924347118e-15
	-7.129272396150668e-19
	-1.553244656761296e-14
	5.667155695950136e-07
	3.061174950353576e-05
	3.520550563332324e-06
	2.567641955732702e-01

 35	3.500000000000001e-01
	-4.601308908274386e-15
	-7.299190110803074e-19
	-1.567298562126963e-14
	6.077455748503083e-07
	3.346679852947345e-05
	3.840723661612095e-06
	2.567642219435700e-01

 36	3.600000000000002e-01
	-4.562450001668544e-15
	-7.472614947470550e-19
	-1.581188877999898e-14
	6.513994998321461e-07
	3.659286298790423e-05
	4.190781694163492e-06
	2.567642508853281e-01

 37	3.700000000000002e-01
	-4.524650589376096e-15
	-7.649606426660060e-19
	-1.594912611179114e-14
	6.978139535754127e-07
	4.001479967025711e-05
	4.573557383730441e-06
	2.567642826581316e-01

 38	3.800000000000002e-01
	-4.487906343186515e-15
	-7.830225026620632e-19
	-1.608466959910017e-14
	7.471300944833391e-07
	4.375940362899356e-05
	4.992141613967725e-06
	2.567643175474891e-01

 39	3.900000000000002e-01
	-4.452212240486650e-15
	-8.014532207993489e-19
	-1.621849313544574e-14
	7.994935816616179e-07
	4.785549123603001e-05
	5.449903228111456e-06
	2.567643558671391e-01

 40	4.000000000000002e-01
	-4.417562584009943e-15
	-8.202590439160368e-19
	-1.635057251816594e-14
	8.550545072045269e-07
	5.233397537307575e-05
	5.950509619776677e-06
	2.567643979615336e-01

 41	4.100000000000002e-01
	-4.383951022586291e-15
	-8.394463222293459e-19
	-1.648088543745812e-14
	9.139673083013489e-07
	5.722793056379234e-05
	6.497948026281796e-06
	2.567644442084343e-01

 42	4.200000000000002e-01
	-4.351370572798206e-15
	-8.590215120120852e-19
	-1.660941146185275e-14
	9.763906580514849e-07
	6.257264567057950e-05
	7.096547412035059e-06
	2.567644950216734e-01

 43	4.300000000000002e-01
	-4.319813641448935e-15
	-8.789911783411973e-19
	-1.673613202027417e-14
	1.042487333908776e-06
	6.840566160727322e-05
	7.751000804859184e-06
	2.567645508540428e-01

 44	4.400000000000002e-01
	-4.289272048748305e-15
	-8.993619979194553e-19
	-1.686103038084954e-14
	1.112424062720843e-06
	7.476679136984067e-05
	8.466387921860883e-06
	2.567646122002967e-01

 45	4.500000000000002e-01
	-4.259737052123434e-15
	-9.201407619712142e-19
	-1.698409162663254e-14
	1.186371341388919e-06
	8.169811956766006e-05
	9.248197893830421e-06
	2.567646796002726e-01

 46	4.600000000000002e-01
	-4.231199370562078e-15
	-9.413343792132005e-19
	-1.710530262841497e-14
	1.264503232250125e-06
	8.924397855619647e-05
	1.010235186852694e-05
	2.567647536421023e-01

 47	4.700000000000003e-01
	-4.203649209398631e-15
	-9.629498789016876e-19
	-1.722465201480201e-14
	1.346997132378077e-06
	9.745089823610039e-05
	1.103522524397904e-05
	2.567648349654837e-01

 48	4.800000000000003e-01
	-4.177076285454273e-15
	-9.849944139567936e-19
	-1.734213013973128e-14
	1.434033516111489e-06
	1.063675266025522e-04
	1.205366925361761e-05
	2.567649242649942e-01

 49	4.900000000000003e-01
	-4.151469852445689e-15
	-1.007475264165517e-18
	-1.745772904761679e-14
	1.525795650254591e-06
	1.160445182104789e-04
	1.316503159624092e-05
	2.567650222934275e-01

 50	5.000000000000002e-01
	-4.126818726578540e-15
	-1.030399839464777e-18
	-1.757144243630140e-14
	1.622469281550329e-06
	1.265343878743012e-04
	1.437717577617446e-05
	2.567651298650727e-01

 51	5.100000000000002e-01
	-4.103111312245710e-15
	-1.053775683305480e-18
	-1.768326561800024e-14
	1.724242296206559e-06
	1.378913271524813e-04
	1.569849879326395e-05
	2.567652478589458e-01

 52	5.200000000000002e-01
	-4.080335627752707e-15
	-1.077610476099435e-18
	-1.779319547841816e-14
	1.831304351459966e-06
	1.501709814838934e-04
	1.713794679937184e-05
	2.567653772218721e-01

 53	5.300000000000002e-01
	-4.058479330996412e-15
	-1.101912038750598e-18
	-1.790123043422196e-14
	1.943846479390013e-06
	1.634301862497434e-04
	1.870502831868954e-05
	2.567655189714128e-01

 54	5.400000000000003e-01
	-4.037529745026518e-15
	-1.126688336271952e-18
	-1.800737038904657e-14
	2.062060663448352e-06
	1.777266605346916e-04
	2.040982461437401e-05
	2.567656741985357e-01

 55	5.500000000000003e-01
	-4.017473883422932e-15
	-1.151947481490025e-18
	-1.811161668821121e-14
	2.186139388444846e-06
	1.931186579546216e-04
	2.226299677468378e-05
	2.567658440699762e-01

 56	5.600000000000003e-01
	-3.998298475426032e-15
	-1.177697738838680e-18
	-1.821397207231768e-14
	2.316275165029905e-06
	2.096645746043473e-04
	2.427578908887219e-05
	2.567660298302387e-01

 57	5.700000000000003e-01
	-3.979989990760547e-15
	-1.203947528243699e-18
	-1.831444062989917e-14
	2.452660030031881e-06
	2.274225149514824e-04
	2.646002828749558e-05
	2.567662328031424e-01

 58	5.800000000000003e-01
	-3.962534664097641e-15
	-1.230705429100822e-18
	-1.841302774928329e-14
	2.595485024344783e-06
	2.464498173543003e-04
	2.882811823433485e-05
	2.567664543928279e-01

 59	5.900000000000003e-01
	-3.945918519103972e-15
	-1.257980184348511e-18
	-1.850974006982740e-14
	2.744939650411981e-06
	2.668025417997111e-04
	3.139302967854242e-05
	2.567666960841691e-01

 60	6.000000000000003e-01
	-3.930127392030360e-15
	-1.285780704637510e-18
	-1.860458543267845e-14
	2.901211311711831e-06
	2.885349234268210e-04
	3.416828470651000e-05
	2.567669594425179e-01

 61	6.100000000000003e-01
	-3.915146954796418e-15
	-1.314116072599998e-18
	-1.869757283120468e-14
	3.064484737016089e-06
	3.116987964025047e-04
	3.716793557372081e-05
	2.567672461126785e-01

 62	6.200000000000003e-01
	-3.900962737531829e-15
	-1.342995547219930e-18
	-1.878871236123868e-14
	3.234941392554797e-06
	3.363429937250096e-04
	4.040653764769457e-05
	2.567675578170605e-01

 63	6.300000000000003e-01
	-3.887560150538504e-15
	-1.372428568307057e-18
	-1.887801517126583e-14
	3.412758885575724e-06
	3.625127295237895e-04
	4.389911625401968e-05
	2.567678963529443e-01

 64	6.400000000000003e-01
	-3.874924505641990e-15
	-1.402424761076828e-18
	-1.896549341268451e-14
	3.598110363125313e-06
	3.902489713698250e-04
	4.766112728807756e-05
	2.567682635888209e-01

 65	6.500000000000004e-01
	-3.863041036903649e-15
	-1.432993940839215e-18
	-1.905116019025835e-14
	3.791163910193208e-06
	4.195878109799830e-04
	5.170841153478091e-05
	2.567686614597195e-01

 66	6.600000000000004e-01
	-3.851894920669589e-15
	-1.464146117797981e-18
	-1.913502951287300e-14
	3.992081951644584e-06
	4.505598424597684e-04
	5.605714272651985e-05
	2.567690919615360e-01

 67	6.700000000000004e-01
	-3.841471294935055e-15
	-1.495891501963786e-18
	-1.921711624470309e-14
	4.201020662607741e-06
	4.831895578498348e-04
	6.072376946433016e-05
	2.567695571443305e-01

 68	6.800000000000004e-01
	-3.831755278006912e-15
	-1.528240508183506e-18
	-1.929743605688826e-14
	4.418129392177937e-06
	5.174947701922962e-04
	6.572495122746813e-05
	2.567700591045915e-01

 69	6.900000000000004e-01
	-3.822731986449828e-15
	-1.561203761288214e-18
	-1.937600537980946e-14
	4.643550105436705e-06
	5.534860745856830e-04
	7.107748880027188e-05
	2.567705999764925e-01

 70	7.000000000000004e-01
	-3.814386552305130e-15
	-1.594792101363167e-18
	-1.945284135605045e-14
	4.877416848860164e-06
	5.911663577283420e-04
	7.679824955028849e-05
	2.567711819221871e-01

 71	7.100000000000004e-01
	-3.806704139573985e-15
	-1.629016589142167e-18
	-1.952796179412219e-14
	5.119855244195674e-06
	6.305303662405402e-04
	8.290408809583341e-05
	2.567718071211935e-01

 72	7.200000000000004e-01
	-3.799669959959903e-15
	-1.663888511529354e-18
	-1.960138512302081e-14
	5.370982015817799e-06
	6.715643435931192e-04
	8.941176300194501e-05
	2.567724777589779e-01

 73	7.300000000000004e-01
	-3.793269287867544e-15
	-1.699419387251668e-18
	-1.967313034768454e-14
	5.630904556429189e-06
	7.142457447502524e-04
	9.633785023853674e-05
	2.567731960147889e-01

 74	7.400000000000004e-01
	-3.787487474658055e-15
	-1.735620972644849e-18
	-1.974321700540704e-14
	5.899720535748427e-06
	7.585430366588670e-04
	1.036986542208588e-04
	2.567739640489246e-01

 75	7.500000000000004e-01
	-3.782309962163077e-15
	-1.772505267576627e-18
	-1.981166512325972e-14
	6.177517556524669e-06
	8.044155914993170e-04
	1.115101173276544e-04
	2.567747839895445e-01

 76	7.600000000000005e-01
	-3.777722295461864e-15
	-1.810084521509613e-18
	-1.987849517656940e-14
	6.464372861842477e-06
	8.518136781718747e-04
	1.197877288543471e-04
	2.567756579191698e-01

 77	7.700000000000005e-01
	-3.773710134928287e-15
	-1.848371239708630e-18
	-1.994372804849153e-14
	6.760353097230664e-06
	9.006785558600626e-04
	1.285464344050405e-04
	2.567765878610718e-01

 78	7.800000000000005e-01
	-3.770259267555845e-15
	-1.887378189595112e-18
	-2.000738499071492e-14
	7.065514130577026e-06
	9.509426717227354e-04
	1.378005467564489e-04
	2.567775757657025e-01

 79	7.900000000000005e-01
	-3.767355617571232e-15
	-1.927118407252641e-18
	-2.006948758532746e-14
	7.379900932279809e-06
	1.002529962865161e-03
	1.475636592376064e-04
	2.567786234973581e-01

 80	8.000000000000005e-01
	-3.764985256348082e-15
	-1.967605204088078e-18
	-2.013005770786839e-14
	7.703547517451376e-06
	1.055356260775491e-03
	1.578485626606028e-04
	2.567797328212710e-01

 81	8.100000000000005e-01
	-3.763134411634094e-15
	-2.008852173652302e-18
	-2.018911749158774e-14
	8.036476951336887e-06
	1.109329794439523e-03
	1.686671668092057e-04
	2.567809053912806e-01

 82	8.200000000000005e-01
	-3.761789476106199e-15
	-2.050873198624764e-18
	-2.024668929292897e-14
	8.378701418434575e-06
	1.164351786418866e-03
	1.800304274442733e-04
	2.567821427382990e-01

 83	8.300000000000005e-01
	-3.760937015269425e-15
	-2.093682457966909e-18
	-2.030279565824687e-14
	8.730222355119149e-06
	1.220317134350680e-03
	1.919482797181478e-04
	2.567834462596992e-01

 84	8.400000000000005e-01
	-3.760563774716103e-15
	-2.137294434249510e-18
	-2.035745929176877e-14
	9.091030644884723e-06
	1.277115168652885e-03
	2.044295788059089e-04
	2.567848172097911e-01

 85	8.500000000000005e-01
	-3.760656686763141e-15
	-2.181723921159326e-18
	-2.041070302480330e-14
	9.461106874655025e-06
	1.334630475745659e-03
	2.174820484613444e-04
	2.567862566915101e-01

 86	8.600000000000005e-01
	-3.761202876485646e-15
	-2.226986031190086e-18
	-2.046254978619754e-14
	9.840421649968131e-06
	1.392743774869705e-03
	2.311122380919804e-04
	2.567877656494279e-01

 87	8.700000000000006e-01
	-3.762189667165985e-15
	-2.273096203524652e-18
	-2.051302257403982e-14
	1.022893596623970e-05
	1.451332835627564e-03
	2.453254888230424e-04
	2.567893448641815e-01

 88	8.800000000000006e-01
	-3.763604585177618e-15
	-2.320070212114169e-18
	-2.056214442860300e-14
	1.062660163275756e-05
	1.510273422721193e-03
	2.601259088878456e-04
	2.567909949483382e-01

 89	8.900000000000006e-01
	-3.765435364324012e-15
	-2.367924173960443e-18
	-2.060993840651875e-14
	1.103336174556389e-05
	1.569440254020552e-03
	2.755163585447108e-04
	2.567927163438010e-01

 90	9.000000000000006e-01
	-3.767669949652542e-15
	-2.416674557609548e-18
	-2.065642755617239e-14
	1.144915120495442e-05
	1.628707958079056e-03
	2.914984445815209e-04
	2.567945093206924e-01

 91	9.100000000000006e-01
	-3.770296500764163e-15
	-2.466338191862874e-18
	-2.070163489430366e-14
	1.187389727296443e-05
	1.687952017504681e-03
	3.080725243313916e-04
	2.567963739777443e-01

 92	9.200000000000006e-01
	-3.773303394639294e-15
	-2.516932274713647e-18
	-2.074558338379756e-14
	1.230752016592779e-05
	1.747049685184544e-03
	3.252377189898142e-04
	2.567983102441407e-01

 93	9.300000000000006e-01
	-3.776679228000828e-15
	-2.568474382517355e-18
	-2.078829591264623e-14
	1.274993367698893e-05
	1.805880861220424e-03
	3.429919358978925e-04
	2.568003178827435e-01

 94	9.400000000000006e-01
	-3.780412819234640e-15
	-2.620982479403226e-18
	-2.082979527406205e-14
	1.320104582331479e-05
	1.864328919529291e-03
	3.613318993403196e-04
	2.568023964946310e-01

 95	9.500000000000006e-01
	-3.784493209888516e-15
	-2.674474926936556e-18
	-2.087010414771852e-14
	1.366075951269916e-05
	1.922281474358322e-03
	3.802531893029362e-04
	2.568045455248287e-01

 96	9.600000000000006e-01
	-3.788909665769766e-15
	-2.728970494039575e-18
	-2.090924508209576e-14
	1.412897322426595e-05
	1.979631078413494e-03
	3.997502875445894e-04
	2.568067642691530e-01

 97	9.700000000000006e-01
	-3.793651677661691e-15
	-2.784488367181154e-18
	-2.094724047790423e-14
	1.460558169806098e-05
	2.036275845859764e-03
	4.198166302630818e-04
	2.568090518820033e-01

 98	9.800000000000006e-01
	-3.798708961679036e-15
	-2.841048160843389e-18
	-2.098411257256014e-14
	1.509047662846755e-05
	2.092119995071748e-03
	4.404446665760073e-04
	2.568114073849967e-01

 99	9.900000000000007e-01
	-3.804071459281953e-15
	-2.898669928276222e-18
	-2.101988342568399e-14
	1.558354735658003e-05
	2.147074307651264e-03
	4.616259219945620e-04
	2.568138296762876e-01

 100	1.000000000000001e+00
	-3.809729336967902e-15
	-2.957374172548703e-18
	-2.105457490559321e-14
	1.608468155692118e-05
	2.201056501839608e-03
	4.833510660420653e-04
	2.568163175404607e-01

 101	1.010000000000001e+00
	-3.815672985660218e-15
	-3.017181857907748e-18
	-2.108820867675878e-14
