Title: ** sch_path: /home/andylithia/openmpw/project-yatsuhashi-chip1/xschem/gmid_test/nmos_test.sch
Date: Sun Jul 17 22:51:45  2022
Plotname: DC transfer characteristic
Flags: real
No. Variables: 8
No. Points: 181
Variables:
	0	v(v-sweep)	voltage
	1	@m.xm1.msky130_fd_pr__nfet_01v8[cgb]	capacitance
	2	@m.xm1.msky130_fd_pr__nfet_01v8[cgd]	capacitance
	3	@m.xm1.msky130_fd_pr__nfet_01v8[cgs]	capacitance
	4	@m.xm1.msky130_fd_pr__nfet_01v8[gds]	admittance
	5	@m.xm1.msky130_fd_pr__nfet_01v8[gm]	admittance
	6	i(@m.xm1.msky130_fd_pr__nfet_01v8[id])	current
	7	v(@m.xm1.msky130_fd_pr__nfet_01v8[vth])	voltage
Values:
 0	0.000000000000000e+00
	-1.515837116791838e-14
	-8.720438807152938e-18
	-3.119167978239962e-14
	3.682435295211278e-08
	1.165076390385341e-06
	1.545935784449681e-07
	1.647040016678473e-01

 1	1.000000000000000e-02
	-1.499733082888737e-14
	-8.950932179018030e-18
	-3.157829221753942e-14
	3.954040721280593e-08
	1.256405357008801e-06
	1.666951112159600e-07
	1.647040031364277e-01

 2	2.000000000000000e-02
	-1.483858411329795e-14
	-9.187742550321942e-18
	-3.196387904206364e-14
	4.244583706543126e-08
	1.355073819982215e-06
	1.797461312381885e-07
	1.647040047202435e-01

 3	3.000000000000000e-02
	-1.468215753117429e-14
	-9.431053238242271e-18
	-3.234831946610703e-14
	4.555278429163713e-08
	1.461707769983570e-06
	1.938231171838327e-07
	1.647040064285825e-01

 4	4.000000000000000e-02
	-1.452807650067151e-14
	-9.681053367597814e-18
	-3.273149391554021e-14
	4.887407394894634e-08
	1.576991183746453e-06
	2.090090930059804e-07
	1.647040082715190e-01

 5	5.000000000000000e-02
	-1.437636530503657e-14
	-9.937938075804230e-18
	-3.311328416270519e-14
	5.242324516685145e-08
	1.701671719825239e-06
	2.253942358353636e-07
	1.647040102599997e-01

 6	6.000000000000000e-02
	-1.422704705232547e-14
	-1.020190872588546e-17
	-3.349357345413892e-14
	5.621458280474898e-08
	1.836566961905823e-06
	2.430765435351110e-07
	1.647040124059258e-01

 7	7.000000000000001e-02
	-1.408014363793661e-14
	-1.047317312788937e-17
	-3.387224663500713e-14
	6.026314996780862e-08
	1.982571254694631e-06
	2.621625676121215e-07
	1.647040147222270e-01

 8	8.000000000000000e-02
	-1.393567571001149e-14
	-1.075194576907159e-17
	-3.424919026998139e-14
	6.458482137591709e-08
	2.140663179666021e-06
	2.827682176451245e-07
	1.647040172229801e-01

 9	9.000000000000000e-02
	-1.379366263774472e-14
	-1.103844805323464e-17
	-3.462429276030964e-14
	6.919631758013010e-08
	2.311913720074787e-06
	3.050196438732783e-07
	1.647040199234972e-01

 10	9.999999999999999e-02
	-1.365412248263796e-14
	-1.133290854962080e-17
	-3.499744445683803e-14
	7.411524002030985e-08
	2.497495166591480e-06
	3.290542050928261e-07
	1.647040228404590e-01

 11	1.100000000000000e-01
	-1.351707197272150e-14
	-1.163556325178048e-17
	-3.536853776876220e-14
	7.936010691714393e-08
	2.698690816645964e-06
	3.550215295319768e-07
	1.647040259920277e-01

 12	1.200000000000000e-01
	-1.338252647976008e-14
	-1.194665584685727e-17
	-3.573746726789664e-14
	8.495038999124855e-08
	2.916905522000573e-06
	3.830846769121565e-07
	1.647040293980031e-01

 13	1.300000000000000e-01
	-1.325049999944956e-14
	-1.226643799575132e-17
	-3.610412978826972e-14
	9.090655200186074e-08
	3.153677140156456e-06
	4.134214104549480e-07
	1.647040330799720e-01

 14	1.400000000000000e-01
	-1.312100513460245e-14
	-1.259516962464599e-17
	-3.646842452086753e-14
	9.725008509741994e-08
	3.410688945842483e-06
	4.462255881534033e-07
	1.647040370614700e-01

 15	1.500000000000000e-01
	-1.299405308131200e-14
	-1.293311922840316e-17
	-3.683025310336513e-14
	1.040035499703953e-07
	3.689783058966762e-06
	4.817086831900019e-07
	1.647040413681785e-01

 16	1.600000000000000e-01
	-1.286965361807513e-14
	-1.328056418636212e-17
	-3.718951970470374e-14
	1.111906158089079e-07
	3.992974944932944e-06
	5.201014439454764e-07
	1.647040460281164e-01

 17	1.700000000000000e-01
	-1.274781509784649e-14
	-1.363779109109867e-17
	-3.754613110438829e-14
	1.188361010380151e-07
	4.322469042036607e-06
	5.616557045961640e-07
	1.647040510718666e-01

 18	1.800000000000000e-01
	-1.262854444298807e-14
	-1.400509609073011e-17
	-3.789999676639773e-14
	1.269660148440875e-07
	4.680675568657479e-06
	6.066463578354231e-07
	1.647040565328112e-01

 19	1.900000000000000e-01
	-1.251184714306984e-14
	-1.438278524537741e-17
	-3.825102890761915e-14
	1.356075994764190e-07
	5.070228560033830e-06
	6.553735017677169e-07
	1.647040624473995e-01

 20	2.000000000000000e-01
	-1.239772725547061e-14
	-1.477117489843469e-17
	-3.859914256073426e-14
	1.447893733211147e-07
	5.494005180428011e-06
	7.081647735027658e-07
	1.647040688554174e-01

 21	2.100000000000000e-01
	-1.228618740871916e-14
	-1.517059206331272e-17
	-3.894425563150479e-14
	1.545411747434619e-07
	5.955146351337616e-06
	7.653778824101258e-07
	1.647040758003155e-01

 22	2.200000000000001e-01
	-1.217722880851065e-14
	-1.558137482637475e-17
	-3.928628895042196e-14
	1.648942066963595e-07
	6.457078729947485e-06
	8.274033563699629e-07
	1.647040833295237e-01

 23	2.300000000000001e-01
	-1.207085124632521e-14
	-1.600387276679993e-17
	-3.962516631870116e-14
	1.758810820939857e-07
	7.003538064112367e-06
	8.946675146587794e-07
	1.647040914948278e-01

 24	2.400000000000001e-01
	-1.196705311057022e-14
	-1.643844739416279e-17
	-3.996081454862229e-14
	1.875358699518408e-07
	7.598593940679871e-06
	9.676356813257187e-07
	1.647041003527493e-01

 25	2.500000000000001e-01
	-1.186583140016142e-14
	-1.688547260454296e-17
	-4.029316349823190e-14
	1.998941422965482e-07
	8.246675932763752e-06
	1.046815653028015e-06
	1.647041099649692e-01

 26	2.600000000000001e-01
	-1.176718174045379e-14
	-1.734533515602873e-17
	-4.062214610043915e-14
	2.129930218513709e-07
	8.952601138529635e-06
	1.132761435286086e-06
	1.647041203987906e-01

 27	2.700000000000001e-01
	-1.167109840142622e-14
	-1.781843516451826e-17
	-4.094769838655650e-14
	2.268712305065345e-07
	9.721603089031166e-06
	1.226077260970652e-06
	1.647041317276214e-01

 28	2.800000000000001e-01
	-1.157757431802199e-14
	-1.830518662076779e-17
	-4.126975950434789e-14
	2.415691385869316e-07
	1.055936198551195e-05
	1.327421904524990e-06
	1.647041440314922e-01

 29	2.900000000000001e-01
	-1.148660111254151e-14
	-1.880601792968355e-17
	-4.158827173066381e-14
	2.571288149338992e-07
	1.147203620726302e-05
	1.437513304933894e-06
	1.647041573976282e-01

 30	3.000000000000001e-01
	-1.139816911898078e-14
	-1.932137247290401e-17
	-4.190318047875685e-14
	2.735940778226603e-07
	1.246629500951491e-05
	1.557133509755291e-06
	1.647041719210536e-01

 31	3.100000000000001e-01
	-1.131226740920616e-14
	-1.985170919577919e-17
	-4.221443430038497e-14
	2.910105467424865e-07
	1.354935230687373e-05
	1.687133951606171e-06
	1.647041877052201e-01

 32	3.200000000000001e-01
	-1.122888382085373e-14
	-2.039750321989575e-17
	-4.252198488282005e-14
	3.094256950732732e-07
	1.472900141144767e-05
	1.828441067318443e-06
	1.647042048627006e-01

 33	3.300000000000001e-01
	-1.114800498683905e-14
	-2.095924648237068e-17
	-4.282578704089433e-14
	3.288889036997835e-07
	1.601365056605948e-05
	1.982062268529254e-06
	1.647042235159158e-01

 34	3.400000000000001e-01
	-1.106961636636234e-14
	-2.153744840319076e-17
	-4.312579870422588e-14
	3.494515156137562e-07
	1.741235908182625e-05
	2.149092270718869e-06
	1.647042437978982e-01

 35	3.500000000000001e-01
	-1.099370227729199e-14
	-2.213263658193891e-17
	-4.342198089977565e-14
	3.711668915644460e-07
	1.893487385600519e-05
	2.330719785635514e-06
	1.647042658531079e-01

 36	3.600000000000002e-01
	-1.092024592981025e-14
	-2.274535752532558e-17
	-4.371429772989636e-14
	3.940904668303579e-07
	2.059166601048904e-05
	2.528234579627795e-06
	1.647042898382974e-01

 37	3.700000000000002e-01
	-1.084922946120310e-14
	-2.337617740700742e-17
	-4.400271634604448e-14
	4.182798091991735e-07
	2.239396735388980e-05
	2.743034897621928e-06
	1.647043159234085e-01

 38	3.800000000000002e-01
	-1.078063397167826e-14
	-2.402568286126311e-17
	-4.428720691833033e-14
	4.437946782594388e-07
	2.435380633103767e-05
	2.976635249313328e-06
	1.647043442925233e-01

 39	3.900000000000002e-01
	-1.071443956109456e-14
	-2.469448181216281e-17
	-4.456774260109151e-14
	4.706970861269932e-07
	2.648404308329607e-05
	3.230674550577323e-06
	1.647043751448532e-01

 40	4.000000000000002e-01
	-1.065062536648796e-14
	-2.538320433997191e-17
	-4.484429949467761e-14
	4.990513597517584e-07
	2.879840320177069e-05
	3.506924609129036e-06
	1.647044086957671e-01

 41	4.100000000000002e-01
	-1.058916960028092e-14
	-2.609250358659938e-17
	-4.511685660364028e-14
	5.289242049767848e-07
	3.131150971378176e-05
	3.807298939071689e-06
	1.647044451778731e-01

 42	4.200000000000002e-01
	-1.053004958906283e-14
	-2.682305670202019e-17
	-4.538539579152682e-14
	5.603847725521393e-07
	3.403891280148650e-05
	4.133861884166369e-06
	1.647044848421200e-01

 43	4.300000000000002e-01
	-1.047324181283251e-14
	-2.757556583367435e-17
	-4.564990173247713e-14
	5.935047263416150e-07
	3.699711671095045e-05
	4.488838024436414e-06
	1.647045279589555e-01

 44	4.400000000000002e-01
	-1.041872194459527e-14
	-2.835075916098485e-17
	-4.591036185982782e-14
	6.283583140016891e-07
	4.020360327110905e-05
	4.874621835105847e-06
	1.647045748194761e-01

 45	4.500000000000002e-01
	-1.036646489021064e-14
	-2.914939197720979e-17
	-4.616676631192647e-14
	6.650224404593220e-07
	4.367685140574227e-05
	5.293787560874383e-06
	1.647046257366518e-01

 46	4.600000000000002e-01
	-1.031644482838924e-14
	-2.997224782099725e-17
	-4.641910787536111e-14
	7.035767445705636e-07
	4.743635198886978e-05
	5.749099262196240e-06
	1.647046810465401e-01

 47	4.700000000000003e-01
	-1.026863525074036e-14
	-3.082013966012004e-17
	-4.666738192581051e-14
	7.441036794048410e-07
	5.150261736582401e-05
	6.243520983582879e-06
	1.647047411095160e-01

 48	4.800000000000003e-01
	-1.022300900177639e-14
	-3.169391112999164e-17
	-4.691158636671674e-14
	7.866885966725090e-07
	5.589718483985995e-05
	6.780226987052266e-06
	1.647048063115247e-01

 49	4.900000000000003e-01
	-1.017953831878242e-14
	-3.259443782972629e-17
	-4.715172156598342e-14
	8.314198358964416e-07
	6.064261340867334e-05
	7.362611986759053e-06
	1.647048770653229e-01

 50	5.000000000000002e-01
	-1.013819487146420e-14
	-3.352262867862853e-17
	-4.738779029089880e-14
	8.783888190235273e-07
	6.576247302785019e-05
	7.994301313636294e-06
	1.647049538117126e-01

 51	5.100000000000002e-01
	-1.009894980129076e-14
	-3.447942733617072e-17
	-4.761979764148074e-14
	9.276901512804578e-07
	7.128132568030512e-05
	8.679160931648800e-06
	1.647050370207529e-01

 52	5.200000000000002e-01
	-1.006177376045291e-14
	-3.546581368866696e-17
	-4.784775098243616e-14
	9.794217292014175e-07
	7.722469754340968e-05
	9.421307220099079e-06
	1.647051271929589e-01

 53	5.300000000000002e-01
	-1.002663695036219e-14
	-3.648280540603558e-17
	-4.807165987392500e-14
	1.033684856895609e-06
	8.361904156999238e-05
	1.022511642945629e-05
	1.647052248604406e-01

 54	5.400000000000003e-01
	-9.993509159619008e-15
	-3.753145957221462e-17
	-4.829153600131365e-14
	1.090584371780918e-06
	9.049168983678039e-05
	1.109523371151235e-05
	1.647053305879979e-01

 55	5.500000000000003e-01
	-9.962359801383846e-15
	-3.861287439299532e-17
	-4.850739310409709e-14
	1.150228781189374e-06
	9.787079506523157e-05
	1.203658161845189e-05
	1.647054449741570e-01

 56	5.600000000000003e-01
	-9.933157950088330e-15
	-3.972819098523249e-17
	-4.871924690416531e-14
	1.212730411452103e-06
	1.057852607858742e-04
	1.305436795979002e-05
	1.647055686521120e-01

 57	5.700000000000003e-01
	-9.905872377428383e-15
	-4.087859525160963e-17
	-4.892711503358236e-14
	1.278205571298837e-06
	1.142646596989494e-04
	1.415409290124093e-05
	1.647057022905921e-01

 58	5.800000000000003e-01
	-9.880471587584789e-15
	-4.206531984536620e-17
	-4.913101696204164e-14
	1.346774731662328e-06
	1.233391398817289e-04
	1.534155518558606e-05
	1.647058465946104e-01

 59	5.900000000000003e-01
	-9.856923851621909e-15
	-4.328964622962091e-17
	-4.933097392415391e-14
	1.418562724264298e-06
	1.330393186065332e-04
	1.662285735267467e-05
	1.647060023060880e-01

 60	6.000000000000003e-01
	-9.835197241018052e-15
	-4.455290683618421e-17
	-4.952700884671866e-14
	1.493698961679952e-06
	1.433961636629994e-04
	1.800440983397149e-05
	1.647061702043500e-01

 61	6.100000000000003e-01
	-9.815259660286345e-15
	-4.585648732902046e-17
	-4.971914627612232e-14
	1.572317681936066e-06
	1.544408622229916e-04
	1.949293379672136e-05
	1.647063511064687e-01

 62	6.200000000000003e-01
	-9.797078878647743e-15
	-4.720182897779242e-17
	-4.990741230600024e-14
	1.654558221097478e-06
	1.662046774457750e-04
	2.109546261398161e-05
	1.647065458674286e-01

 63	6.300000000000003e-01
	-9.780622560722671e-15
	-4.859043114722096e-17
	-5.009183450529286e-14
	1.740565317742817e-06
	1.787187931932765e-04
	2.281934183961316e-05
	1.647067553801198e-01

 64	6.400000000000003e-01
	-9.765858296211041e-15
	-5.002385390829540e-17
	-5.027244184681785e-14
	1.830489453727077e-06
	1.920141474085881e-04
	2.467222757194054e-05
	1.647069805751379e-01

 65	6.500000000000004e-01
	-9.752753628533597e-15
	-5.150372077771894e-17
	-5.044926463647593e-14
	1.924487236182817e-06
	2.061212549030736e-04
	2.666208309630001e-05
	1.647072224203582e-01

 66	6.600000000000004e-01
	-9.741276082412414e-15
	-5.303172159228987e-17
	-5.062233444319723e-14
	2.022721826328711e-06
	2.210700204956767e-04
	2.879717370514897e-05
	1.647074819203174e-01

 67	6.700000000000004e-01
	-9.731393190370004e-15
	-5.460961552531102e-17
	-5.079168402973139e-14
	2.125363421342298e-06
	2.368895436492033e-04
	3.108605960487929e-05
	1.647077601153298e-01

 68	6.800000000000004e-01
	-9.723072518131047e-15
	-5.623923425249240e-17
	-5.095734728437549e-14
	2.232589796321013e-06
	2.536079159487455e-04
	3.353758683094662e-05
	1.647080580803894e-01

 69	6.900000000000004e-01
	-9.716281688913367e-15
	-5.792248527520880e-17
	-5.111935915372752e-14
	2.344586914212508e-06
	2.712520129631847e-04
	3.616087610739366e-05
	1.647083769238143e-01

 70	7.000000000000004e-01
	-9.710988406597151e-15
	-5.966135540942896e-17
	-5.127775557654682e-14
	2.461549612553082e-06
	2.898472822174879e-04
	3.896530960322067e-05
	1.647087177856320e-01

 71	7.100000000000004e-01
	-9.707160477765230e-15
	-6.145791444905880e-17
	-5.143257341879561e-14
	2.583682376925979e-06
	3.094175291769652e-04
	4.196051555624337e-05
	1.647090818357128e-01

 72	7.200000000000004e-01
	-9.704765832608972e-15
	-6.331431901292657e-17
	-5.158385040992844e-14
	2.711200212255184e-06
	3.299847033001175e-04
	4.515635075491021e-05
	1.647094702716417e-01

 73	7.300000000000004e-01
	-9.703772544696952e-15
	-6.523281658513498e-17
	-5.173162508049208e-14
	2.844329624404265e-06
	3.515686863496891e-04
	4.856288088982831e-05
	1.647098843163365e-01

 74	7.400000000000004e-01
	-9.704148849606032e-15
	-6.721574975904050e-17
	-5.187593670108973e-14
	2.983309726076764e-06
	3.741870852576297e-04
	5.219035880922721e-05
	1.647103252154133e-01

 75	7.500000000000004e-01
	-9.705863162416222e-15
	-6.926556069567124e-17
	-5.201682522275905e-14
	3.128393482740645e-06
	3.978550319146704e-04
	5.604920073597253e-05
	1.647107942342953e-01

 76	7.600000000000005e-01
	-9.708884094072972e-15
	-7.138479580797526e-17
	-5.215433121880667e-14
	3.279849116256266e-06
	4.225849922953608e-04
	6.014996052769573e-05
	1.647112926550978e-01

 77	7.700000000000005e-01
	-9.713180466621921e-15
	-7.357611068290815e-17
	-5.228849582813666e-14
	3.437961686113397e-06
	4.483865873316018e-04
	6.450330208578721e-05
	1.647118217732859e-01

 78	7.800000000000005e-01
	-9.718721327323083e-15
	-7.584227525402206e-17
	-5.241936070010499e-14
	3.603034870720987e-06
	4.752664279091498e-04
	6.911997004297546e-05
	1.647123828941247e-01

 79	7.900000000000005e-01
	-9.725475961652039e-15
	-7.818617923790042e-17
	-5.254696794092655e-14
	3.775392974098388e-06
	5.032279662807614e-04
	7.401075888261614e-05
	1.647129773289263e-01

 80	8.000000000000005e-01
	-9.733413905198663e-15
	-8.061083784847565e-17
	-5.267136006165636e-14
	3.955383186648766e-06
	5.322713660653224e-04
	7.918648066514854e-05
	1.647136063911510e-01

 81	8.100000000000005e-01
	-9.742504954472680e-15
	-8.311939780404338e-17
	-5.279257992776229e-14
	4.143378132532109e-06
	5.623933928349933e-04
	8.465793155809847e-05
	1.647142713923447e-01

 82	8.200000000000005e-01
	-9.752719176628228e-15
	-8.571514364257000e-17
	-5.291067071030158e-14
	4.339778740580914e-06
	5.935873270825551e-04
	9.043585738497683e-05
	1.647149736379602e-01

 83	8.300000000000005e-01
	-9.764026918119603e-15
	-8.840150436169656e-17
	-5.302567583870896e-14
	4.545017480824834e-06
	6.258429011114039e-04
	9.653091842513545e-05
	1.647157144230882e-01

 84	8.400000000000005e-01
	-9.776398812300842e-15
	-9.118206040072272e-17
	-5.313763895520140e-14
	4.759562014633331e-06
	6.591462611036430e-04
	1.029536537106284e-04
	1.647164950281337e-01

 85	8.500000000000005e-01
	-9.789805785982288e-15
	-9.406055098277455e-17
	-5.324660387079916e-14
	4.983919313397318e-06
	6.934799553018206e-04
	1.097144450770946e-04
	1.647173167144350e-01

 86	8.600000000000005e-01
	-9.804219064958705e-15
	-9.704088183626525e-17
	-5.335261452295988e-14
	5.218640308727029e-06
	7.288229488916474e-04
	1.168234812332642e-04
	1.647181807199125e-01

 87	8.700000000000006e-01
	-9.819610178522009e-15
	-1.001271333157772e-16
	-5.345571493481954e-14
	5.464325146554992e-06
	7.651506658025368e-04
	1.242907221177090e-04
	1.647190882547364e-01

 88	8.800000000000006e-01
	-9.835950962972897e-15
	-1.033235689435384e-16
	-5.355594917603038e-14
	5.721629128548818e-06
	8.024350572558640e-04
	1.321258638116441e-04
	1.647200404970583e-01

 89	8.900000000000006e-01
	-9.853213564145577e-15
	-1.066346443936900e-16
	-5.365336132518288e-14
	5.991269437158282e-06
	8.406446964945333e-04
	1.403383042728801e-04
	1.647210385888313e-01

 90	9.000000000000006e-01
	-9.871370438959643e-15
	-1.100650169426988e-16
	-5.374799543379655e-14
	6.274032755798832e-06
	8.797448987282153e-04
	1.489371101482894e-04
	1.647220836317936e-01

 91	9.100000000000006e-01
	-9.890394356011779e-15
	-1.136195554104347e-16
	-5.383989549186197e-14
	6.570783913538831e-06
	9.196978649338783e-04
	1.579309849104981e-04
	1.647231766835692e-01

 92	9.200000000000006e-01
	-9.910258395221771e-15
	-1.173033506175897e-16
	-5.392910539491266e-14
	6.882475704714724e-06
	9.604628477669880e-04
	1.673282385488896e-04
	1.647243187539790e-01

 93	9.300000000000006e-01
	-9.930935946544681e-15
	-1.211217263864059e-16
	-5.401566891260613e-14
	7.210160058761791e-06
	1.001996337471774e-03
	1.771367590256798e-04
	1.647255108015697e-01

 94	9.400000000000006e-01
	-9.952400707761569e-15
	-1.250802511129461e-16
	-5.409962965878768e-14
	7.555000764946047e-06
	1.044252265334313e-03
	1.873639856849101e-04
	1.647267537303634e-01

 95	9.500000000000006e-01
	-9.974626681360571e-15
	-1.291847499404417e-16
	-5.418103106301245e-14
	7.918287991491753e-06
	1.087182221904529e-03
	1.980168847759722e-04
	1.647280483868759e-01

 96	9.600000000000006e-01
	-9.997588170518911e-15
	-1.334413175646300e-16
	-5.425991634349629e-14
	8.301454879870960e-06
	1.130735686926074e-03
	2.091019272240451e-04
	1.647293955574125e-01

 97	9.700000000000006e-01
	-1.002125977419543e-14
	-1.378563317034006e-16
	-5.433632848146727e-14
	8.706096544015530e-06
	1.174860267658546e-03
	2.206250687478824e-04
	1.647307959656311e-01

 98	9.800000000000006e-01
	-1.004561638134350e-14
	-1.424364672643974e-16
	-5.441031019688580e-14
	9.133991862437003e-06
	1.219501942055104e-03
	2.325917323910500e-04
	1.647322502704267e-01

 99	9.900000000000007e-01
	-1.007063316425106e-14
	-1.471887112457764e-16
	-5.448190392550293e-14
	9.587128520505824e-06
	1.264605303069828e-03
	2.450067934963723e-04
	1.647337590640878e-01

 100	1.000000000000001e+00
	-1.009628557101650e-14
	-1.521203784066635e-16
	-5.455115179722133e-14
	1.006773184260644e-05
	1.310113800210186e-03
	2.578745671152503e-04
	1.647353228707754e-01

 101	1.010000000000001e+00
	-1.012254931716451e-14
	-1.572391277453584e-16
	-5.461809561572690e-14
