Title: ** sch_path: /home/andylithia/openmpw/project-yatsuhashi-chip1/xschem/gmid_test/nmos_test.sch
Date: Tue Jul 19 23:15:45  2022
Plotname: DC transfer characteristic
Flags: real
No. Variables: 8
No. Points: 181
Variables:
	0	v(v-sweep)	voltage
	1	@m.xm1.msky130_fd_pr__nfet_01v8[cgb]	capacitance
	2	@m.xm1.msky130_fd_pr__nfet_01v8[cgd]	capacitance
	3	@m.xm1.msky130_fd_pr__nfet_01v8[cgs]	capacitance
	4	@m.xm1.msky130_fd_pr__nfet_01v8[gds]	admittance
	5	@m.xm1.msky130_fd_pr__nfet_01v8[gm]	admittance
	6	i(@m.xm1.msky130_fd_pr__nfet_01v8[id])	current
	7	v(@m.xm1.msky130_fd_pr__nfet_01v8[vth])	voltage
Values:
 0	0.000000000000000e+00
	-1.196287037584246e-15
	9.066884200480088e-24
	-1.717653507661915e-18
	3.410055158342792e-23
	1.079923708881083e-20
	1.482492344237385e-22
	6.587935688435320e-01

 1	1.000000000000000e-02
	-1.191085991403963e-15
	1.104465992870134e-23
	-1.722804353254994e-18
	7.057464705183448e-23
	2.237454094789995e-20
	3.071527305253320e-22
	6.587935688435320e-01

 2	2.000000000000000e-02
	-1.185951279174897e-15
	1.344713168158052e-23
	-1.731235019029006e-18
	1.460612692790881e-22
	4.635688840162600e-20
	6.363790646340768e-22
	6.587935688435320e-01

 3	3.000000000000000e-02
	-1.180881449230877e-15
	1.636348257023351e-23
	-1.743726134310811e-18
	3.022873854343054e-22
	9.604461050344810e-20
	1.318489030526294e-21
	6.587935688435320e-01

 4	4.000000000000000e-02
	-1.175875066006543e-15
	1.990096115411411e-23
	-1.761248699838332e-18
	6.256080110059765e-22
	1.989890798264612e-19
	2.731712496789633e-21
	6.587935688435320e-01

 5	5.000000000000000e-02
	-1.170930702362600e-15
	2.418829952191603e-23
	-1.785009326885783e-18
	1.294738792654375e-21
	4.122707964819064e-19
	5.659676191796606e-21
	6.587935688435320e-01

 6	6.000000000000000e-02
	-1.166046930256828e-15
	2.937968122643223e-23
	-1.816505701447363e-18
	2.679531508617036e-21
	8.541453526395204e-19
	1.172588372010221e-20
	6.587935688435320e-01

 7	7.000000000000001e-02
	-1.161222309345445e-15
	3.565930501049207e-23
	-1.857594311892640e-18
	5.545370846111016e-21
	1.769598498137764e-18
	2.429378271922412e-20
	6.587935688435320e-01

 8	8.000000000000000e-02
	-1.156455373019688e-15
	4.324657271274213e-23
	-1.910572743752262e-18
	1.147614612426791e-20
	3.666140322394698e-18
	5.033140110534747e-20
	6.587935688435320e-01

 9	9.000000000000000e-02
	-1.151744611297947e-15
	5.240189902252930e-23
	-1.978279068830953e-18
	2.374939982771722e-20
	7.595055983439286e-18
	1.042736489565965e-19
	6.587935688435320e-01

 10	9.999999999999999e-02
	-1.147088449911130e-15
	6.343309179771567e-23
	-2.064210986864903e-18
	4.914695138634036e-20
	1.573384853479678e-17
	2.160220537071525e-19
	6.587935688435320e-01

 11	1.100000000000000e-01
	-1.142485224848306e-15
	7.670217868484680e-23
	-2.172667345119691e-18
	1.017004358241014e-19
	3.259217280774755e-17
	4.475118234991977e-19
	6.587935688435320e-01

 12	1.200000000000000e-01
	-1.137933151587012e-15
	9.263245314818891e-23
	-2.308914372745564e-18
	2.104377942300229e-19
	6.750792687231044e-17
	9.270139623465724e-19
	6.587935688435320e-01

 13	1.300000000000000e-01
	-1.133430288238640e-15
	1.117153771120588e-22
	-2.479378318611519e-18
	4.354002088283563e-19
	1.398116106435739e-16
	1.920139030661052e-18
	6.587935688435320e-01

 14	1.400000000000000e-01
	-1.128974491918597e-15
	1.345168101620333e-22
	-2.691865083605559e-18
	9.007452341857917e-19
	2.895046366955383e-16
	3.976749471253880e-18
	6.587935688435320e-01

 15	1.500000000000000e-01
	-1.124563367824798e-15
	1.616818498145483e-22
	-2.955805869248907e-18
	1.863122822207843e-18
	5.993193540827757e-16
	8.234755453010629e-18
	6.587935688435320e-01

 16	1.600000000000000e-01
	-1.120194210781391e-15
	1.939373964809098e-22
	-3.282525969340117e-18
	3.852788779423054e-18
	1.240234261171674e-15
	1.704779298956172e-17
	6.587935688435320e-01

 17	1.700000000000000e-01
	-1.115863939340471e-15
	2.320914627418750e-22
	-3.685532077386587e-18
	7.964477195979254e-18
	2.565211304563350e-15
	3.528050411890633e-17
	6.587935688435320e-01

 18	1.800000000000000e-01
	-1.111569022815455e-15
	2.770283298773233e-22
	-4.180812862622844e-18
	1.645591275773024e-17
	5.301737221143922e-15
	7.297680254839325e-17
	6.587935688435320e-01

 19	1.900000000000000e-01
	-1.107305401599035e-15
	3.296990536300903e-22
	-4.787149802844082e-18
	3.397624091590166e-17
	1.094581888531792e-14
	1.508426892965135e-16
	6.587935688435320e-01

 20	2.000000000000000e-01
	-1.103068400376153e-15
	3.911076909143641e-22
	-5.526442879486038e-18
	7.007824779072813e-17
	2.256383162078877e-14
	3.114718705519288e-16
	6.587935688435320e-01

 21	2.100000000000000e-01
	-1.098852631782213e-15
	4.622950742775947e-22
	-6.424071801176987e-18
	1.443294873121895e-16
	4.641169113899140e-14
	6.422107172311049e-16
	6.587935688435320e-01

 22	2.200000000000001e-01
	-1.094651883995578e-15
	5.443239756563777e-22
	-7.509340650520457e-18
	2.966342191094630e-16
	9.516787448850332e-14
	1.321387482759007e-15
	6.587935688435320e-01

 23	2.300000000000001e-01
	-1.090458979155935e-15
	6.382717835712340e-22
	-8.816093032803486e-18
	6.078596794113378e-16
	1.942854144699500e-13
	2.710798153617222e-15
	6.587935688435326e-01

 24	2.400000000000001e-01
	-1.086265580348054e-15
	7.452387207216007e-22
	-1.038363280039401e-17
	1.240439767020908e-15
	3.941860209592465e-13
	5.537975186597708e-15
	6.587935688435326e-01

 25	2.500000000000001e-01
	-1.082061914068636e-15
	8.663801955299220e-22
	-1.225813378473065e-17
	2.516628231662376e-15
	7.929050507792512e-13
	1.124784956711889e-14
	6.587935688435331e-01

 26	2.600000000000001e-01
	-1.077836364532129e-15
	1.002970117035107e-21
	-1.449475768341716e-17
	5.064892466242460e-15
	1.576191509116134e-12
	2.266130900095656e-14
	6.587935688435341e-01

 27	2.700000000000001e-01
	-1.073574888488407e-15
	1.156497338710058e-21
	-1.716070854557768e-17
	1.008271335520284e-14
	3.083843858118671e-12
	4.515849988835968e-14
	6.587935688435358e-01

 28	2.800000000000001e-01
	-1.069260196872219e-15
	1.328790125959324e-21
	-2.033942635858055e-17
	1.978251907774177e-14
	5.909232914920755e-12
	8.868820650570569e-14
	6.587935688435397e-01

 29	2.900000000000001e-01
	-1.064870653951133e-15
	1.522154898948650e-21
	-2.413606140862489e-17
	3.809371802569062e-14
	1.102897423752138e-11
	1.709327151068238e-13
	6.587935688435471e-01

 30	3.000000000000001e-01
	-1.060378855704735e-15
	1.739507215798240e-21
	-2.868428375651256e-17
	7.166707215323257e-14
	1.994048513128042e-11
	3.218362375342188e-13
	6.587935688435603e-01

 31	3.100000000000001e-01
	-1.055749866369558e-15
	1.984466498618689e-21
	-3.415437788469608e-17
	1.311590794370076e-13
	3.477081395758810e-11
	5.893944539918865e-13
	6.587935688435838e-01

 32	3.200000000000001e-01
	-1.050939115570687e-15
	2.261382036994571e-21
	-4.076245378116143e-17
	2.327094940055719e-13
	5.834505035638421e-11
	1.046312641780556e-12
	6.587935688436245e-01

 33	3.300000000000001e-01
	-1.045889990056036e-15
	2.575256283093117e-21
	-4.878046422785732e-17
	3.995830340253448e-13
	9.428833995125465e-11
	1.797408147289462e-12
	6.587935688436904e-01

 34	3.400000000000001e-01
	-1.040531197163528e-15
	2.931532188710700e-21
	-5.854653820495940e-17
	6.642206423112882e-13
	1.473296025084574e-10
	2.988881253040818e-12
	6.587935688437954e-01

 35	3.500000000000001e-01
	-1.034774036069469e-15
	3.335714520366797e-21
	-7.047490461403486e-17
	1.071340117188130e-12
	2.239736247247830e-10
	4.822361624756700e-12
	6.587935688439567e-01

 36	3.600000000000002e-01
	-1.028509792497679e-15
	3.792801338089994e-21
	-8.506437089830889e-17
	1.682991185773968e-12
	3.336043071242661e-10
	7.577825567790291e-12
	6.587935688441995e-01

 37	3.700000000000002e-01
	-1.021607579148463e-15
	4.306511830684411e-21
	-1.029039144767279e-16
	2.586514781992910e-12
	4.900148394634345e-10
	1.164967470566723e-11
	6.587935688445586e-01

 38	3.800000000000002e-01
	-1.013913085354452e-15
	4.878311149245875e-21
	-1.246734121884318e-16
	3.906401366828396e-12
	7.134363412609565e-10
	1.760048429811554e-11
	6.587935688450820e-01

 39	3.900000000000002e-01
	-1.005248880515405e-15
	5.506253170690318e-21
	-1.511368602764939e-16
	5.821374630180131e-12
	1.033305984540412e-09
	2.623845926064034e-11
	6.587935688458436e-01

 40	4.000000000000002e-01
	-9.954171268402638e-16
	6.183691626413102e-21
	-1.831246846705197e-16
	8.588746042911953e-12
	1.492188028144578e-09
	3.872792476807608e-11
	6.587935688469438e-01

 41	4.100000000000002e-01
	-9.842057515215455e-16
	6.897954410668537e-21
	-2.215011337712714e-16
	1.257916976112376e-11
	2.151426023581270e-09
	5.674712538968440e-11
	6.587935688485312e-01

 42	4.200000000000002e-01
	-9.713992004345844e-16
	7.629140393522227e-21
	-2.671127594629636e-16
	1.832640888411258e-11
	3.099314782539318e-09
	8.271437661941263e-11
	6.587935688508189e-01

 43	4.300000000000002e-01
	-9.567946705480144e-16
	8.349280673964319e-21
	-3.207153522511160e-16
	2.659876499488657e-11
	4.462895968129025e-09
	1.201129656154082e-10
	6.587935688541133e-01

 44	4.400000000000002e-01
	-9.402239883103842e-16
	9.022188098342853e-21
	-3.828801873055548e-16
	3.850170331052087e-11
	6.424952984062863e-09
	1.739584431547961e-10
	6.587935688588565e-01

 45	4.500000000000002e-01
	-9.215799261558022e-16
	9.604357848154254e-21
	-4.538864409632550e-16
	5.562531735143640e-11
	9.248468521364040e-09
	2.514709338098931e-10
	6.587935688656847e-01

 46	4.600000000000002e-01
	-9.008438238818419e-16
	1.004721799373244e-20
	-5.336144551669472e-16
	8.025615254321707e-11
	1.331179615845184e-08
	3.630423704629472e-10
	6.587935688755128e-01

 47	4.700000000000003e-01
	-8.781093976071807e-16
	1.030081064113426e-20
	-6.214618373005847e-16
	1.156812768468661e-10
	1.915920844751017e-08
	5.236277124862183e-10
	6.587935688896591e-01

 48	4.800000000000003e-01
	-8.535964664284135e-16
	1.031861327732912e-20
	-7.163074486422588e-16
	1.666243421862317e-10
	2.757349115503366e-08
	7.547452824851637e-10
	6.587935689100193e-01

 49	4.900000000000003e-01
	-8.276489794157324e-16
	1.006277950779069e-20
	-8.165435199684995e-16
	2.398700486759018e-10
	3.968009463652470e-08
	1.087351445647452e-09
	6.587935689393198e-01

 50	5.000000000000002e-01
	-8.007146367423414e-16
	9.508765522420324e-21
	-9.201823945374560e-16
	3.451566007973356e-10
	5.709634546687675e-08
	1.565968812355651e-09
	6.587935689814830e-01

 51	5.100000000000002e-01
	-7.733079605549237e-16
	8.648294661442915e-21
	-1.025025168959640e-15
	4.964474426696253e-10
	8.214476680016763e-08
	2.254608419471928e-09
	6.587935690421477e-01

 52	5.200000000000002e-01
	-7.459632411726826e-16
	7.489966354198388e-21
	-1.128862004695550e-15
	7.137358088542709e-10
	1.181571232193507e-07
	3.245252780120069e-09
	6.587935691294192e-01

 53	5.300000000000002e-01
	-7.191864665121497e-16
	6.057425751509114e-21
	-1.229665525269785e-15
	1.025589629818422e-09
	1.699058425906502e-07
	4.669980828629352e-09
	6.587935692549332e-01

 54	5.400000000000003e-01
	-6.934150672412724e-16
	4.385631500041969e-21
	-1.325742800559181e-15
	1.472708462473917e-09
	2.442121527140262e-07
	6.718243614210073e-09
	6.587935694353814e-01

 55	5.500000000000003e-01
	-6.689914177897640e-16
	2.516151283582972e-21
	-1.415825372073911e-15
	2.112829682508866e-09
	3.507949172737603e-07
	9.661365285188220e-09
	6.587935696946753e-01

 56	5.600000000000003e-01
	-6.461519548513081e-16
	4.924701519972361e-22
	-1.499094089950176e-15
	3.027364166768582e-09
	5.034378839812368e-07
	1.388705535383533e-08
	6.587935700669818e-01

 57	5.700000000000003e-01
	-6.250301301509685e-16
	-1.643930369504257e-21
	-1.575149700683987e-15
	4.330108294251884e-09
	7.215580437806977e-07
	1.994753296636270e-08
	6.587935706009789e-01

 58	5.800000000000003e-01
	-6.056692207147348e-16
	-3.856323764884842e-21
	-1.643947606586000e-15
	6.178163924984014e-09
	1.032236003368292e-06
	2.862561590790517e-08
	6.587935713656884e-01

 59	5.900000000000003e-01
	-5.880404482807432e-16
	-6.114263566943142e-21
	-1.705716013894402e-15
	8.784621184350018e-09
	1.472683582192780e-06
	4.102338347889315e-08
	6.587935724583183e-01

 60	6.000000000000003e-01
	-5.720624774587594e-16
	-8.394059743320130e-21
	-1.760873022176902e-15
	1.243136945924861e-08
	2.092907126851331e-06
	5.867683729596506e-08
	6.587935740144225e-01

 61	6.100000000000003e-01
	-5.576195435901066e-16
	-1.067849317053435e-20
	-1.809952784739295e-15
	1.747838118718485e-08
	2.957879566938346e-06
	8.369557574695692e-08
	6.587935762203071e-01

 62	6.200000000000003e-01
	-5.445766898668770e-16
	-1.295606440124688e-20
	-1.853545714644994e-15
	2.436310406093206e-08
	4.147783344663921e-06
	1.189161280737899e-07
	6.587935793267250e-01

 63	6.300000000000003e-01
	-5.327915777339768e-16
	-1.522002455910579e-20
	-1.892253841229468e-15
	3.358133668392964e-08
	5.753962223995915e-06
	1.680385645843193e-07
	6.587935836611977e-01

 64	6.400000000000003e-01
	-5.221229843434371e-16
	-1.746736654924397e-20
	-1.926660042966151e-15
	4.564184873272593e-08
	7.867829434150522e-06
	2.356894655763296e-07
	6.587935896339815e-01

 65	6.500000000000004e-01
	-5.124364482555228e-16
	-1.969788747743940e-20
	-1.957308748743937e-15
	6.099449366161704e-08
	1.056160411940398e-05
	3.273325280184094e-07
	6.587935977307063e-01

 66	6.600000000000004e-01
	-5.036076517186435e-16
	-2.191337943306613e-20
	-1.984695417681382e-15
	7.994612432631135e-08
	1.386461428292000e-05
	4.489584892124163e-07
	6.587936084855279e-01

 67	6.700000000000004e-01
	-4.955241196714543e-16
	-2.411696827012671e-20
	-2.009262312220114e-15
	1.025929107359444e-07
	1.774518091952532e-05
	6.065557111016118e-07
	6.587936224347405e-01

 68	6.800000000000004e-01
	-4.880857389750863e-16
	-2.631259685473296e-20
	-2.031398501485349e-15
	1.287983820372273e-07
	2.210963070461792e-05
	8.054775026309321e-07
	6.587936400608349e-01

 69	6.900000000000004e-01
	-4.812045006965472e-16
	-2.850463693361830e-20
	-2.051442503918854e-15
	1.582275743359089e-07
	2.682202590189117e-05
	1.049905557178576e-06
	6.587936617445633e-01

 70	7.000000000000004e-01
	-4.748037689039964e-16
	-3.069760878451430e-20
	-2.069686411176861e-15
	1.904209530446827e-07
	3.173568891749696e-05
	1.342581282473987e-06
	6.587936877403071e-01

 71	7.100000000000004e-01
	-4.688172934523812e-16
	-3.289598725745476e-20
	-2.086380692635231e-15
	2.248772512085517e-07
	3.672175718947008e-05
	1.684849144616824e-06
	6.587937181789476e-01

 72	7.200000000000004e-01
	-4.631881155252897e-16
	-3.510407463851095e-20
	-2.101739154984296e-15
	2.611194564343985e-07
	4.168494838542947e-05
	2.076925888773961e-06
	6.587937530908902e-01

 73	7.300000000000004e-01
	-4.578674627707467e-16
	-3.732592361810097e-20
	-2.115943732530843e-15
	2.987335610775425e-07
	4.656585870081943e-05
	2.518257404638051e-06
	6.587937924371592e-01

 74	7.400000000000004e-01
	-4.528136932985533e-16
	-3.956529672896488e-20
	-2.129148924654295e-15
	3.373827599706680e-07
	5.133480590493055e-05
	3.007851229574636e-06
	6.587938361386365e-01

 75	7.500000000000004e-01
	-4.479913216304171e-16
	-4.182565151189873e-20
	-2.141485791583699e-15
	3.768053938229520e-07
	5.598281543500735e-05
	3.544529209955612e-06
	6.587938840984495e-01

 76	7.600000000000005e-01
	-4.433701421122740e-16
	-4.411014318035049e-20
	-2.153065480703010e-15
	4.168047697775915e-07
	6.051331662117646e-05
	4.127091603381027e-06
	6.587939362166225e-01

 77	7.700000000000005e-01
	-4.389244539573180e-16
	-4.642163863233224e-20
	-2.163982292918500e-15
	4.572364892532786e-07
	6.493594892734328e-05
	4.754408223813262e-06
	6.587939923983221e-01

 78	7.800000000000005e-01
	-4.346323851375668e-16
	-4.876273731582522e-20
	-2.174316319787722e-15
	4.979963580978494e-07
	6.926254883171479e-05
	5.425458814902162e-06
	6.587940525575924e-01

 79	7.900000000000005e-01
	-4.304753083902649e-16
	-5.113579574132963e-20
	-2.184135692616161e-15
	5.390101658759473e-07
	7.350484928627062e-05
	6.139342325502890e-06
	6.587941166183154e-01

 80	8.000000000000005e-01
	-4.264373406424877e-16
	-5.354295341353973e-20
	-2.193498488457719e-15
	5.802256124659432e-07
	7.767334012211539e-05
	6.895269416905227e-06
	6.587941845136638e-01

 81	8.100000000000005e-01
	-4.225049164684503e-16
	-5.598615868336482e-20
	-2.202454337572397e-15
	6.216061916946853e-07
	8.177683712323817e-05
	7.692547437479988e-06
	6.587942561848530e-01

 82	8.200000000000005e-01
	-4.186664262870025e-16
	-5.846719355561133e-20
	-2.211045774179538e-15
	6.631266806349509e-07
	8.582244384342942e-05
	8.530563262201061e-06
	6.587943315796908e-01

 83	8.300000000000005e-01
	-4.149119105495650e-16
	-6.098769687168012e-20
	-2.219309368455400e-15
	7.047698716498918e-07
	8.981570629227161e-05
	9.408766841980230e-06
	6.587944106511712e-01

 84	8.400000000000005e-01
	-4.112328019436058e-16
	-6.354918555765148e-20
	-2.227276673388270e-15
	7.465242327882359e-07
	9.376084343690491e-05
	1.032665675043673e-05
	6.587944933562351e-01

 85	8.500000000000005e-01
	-4.076217085044268e-16
	-6.615307381472998e-20
	-2.234975015762855e-15
	7.883822461535021e-07
	9.766099006555466e-05
	1.128376813431182e-05
	6.587945796547338e-01

 86	8.600000000000005e-01
	-4.040722314031168e-16
	-6.880069025392558e-20
	-2.242428156447499e-15
	8.303392341015032e-07
	1.015184209707221e-04
	1.227966301564504e-05
	6.587946695085984e-01

 87	8.700000000000006e-01
	-4.005788120113256e-16
	-7.149329305698595e-20
	-2.249656841430065e-15
	8.723925329952807e-07
	1.053347439006793e-04
	1.331392268495739e-05
	6.587947628811928e-01

 88	8.800000000000006e-01
	-3.971366036075869e-16
	-7.423208329373923e-20
	-2.256679261741122e-15
	9.145409129429739e-07
	1.091110586281762e-04
	1.438614185413317e-05
	6.587948597368118e-01

 89	8.900000000000006e-01
	-3.937413637739785e-16
	-7.701821655187996e-20
	-2.263511437520531e-15
	9.567841708557757e-07
	1.128480843338069e-04
	1.549592423855271e-05
	6.587949600403138e-01

 90	9.000000000000006e-01
	-3.903893641334771e-16
	-7.985281304568534e-20
	-2.270167539003753e-15
	9.991228452654564e-07
	1.165462595112195e-04
	1.664287927176468e-05
	6.587950637568449e-01

 91	9.100000000000006e-01
	-3.870773146007213e-16
	-8.273696637036951e-20
	-2.276660155091512e-15
	1.041558016513214e-06
	1.202058190990165e-04
	1.782661970142296e-05
	6.587951708516451e-01

 92	9.200000000000006e-01
	-3.838022997679475e-16
	-8.567175106242150e-20
	-2.283000518380086e-15
	1.084091166723017e-06
	1.238268532974766e-04
	1.904675986143223e-05
	6.587952812899115e-01

 93	9.300000000000006e-01
	-3.805617254310495e-16
	-8.865822911598731e-20
	-2.289198694027693e-15
	1.126724081611739e-06
	1.274093519653848e-04
	2.030291445716090e-05
	6.587953950367057e-01

 94	9.400000000000006e-01
	-3.773532735856879e-16
	-9.169745559290421e-20
	-2.295263738575732e-15
	1.169458781567222e-06
	1.309532378413602e-04
	2.159469773629081e-05
	6.587955120568930e-01

 95	9.500000000000006e-01
	-3.741748644978658e-16
	-9.479048345063720e-20
	-2.301203833795456e-15
	1.212297473201551e-06
	1.344583912083609e-04
	2.292172294713816e-05
	6.587956323151134e-01

 96	9.600000000000006e-01
	-3.710246246841277e-16
	-9.793836769906501e-20
	-2.307026399759267e-15
	1.255242515232849e-06
	1.379246680688261e-04
	2.428360200964332e-05
	6.587957557757611e-01

 97	9.700000000000006e-01
	-3.679008598301856e-16
	-1.011421689840945e-19
	-2.312738190612578e-15
	1.298296394400235e-06
	1.413519134362571e-04
	2.567994534251184e-05
	6.587958824029830e-01

 98	9.800000000000006e-01
	-3.648020318387054e-16
	-1.044029566840933e-19
	-2.318345375923172e-15
	1.341461708411213e-06
	1.447399709749356e-04
	2.711036180411041e-05
	6.587960121606856e-01

 99	9.900000000000007e-01
	-3.617267393322749e-16
	-1.077218115939968e-19
	-2.323853609989379e-15
	1.384741153825468e-06
	1.480886899232101e-04
	2.857445871549502e-05
	6.587961450125497e-01

 100	1.000000000000001e+00
	-3.586737010503155e-16
	-1.110998282619952e-19
	-2.329268091078864e-15
	1.428137517411069e-06
	1.513979300051117e-04
	3.007184194210172e-05
	6.587962809220441e-01

 101	1.010000000000001e+00
	-3.556417416726589e-16
	-1.145381170347033e-19
	-2.334593612231365e-15
	1.471653669950555e-06
	1.546675648577836e-04
