Title: ** sch_path: /home/andylithia/openmpw/project-yatsuhashi-chip1/xschem/gmid_test/nmos_test.sch
Date: Tue Jul 19 23:15:45  2022
Plotname: DC transfer characteristic
Flags: real
No. Variables: 8
No. Points: 181
Variables:
	0	v(v-sweep)	voltage
	1	@m.xm1.msky130_fd_pr__nfet_01v8[cgb]	capacitance
	2	@m.xm1.msky130_fd_pr__nfet_01v8[cgd]	capacitance
	3	@m.xm1.msky130_fd_pr__nfet_01v8[cgs]	capacitance
	4	@m.xm1.msky130_fd_pr__nfet_01v8[gds]	admittance
	5	@m.xm1.msky130_fd_pr__nfet_01v8[gm]	admittance
	6	i(@m.xm1.msky130_fd_pr__nfet_01v8[id])	current
	7	v(@m.xm1.msky130_fd_pr__nfet_01v8[vth])	voltage
Values:
 0	0.000000000000000e+00
	-2.635699494797474e-15
	2.566212604067540e-19
	-1.849301444925585e-17
	7.111351557696939e-14
	2.099570949276288e-12
	6.606330229239422e-14
	7.493644820534273e-01

 1	1.000000000000000e-02
	-2.623135317571931e-15
	2.741485826576755e-19
	-1.972217680697845e-17
	9.682694396692618e-14
	2.885034551638092e-12
	9.077866641901424e-14
	7.493644820534288e-01

 2	2.000000000000000e-02
	-2.610728894223885e-15
	2.927435989976587e-19
	-2.105176790714757e-17
	1.318263836591084e-13
	3.964331269209798e-12
	1.247401523279698e-13
	7.493644820534308e-01

 3	3.000000000000000e-02
	-2.598475216778882e-15
	3.124822572833442e-19
	-2.249084114764189e-17
	1.794608059035158e-13
	5.447372281264363e-12
	1.714065930225417e-13
	7.493644820534329e-01

 4	4.000000000000000e-02
	-2.586369235171167e-15
	3.334493271074021e-19
	-2.404953632597909e-17
	2.442851819754285e-13
	7.485176989004409e-12
	2.355306095464886e-13
	7.493644820534363e-01

 5	5.000000000000000e-02
	-2.574405832429723e-15
	3.557392865649673e-19
	-2.573921735006086e-17
	3.324940557459343e-13
	1.028524490737372e-11
	3.236424909520419e-13
	7.493644820534412e-01

 6	6.000000000000000e-02
	-2.562579798277404e-15
	3.794571939491504e-19
	-2.757262168042647e-17
	4.525106970903567e-13
	1.413267377777247e-11
	4.447150065865324e-13
	7.493644820534473e-01

 7	7.000000000000001e-02
	-2.550885801113488e-15
	4.047195284621374e-19
	-2.956402174269323e-17
	6.157875413467599e-13
	1.941917075981119e-11
	6.110767806063670e-13
	7.493644820534562e-01

 8	8.000000000000000e-02
	-2.539318358350291e-15
	4.316549837186999e-19
	-3.172939854909028e-17
	8.378935124781580e-13
	2.668290494506176e-11
	8.396671227905474e-13
	7.493644820534680e-01

 9	9.000000000000000e-02
	-2.527871805073041e-15
	4.604051976696921e-19
	-3.408662777637460e-17
	1.139990800459090e-12
	3.666324953516688e-11
	1.153759902790191e-12
	7.493644820534845e-01

 10	9.999999999999999e-02
	-2.516540260989936e-15
	4.911254025391276e-19
	-3.665567856137969e-17
	1.550840226062752e-12
	5.037597192121294e-11
	1.585331690257776e-12
	7.493644820535073e-01

 11	1.100000000000000e-01
	-2.505317595635787e-15
	5.239849784123630e-19
	-3.945882529300963e-17
	2.109523872217587e-12
	6.921650181724636e-11
	2.178314779917027e-12
	7.493644820535389e-01

 12	1.200000000000000e-01
	-2.494197391788955e-15
	5.591678942050807e-19
	-4.252087269831765e-17
	2.869140777496603e-12
	9.510175006168989e-11
	2.993065487091591e-12
	7.493644820535816e-01

 13	1.300000000000000e-01
	-2.483172907057066e-15
	5.968730198551555e-19
	-4.586939453790047e-17
	3.901822369829175e-12
	1.306648491714592e-10
	4.112501293556222e-12
	7.493644820536410e-01

 14	1.400000000000000e-01
	-2.472237033583485e-15
	6.373142936775345e-19
	-4.953498623847704e-17
	5.305537330605681e-12
	1.795225317766445e-10
	5.650529457126916e-12
	7.493644820537223e-01

 15	1.500000000000000e-01
	-2.461382255823932e-15
	6.807207288538884e-19
	-5.355153179224462e-17
	7.213322000770890e-12
	2.466421886019465e-10
	7.763621567366971e-12
	7.493644820538332e-01

 16	1.600000000000000e-01
	-2.450600606343047e-15
	7.273362429127812e-19
	-5.795648523427996e-17
	9.805797472457450e-12
	3.388456829886818e-10
	1.066670649788418e-11
	7.493644820539870e-01

 17	1.700000000000000e-01
	-2.439883619585999e-15
	7.774192936752460e-19
	-6.279116695629475e-17
	1.332813861311564e-11
	4.655007390650513e-10
	1.465499008691200e-11
	7.493644820541971e-01

 18	1.800000000000000e-01
	-2.429222283593694e-15
	8.312423043368183e-19
	-6.810107500732878e-17
	1.811307095933580e-11
	6.394695215481342e-10
	2.013390715421409e-11
	7.493644820544861e-01

 19	1.900000000000000e-01
	-2.418606989656684e-15
	8.890908589371401e-19
	-7.393621134123203e-17
	2.461202563880086e-11
	8.784097317650261e-10
	2.766022949212144e-11
	7.493644820548829e-01

 20	2.000000000000000e-01
	-2.408027479947702e-15
	9.512626472157633e-19
	-8.035142266134962e-17
	3.343732976816829e-11
	1.206558662939678e-09
	3.799847320538064e-11
	7.493644820554287e-01

 21	2.100000000000000e-01
	-2.397472793243530e-15
	1.018066134551574e-18
	-8.740675504049555e-17
	4.541931642954560e-11
	1.657178585056221e-09
	5.219828046256334e-11
	7.493644820561776e-01

 22	2.200000000000001e-01
	-2.386931208951521e-15
	1.089818928147527e-18
	-9.516782080786567e-17
	6.168359290635665e-11
	2.275907159000666e-09
	7.170054427145228e-11
	7.493644820572066e-01

 23	2.300000000000001e-01
	-2.376390189804248e-15
	1.166845804736280e-18
	-1.037061752366782e-16
	8.375552636285644e-11
	3.125345503709218e-09
	9.848290374870800e-11
	7.493644820586195e-01

 24	2.400000000000001e-01
	-2.365836323786436e-15
	1.249476357840767e-18
	-1.130996992769343e-16
	1.137014494066597e-10
	4.291337378426810e-09
	1.352591370422536e-10
	7.493644820605595e-01

 25	2.500000000000001e-01
	-2.355255266122034e-15
	1.338042214176978e-18
	-1.234329828964069e-16
	1.543193617181246e-10
	5.891556824998184e-09
	1.857522916938340e-10
	7.493644820632231e-01

 26	2.600000000000001e-01
	-2.344631682484049e-15
	1.432873759479746e-18
	-1.347977014644498e-16
	2.093962823444799e-10
	8.087243357619376e-09
	2.550686188330192e-10
	7.493644820668798e-01

 27	2.700000000000001e-01
	-2.333949195003343e-15
	1.534296304443256e-18
	-1.472929749915615e-16
	2.840552506179603e-10
	1.109922298911426e-08
	3.502091902557679e-10
	7.493644820718985e-01

 28	2.800000000000001e-01
	-2.323190333149065e-15
	1.642625612432159e-18
	-1.610256968940623e-16
	3.852227529471290e-10
	1.522975577889044e-08
	4.807693736809967e-10
	7.493644820787861e-01

 29	2.900000000000001e-01
	-2.312336492133447e-15
	1.758162703250332e-18
	-1.761108152825430e-16
	5.222576798917682e-10
	2.089228966036254e-08
	6.598943134556639e-10
	7.493644820882358e-01

 30	3.000000000000001e-01
	-2.301367902152295e-15
	1.881187842951421e-18
	-1.926715456041662e-16
	7.077965822786730e-10
	2.865191911887157e-08
	9.055827849959474e-10
	7.493644821011969e-01

 31	3.100000000000001e-01
	-2.290263612497072e-15
	2.011953630115590e-18
	-2.108394888765593e-16
	9.588880057952451e-10
	3.928030043471553e-08
	1.242464321238745e-09
	7.493644821189687e-01

 32	3.200000000000001e-01
	-2.279001495343774e-15
	2.150677096128473e-18
	-2.307546248674520e-16
	1.298512317025117e-09
	5.383003059868533e-08
	1.704218019492231e-09
	7.493644821433281e-01

 33	3.300000000000001e-01
	-2.267558274803712e-15
	2.297530752909538e-18
	-2.525651446053618e-16
	1.757614283817498e-09
	7.373513708212047e-08
	2.336859349659358e-09
	7.493644821767023e-01

 34	3.400000000000001e-01
	-2.255909587564680e-15
	2.452632548478347e-18
	-2.764270818464368e-16
	2.377815696021996e-09
	1.009464470898700e-07
	3.203197918933216e-09
	7.493644822224053e-01

 35	3.500000000000001e-01
	-2.244030082093518e-15
	2.616034730908962e-18
	-3.025036989677402e-16
	3.215026861688383e-09
	1.381133156449176e-07
	4.388869849927780e-09
	7.493644822849540e-01

 36	3.600000000000002e-01
	-2.231893563831339e-15
	2.787711676535882e-18
	-3.309645797150162e-16
	4.344241639897426e-09
	1.888266030466857e-07
	6.010479649816137e-09
	7.493644823705004e-01

 37	3.700000000000002e-01
	-2.219473193990960e-15
	2.967546810117059e-18
	-3.619843799238552e-16
	5.865883870369443e-09
	2.579420025666437e-07
	8.226555705113545e-09
	7.493644824874072e-01

 38	3.800000000000002e-01
	-2.206741749347892e-15
	3.155318833470339e-18
	-3.957411884756645e-16
	7.914176925042388e-09
	3.520078868226514e-07
	1.125223916155096e-08
	7.493644826470239e-01

 39	3.900000000000002e-01
	-2.193671949676226e-15
	3.350687583932142e-18
	-4.324144551306234e-16
	1.066813583271280e-08
	4.798277381817238e-07
	1.537889646987342e-08
	7.493644828647220e-01

 40	4.000000000000002e-01
	-2.180236858093308e-15
	3.553179962006844e-18
	-4.721824502952956e-16
	1.436593559598575e-08
	6.531937716191826e-07
	2.100017883858344e-08
	7.493644831612676e-01

 41	4.100000000000002e-01
	-2.166410357429110e-15
	3.762176493594062e-18
	-5.152192349563305e-16
	1.932359107375548e-08
	8.878351109729640e-07
	2.864645177079777e-08
	7.493644835646405e-01

 42	4.200000000000002e-01
	-2.152167702745673e-15
	3.976899218287626e-18
	-5.616911374807976e-16
	2.595909161195362e-08
	1.204630021697342e-06
	3.902998314797451e-08
	7.493644841124169e-01

 43	4.300000000000002e-01
	-2.137486146270070e-15
	4.196401710668394e-18
	-6.117527579644450e-16
	3.482336151834008e-08
	1.631135878520961e-06
	5.310379658230685e-08
	7.493644848548726e-01

 44	4.400000000000002e-01
	-2.122345626317639e-15
	4.419562132858201e-18
	-6.655425500497772e-16
	4.663965279088080e-08
	2.203490707749033e-06
	7.213763871223356e-08
	7.493644858589967e-01

 45	4.500000000000002e-01
	-2.106729506416864e-15
	4.645080268517250e-18
	-7.231780637771512e-16
	6.235319687430881e-08
	2.968733452390959e-06
	9.781502108910522e-08
	7.493644872136059e-01

 46	4.600000000000002e-01
	-2.090625345062379e-15
	4.871479484921576e-18
	-7.847509695024708e-16
	8.319311235319938e-08
	3.987572977806216e-06
	1.323556933623083e-07
	7.493644890358104e-01

 47	4.700000000000003e-01
	-2.074025670698780e-15
	5.097114495852191e-18
	-8.503220198895244e-16
	1.107486339517580e-07
	5.337604263961991e-06
	1.786680602904736e-07
	7.493644914790586e-01

 48	4.800000000000003e-01
	-2.056928731164975e-15
	5.320185642286325e-18
	-9.199161414393991e-16
	1.470616251079624e-07
	7.116920590995177e-06
	2.405358073102633e-07
	7.493644947429861e-01

 49	4.900000000000003e-01
	-2.039339182477864e-15
	5.538760164749375e-18
	-9.935178754038096e-16
	1.947369734491800e-07
	9.448000975822030e-06
	3.228421557937585e-07
	7.493644990852585e-01

 50	5.000000000000002e-01
	-2.021268679107286e-15
	5.750800613393359e-18
	-1.071067406470361e-15
	2.570717435984422e-07
	1.248166465771513e-05
	4.318335363669542e-07
	7.493645048354970e-01

 51	5.100000000000002e-01
	-2.002736327356476e-15
	5.954200142184049e-18
	-1.152457422725365e-15
	3.382027705978847e-07
	1.640078732238236e-05
	5.754219026819805e-07
	7.493645124112549e-01

 52	5.200000000000002e-01
	-1.983768965562278e-15
	6.146823985473469e-18
	-1.237531039201525e-15
	4.432706349995371e-07
	2.142338352840695e-05
	7.635213875783229e-07
	7.493645223358246e-01

 53	5.300000000000002e-01
	-1.964401239817771e-15
	6.326555952046592e-18
	-1.326080988104257e-15
	5.785956351437418e-07
	2.780460145391592e-05
	1.008410716106602e-06
	7.493645352574284e-01

 54	5.400000000000003e-01
	-1.944675451781981e-15
	6.491348334157640e-18
	-1.417850231510203e-15
	7.518585269270380e-07
	3.583717969783905e-05
	1.325108203111630e-06
	7.493645519691157e-01

 55	5.500000000000003e-01
	-1.924641165554414e-15
	6.639273261033828e-18
	-1.512534088775856e-15
	9.722756408245149e-07
	4.585000829718662e-05
	1.731742038508209e-06
	7.493645734284686e-01

 56	5.600000000000003e-01
	-1.904354572923120e-15
	6.768573269697267e-18
	-1.609783894857005e-15
	1.250754884557340e-06
	5.820462809843177e-05
	2.249895862571693e-06
	7.493646007760887e-01

 57	5.700000000000003e-01
	-1.883877629641577e-15
	6.877708754834004e-18
	-1.709212122700740e-15
	1.600016629736975e-06
	7.328977487564410e-05
	2.904909285844753e-06
	7.493646353518197e-01

 58	5.800000000000003e-01
	-1.863276988666726e-15
	6.965400014936189e-18
	-1.810398819504413e-15
	2.034662170813608e-06
	9.151436983306175e-05
	3.726115562143389e-06
	7.493646787078009e-01

 59	5.900000000000003e-01
	-1.842622768348598e-15
	7.030661838439556e-18
	-1.912899130078642e-15
	2.571172860675941e-06
	1.132995870808694e-04
	4.747003881608471e-06
	7.493647326177394e-01

 60	6.000000000000003e-01
	-1.821987203326346e-15
	7.072828957171222e-18
	-2.016251617560182e-15
	3.227825405006968e-06
	1.390706945702883e-04
	6.005300558585794e-06
	7.493647990821247e-01

 61	6.100000000000003e-01
	-1.801443232488198e-15
	7.091571204046781e-18
	-2.119987047835706e-15
	4.024512908130592e-06
	1.692492021366499e-04
	7.542969744099051e-06
	7.493648803294772e-01

 62	6.200000000000003e-01
	-1.781063081240566e-15
	7.086897802950234e-18
	-2.223637282903486e-15
	4.982466383613829e-06
	2.042454618002491e-04
	9.406137853888899e-06
	7.493649788138689e-01

 63	6.300000000000003e-01
	-1.760916894330992e-15
	7.059150838482630e-18
	-2.326743931336684e-15
	6.123876553835325e-06
	2.444513402531686e-04
	1.164494478869578e-05
	7.493650972089160e-01

 64	6.400000000000003e-01
	-1.741071470797091e-15
	7.008988547781906e-18
	-2.428866429924720e-15
	7.471419953498088e-06
	2.902320796916552e-04
	1.431331861662950e-05
	7.493652383980494e-01

 65	6.500000000000004e-01
	-1.721589144833973e-15
	6.937359597133497e-18
	-2.529589276177505e-15
	9.047696281305997e-06
	3.419161608487451e-04
	1.746865981060174e-05
	7.493654054603160e-01

 66	6.600000000000004e-01
	-1.702526846311207e-15
	6.845469914462349e-18
	-2.628528191737397e-15
	1.087458612104477e-05
	3.997820240754057e-04
	2.117140917110563e-05
	7.493656016502658e-01

 67	6.700000000000004e-01
	-1.683935363299608e-15
	6.734743921098426e-18
	-2.725335065935013e-15
	1.297254084671380e-05
	4.640409500917806e-04
	2.548446403912423e-05
	7.493658303699265e-01

 68	6.800000000000004e-01
	-1.665858817283882e-15
	6.606782133991787e-18
	-2.819701600610612e-15
	1.535982126517192e-05
	5.348162099450540e-04
	3.047240422829941e-05
	7.493660951306441e-01

 69	6.900000000000004e-01
	-1.648334350649024e-15
	6.463317098975653e-18
	-2.911361646235043e-15
	1.805170937680212e-05
	6.121196314335715e-04
	3.620049530235494e-05
	7.493663995028184e-01

 70	7.000000000000004e-01
	-1.631392016273402e-15
	6.306169484830855e-18
	-3.000092280646831e-15
	2.105972840087591e-05
	6.958278010615832e-04
	4.273345374647220e-05
	7.493667470523848e-01

 71	7.100000000000004e-01
	-1.615054851154111e-15
	6.137205943112146e-18
	-3.085713732058359e-15
	2.439091820805354e-05
	7.856610001829096e-04
	5.013398544251072e-05
	7.493671412642967e-01

 72	7.200000000000004e-01
	-1.599339110206294e-15
	5.958300050336609e-18
	-3.168088285516325e-15
	2.804722342202518e-05
	8.811684394097102e-04
	5.846114259737821e-05
	7.493675854550330e-01

 73	7.300000000000004e-01
	-1.584254632770262e-15
	5.771297327870651e-18
	-3.247118336248262e-15
	3.202505592179710e-05
	9.817232291742589e-04
	6.776857979867581e-05
	7.493680826781065e-01

 74	7.400000000000004e-01
	-1.569805312795578e-15
	5.577985008491476e-18
	-3.322743764968517e-15
	3.631508899133774e-05
	1.086529720622116e-03
	7.810282073628443e-05
	7.493686356283324e-01

 75	7.500000000000004e-01
	-1.555989643881530e-15
	5.380066909992304e-18
	-3.394938810792714e-15
	4.090232531051237e-05
	1.194644420123042e-03
	8.950166668511725e-05
	7.493692465518215e-01

 76	7.600000000000005e-01
	-1.542801311989553e-15
	5.179143502194155e-18
	-3.463708608987167e-15
	4.576645631126297e-05
	1.305009831251442e-03
	1.019928807460283e-04
	7.493699171690782e-01

 77	7.700000000000005e-01
	-1.530229811323860e-15
	4.976697024948479e-18
	-3.529085545656230e-15
	5.088249978695313e-05
	1.416498654192517e-03
	1.155932655547738e-04
	7.493706486179257e-01

 78	7.800000000000005e-01
	-1.518261062229319e-15
	4.774081336141020e-18
	-3.591125561915519e-15
	5.622167162031189e-05
	1.527964177743562e-03
	1.303082179825596e-04
	7.493714414213412e-01

 79	7.900000000000005e-01
	-1.506878013645735e-15
	4.572516040586716e-18
	-3.649904518175842e-15
	6.175242210249754e-05
	1.638291784848792e-03
	1.461317974254486e-04
	7.493722954828834e-01

 80	8.000000000000005e-01
	-1.496061216404672e-15
	4.373084369702539e-18
	-3.705514706613614e-15
	6.744155230673224e-05
	1.746446451155249e-03
	1.630472925562694e-04
	7.493732101095990e-01

 81	8.100000000000005e-01
	-1.485789357241970e-15
	4.176734242218580e-18
	-3.758061578098254e-15
	7.325532357284795e-05
	1.851511922298198e-03
	1.810282236759182e-04
	7.493741840596352e-01

 82	8.200000000000005e-01
	-1.476039746670763e-15
	3.984281930817498e-18
	-3.807660729777764e-15
	7.916048263345515e-05
	1.952718682779878e-03
	2.000396815200181e-04
	7.493752156096390e-01

 83	8.300000000000005e-01
	-1.466788756719114e-15
	3.796417780870853e-18
	-3.854435181831046e-15
	8.512514314314187e-05
	2.049459530053323e-03
	2.200398830572664e-04
	7.493763026357038e-01

 84	8.400000000000005e-01
	-1.458012206935065e-15
	3.613713467959839e-18
	-3.898512956917041e-15
	9.111948698515258e-05
	2.141293183799858e-03
	2.409818213447399e-04
	7.493774427012215e-01

 85	8.500000000000005e-01
	-1.449685698991472e-15
	3.436630333891732e-18
	-3.940024963676746e-15
	9.711627138312139e-05
	2.227937618906553e-03
	2.628148975556314e-04
	7.493786331454134e-01

 86	8.600000000000005e-01
	-1.441784901704531e-15
	3.265528400700065e-18
	-3.979103176178089e-15
	1.030911471986679e-04
	2.309255572551508e-03
	2.854864444668761e-04
	7.493798711673265e-01

 87	8.700000000000006e-01
	-1.434285789354425e-15
	3.100675724020156e-18
	-4.015879094209039e-15
	1.090228079613753e-04
	2.385234936621243e-03
	3.089430768999081e-04
	7.493811539014538e-01

 88	8.800000000000006e-01
	-1.427164836917206e-15
	2.942257807754563e-18
	-4.050482464516514e-15
	1.148929976777614e-04
	2.455966599425995e-03
	3.331318312483437e-04
	7.493824784825587e-01

 89	8.900000000000006e-01
	-1.420399176241444e-15
	2.790386858635383e-18
	-4.083040240116203e-15
	1.206864088731897e-04
	2.521621885259494e-03
	3.580010799124623e-04
	7.493838420986197e-01

 90	9.000000000000006e-01
	-1.413966717389334e-15
	2.645110710587900e-18
	-4.113675753317100e-15
	1.263905017932931e-04
	2.582431198619182e-03
	3.835012252431193e-04
	7.493852420318707e-01

 91	9.100000000000006e-01
	-1.407846239363632e-15
	2.506421293884920e-18
	-4.142508077788193e-15
	1.319952725575563e-04
	2.638664926595230e-03
	4.095851908258171e-04
	7.493866756887088e-01

 92	9.200000000000006e-01
	-1.402017454306876e-15
	2.374262562680496e-18
	-4.169651555552016e-15
	1.374929935291707e-04
	2.690617163886820e-03
	4.362087359114955e-04
	7.493881406197365e-01

 93	9.300000000000006e-01
	-1.396461049029022e-15
	2.248537826757279e-18
	-4.195215465969069e-15
	1.428779441902429e-04
	2.738592438322932e-03
	4.633306223887492e-04
	7.493896345314544e-01

 94	9.400000000000006e-01
	-1.391158707427468e-15
	2.129116459621124e-18
	-4.219303815369808e-15
	1.481461460366186e-04
	2.782895339652920e-03
	4.909126639829941e-04
	7.493911552911849e-01

 95	9.500000000000006e-01
	-1.386093117036373e-15
	2.015839975986328e-18
	-4.242015227829704e-15
	1.532951108074228e-04
	2.823822780992179e-03
	5.189196854380282e-04
	7.493927009267317e-01

 96	9.600000000000006e-01
	-1.381247962601195e-15
	1.908527487860076e-18
	-4.263442919537354e-15
	1.583236079065540e-04
	2.861658531527218e-03
	5.473194162091060e-04
	7.493942696221314e-01

 97	9.700000000000006e-01
	-1.376607909234519e-15
	1.806980560520955e-18
	-4.283674741177795e-15
	1.632314541792338e-04
	2.896669629199218e-03
	5.760823393898239e-04
	7.493958597106534e-01

 98	9.800000000000006e-01
	-1.372158577381812e-15
	1.710987498336920e-18
	-4.302793274672880e-15
	1.680193272133119e-04
	2.929104292991515e-03
	6.051815127121157e-04
	7.493974696660087e-01

 99	9.900000000000007e-01
	-1.367886511518014e-15
	1.620327096184849e-18
	-4.320875972438755e-15
	1.726886019376180e-04
	2.959190989650193e-03
	6.345923748202019e-04
	7.493990980925205e-01

 100	1.000000000000001e+00
	-1.363779144212254e-15
	1.534771895763773e-18
	-4.337995329007076e-15
	1.772412093711752e-04
	2.987138356824771e-03
	6.642925468021832e-04
	7.494007437148467e-01

 101	1.010000000000001e+00
	-1.359824756941126e-15
	1.454090987804843e-18
	-4.354219076393540e-15
	1.816795158256608e-04
	3.013135735226652e-03
	6.942616362406092e-04
	7.494024053676756e-01

