Title: ** sch_path: /home/andylithia/openmpw/project-yatsuhashi-chip1/xschem/gmid_test/nmos_test.sch
Date: Tue Jul 19 23:15:45  2022
Plotname: DC transfer characteristic
Flags: real
No. Variables: 8
No. Points: 181
Variables:
	0	v(v-sweep)	voltage
	1	@m.xm1.msky130_fd_pr__nfet_01v8[cgb]	capacitance
	2	@m.xm1.msky130_fd_pr__nfet_01v8[cgd]	capacitance
	3	@m.xm1.msky130_fd_pr__nfet_01v8[cgs]	capacitance
	4	@m.xm1.msky130_fd_pr__nfet_01v8[gds]	admittance
	5	@m.xm1.msky130_fd_pr__nfet_01v8[gm]	admittance
	6	i(@m.xm1.msky130_fd_pr__nfet_01v8[id])	current
	7	v(@m.xm1.msky130_fd_pr__nfet_01v8[vth])	voltage
Values:
 0	0.000000000000000e+00
	-9.168754205905404e-15
	-4.877761432168848e-19
	-1.508920327053330e-14
	6.778389243778607e-08
	2.676160955509021e-06
	3.265562293153027e-07
	2.381538000165287e-01

 1	1.000000000000000e-02
	-9.069437024110309e-15
	-5.000533472380696e-19
	-1.531896259661333e-14
	7.340433287745245e-08
	2.901202247191159e-06
	3.544279860658100e-07
	2.381538020817836e-01

 2	2.000000000000000e-02
	-8.971243045702255e-15
	-5.126114642505518e-19
	-1.554881945929756e-14
	7.946981040584896e-08
	3.145034482718619e-06
	3.846428314406282e-07
	2.381538043220091e-01

 3	3.000000000000000e-02
	-8.874195881497005e-15
	-5.254557785300284e-19
	-1.577868709849246e-14
	8.601315773817352e-08
	3.409254115270860e-06
	4.173965418105627e-07
	2.381538067520514e-01

 4	4.000000000000000e-02
	-8.778318657533615e-15
	-5.385916463906098e-19
	-1.600847874889403e-14
	9.306936849799871e-08
	3.695601635920590e-06
	4.529015667985322e-07
	2.381538093880487e-01

 5	5.000000000000000e-02
	-8.683633968330052e-15
	-5.520244972047080e-19
	-1.623810775858065e-14
	1.006757128725932e-07
	4.005975866473716e-06
	4.913885398920673e-07
	2.381538122475756e-01

 6	6.000000000000000e-02
	-8.590163831740724e-15
	-5.657598344747192e-19
	-1.646748770724964e-14
	1.088718569501668e-07
	4.342449770284998e-06
	5.331079394459874e-07
	2.381538153497514e-01

 7	7.000000000000001e-02
	-8.497929645527481e-15
	-5.798032369581903e-19
	-1.669653252376917e-14
	1.176999856287445e-07
	4.707287935071538e-06
	5.783319160140915e-07
	2.381538187154162e-01

 8	8.000000000000000e-02
	-8.406952145748690e-15
	-5.941603598484353e-19
	-1.692515660272598e-14
	1.272049289621075e-07
	5.102965893558186e-06
	6.273563035484374e-07
	2.381538223672779e-01

 9	9.000000000000000e-02
	-8.317251367065391e-15
	-6.088369360121528e-19
	-1.715327491964836e-14
	1.374342917825117e-07
	5.532191459662108e-06
	6.805028337216266e-07
	2.381538263301068e-01

 10	9.999999999999999e-02
	-8.228846605056314e-15
	-6.238387772857946e-19
	-1.738080314459260e-14
	1.484385864132031e-07
	5.997928269688617e-06
	7.381215744637949e-07
	2.381538306309357e-01

 11	1.100000000000000e-01
	-8.141756380626302e-15
	-6.391717758322732e-19
	-1.760765775378655e-14
	1.602713682558135e-07
	6.503421729429570e-06
	8.005936157577478e-07
	2.381538352992860e-01

 12	1.200000000000000e-01
	-8.055998406584969e-15
	-6.548419055597211e-19
	-1.783375613903262e-14
	1.729893740087341e-07
	7.052227578865470e-06
	8.683340277988546e-07
	2.381538403674239e-01

 13	1.300000000000000e-01
	-7.971589556464484e-15
	-6.708552236037550e-19
	-1.805901671458273e-14
	1.866526622425723e-07
	7.648243296060738e-06
	9.417951187935267e-07
	2.381538458706280e-01

 14	1.400000000000000e-01
	-7.888545835636910e-15
	-6.872178718747330e-19
	-1.828335902120789e-14
	2.013247560277284e-07
	8.295742570436418e-06
	1.021470021929367e-06
	2.381538518475041e-01

 15	1.500000000000000e-01
	-7.806882354783165e-15
	-7.039360786715890e-19
	-1.850670382719773e-14
	2.170727872771470e-07
	8.999413082496814e-06
	1.107896643387634e-06
	2.381538583403239e-01

 16	1.600000000000000e-01
	-7.726613305756646e-15
	-7.210161603636103e-19
	-1.872897322603864e-14
	2.339676424343690e-07
	9.764397831795446e-06
	1.201662005664224e-06
	2.381538653954097e-01

 17	1.700000000000000e-01
	-7.647751939875854e-15
	-7.384645231415525e-19
	-1.895009073053410e-14
	2.520841091031803e-07
	1.059634025692186e-05
	1.303407022895061e-06
	2.381538730635319e-01

 18	1.800000000000000e-01
	-7.570310548671526e-15
	-7.562876648392970e-19
	-1.916998136314364e-14
	2.715010231802609e-07
	1.150143338997230e-05
	1.413831747314172e-06
	2.381538814004026e-01

 19	1.900000000000000e-01
	-7.494300447104191e-15
	-7.744921768278190e-19
	-1.938857174233770e-14
	2.923014160168828e-07
	1.248647328270385e-05
	1.533701128375019e-06
	2.381538904671655e-01

 20	2.000000000000000e-01
	-7.419731959259959e-15
	-7.930847459821041e-19
	-1.960579016477714e-14
	3.145726610988710e-07
	1.355891693160839e-05
	1.663851328388781e-06
	2.381539003309720e-01

 21	2.100000000000000e-01
	-7.346614406522604e-15
	-8.120721567226809e-19
	-1.982156668314818e-14
	3.384066196969317e-07
	1.472694491375624e-05
	1.805196640733302e-06
	2.381539110656079e-01

 22	2.200000000000001e-01
	-7.274956098211865e-15
	-8.314612931331045e-19
	-2.003583317949896e-14
	3.638997849010198e-07
	1.599952892358471e-05
	1.958737058699304e-06
	2.381539227521840e-01

 23	2.300000000000001e-01
	-7.204764324668846e-15
	-8.512591411540189e-19
	-2.024852343394411e-14
	3.911534234134582e-07
	1.738650437200152e-05
	2.125566544802613e-06
	2.381539354798988e-01

 24	2.400000000000001e-01
	-7.136045352761353e-15
	-8.714727908555606e-19
	-2.045957318862085e-14
	4.202737144353782e-07
	1.889864817231030e-05
	2.306882051824237e-06
	2.381539493468907e-01

 25	2.500000000000001e-01
	-7.068804423773670e-15
	-8.921094387889914e-19
	-2.066892020680177e-14
	4.513718849404786e-07
	2.054776179163524e-05
	2.503993347861635e-06
	2.381539644611517e-01

 26	2.600000000000001e-01
	-7.003045753637555e-15
	-9.131763904186306e-19
	-2.087650432708551e-14
	4.845643405882264e-07
	2.234675959075619e-05
	2.718333698185967e-06
	2.381539809415506e-01

 27	2.700000000000001e-01
	-6.938772535453956e-15
	-9.346810626353642e-19
	-2.108226751260798e-14
	5.199727914863940e-07
	2.430976240866871e-05
	2.951471456601952e-06
	2.381539989189602e-01

 28	2.800000000000001e-01
	-6.875986944247519e-15
	-9.566309863528008e-19
	-2.128615389523510e-14
	5.577243719697608e-07
	2.645219626984374e-05
	3.205122618183343e-06
	2.381540185374774e-01

 29	2.900000000000001e-01
	-6.814690143889740e-15
	-9.790338091873498e-19
	-2.148810981471636e-14
	5.979517535180340e-07
	2.879089600125656e-05
	3.481164383586389e-06
	2.381540399557672e-01

 30	3.000000000000001e-01
	-6.754882296120080e-15
	-1.001897298222893e-18
	-2.168808385279710e-14
	6.407932498919382e-07
	3.134421344206099e-05
	3.781649782497491e-06
	2.381540633485411e-01

 31	3.100000000000001e-01
	-6.696562571588840e-15
	-1.025229342861859e-18
	-2.188602686230627e-14
	6.863929135222007e-07
	3.413212981072608e-05
	4.108823400014448e-06
	2.381540889081516e-01

 32	3.200000000000001e-01
	-6.639729162840277e-15
	-1.049037957763444e-18
	-2.208189199125213e-14
	7.349006221415195e-07
	3.717637166209006e-05
	4.465138244748065e-06
	2.381541168463424e-01

 33	3.300000000000001e-01
	-6.584379299149708e-15
	-1.073331285870006e-18
	-2.227563470197703e-14
	7.864721546056399e-07
	4.050052971998428e-05
	4.853273791023548e-06
	2.381541473961496e-01

 34	3.400000000000001e-01
	-6.530509263124127e-15
	-1.098117601523626e-18
	-2.246721278543724e-14
	8.412692548063084e-07
	4.413017970993182e-05
	5.276155219611944e-06
	2.381541808139584e-01

 35	3.500000000000001e-01
	-6.478114408972201e-15
	-1.123405313672988e-18
	-2.265658637069036e-14
	8.994596825363961e-07
	4.809300414137031e-05
	5.736973871788040e-06
	2.381542173817257e-01

 36	3.600000000000002e-01
	-6.427189182346529e-15
	-1.149202969172777e-18
	-2.284371792968539e-14
	9.612172501270652e-07
	5.241891380076928e-05
	6.239208920060248e-06
	2.381542574094026e-01

 37	3.700000000000002e-01
	-6.377727141657750e-15
	-1.175519256176584e-18
	-2.302857227746816e-14
	1.026721843638709e-06
	5.714016751722938e-05
	6.786650245526553e-06
	2.381543012375004e-01

 38	3.800000000000002e-01
	-6.329720980759253e-15
	-1.202363007624557e-18
	-2.321111656792200e-14
	1.096159427352152e-06
	6.229148855246109e-05
	7.383422496362437e-06
	2.381543492398909e-01

 39	3.900000000000002e-01
	-6.283162552898193e-15
	-1.229743204827488e-18
	-2.339132028518134e-14
	1.169722030275839e-06
	6.791017574997311e-05
	8.034010284368671e-06
	2.381544018267648e-01

 40	4.000000000000002e-01
	-6.238042895828452e-15
	-1.257668981148698e-18
	-2.356915523086229e-14
	1.247607713358640e-06
	7.403620735682090e-05
	8.743284456723507e-06
	2.381544594478094e-01

 41	4.100000000000002e-01
	-6.194352257980692e-15
	-1.286149625785284e-18
	-2.374459550726584e-14
	1.330020516078308e-06
	8.071233520923446e-05
	9.516529358083819e-06
	2.381545225955858e-01

 42	4.200000000000002e-01
	-6.152080125583493e-15
	-1.315194587650307e-18
	-2.391761749671918e-14
	1.417170381063444e-06
	8.798416675528119e-05
	1.035947097397076e-05
	2.381545918090875e-01

 43	4.300000000000002e-01
	-6.111215250631448e-15
	-1.344813479357931e-18
	-2.408819983722569e-14
	1.509273055403459e-06
	9.590023217867050e-05
	1.127830582002330e-05
	2.381546676775038e-01

 44	4.400000000000002e-01
	-6.071745679595700e-15
	-1.375016081312639e-18
	-2.425632339460349e-14
	1.606549967308266e-06
	1.045120336938696e-04
	1.227973041333324e-05
	2.381547508441713e-01

 45	4.500000000000002e-01
	-6.033658782774293e-15
	-1.405812345905088e-18
	-2.442197123129689e-14
	1.709228076798904e-06
	1.138740739105212e-04
	1.337097113186670e-05
	2.381548420106894e-01

 46	4.600000000000002e-01
	-5.996941284181321e-15
	-1.437212401816013e-18
	-2.458512857204934e-14
	1.817539699143276e-06
	1.240438600221243e-04
	1.455981423618715e-05
	2.381549419411998e-01

 47	4.700000000000003e-01
	-5.961579291875594e-15
	-1.469226558430406e-18
	-2.474578276663135e-14
	1.931722299800339e-06
	1.350818804679776e-04
	1.585463579465520e-05
	2.381550514668079e-01

 48	4.800000000000003e-01
	-5.927558328632174e-15
	-1.501865310364280e-18
	-2.490392324981854e-14
	2.052018259702760e-06
	1.470515506569217e-04
	1.726443121940623e-05
	2.381551714900902e-01

 49	4.900000000000003e-01
	-5.894863362862845e-15
	-1.535139342105603e-18
	-2.505954149881679e-14
	2.178674609793880e-06
	1.600191243350853e-04
	1.879884408618911e-05
	2.381553029897137e-01

 50	5.000000000000002e-01
	-5.863478839694267e-15
	-1.569059532772457e-18
	-2.521263098833267e-14
	2.311942733842979e-06
	1.740535672365497e-04
	2.046819387719286e-05
	2.381554470250637e-01

 51	5.100000000000002e-01
	-5.833388712116068e-15
	-1.603636960990026e-18
	-2.536318714348679e-14
	2.452078038693238e-06
	1.892263897841015e-04
	2.228350225294549e-05
	2.381556047408752e-01

 52	5.200000000000002e-01
	-5.804576472114550e-15
	-1.638882909890058e-18
	-2.551120729076667e-14
	2.599339591252877e-06
	2.056114358153731e-04
	2.425651742801932e-05
	2.381557773718009e-01

 53	5.300000000000002e-01
	-5.777025181711084e-15
	-1.674808872233488e-18
	-2.565669060721455e-14
	2.753989721722227e-06
	2.232846246050554e-04
	2.639973619645006e-05
	2.381559662468600e-01

 54	5.400000000000003e-01
	-5.750717503828453e-15
	-1.711426555661332e-18
	-2.579963806804201e-14
	2.916293592758861e-06
	2.423236438427771e-04
	2.872642312737505e-05
	2.381561727936866e-01

 55	5.500000000000003e-01
	-5.725635732912054e-15
	-1.748747888074419e-18
	-2.594005239286109e-14
	3.086518734521348e-06
	2.628075917135764e-04
	3.125062643039645e-05
	2.381563985425279e-01

 56	5.600000000000003e-01
	-5.701761825237025e-15
	-1.786785023146605e-18
	-2.607793799071698e-14
	3.264934545798965e-06
	2.848165668164003e-04
	3.398718997456882e-05
	2.381566451298695e-01

 57	5.700000000000003e-01
	-5.679077428836586e-15
	-1.825550345973098e-18
	-2.621330090410296e-14
	3.451811761729204e-06
	3.084312053462763e-04
	3.695176093571140e-05
	2.381569143016446e-01

 58	5.800000000000003e-01
	-5.657563912991000e-15
	-1.865056478858368e-18
	-2.634614875213325e-14
	3.647421888928264e-06
	3.337321657556443e-04
	4.016079254498641e-05
	2.381572079159077e-01

 59	5.900000000000003e-01
	-5.637202397220724e-15
	-1.905316287245497e-18
	-2.647649067304434e-14
	3.852036609208063e-06
	3.607995619943678e-04
	4.363154141831597e-05
	2.381575279448592e-01

 60	6.000000000000003e-01
	-5.617973779731750e-15
	-1.946342885791756e-18
	-2.660433726618814e-14
	4.065927153424867e-06
	3.897123473974870e-04
	4.738205896213318e-05
	2.381578764761692e-01

 61	6.100000000000003e-01
	-5.599858765265192e-15
	-1.988149644592629e-18
	-2.672970053367547e-14
	4.289363647397684e-06
	4.205476523327238e-04
	5.143117637700904e-05
	2.381582557134453e-01

 62	6.200000000000003e-01
	-5.582837892307215e-15
	-2.030750195558687e-18
	-2.685259382182091e-14
	4.522614432242568e-06
	4.533800798197487e-04
	5.579848281747266e-05
	2.381586679757626e-01

 63	6.300000000000003e-01
	-5.566891559620160e-15
	-2.074158438948651e-18
	-2.697303176253239e-14
	4.765945361887980e-06
	4.882809644705967e-04
	6.050429631434835e-05
	2.381591156961742e-01

 64	6.400000000000003e-01
	-5.552000052058905e-15
	-2.118388550062492e-18
	-2.709103021478372e-14
	5.019619080961440e-06
	5.253176012520141e-04
	6.556962712543747e-05
	2.381596014190837e-01

 65	6.500000000000004e-01
	-5.538143565641227e-15
	-2.163454986098608e-18
	-2.720660620629853e-14
	5.283894286659728e-06
	5.645524517089164e-04
	7.101613325134245e-05
	2.381601277964114e-01

 66	6.600000000000004e-01
	-5.525302231844311e-15
	-2.209372493178741e-18
	-2.731977787556899e-14
	5.559024978628660e-06
	6.060423363841299e-04
	7.686606793542403e-05
	2.381606975824704e-01

 67	6.700000000000004e-01
	-5.513456141103688e-15
	-2.256156113544950e-18
	-2.743056441432331e-14
	5.845259701273600e-06
	6.498376231910717e-04
	8.314221905967020e-05
	2.381613136275038e-01

 68	6.800000000000004e-01
	-5.502585365494284e-15
	-2.303821192933016e-18
	-2.753898601054986e-14
	6.142840783292272e-06
	6.959814224100882e-04
	8.986784045077083e-05
	2.381619788698419e-01

 69	6.900000000000004e-01
	-5.492669980576852e-15
	-2.352383388125848e-18
	-2.764506379217768e-14
	6.452003579555138e-06
	7.445087997516557e-04
	9.706657522161866e-05
	2.381626963266410e-01

 70	7.000000000000004e-01
	-5.483690086396397e-15
	-2.401858674692036e-18
	-2.774881977150639e-14
	6.772975720750104e-06
	7.954460195281552e-04
	1.047623713912752e-04
	2.381634690832139e-01

 71	7.100000000000004e-01
	-5.475625827622956e-15
	-2.452263354913231e-18
	-2.785027679047000e-14
	7.105976376444676e-06
	8.488098303687180e-04
	1.129793901491513e-04
	2.381643002810003e-01

 72	7.200000000000004e-01
	-5.468457412826876e-15
	-2.503614065905342e-18
	-2.794945846681458e-14
	7.451215537397296e-06
	9.046068060717727e-04
	1.217419072546801e-04
	2.381651931041665e-01

 73	7.300000000000004e-01
	-5.462165132885571e-15
	-2.555927787937735e-18
	-2.804638914125960e-14
	7.808893323056438e-06
	9.628327540930399e-04
	1.310742081894671e-04
	2.381661507649847e-01

 74	7.400000000000004e-01
	-5.456729378519710e-15
	-2.609221852955563e-18
	-2.814109382570934e-14
	8.179199320221019e-06
	1.023472203796328e-03
	1.410004778023137e-04
	2.381671764880309e-01

 75	7.500000000000004e-01
	-5.452130656960683e-15
	-2.663513953309090e-18
	-2.823359815257183e-14
	8.562311958788827e-06
	1.086497985939087e-03
	1.515446853056423e-04
	2.381682734933767e-01

 76	7.600000000000005e-01
	-5.448349607753047e-15
	-2.718822150695875e-18
	-2.832392832523835e-14
	8.958397930391481e-06
	1.151870913922299e-03
	1.627304655919834e-04
	2.381694449789100e-01

 77	7.700000000000005e-01
	-5.445367017698163e-15
	-2.775164885319944e-18
	-2.841211106976950e-14
	9.367611655499762e-06
	1.219539576110083e-03
	1.745809979383271e-04
	2.381706941019673e-01

 78	7.800000000000005e-01
	-5.443163834947370e-15
	-2.832560985273557e-18
	-2.849817358782887e-14
	9.790094804285153e-06
	1.289440247033993e-03
	1.871188832516706e-04
	2.381720239604733e-01

 79	7.900000000000005e-01
	-5.441721182255129e-15
	-2.891029676146760e-18
	-2.858214351089978e-14
	1.022597587614219e-05
	1.361496923563801e-03
	2.003660210783365e-04
	2.381734375738296e-01

 80	8.000000000000005e-01
	-5.441020369404282e-15
	-2.950590590869701e-18
	-2.866404885581518e-14
	1.067536984231754e-05
	1.435621490184003e-03
	2.143434876504520e-04
	2.381749378637551e-01

 81	8.100000000000005e-01
	-5.441042904817238e-15
	-3.011263779794211e-18
	-2.874391798162674e-14
	1.113837785556058e-05
	1.511714015404075e-03
	2.290714162733829e-04
	2.381765276353266e-01

 82	8.200000000000005e-01
	-5.441770506368727e-15
	-3.073069721020250e-18
	-2.882177954783345e-14
	1.161508703011481e-05
	1.589663179098855e-03
	2.445688813664945e-04
	2.381782095584929e-01

 83	8.300000000000005e-01
	-5.443185111416828e-15
	-3.136029330973470e-18
	-2.889766247398684e-14
	1.210557029472034e-05
	1.669346828277540e-03
	2.608537874555119e-04
	2.381799861502621e-01

 84	8.400000000000005e-01
	-5.445268886070024e-15
	-3.200163975240462e-18
	-2.897159590068532e-14
	1.260988632060478e-05
	1.750632656473050e-03
	2.779427643774886e-04
	2.381818597578235e-01

 85	8.500000000000005e-01
	-5.448004233710252e-15
	-3.265495479669887e-18
	-2.904360915196576e-14
	1.312807952571378e-05
	1.833378999688067e-03
	2.958510698992841e-04
	2.381838325428457e-01

 86	8.600000000000005e-01
	-5.451373802790993e-15
	-3.332046141744532e-18
	-2.911373169909823e-14
	1.366018015569038e-05
	1.917435739689980e-03
	3.145925008683351e-04
	2.381859064671260e-01

 87	8.700000000000006e-01
	-5.455360493932159e-15
	-3.399838742235561e-18
	-2.918199312578454e-14
	1.420620444136195e-05
	2.002645303471367e-03
	3.341793139117550e-04
	2.381880832797905e-01

 88	8.800000000000006e-01
	-5.459947466333010e-15
	-3.468896557144989e-18
	-2.924842309475944e-14
	1.476615483174971e-05
	2.088843745938900e-03
	3.546221565783737e-04
	2.381903645062371e-01

 89	8.900000000000006e-01
	-5.465118143525312e-15
	-3.539243369946168e-18
	-2.931305131578947e-14
	1.534002030089436e-05
	2.175861901408999e-03
	3.759300096808502e-04
	2.381927514389131e-01

 90	9.000000000000006e-01
	-5.470856218489427e-15
	-3.610903484132667e-18
	-2.937590751506159e-14
	1.592777672609781e-05
	2.263526588311204e-03
	3.981101414441534e-04
	2.381952451300444e-01

 91	9.100000000000006e-01
	-5.477145658156216e-15
	-3.683901736084812e-18
	-2.943702140595141e-14
	1.652938733453185e-05
	2.351661850659932e-03
	4.211680739059370e-04
	2.381978463864061e-01

 92	9.200000000000006e-01
	-5.483970707318181e-15
	-3.758263508265467e-18
	-2.949642266115728e-14
	1.714480321456572e-05
	2.440090219370783e-03
	4.451075618469876e-04
	2.382005557661521e-01

 93	9.300000000000006e-01
	-5.491315891972883e-15
	-3.834014742755933e-18
	-2.955414088618526e-14
	1.777396388762655e-05
	2.528633976376472e-03
	4.699305843597346e-04
	2.382033735777062e-01

 94	9.400000000000006e-01
	-5.499166022122443e-15
	-3.911181955144290e-18
	-2.961020559416633e-14
	1.841679793593385e-05
	2.617116404736361e-03
	4.956373489932494e-04
	2.382062998807115e-01

 95	9.500000000000006e-01
	-5.507506194051920e-15
	-3.989792248779650e-18
	-2.966464618198651e-14
	1.907322368104867e-05
	2.705363008518711e-03
	5.222263082479678e-04
	2.382093344889253e-01

 96	9.600000000000006e-01
	-5.516321792110770e-15
	-4.069873329403673e-18
	-2.971749190770648e-14
	1.974314990784897e-05
	2.793202687140764e-03
	5.496941880355934e-04
	2.382124769750494e-01

 97	9.700000000000006e-01
	-5.525598490019537e-15
	-4.151453520174972e-18
	-2.976877186924775e-14
	2.042647662829474e-05
	2.880468850047621e-03
	5.780360275727530e-04
	2.382157266773113e-01

 98	9.800000000000006e-01
	-5.535322251725329e-15
	-4.234561777100299e-18
	-2.981851498431875e-14
	2.112309587916926e-05
	2.967000459053810e-03
	6.072452300431880e-04
	2.382190827076948e-01

 99	9.900000000000007e-01
	-5.545479331828577e-15
	-4.319227704886669e-18
	-2.986674997155343e-14
	2.183289254788180e-05
	3.052642987317142e-03
	6.373136232451032e-04
	2.382225439616771e-01

 100	1.000000000000001e+00
	-5.556056275603205e-15
	-4.405481573230708e-18
	-2.991350533283330e-14
	2.255574522039141e-05
	3.137249285712932e-03
	6.682315293395701e-04
	2.382261091292782e-01

 101	1.010000000000001e+00
	-5.567039918632246e-15
	-4.493354333560352e-18
	-2.995880933676293e-14
