Title: ** sch_path: /home/andylithia/openmpw/project-yatsuhashi-chip1/xschem/gmid_test/nmos_test.sch
Date: Sun Jul 17 22:51:45  2022
Plotname: DC transfer characteristic
Flags: real
No. Variables: 8
No. Points: 181
Variables:
	0	v(v-sweep)	voltage
	1	@m.xm1.msky130_fd_pr__nfet_01v8[cgb]	capacitance
	2	@m.xm1.msky130_fd_pr__nfet_01v8[cgd]	capacitance
	3	@m.xm1.msky130_fd_pr__nfet_01v8[cgs]	capacitance
	4	@m.xm1.msky130_fd_pr__nfet_01v8[gds]	admittance
	5	@m.xm1.msky130_fd_pr__nfet_01v8[gm]	admittance
	6	i(@m.xm1.msky130_fd_pr__nfet_01v8[id])	current
	7	v(@m.xm1.msky130_fd_pr__nfet_01v8[vth])	voltage
Values:
 0	0.000000000000000e+00
	-5.993727393344020e-15
	-1.227369604539934e-18
	-7.721795504323576e-15
	4.512084917237715e-08
	1.551356202164061e-06
	1.690252713962545e-07
	3.006207130091679e-01

 1	1.000000000000000e-02
	-5.928781444099950e-15
	-1.266654975209861e-18
	-7.867232711852406e-15
	4.937574334099728e-08
	1.698234487152475e-06
	1.852622697590986e-07
	3.006207147853157e-01

 2	2.000000000000000e-02
	-5.864360586828500e-15
	-1.307165381478965e-18
	-8.013289200845690e-15
	5.401803102680690e-08
	1.858852696086213e-06
	2.030357232689297e-07
	3.006207167295379e-01

 3	3.000000000000000e-02
	-5.800484896593235e-15
	-1.348936121303049e-18
	-8.159901057915688e-15
	5.908112863534493e-08
	2.034499873977089e-06
	2.224893764401405e-07
	3.006207188575605e-01

 4	4.000000000000000e-02
	-5.737174378376102e-15
	-1.392003440799195e-18
	-8.307003519506192e-15
	6.460109695455896e-08
	2.226590720545776e-06
	2.437804818920270e-07
	3.006207211865847e-01

 5	5.000000000000000e-02
	-5.674448919440445e-15
	-1.436404563217532e-18
	-8.454531076889931e-15
	7.061682144657903e-08
	2.436678968818819e-06
	2.670811225284538e-07
	3.006207237354400e-01

 6	6.000000000000000e-02
	-5.612328242165762e-15
	-1.482177719169341e-18
	-8.602417583484370e-15
	7.717020153264814e-08
	2.666472348189714e-06
	2.925796752686016e-07
	3.006207265247274e-01

 7	7.000000000000001e-02
	-5.550831857507554e-15
	-1.529362178164782e-18
	-8.750596364136042e-15
	8.430634896883255e-08
	2.917849327077949e-06
	3.204824331311710e-07
	3.006207295770216e-01

 8	8.000000000000000e-02
	-5.489979019233392e-15
	-1.577998281517877e-18
	-8.899000326016764e-15
	9.207379537292730e-08
	3.192877851589724e-06
	3.510154045311945e-07
	3.006207329170463e-01

 9	9.000000000000000e-02
	-5.429788679084857e-15
	-1.628127476675081e-18
	-9.047562070761515e-15
	1.005247089223246e-07
	3.493836319175799e-06
	3.844263109239697e-07
	3.006207365719025e-01

 10	9.999999999999999e-02
	-5.370279443010972e-15
	-1.679792353027428e-18
	-9.196214007474196e-15
	1.097151201991038e-07
	3.823237050043528e-06
	4.209868064386245e-07
	3.006207405713093e-01

 11	1.100000000000000e-01
	-5.311469528615138e-15
	-1.733036679266864e-18
	-9.344888466220632e-15
	1.197051571121549e-07
	4.183852543763445e-06
	4.609949458937572e-07
	3.006207449478755e-01

 12	1.200000000000000e-01
	-5.253376723952569e-15
	-1.787905442349047e-18
	-9.493517811625932e-15
	1.305592887772542e-07
	4.578744833795554e-06
	5.047779305878596e-07
	3.006207497373987e-01

 13	1.300000000000000e-01
	-5.196018347809218e-15
	-1.844444888127479e-18
	-9.642034556192623e-15
	1.423465781849426e-07
	5.011298278116630e-06
	5.526951645114351e-07
	3.006207549791982e-01

 14	1.400000000000000e-01
	-5.139411211587252e-15
	-1.902702563724427e-18
	-9.790371472956615e-15
	1.551409434332471e-07
	5.485256149215013e-06
	6.051416571350313e-07
	3.006207607164964e-01

 15	1.500000000000000e-01
	-5.083571582914099e-15
	-1.962727361707762e-18
	-9.938461707103225e-15
	1.690214272483143e-07
	6.004761410761534e-06
	6.625518126811979e-07
	3.006207669968171e-01

 16	1.600000000000000e-01
	-5.028515151085122e-15
	-2.024569566142980e-18
	-1.008623888616866e-14
	1.840724744611321e-07
	6.574402090435161e-06
	7.254036497730851e-07
	3.006207738724626e-01

 17	1.700000000000000e-01
	-4.974256994440670e-15
	-2.088280900593864e-18
	-1.023363722846283e-14
	2.003842170537547e-07
	7.199261677712989e-06
	7.942234995464992e-07
	3.006207814010197e-01

 18	1.800000000000000e-01
	-4.920811549769757e-15
	-2.153914578146238e-18
	-1.038059164935704e-14
	2.180527663338712e-07
	7.884974990753438e-06
	8.695912346792832e-07
	3.006207896459352e-01

 19	1.900000000000000e-01
	-4.868192583822717e-15
	-2.221525353532419e-18
	-1.052703786509293e-14
	2.371805117432951e-07
	8.637789966482921e-06
	9.521460862872929e-07
	3.006207986771514e-01

 20	2.000000000000000e-01
	-4.816413167005500e-15
	-2.291169577436715e-18
	-1.067291249378227e-14
	2.578764257543407e-07
	9.464635831095451e-06
	1.042593110197637e-06
	3.006208085718154e-01

 21	2.100000000000000e-01
	-4.765485649317839e-15
	-2.362905253065156e-18
	-1.081815315328272e-14
	2.802563742589757e-07
	1.037319810266446e-05
	1.141710368660750e-06
	3.006208194150631e-01

 22	2.200000000000001e-01
	-4.715421638586956e-15
	-2.436792095065424e-18
	-1.096269855565137e-14
	3.044434318095985e-07
	1.137200086151082e-05
	1.250356898006892e-06
	3.006208313008943e-01

 23	2.300000000000001e-01
	-4.666231981037862e-15
	-2.512891590887257e-18
	-1.110648859789681e-14
	3.305682010281847e-07
	1.247049669525582e-05
	1.369481536974756e-06
	3.006208443331357e-01

 24	2.400000000000001e-01
	-4.617926744230290e-15
	-2.591267064676175e-18
	-1.124946444876988e-14
	3.587691354627353e-07
	1.367916468180782e-05
	1.500132694300838e-06
	3.006208586265080e-01

 25	2.500000000000001e-01
	-4.570515202381648e-15
	-2.671983743797206e-18
	-1.139156863135449e-14
	3.891928651373056e-07
	1.500961671244581e-05
	1.643469137497063e-06
	3.006208743078184e-01

 26	2.600000000000001e-01
	-4.524005824084312e-15
	-2.755108828091189e-18
	-1.153274510124216e-14
	4.219945240150476e-07
	1.647471237611467e-05
	1.800771887374504e-06
	3.006208915172492e-01

 27	2.700000000000001e-01
	-4.478406262415082e-15
	-2.840711561967486e-18
	-1.167293932009641e-14
	4.573380785726320e-07
	1.808868252239052e-05
	1.973457304577204e-06
	3.006209104098028e-01

 28	2.800000000000001e-01
	-4.433723347423987e-15
	-2.928863309445390e-18
	-1.181209832443753e-14
	4.953966566706321e-07
	1.986726149172009e-05
	2.163091454937610e-06
	3.006209311568628e-01

 29	2.900000000000001e-01
	-4.389963080979514e-15
	-3.019637632257825e-18
	-1.195017078950120e-14
	5.363528758971895e-07
	2.182782784489974e-05
	2.371405839583189e-06
	3.006209539479237e-01

 30	3.000000000000001e-01
	-4.347130633937357e-15
	-3.113110371139204e-18
	-1.208710708805039e-14
	5.803991705629638e-07
	2.398955323701527e-05
	2.600314573127690e-06
	3.006209789924728e-01

 31	3.100000000000001e-01
	-4.305230345590307e-15
	-3.209359730423825e-18
	-1.222285934404344e-14
	6.277381165335757e-07
	2.637355886212255e-05
	2.851933088654764e-06
	3.006210065220333e-01

 32	3.200000000000001e-01
	-4.264265725347795e-15
	-3.308466366086659e-18
	-1.235738148108652e-14
	6.785827531019351e-07
	2.900307864219598e-05
	3.128598441216747e-06
	3.006210367923931e-01

 33	3.300000000000001e-01
	-4.224239456585296e-15
	-3.410513477367105e-18
	-1.249062926562262e-14
	7.331569011273034e-07
	3.190362804628513e-05
	3.432891271884068e-06
	3.006210700860056e-01

 34	3.400000000000001e-01
	-4.185153402595478e-15
	-3.515586902119636e-18
	-1.262256034483387e-14
	7.916954767003249e-07
	3.510317710312929e-05
	3.767659481638737e-06
	3.006211067145845e-01

 35	3.500000000000001e-01
	-4.147008614565808e-15
	-3.623775216046713e-18
	-1.275313427925726e-14
	8.544447996338966e-07
	3.863232581340686e-05
	4.136043648261671e-06
	3.006211470218852e-01

 36	3.600000000000002e-01
	-4.109805341500604e-15
	-3.735169835973368e-18
	-1.288231257013636e-14
	9.216628961281015e-07
	4.252447977820790e-05
	4.541504199481140e-06
	3.006211913866906e-01

 37	3.700000000000002e-01
	-4.073543041999137e-15
	-3.849865127334040e-18
	-1.301005868155513e-14
	9.936197950136821e-07
	4.681602344149783e-05
	4.987850331720554e-06
	3.006212402259635e-01

 38	3.800000000000002e-01
	-4.038220397796326e-15
	-3.967958516048681e-18
	-1.313633805741915e-14
	1.070597817041331e-06
	5.154648790109273e-05
	5.479270635533290e-06
	3.006212939982128e-01

 39	3.900000000000002e-01
	-4.003835328967454e-15
	-4.089550604975164e-18
	-1.326111813337159e-14
	1.152891856754121e-06
	5.675870978172056e-05
	6.020365356036158e-06
	3.006213532070278e-01

 40	4.000000000000002e-01
	-3.970385010694513e-15
	-4.214745295136420e-18
	-1.338436834374967e-14
	1.240809656555612e-06
	6.249897719364912e-05
	6.616180179207580e-06
	3.006214184047650e-01

 41	4.100000000000002e-01
	-3.937865891488512e-15
	-4.343649911926262e-18
	-1.350606012370418e-14
	1.334672072665878e-06
	6.881715833190491e-05
	7.272241392765212e-06
	3.006214901964161e-01

 42	4.200000000000002e-01
	-3.906273712759053e-15
	-4.476375336514267e-18
	-1.362616690662319e-14
	1.434813332741595e-06
	7.576680781730161e-05
	7.994592223566392e-06
	3.006215692435859e-01

 43	4.300000000000002e-01
	-3.875603529620945e-15
	-4.613036142677379e-18
	-1.374466411701445e-14
	1.541581285020937e-06
	8.340524545648218e-05
	8.789830102293703e-06
	3.006216562685657e-01

 44	4.400000000000002e-01
	-3.845849732826119e-15
	-4.753750739298185e-18
	-1.386152915901541e-14
	1.655337638938947e-06
	9.179360172143530e-05
	9.665144550989478e-06
	3.006217520584946e-01

 45	4.500000000000002e-01
	-3.817006071708538e-15
	-4.898641518784320e-18
	-1.397674140071234e-14
	1.776458197241684e-06
	1.009968239389275e-04
	1.062835533035805e-05
	3.006218574695270e-01

 46	4.600000000000002e-01
	-3.789065678029709e-15
	-5.047835011672920e-18
	-1.409028215446023e-14
	1.905333079704146e-06
	1.110836369581250e-04
	1.168795042242673e-05
	3.006219734310083e-01

 47	4.700000000000003e-01
	-3.762021090613177e-15
	-5.201462047701182e-18
	-1.420213465340507e-14
	2.042366938626358e-06
	1.221264519530003e-04
	1.285312336115422e-05
	3.006221009495503e-01

 48	4.800000000000003e-01
	-3.735864280657416e-15
	-5.359657923634466e-18
	-1.431228402441736e-14
	2.187979166338393e-06
	1.342012170380560e-04
	1.413380936010279e-05
	3.006222411129991e-01

 49	4.900000000000003e-01
	-3.710586677618296e-15
	-5.522562578162040e-18
	-1.442071725765274e-14
	2.342604094986419e-06
	1.473872035548777e-04
	1.554071962382298e-05
	3.006223950941846e-01

 50	5.000000000000002e-01
	-3.686179195554537e-15
	-5.690320774181349e-18
	-1.452742317295987e-14
	2.506691188892438e-06
	1.617667222453499e-04
	1.708537316980986e-05
	3.006225641544131e-01

 51	5.100000000000002e-01
	-3.662632259832263e-15
	-5.863082288811673e-18
	-1.463239238335967e-14
	2.680705229775953e-06
	1.774247640855609e-04
	1.878012543268763e-05
	3.006227496465891e-01

 52	5.200000000000002e-01
	-3.639935834087790e-15
	-6.041002111492126e-18
	-1.473561725582198e-14
	2.865126495090754e-06
	1.944485613297974e-04
	2.063819287375005e-05
	3.006229530179221e-01

 53	5.300000000000002e-01
	-3.618079447351360e-15
	-6.224240650537000e-18
	-1.483709186956653e-14
	3.060450929660762e-06
	2.129270653196872e-04
	2.267367277938948e-05
	3.006231758120815e-01

 54	5.400000000000003e-01
	-3.597052221238277e-15
	-6.412963948540383e-18
	-1.493681197211487e-14
	3.267190310687080e-06
	2.329503388564646e-04
	2.490155740360522e-05
	3.006234196707422e-01

 55	5.500000000000003e-01
	-3.576842897118089e-15
	-6.607343907037716e-18
	-1.503477493331782e-14
	3.485872406042728e-06
	2.546088624149571e-04
	2.733774159511014e-05
	3.006236863344225e-01

 56	5.600000000000003e-01
	-3.557439863176689e-15
	-6.807558520856043e-18
	-1.513097969758106e-14
	3.717041125565352e-06
	2.779927551878077e-04
	2.999902305088053e-05
	3.006239776425005e-01

 57	5.700000000000003e-01
	-3.538831181291017e-15
	-7.013792122601307e-18
	-1.522542673450682e-14
	3.961256664797623e-06
	3.031909138699670e-04
	3.290309435752605e-05
	3.006242955323337e-01

 58	5.800000000000003e-01
	-3.521004613640357e-15
	-7.226235637753977e-18
	-1.531811798816596e-14
	4.219095640310053e-06
	3.302900741987206e-04
	3.606852602160738e-05
	3.006246420373932e-01

 59	5.900000000000003e-01
	-3.503947648983652e-15
	-7.445086850866545e-18
	-1.540905682520815e-14
	4.491151215367385e-06
	3.593738025141567e-04
	3.951473975160721e-05
	3.006250192843370e-01

 60	6.000000000000003e-01
	-3.487647528536576e-15
	-7.670550683381171e-18
	-1.549824798201262e-14
	4.778033214273867e-06
	3.905214269495121e-04
	4.326197133892769e-05
	3.006254294889190e-01

 61	6.100000000000003e-01
	-3.472091271387632e-15
	-7.902839483607103e-18
	-1.558569751107400e-14
	5.080368223251488e-06
	4.238069202388574e-04
	4.733122259359907e-05
	3.006258749507292e-01

 62	6.200000000000003e-01
	-3.457265699397094e-15
	-8.142173329427615e-18
	-1.567141272681124e-14
	5.398799675184802e-06
	4.592977484716943e-04
	5.174420192244475e-05
	3.006263580466668e-01

 63	6.300000000000003e-01
	-3.443157461527921e-15
	-8.388780344331632e-18
	-1.575540215097866e-14
	5.733987915007284e-06
	4.970537023509209e-04
	5.652325329237392e-05
	3.006268812231500e-01

 64	6.400000000000003e-01
	-3.429753057562449e-15
	-8.642897027392839e-18
	-1.583767545785064e-14
	6.086610241929010e-06
	5.371257295388596e-04
	6.169127349778627e-05
	3.006274469870497e-01

 65	6.500000000000004e-01
	-3.417038861163677e-15
	-8.904768597854027e-18
	-1.591824341934203e-14
	6.457360924127056e-06
	5.795547884179882e-04
	6.727161784626681e-05
	3.006280578953506e-01

 66	6.600000000000004e-01
	-3.405001142244431e-15
	-9.174649355003988e-18
	-1.599711785021822e-14
	6.846951180962917e-06
	6.243707449624269e-04
	7.328799458754912e-05
	3.006287165435788e-01

 67	6.700000000000004e-01
	-3.393626088612685e-15
	-9.452803054069631e-18
	-1.607431155353910e-14
	7.256109127279216e-06
	6.715913353305916e-04
	7.976434863294100e-05
	3.006294255530596e-01

 68	6.800000000000004e-01
	-3.382899826865383e-15
	-9.739503298883982e-18
	-1.614983826647241e-14
	7.685579673891502e-06
	7.212212171751807e-04
	8.672473534110766e-05
	3.006301875571011e-01

 69	6.900000000000004e-01
	-3.372808442507554e-15
	-1.003503395213045e-17
	-1.622371260660315e-14
	8.136124378060631e-06
	7.732511324628593e-04
	9.419318537567957e-05
	3.006310051861791e-01

 70	7.000000000000004e-01
	-3.363337999277605e-15
	-1.033968956400473e-17
	-1.629595001885608e-14
	8.608521237538530e-06
	8.276572037581828e-04
	1.021935618643999e-04
	3.006318810523069e-01

 71	7.100000000000004e-01
	-3.354474557663642e-15
	-1.065377582018268e-17
	-1.636656672314007e-14
	9.103564421761147e-06
	8.844003844311370e-04
	1.107494113020273e-04
	3.006328177327082e-01

 72	7.200000000000004e-01
	-3.346204192599221e-15
	-1.097761001002707e-17
	-1.643557966281420e-14
	9.622063933945261e-06
	9.434260810944433e-04
	1.198838098332970e-04
	3.006338177529898e-01

 73	7.300000000000004e-01
	-3.338513010330557e-15
	-1.131152151602380e-17
	-1.650300645406676e-14
	1.016484519825992e-05
	1.004663963790658e-03
	1.296192067214477e-04
	3.006348835700066e-01

 74	7.400000000000004e-01
	-3.331387164450605e-15
	-1.165585232548393e-17
	-1.656886533629059e-14
	1.073274856691360e-05
	1.068027976081722e-03
	1.399772669460923e-04
	3.006360175546419e-01

 75	7.500000000000004e-01
	-3.324812871098314e-15
	-1.201095756561173e-17
	-1.663317512352965e-14
	1.132662874293820e-05
	1.133416553321902e-03
	1.509787149760480e-04
	3.006372219747135e-01

 76	7.600000000000005e-01
	-3.318776423324274e-15
	-1.237720606310077e-17
	-1.669595515706470e-14
	1.194735411566939e-05
	1.200713053120600e-03
	1.626431818236344e-04
	3.006384989782317e-01

 77	7.700000000000005e-01
	-3.313264204627060e-15
	-1.275498092947955e-17
	-1.675722525919753e-14
	1.259580600741604e-05
	1.269786397446543e-03
	1.749890575034898e-04
	3.006398505772759e-01

 78	7.800000000000005e-01
	-3.308262701666268e-15
	-1.314468017350404e-17
	-1.681700568828773e-14
	1.327287783156844e-05
	1.340491921128348e-03
	1.880333509890767e-04
	3.006412786326580e-01

 79	7.900000000000005e-01
	-3.303758516161467e-15
	-1.354671734195984e-17
	-1.687531709508703e-14
	1.397947416437891e-05
	1.412672416817097e-03
	2.017915596829815e-04
	3.006427848396663e-01

 80	8.000000000000005e-01
	-3.299738375987505e-15
	-1.396152219032119e-17
	-1.693218048041193e-14
	1.471650973483687e-05
	1.486159361950030e-03
	2.162775502940010e-04
	3.006443707150240e-01

 81	8.100000000000005e-01
	-3.296189145479189e-15
	-1.438954138478803e-17
	-1.698761715418739e-14
	1.548490833938037e-05
	1.560774309040131e-03
	2.315034528469096e-04
	3.006460375853033e-01

 82	8.200000000000005e-01
	-3.293097834959736e-15
	-1.483123923730917e-17
	-1.704164869588914e-14
	1.628560169059825e-05
	1.636330416858922e-03
	2.474795693440020e-04
	3.006477865769394e-01

 83	8.300000000000005e-01
	-3.290451609509010e-15
	-1.528709847528964e-17
	-1.709429691640675e-14
	1.711952821149118e-05
	1.712634096903314e-03
	2.642142983559014e-04
	3.006496186079939e-01

 84	8.400000000000005e-01
	-3.288237796988981e-15
	-1.575762104777565e-17
	-1.714558382134322e-14
	1.798763178921741e-05
	1.789486747048343e-03
	2.817140765494264e-04
	3.006515343817524e-01

 85	8.500000000000005e-01
	-3.286443895345119e-15
	-1.624332897000020e-17
	-1.719553157576252e-14
	1.889086050445034e-05
	1.866686542561854e-03
	2.999833378694651e-04
	3.006535343822688e-01

 86	8.600000000000005e-01
	-3.285057579203362e-15
	-1.674476520828267e-17
	-1.724416247039127e-14
	1.983016535446489e-05
	1.944030253745056e-03
	3.190244907881697e-04
	3.006556188718805e-01

 87	8.700000000000006e-01
	-3.284066705783502e-15
	-1.726249460737910e-17
	-1.729149888927551e-14
	2.080649898974979e-05
	2.021315059378207e-03
	3.388379137261722e-04
	3.006577878907234e-01

 88	8.800000000000006e-01
	-3.283459320150087e-15
	-1.779710486249425e-17
	-1.733756327889009e-14
	2.182081448526753e-05
	2.098340325880128e-03
	3.594219684455602e-04
	3.006600412581821e-01

 89	8.900000000000006e-01
	-3.283223659823323e-15
	-1.834920753827596e-17
	-1.738237811869266e-14
	2.287406416837671e-05
	2.174909323585811e-03
	3.807730309205606e-04
	3.006623785762884e-01

 90	9.000000000000006e-01
	-3.283348158772321e-15
	-1.891943913724457e-17
	-1.742596589311121e-14
	2.396719852587139e-05
	2.250830853737142e-03
	4.028855389170072e-04
	3.006647992349253e-01

 91	9.100000000000006e-01
	-3.283821450813620e-15
	-1.950846222023111e-17
	-1.746834906494995e-14
	2.510116521253554e-05
	2.325920762569702e-03
	4.257520552617680e-04
	3.006673024187525e-01

 92	9.200000000000006e-01
	-3.284632372438458e-15
	-2.011696658153170e-17
	-1.750955005019439e-14
	2.627690818305808e-05
	2.400003322151103e-03
	4.493633455640076e-04
	3.006698871157171e-01

 93	9.300000000000006e-01
	-3.285769965091976e-15
	-2.074567048162846e-17
	-1.754959119419396e-14
	2.749536696811557e-05
	2.472912461257751e-03
	4.737084689656318e-04
	3.006725521269929e-01

 94	9.400000000000006e-01
	-3.287223476927733e-15
	-2.139532194047434e-17
	-1.758849474919676e-14
	2.875747611392661e-05
	2.544492833435414e-03
	4.987748803512917e-04
	3.006752960781542e-01

 95	9.500000000000006e-01
	-3.288982364061120e-15
	-2.206670009448167e-17
	-1.762628285320843e-14
	3.006416480265813e-05
	2.614600713343901e-03
	5.245485423405344e-04
	3.006781174314523e-01

 96	9.600000000000006e-01
	-3.291036291344448e-15
	-2.276061662053137e-17
	-1.766297751014494e-14
	3.141635666878617e-05
	2.683104716412789e-03
	5.510140453165407e-04
	3.006810144989420e-01

 97	9.700000000000006e-01
	-3.293375132687053e-15
	-2.347791723047445e-17
	-1.769860057124614e-14
	3.281496982393174e-05
	2.749886340617355e-03
	5.781547337161067e-04
	3.006839854563151e-01

 98	9.800000000000006e-01
	-3.295988970942547e-15
	-2.421948323977712e-17
	-1.773317371771577e-14
	3.426091709990351e-05
	2.814840332723273e-03
	6.059528368125751e-04
	3.006870283572116e-01

 99	9.900000000000007e-01
	-3.298868097385637e-15
	-2.498623321414706e-17
	-1.776671844455100e-14
	3.575510651674876e-05
	2.877874884560380e-03
	6.343896022640122e-04
	3.006901411478425e-01

 100	1.000000000000001e+00
	-3.302003010799958e-15
	-2.577912469816897e-17
	-1.779925604552398e-14
	3.729844197963747e-05
	2.938911667707242e-03
	6.634454307697562e-04
	3.006933216817318e-01

 101	1.010000000000001e+00
	-3.305384416198077e-15
	-2.659915603018051e-17
	-1.783080759927572e-14
