Title: ** sch_path: /home/andylithia/openmpw/project-yatsuhashi-chip1/xschem/gmid_test/nmos_test.sch
Date: Tue Jul 19 23:15:45  2022
Plotname: DC transfer characteristic
Flags: real
No. Variables: 8
No. Points: 181
Variables:
	0	v(v-sweep)	voltage
	1	@m.xm1.msky130_fd_pr__nfet_01v8[cgb]	capacitance
	2	@m.xm1.msky130_fd_pr__nfet_01v8[cgd]	capacitance
	3	@m.xm1.msky130_fd_pr__nfet_01v8[cgs]	capacitance
	4	@m.xm1.msky130_fd_pr__nfet_01v8[gds]	admittance
	5	@m.xm1.msky130_fd_pr__nfet_01v8[gm]	admittance
	6	i(@m.xm1.msky130_fd_pr__nfet_01v8[id])	current
	7	v(@m.xm1.msky130_fd_pr__nfet_01v8[vth])	voltage
Values:
 0	0.000000000000000e+00
	-1.672386110725072e-14
	-1.460837378931127e-18
	-3.488344858138922e-14
	5.321707183952827e-08
	1.963596747359468e-06
	2.670448425013033e-07
	1.607187397153811e-01

 1	1.000000000000000e-02
	-1.654857961244321e-14
	-1.493391801380790e-18
	-3.530561135765487e-14
	5.707228683513946e-08
	2.112529882320407e-06
	2.874162779629718e-07
	1.607187411846921e-01

 2	2.000000000000000e-02
	-1.637585519161204e-14
	-1.526617961138651e-18
	-3.572656692309648e-14
	6.119119535270554e-08
	2.272920374990504e-06
	3.093335895151251e-07
	1.607187427672239e-01

 3	3.000000000000000e-02
	-1.620571515141908e-14
	-1.560528226293128e-18
	-3.614618739872576e-14
	6.559034282794669e-08
	2.445694095745055e-06
	3.329159150820736e-07
	1.607187444719512e-01

 4	4.000000000000000e-02
	-1.603818562615456e-14
	-1.595135171142511e-18
	-3.656434625774340e-14
	7.028718054941289e-08
	2.631858068801238e-06
	3.582920509260217e-07
	1.607187463086065e-01

 5	5.000000000000000e-02
	-1.587329153418169e-14
	-1.630451580061131e-18
	-3.698091845899807e-14
	7.530010459725296e-08
	2.832508101011832e-06
	3.856013007488976e-07
	1.607187482877517e-01

 6	6.000000000000000e-02
	-1.571105653726523e-14
	-1.666490451472412e-18
	-3.739578057724533e-14
	8.064849569486354e-08
	3.048837123412370e-06
	4.149944045973812e-07
	1.607187504208658e-01

 7	7.000000000000001e-02
	-1.555150300283965e-14
	-1.703265001931448e-18
	-3.780881092993501e-14
	8.635275994599180e-08
	3.282144303161833e-06
	4.466345549842107e-07
	1.607187527204189e-01

 8	8.000000000000000e-02
	-1.539465196926470e-14
	-1.740788670321508e-18
	-3.821988970026439e-14
	9.243437042640366e-08
	3.533844986385014e-06
	4.806985082294854e-07
	1.607187551999713e-01

 9	9.000000000000000e-02
	-1.524052311410623e-14
	-1.779075122166114e-18
	-3.862889905625091e-14
	9.891590959569705e-08
	3.805481535148563e-06
	5.173777996445571e-07
	1.607187578742825e-01

 10	9.999999999999999e-02
	-1.508913472547245e-14
	-1.818138254061567e-18
	-3.903572326559123e-14
	1.058211124911869e-07
	4.098735124322641e-06
	5.568800718261724e-07
	1.607187607594184e-01

 11	1.100000000000000e-01
	-1.494050367642658e-14
	-1.857992198232089e-18
	-3.944024880608547e-14
	1.131749106620374e-07
	4.415438566329038e-06
	5.994305259973533e-07
	1.607187638728842e-01

 12	1.200000000000000e-01
	-1.479464540248740e-14
	-1.898651327211655e-18
	-3.984236447142492e-14
	1.210034767979028e-07
	4.757590233683300e-06
	6.452735070213598e-07
	1.607187672337630e-01

 13	1.300000000000000e-01
	-1.465157388222163e-14
	-1.940130258655731e-18
	-4.024196147215340e-14
	1.293342700023429e-07
	5.127369150717429e-06
	6.946742334218228e-07
	1.607187708628671e-01

 14	1.400000000000000e-01
	-1.451130162092196e-14
	-1.982443860286853e-18
	-4.063893353163143e-14
	1.381960816570199e-07
	5.527151326829659e-06
	7.479206844610083e-07
	1.607187747829116e-01

 15	1.500000000000000e-01
	-1.437383963735668e-14
	-2.025607254977241e-18
	-4.103317697684823e-14
	1.476190818183769e-07
	5.959527403950105e-06
	8.053256570539520e-07
	1.607187790186922e-01

 16	1.600000000000000e-01
	-1.423919745356816e-14
	-2.069635825972306e-18
	-4.142459082394382e-14
	1.576348660838668e-07
	6.427321690520633e-06
	8.672290060213864e-07
	1.607187835972998e-01

 17	1.700000000000000e-01
	-1.410738308768927e-14
	-2.114545222259033e-18
	-4.181307685832059e-14
	1.682765028599922e-07
	6.933612653048808e-06
	9.340000819018749e-07
	1.607187885483369e-01

 18	1.800000000000000e-01
	-1.397840304973804e-14
	-2.160351364083082e-18
	-4.219853970924285e-14
	1.795785809593875e-07
	7.481754934075745e-06
	1.006040381243584e-06
	1.607187939041692e-01

 19	1.900000000000000e-01
	-1.385226234034435e-14
	-2.207070448617830e-18
	-4.258088691883826e-14
	1.915772574487802e-07
	8.075402962059298e-06
	1.083786424968493e-06
	1.607187997001989e-01

 20	2.000000000000000e-01
	-1.372896445235297e-14
	-2.254718955790957e-18
	-4.296002900543602e-14
	2.043103056640628e-07
	8.718536214070240e-06
	1.167712881034764e-06
	1.607188059751553e-01

 21	2.100000000000000e-01
	-1.360851137524250e-14
	-2.303313654270564e-18
	-4.333587952119049e-14
	2.178171633026431e-07
	9.415486186170562e-06
	1.258335948202298e-06
	1.607188127714307e-01

 22	2.200000000000001e-01
	-1.349090360229043e-14
	-2.352871607617158e-18
	-4.370835510396059e-14
	2.321389804969737e-07
	1.017096511873542e-05
	1.356217018218587e-06
	1.607188201354257e-01

 23	2.300000000000001e-01
	-1.337614014040990e-14
	-2.403410180604209e-18
	-4.407737552342916e-14
	2.473186677662899e-07
	1.099009651461328e-05
	1.461966634168019e-06
	1.607188281179523e-01

 24	2.400000000000001e-01
	-1.326421852257708e-14
	-2.454947045712519e-18
	-4.444286372146573e-14
	2.634009437364902e-07
	1.187844747673756e-05
	1.576248763052035e-06
	1.607188367746584e-01

 25	2.500000000000001e-01
	-1.315513482276142e-14
	-2.507500189802499e-18
	-4.480474584675314e-14
	2.804323825104288e-07
	1.284206287841851e-05
	1.699785400867359e-06
	1.607188461664913e-01

 26	2.600000000000001e-01
	-1.304888367326826e-14
	-2.561087920969086e-18
	-4.516295128371106e-14
	2.984614605627898e-07
	1.388750136389524e-05
	1.833361528504650e-06
	1.607188563602192e-01

 27	2.700000000000001e-01
	-1.294545828439536e-14
	-2.615728875584136e-18
	-4.551741267577144e-14
	3.175386030251185e-07
	1.502187315864848e-05
	1.977830436676716e-06
	1.607188674289753e-01

 28	2.800000000000001e-01
	-1.284485046630398e-14
	-2.671442025530738e-18
	-4.586806594306873e-14
	3.377162292175200e-07
	1.625287964829749e-05
	2.134119437777551e-06
	1.607188794528808e-01

 29	2.900000000000001e-01
	-1.274705065299798e-14
	-2.728246685634758e-18
	-4.621485029462973e-14
	3.590487972739441e-07
	1.758885466150102e-05
	2.303235982046384e-06
	1.607188925196919e-01

 30	3.000000000000001e-01
	-1.265204792830417e-14
	-2.786162521298454e-18
	-4.655770823515458e-14
	3.815928476978179e-07
	1.903880736600544e-05
	2.486274194633713e-06
	1.607189067255305e-01

 31	3.100000000000001e-01
	-1.255983005374188e-14
	-2.845209556341394e-18
	-4.689658556650012e-14
	4.054070456743616e-07
	2.061246665775537e-05
	2.684421849113415e-06
	1.607189221756558e-01

 32	3.200000000000001e-01
	-1.247038349816887e-14
	-2.905408181053604e-18
	-4.723143138398377e-14
	4.305522219546051e-07
	2.232032689070324e-05
	2.898967791622108e-06
	1.607189389853224e-01

 33	3.300000000000001e-01
	-1.238369346908786e-14
	-2.966779160467607e-18
	-4.756219806764217e-14
	4.570914121149629e-07
	2.417369475962110e-05
	3.131309828108391e-06
	1.607189572806803e-01

 34	3.400000000000001e-01
	-1.229974394549738e-14
	-3.029343642853044e-18
	-4.788884126858588e-14
	4.850898939840291e-07
	2.618473710980613e-05
	3.382963085103955e-06
	1.607189771997783e-01

 35	3.500000000000001e-01
	-1.221851771216881e-14
	-3.093123168441417e-18
	-4.821131989060420e-14
	5.146152230162918e-07
	2.836652940617939e-05
	3.655568851961548e-06
	1.607189988936260e-01

 36	3.600000000000002e-01
	-1.213999639523170e-14
	-3.158139678385506e-18
	-4.852959606718171e-14
	5.457372653799224e-07
	3.073310454999942e-05
	3.950903909606525e-06
	1.607190225273507e-01

 37	3.700000000000002e-01
	-1.206416049894872e-14
	-3.224415523960493e-18
	-4.884363513409704e-14
	5.785282285133512e-07
	3.329950168446613e-05
	4.270890347495632e-06
	1.607190482814292e-01

 38	3.800000000000002e-01
	-1.199098944356294e-14
	-3.291973476012376e-18
	-4.915340559778127e-14
	6.130626888926878e-07
	3.608181458113138e-05
	4.617605866639875e-06
	1.607190763530140e-01

 39	3.900000000000002e-01
	-1.192046160409965e-14
	-3.360836734659773e-18
	-4.945887909961991e-14
	6.494176167397225e-07
	3.909723914763323e-05
	4.993294562207892e-06
	1.607191069573635e-01

 40	4.000000000000002e-01
	-1.185255435000676e-14
	-3.431028939257108e-18
	-4.976003037638945e-14
	6.876723973883629e-07
	4.236411954429174e-05
	5.400378174363858e-06
	1.607191403293517e-01

 41	4.100000000000002e-01
	-1.178724408552004e-14
	-3.502574178623942e-18
	-5.005683721702078e-14
	7.279088490156916e-07
	4.590199234308179e-05
	5.841467790593354e-06
	1.607191767250861e-01

 42	4.200000000000002e-01
	-1.172450629063954e-14
	-3.575497001548817e-18
	-5.034928041588966e-14
	7.702112364333877e-07
	4.973162810813305e-05
	6.319375976829306e-06
	1.607192164236350e-01

 43	4.300000000000002e-01
	-1.166431556260750e-14
	-3.649822427574273e-18
	-5.063734372283521e-14
	8.146662806258283e-07
	5.387506972296957e-05
	6.837129308206075e-06
	1.607192597288365e-01

 44	4.400000000000002e-01
	-1.160664565777981e-14
	-3.725575958070138e-18
	-5.092101379010900e-14
	8.613631637128870e-07
	5.835566673707869e-05
	7.397981263249163e-06
	1.607193069712370e-01

 45	4.500000000000002e-01
	-1.155146953378548e-14
	-3.802783587603587e-18
	-5.120028011646143e-14
	9.103935290095630e-07
	6.319810495415976e-05
	8.005425437776637e-06
	1.607193585101003e-01

 46	4.600000000000002e-01
	-1.149875939187255e-14
	-3.881471815611256e-18
	-5.147513498856940e-14
	9.618514758502317e-07
	6.842843043762562e-05
	8.663209026764928e-06
	1.607194147355450e-01

 47	4.700000000000003e-01
	-1.144848671934160e-14
	-3.961667658385759e-18
	-5.174557342001220e-14
	1.015833548844208e-06
	7.407406706693945e-05
	9.375346513969017e-06
	1.607194760707654e-01

 48	4.800000000000003e-01
	-1.140062233197111e-14
	-4.043398661379961e-18
	-5.201159308799977e-14
	1.072438721230913e-06
	8.016382674245993e-05
	1.014613350022915e-05
	1.607195429743345e-01

 49	4.900000000000003e-01
	-1.135513641634405e-14
	-4.126692911840575e-18
	-5.227319426805588e-14
	1.131768372008407e-06
	8.672791130813651e-05
	1.098016059221781e-05
	1.607196159426102e-01

 50	5.000000000000002e-01
	-1.131199857198646e-14
	-4.211579051780106e-18
	-5.253037976685985e-14
	1.193926256518668e-06
	9.379790524215865e-05
	1.188232726396487e-05
	1.607196955121902e-01

 51	5.100000000000002e-01
	-1.127117785323603e-14
	-4.298086291292823e-18
	-5.278315485344178e-14
	1.259018470187198e-06
	1.014067581570773e-04
	1.285785559393890e-05
	1.607197822624568e-01

 52	5.200000000000002e-01
	-1.123264281075921e-14
	-4.386244422228706e-18
	-5.303152718892960e-14
	1.327153405134369e-06
	1.095887561546375e-04
	1.391230377088363e-05
	1.607198768181424e-01

 53	5.300000000000002e-01
	-1.119636153264281e-14
	-4.476083832230711e-18
	-5.327550675503728e-14
	1.398441699401233e-06
	1.183794810981266e-04
	1.505157925212904e-05
	1.607199798519497e-01

 54	5.400000000000003e-01
	-1.116230168498740e-14
	-4.567635519148640e-18
	-5.351510578148244e-14
	1.472996178564734e-06
	1.278157568980751e-04
	1.628195144887648e-05
	1.607200920871564e-01

 55	5.500000000000003e-01
	-1.113043055193685e-14
	-4.660931105837022e-18
	-5.375033867251466e-14
	1.550931789556030e-06
	1.379355819570423e-04
	1.761006380414549e-05
	1.607202143002394e-01

 56	5.600000000000003e-01
	-1.110071507508016e-14
	-4.756002855350262e-18
	-5.398122193273225e-14
	1.632365526542444e-06
	1.487780469873979e-04
	1.904294512085654e-05
	1.607203473234334e-01

 57	5.700000000000003e-01
	-1.107312189216780e-14
	-4.852883686543476e-18
	-5.420777409235926e-14
	1.717416348787938e-06
	1.603832375035275e-04
	2.058801999008430e-05
	1.607204920472340e-01

 58	5.800000000000003e-01
	-1.104761737508822e-14
	-4.951607190092189e-18
	-5.443001563214789e-14
	1.806205090469927e-06
	1.727921203977154e-04
	2.225311816305647e-05
	1.607206494228069e-01

 59	5.900000000000003e-01
	-1.102416766705493e-14
	-5.052207644941967e-18
	-5.464796890806634e-14
	1.898854362502177e-06
	1.860464141377006e-04
	2.404648270520383e-05
	1.607208204642530e-01

 60	6.000000000000003e-01
	-1.100273871895813e-14
	-5.154720035199028e-18
	-5.486165807592542e-14
	1.995488446493545e-06
	2.001884422737510e-04
	2.597677676668460e-05
	1.607210062507125e-01

 61	6.100000000000003e-01
	-1.098329632483965e-14
	-5.259180067477343e-18
	-5.507110901609084e-14
	2.096233181062371e-06
	2.152609701139920e-04
	2.805308880154135e-05
	1.607212079282417e-01

 62	6.200000000000003e-01
	-1.096580615645384e-14
	-5.365624188710412e-18
	-5.527634925842053e-14
	2.201215840824140e-06
	2.313070246179569e-04
	3.028493606719029e-05
	1.607214267114429e-01

 63	6.300000000000003e-01
	-1.095023379688113e-14
	-5.474089604446594e-18
	-5.547740790756067e-14
	2.310565008477122e-06
	2.483696977688184e-04
	3.268226623750320e-05
	1.607216638848071e-01

 64	6.400000000000003e-01
	-1.093654477316417e-14
	-5.584614297637809e-18
	-5.567431556872685e-14
	2.424410440525626e-06
	2.664919339128193e-04
	3.525545696650190e-05
	1.607219208036798e-01

 65	6.500000000000004e-01
	-1.092470458794163e-14
	-5.697237047937196e-18
	-5.586710427408881e-14
	2.542882927302854e-06
	2.857163017977713e-04
	3.801531324580172e-05
	1.607221988948624e-01

 66	6.600000000000004e-01
	-1.091467875005711e-14
	-5.811997451521916e-18
	-5.605580740987131e-14
	2.666114148084081e-06
	3.060847522983116e-04
	4.097306240756763e-05
	1.607224996567594e-01

 67	6.700000000000004e-01
	-1.090643280412476e-14
	-5.928935941454169e-18
	-5.624045964427647e-14
	2.794236522215406e-06
	3.276383630804444e-04
	4.414034663597893e-05
	1.607228246590543e-01

 68	6.800000000000004e-01
	-1.089993235903661e-14
	-6.048093808598424e-18
	-5.642109685632520e-14
	2.927383057321446e-06
	3.504170717277140e-04
	4.752921286411450e-05
	1.607231755418343e-01

 69	6.900000000000004e-01
	-1.089514311539989e-14
	-6.169513223110357e-18
	-5.659775606570908e-14
	3.065687195796189e-06
	3.744593991216139e-04
	5.115209994978928e-05
	1.607235540141743e-01

 70	7.000000000000004e-01
	-1.089203089189558e-14
	-6.293237256514316e-18
	-5.677047536373691e-14
	3.209282660922775e-06
	3.998021651344973e-04
	5.502182304318624e-05
	1.607239618520944e-01

 71	7.100000000000004e-01
	-1.089056165055260e-14
	-6.419309904387424e-18
	-5.693929384545414e-14
	3.358303304108024e-06
	4.264801989488491e-04
	5.915155508104466e-05
	1.607244008958905e-01

 72	7.200000000000004e-01
	-1.089070152093523e-14
	-6.547776109668354e-18
	-5.710425154300475e-14
	3.512882954854542e-06
	4.545260465566150e-04
	6.355480536657610e-05
	1.607248730468020e-01

 73	7.300000000000004e-01
	-1.089241682324340e-14
	-6.678681786608884e-18
	-5.726538936030141e-14
	3.673155275224212e-06
	4.839696782103490e-04
	6.824539522097539e-05
	1.607253802629944e-01

 74	7.400000000000004e-01
	-1.089567409032887e-14
	-6.812073845387991e-18
	-5.742274900906140e-14
	3.839253620669895e-06
	5.148381987883537e-04
	7.323743072113866e-05
	1.607259245548558e-01

 75	7.500000000000004e-01
	-1.090044008863200e-14
	-6.948000217408183e-18
	-5.757637294626077e-14
	4.011310909225150e-06
	5.471555641928730e-04
	7.854527256869224e-05
	1.607265079796041e-01

 76	7.600000000000005e-01
	-1.090668183804727e-14
	-7.086509881295238e-18
	-5.772630431305243e-14
	4.189459501141440e-06
	5.809423070181179e-04
	8.418350316728861e-05
	1.607271326352064e-01

 77	7.700000000000005e-01
	-1.091436663072631e-14
	-7.227652889619080e-18
	-5.787258687518936e-14
	4.373831091147440e-06
	6.162152747984516e-04
	9.016689101794481e-05
	1.607278006536437e-01

 78	7.800000000000005e-01
	-1.092346204883116e-14
	-7.371480396361433e-18
	-5.801526496498724e-14
	4.564556615572795e-06
	6.529873841718577e-04
	9.651035257550018e-05
	1.607285141935455e-01

 79	7.900000000000005e-01
	-1.093393598125080e-14
	-7.518044685148822e-18
	-5.815438342485680e-14
	4.761766176627486e-06
	6.912673942662639e-04
	1.032289117425583e-04
	1.607292754322459e-01

 80	8.000000000000005e-01
	-1.094575663929640e-14
	-7.667399198276397e-18
	-5.828998755243066e-14
	4.965588986156622e-06
	7.310597025336414e-04
	1.103376572100106e-04
	1.607300865572883e-01

 81	8.100000000000005e-01
	-1.095889257139305e-14
	-7.819598566541810e-18
	-5.842212304730408e-14
	5.176153331195986e-06
	7.723641661173746e-04
	1.178516978848328e-04
	1.607309497574836e-01

 82	8.200000000000005e-01
	-1.097331267678659e-14
	-7.974698639916297e-18
	-5.855083595940529e-14
	5.393586563638335e-06
	8.151759516420306e-04
	1.257861166757792e-04
	1.607318672135913e-01

 83	8.300000000000005e-01
	-1.098898621828444e-14
	-8.132756519076474e-18
	-5.867617263900769e-14
	5.618015116280895e-06
	8.594854160621387e-04
	1.341559229352641e-04
	1.607328410886540e-01

 84	8.400000000000005e-01
	-1.100588283405423e-14
	-8.293830587817924e-18
	-5.879817968838863e-14
	5.849564547461723e-06
	9.052780209000863e-04
	1.429760038805474e-04
	1.607338735181868e-01

 85	8.500000000000005e-01
	-1.102397254850049e-14
	-8.457980546382327e-18
	-5.891690391514041e-14
	6.088359616409408e-06
	9.525342818469334e-04
	1.522610753388996e-04
	1.607349666002167e-01

 86	8.600000000000005e-01
	-1.104322578224473e-14
	-8.625267445719205e-18
	-5.903239228713127e-14
	6.334524391324216e-06
	1.001229755298224e-03
	1.620256321791034e-04
	1.607361223853488e-01

 87	8.700000000000006e-01
	-1.106361336123255e-14
	-8.795753722710560e-18
	-5.914469188911370e-14
	6.588182392084766e-06
	1.051335062956502e-03
	1.722838988051497e-04
	1.607373428669550e-01

 88	8.800000000000006e-01
	-1.108510652499360e-14
	-8.969503236386219e-18
	-5.925384988097301e-14
	6.849456769333694e-06
	1.102815955160662e-03
	1.830497800969110e-04
	1.607386299715849e-01

 89	8.900000000000006e-01
	-1.110767693408009e-14
	-9.146581305159007e-18
	-5.935991345760559e-14
	7.118470521539267e-06
	1.155633413107341e-03
	1.943368131865958e-04
	1.607399855497237e-01

 90	9.000000000000006e-01
	-1.113129667671103e-14
	-9.327054745106815e-18
	-5.946292981041487e-14
	7.395346751465495e-06
	1.209743789621307e-03
	2.061581204588374e-04
	1.607414113670368e-01

 91	9.100000000000006e-01
	-1.115593827464816e-14
	-9.510991909335187e-18
	-5.956294609040995e-14
	7.680208963310242e-06
	1.265098987619485e-03
	2.185263641561902e-04
	1.607429090961364e-01

 92	9.200000000000006e-01
	-1.118157468833226e-14
	-9.698462728447935e-18
	-5.966000937288819e-14
	7.973181401595639e-06
	1.321646674906667e-03
	2.314537029605632e-04
	1.607444803090567e-01

 93	9.300000000000006e-01
	-1.120817932130579e-14
	-9.889538752162468e-18
	-5.975416662368384e-14
	8.274389432721260e-06
	1.379330533450893e-03
	2.449517509049462e-04
	1.607461264704648e-01

 94	9.400000000000006e-01
	-1.123572602395080e-14
	-1.008429319210027e-17
	-5.984546466695915e-14
	8.583959969924491e-06
	1.438090540822139e-03
	2.590315389488140e-04
	1.607478489317205e-01

 95	9.500000000000006e-01
	-1.126418909656888e-14
	-1.028280096579137e-17
	-5.993395015451530e-14
	8.902021942234532e-06
	1.497863281048585e-03
	2.737034795251009e-04
	1.607496489258364e-01

 96	9.600000000000006e-01
	-1.129354329183059e-14
	-1.048513874192517e-17
	-6.001966953659834e-14
	9.228706807867087e-06
	1.558582281759342e-03
	2.889773343371333e-04
	1.607515275634109e-01

 97	9.700000000000006e-01
	-1.132376381662177e-14
	-1.069138498689210e-17
	-6.010266903417218e-14
	9.564149112385632e-06
	1.620178374147905e-03
	3.048621856507592e-04
	1.607534858295479e-01

 98	9.800000000000006e-01
	-1.135482633331377e-14
	-1.090162001264980e-17
	-6.018299461263119e-14
	9.908487091858712e-06
	1.682580072013406e-03
	3.213664112907025e-04
	1.607555245818163e-01

 99	9.900000000000007e-01
	-1.138670696048353e-14
	-1.111592602596265e-17
	-6.026069195692317e-14
	1.026186332117629e-05
	1.745713965921903e-03
	3.384976635115701e-04
	1.607576445492238e-01

 100	1.000000000000001e+00
	-1.141938227311022e-14
	-1.133438717905279e-17
	-6.033580644805172e-14
	1.062442540765143e-05
	1.809505128380059e-03
	3.562628518733991e-04
	1.607598463322432e-01

 101	1.010000000000001e+00
	-1.145282930227373e-14
	-1.155708962171332e-17
	-6.040838314092614e-14
