Title: ** sch_path: /home/andylithia/openmpw/project-yatsuhashi-chip1/xschem/gmid_test/nmos_test.sch
Date: Sun Jul 17 22:51:45  2022
Plotname: DC transfer characteristic
Flags: real
No. Variables: 8
No. Points: 181
Variables:
	0	v(v-sweep)	voltage
	1	@m.xm1.msky130_fd_pr__nfet_01v8[cgb]	capacitance
	2	@m.xm1.msky130_fd_pr__nfet_01v8[cgd]	capacitance
	3	@m.xm1.msky130_fd_pr__nfet_01v8[cgs]	capacitance
	4	@m.xm1.msky130_fd_pr__nfet_01v8[gds]	admittance
	5	@m.xm1.msky130_fd_pr__nfet_01v8[gm]	admittance
	6	i(@m.xm1.msky130_fd_pr__nfet_01v8[id])	current
	7	v(@m.xm1.msky130_fd_pr__nfet_01v8[vth])	voltage
Values:
 0	0.000000000000000e+00
	-1.066009626815983e-14
	-5.084287446794134e-18
	-2.025489598814175e-14
	3.542128646906710e-08
	1.150604145497170e-06
	1.462394363753014e-07
	1.924616375203768e-01

 1	1.000000000000000e-02
	-1.054403627615799e-14
	-5.221748813847179e-18
	-2.052941909591714e-14
	3.818085153926294e-08
	1.244479191688342e-06
	1.582086255579853e-07
	1.924616389484408e-01

 2	2.000000000000000e-02
	-1.042948101130620e-14
	-5.363017355452302e-18
	-2.080352803081852e-14
	4.114443102760096e-08
	1.346140528665333e-06
	1.711549547712838e-07
	1.924616404930982e-01

 3	3.000000000000000e-02
	-1.031645346112543e-14
	-5.508202986607681e-18
	-2.107712843554291e-14
	4.432596327639864e-08
	1.456267430079593e-06
	1.851596320780298e-07
	1.924616421640389e-01

 4	4.000000000000000e-02
	-1.020497587317997e-14
	-5.657419044129445e-18
	-2.135012656334135e-14
	4.774022773260819e-08
	1.575603499229867e-06
	2.003109746992755e-07
	1.924616439718036e-01

 5	5.000000000000000e-02
	-1.009506971454439e-14
	-5.810782405021341e-18
	-2.162242939281240e-14
	5.140288588305613e-08
	1.704963222068168e-06
	2.167050845378014e-07
	1.924616459278604e-01

 6	6.000000000000000e-02
	-9.986755633357066e-15
	-5.968413609415089e-18
	-2.189394474087846e-14
	5.533052342112842e-08
	1.845239188476738e-06
	2.344465925237239e-07
	1.924616480446995e-01

 7	7.000000000000001e-02
	-9.880053422535182e-15
	-6.130436988278261e-18
	-2.216458137366884e-14
	5.954069363297203e-08
	1.997410041603630e-06
	2.536494787608146e-07
	1.924616503359182e-01

 8	8.000000000000000e-02
	-9.774981985719047e-15
	-6.296980796092405e-18
	-2.243424911503947e-14
	6.405196198866525e-08
	2.162549218481000e-06
	2.744379760671524e-07
	1.924616528163471e-01

 9	9.000000000000000e-02
	-9.671559305505982e-15
	-6.468177348716675e-18
	-2.270285895247168e-14
	6.888395192132750e-08
	2.341834548446010e-06
	2.969475651526868e-07
	1.924616555021566e-01

 10	9.999999999999999e-02
	-9.569802414026529e-15
	-6.644163166660271e-18
	-2.297032314009951e-14
	7.405739177480129e-08
	2.536558778961632e-06
	3.213260703569270e-07
	1.924616584109898e-01

 11	1.100000000000000e-01
	-9.469727365907749e-15
	-6.825079123997565e-18
	-2.323655529862832e-14
	7.959416289836431e-08
	2.748141101210889e-06
	3.477348655801244e-07
	1.924616615621070e-01

 12	1.200000000000000e-01
	-9.371349213660375e-15
	-7.011070603172774e-18
	-2.350147051191940e-14
	8.551734886496612e-08
	2.978139750213592e-06
	3.763502007772136e-07
	1.924616649765421e-01

 13	1.300000000000000e-01
	-9.274681985518528e-15
	-7.202287655949311e-18
	-2.376498542002734e-14
	9.185128578772633e-08
	3.228265756080320e-06
	4.073646601409717e-07
	1.924616686772876e-01

 14	1.400000000000000e-01
	-9.179738665752486e-15
	-7.398885170775201e-18
	-2.402701830849264e-14
	9.862161370794432e-08
	3.500397924251668e-06
	4.409887638737560e-07
	1.924616726894725e-01

 15	1.500000000000000e-01
	-9.086531177466506e-15
	-7.601023046844797e-18
	-2.428748919370524e-14
	1.058553290265836e-07
	3.796599123032685e-06
	4.774527262283899e-07
	1.924616770405732e-01

 16	1.600000000000000e-01
	-8.995070367886397e-15
	-7.808866375152870e-18
	-2.454631990416910e-14
	1.135808379502646e-07
	4.119133956275891e-06
	5.170083832803688e-07
	1.924616817606542e-01

 17	1.700000000000000e-01
	-8.905365996132172e-15
	-8.022585626851443e-18
	-2.480343415751651e-14
	1.218280109221498e-07
	4.470487897525834e-06
	5.599313046652940e-07
	1.924616868826126e-01

 18	1.800000000000000e-01
	-8.817426723464352e-15
	-8.242356849232326e-18
	-2.505875763313386e-14
	1.306282380077372e-07
	4.853387959134289e-06
	6.065231042652971e-07
	1.924616924424534e-01

 19	1.900000000000000e-01
	-8.731260105983789e-15
	-8.468361869677271e-18
	-2.531221804027873e-14
	1.400144852055999e-07
	5.270824965601456e-06
	6.571139655432191e-07
	1.924616984795970e-01

 20	2.000000000000000e-01
	-8.646872589757838e-15
	-8.700788507930017e-18
	-2.556374518158488e-14
	1.500213516535475e-07
	5.726077494490153e-06
	7.120653978875880e-07
	1.924617050371988e-01

 21	2.100000000000000e-01
	-8.564269508337914e-15
	-8.939830797066213e-18
	-2.581327101186741e-14
	1.606851277013332e-07
	6.222737540482862e-06
	7.717732409270698e-07
	1.924617121625214e-01

 22	2.200000000000001e-01
	-8.483455082626618e-15
	-9.185689213551349e-18
	-2.606072969215933e-14
	1.720438538223923e-07
	6.764737948290839e-06
	8.366709342813678e-07
	1.924617199073154e-01

 23	2.300000000000001e-01
	-8.404432423045673e-15
	-9.438570916799460e-18
	-2.630605763892539e-14
	1.841373803386105e-07
	7.356381647943898e-06
	9.072330706128830e-07
	1.924617283282465e-01

 24	2.400000000000001e-01
	-8.327203533949389e-15
	-9.698689998661648e-18
	-2.654919356841784e-14
	1.970074279343570e-07
	8.002372711269146e-06
	9.839792501071007e-07
	1.924617374873541e-01

 25	2.500000000000001e-01
	-8.251769320222509e-15
	-9.966267743297709e-18
	-2.679007853615370e-14
	2.106976489386938e-07
	8.707849230873364e-06
	1.067478254611965e-06
	1.924617474525584e-01

 26	2.600000000000001e-01
	-8.178129595994983e-15
	-1.024153289790633e-17
	-2.702865597151155e-14
	2.252536893580192e-07
	9.478418002459538e-06
	1.158352559579314e-06
	1.924617582981871e-01

 27	2.700000000000001e-01
	-8.106283095401799e-15
	-1.052472195480994e-17
	-2.726487170745874e-14
	2.407232516453485e-07
	1.032019096761995e-05
	1.257283201642868e-06
	1.924617701055690e-01

 28	2.800000000000001e-01
	-8.036227485309927e-15
	-1.081607944541807e-17
	-2.749867400543932e-14
	2.571561581972695e-07
	1.123982334717630e-05
	1.365015019105807e-06
	1.924617829636499e-01

 29	2.900000000000001e-01
	-7.967959379931105e-15
	-1.111585824661653e-17
	-2.773001357546429e-14
	2.746044155752180e-07
	1.224455336450738e-05
	1.482362281759952e-06
	1.924617969696761e-01

 30	3.000000000000001e-01
	-7.901474357234250e-15
	-1.142431990016020e-17
	-2.795884359146293e-14
	2.931222794544170e-07
	1.334224342400481e-05
	1.610214725283844e-06
	1.924618122299084e-01

 31	3.100000000000001e-01
	-7.836766977068394e-15
	-1.174173494567166e-17
	-2.818511970196671e-14
	3.127663203116064e-07
	1.454142257173323e-05
	1.749544003929416e-06
	1.924618288603952e-01

 32	3.200000000000001e-01
	-7.773830800903327e-15
	-1.206838326788338e-17
	-2.840880003621017e-14
	3.335954898718913e-07
	1.585133002353238e-05
	1.901410573270333e-06
	1.924618469877989e-01

 33	3.300000000000001e-01
	-7.712658413093028e-15
	-1.240455445878717e-17
	-2.862984520574672e-14
	3.556711883457167e-07
	1.728195950022131e-05
	2.066971012410881e-06
	1.924618667502591e-01

 34	3.400000000000001e-01
	-7.653241443564668e-15
	-1.275054819539356e-17
	-2.884821830168720e-14
	3.790573324994632e-07
	1.884410406037309e-05
	2.247485792205235e-06
	1.924618882983448e-01

 35	3.500000000000001e-01
	-7.595570591833677e-15
	-1.310667463383911e-17
	-2.906388488768261e-14
	4.038204246178467e-07
	2.054940106855729e-05
	2.444327492680493e-06
	1.924619117960083e-01

 36	3.600000000000002e-01
	-7.539635652245104e-15
	-1.347325482060763e-17
	-2.927681298877933e-14
	4.300296224331051e-07
	2.241037688128677e-05
	2.658989468955519e-06
	1.924619374216490e-01

 37	3.700000000000002e-01
	-7.485425540339710e-15
	-1.385062112168846e-17
	-2.948697307628706e-14
	4.577568101159803e-07
	2.444049077464581e-05
	2.893094960479891e-06
	1.924619653691806e-01

 38	3.800000000000002e-01
	-7.432928320243647e-15
	-1.423911767051685e-17
	-2.969433804880613e-14
	4.870766704462062e-07
	2.665417757724456e-05
	3.148406633351920e-06
	1.924619958491832e-01

 39	3.900000000000002e-01
	-7.382131232979874e-15
	-1.463910083559906e-17
	-2.989888320956979e-14
	5.180667583071472e-07
	2.906688841049735e-05
	3.426836539801566e-06
	1.924620290900953e-01

 40	4.000000000000002e-01
	-7.333020725600595e-15
	-1.505093970876661e-17
	-3.010058624026213e-14
	5.508075756799638e-07
	3.169512887610383e-05
	3.730456472629266e-06
	1.924620653394454e-01

 41	4.100000000000002e-01
	-7.285582481040198e-15
	-1.547501661504830e-17
	-3.029942717147975e-14
	5.853826483485254e-07
	3.455649396906241e-05
	4.061508685477865e-06
	1.924621048651406e-01

 42	4.200000000000002e-01
	-7.239801448589736e-15
	-1.591172764520925e-17
	-3.049538835000846e-14
	6.218786045675529e-07
	3.766969893475937e-05
	4.422416942293461e-06
	1.924621479567830e-01

 43	4.300000000000002e-01
	-7.195661874895504e-15
	-1.636148321204992e-17
	-3.068845440309129e-14
	6.603852559940128e-07
	4.105460523200356e-05
	4.815797851224916e-06
	1.924621949270229e-01

 44	4.400000000000002e-01
	-7.153147335386020e-15
	-1.682470863162189e-17
	-3.087861219986648e-14
	7.009956812364325e-07
	4.473224071185070e-05
	5.244472429561880e-06
	1.924622461129558e-01

 45	4.500000000000002e-01
	-7.112240766033557e-15
	-1.730184473057633e-17
	-3.106585081015798e-14
	7.438063124395226e-07
	4.872481307634382e-05
	5.711477837170850e-06
	1.924623018775043e-01

 46	4.600000000000002e-01
	-7.072924495359657e-15
	-1.779334848091998e-17
	-3.125016146079941e-14
	7.889170253929087e-07
	5.305571564369064e-05
	6.220079206328674e-06
	1.924623626108444e-01

 47	4.700000000000003e-01
	-7.035180276595760e-15
	-1.829969366352553e-17
	-3.143153748967680e-14
	8.364312337346211e-07
	5.774952441885530e-05
	6.773781485968147e-06
	1.924624287318232e-01

 48	4.800000000000003e-01
	-6.998989319913586e-15
	-1.882137156181040e-17
	-3.160997429767254e-14
	8.864559879126129e-07
	6.283198545305085e-05
	7.376341208247821e-06
	1.924625006893598e-01

 49	4.900000000000003e-01
	-6.964332324642818e-15
	-1.935889168707304e-17
	-3.178546929869380e-14
	9.391020796727259e-07
	6.832999147423605e-05
	8.031778075168844e-06
	1.924625789638249e-01

 50	5.000000000000002e-01
	-6.931189511397057e-15
	-1.991278253705386e-17
	-3.195802186796611e-14
	9.944841529601729e-07
	7.427154678553611e-05
	8.744386252839827e-06
	1.924626640683981e-01

 51	5.100000000000002e-01
	-6.899540654032165e-15
	-2.048359238936803e-17
	-3.212763328877203e-14
	1.052720822255294e-06
	8.068571946152264e-05
	9.518745251107876e-06
	1.924627565503680e-01

 52	5.200000000000002e-01
	-6.869365111364940e-15
	-2.107189013155227e-17
	-3.229430669781122e-14
	1.113934799514221e-06
	8.760257992540146e-05
	1.035973025681935e-05
	1.924628569923537e-01

 53	5.300000000000002e-01
	-6.840641858583743e-15
	-2.167826612954448e-17
	-3.245804702935482e-14
	1.178253031052649e-06
	9.505312506510835e-05
	1.127252178016048e-05
	1.924629660134673e-01

 54	5.400000000000003e-01
	-6.813349518286216e-15
	-2.230333313652926e-17
	-3.261886095836443e-14
	1.245806845897817e-06
	1.030691871445790e-04
	1.226261446558253e-05
	1.924630842703523e-01

 55	5.500000000000003e-01
	-6.787466391083389e-15
	-2.294772724416876e-17
	-3.277675684274052e-14
	1.316732117341057e-06
	1.116833268891515e-04
	1.333582491197312e-05
	1.924632124581278e-01

 56	5.600000000000003e-01
	-6.762970485712908e-15
	-2.361210887835552e-17
	-3.293174466486120e-14
	1.391169439653142e-06
	1.209287102719617e-04
	1.449829834125242e-05
	1.924633513111714e-01

 57	5.700000000000003e-01
	-6.739839548608352e-15
	-2.429716384173556e-17
	-3.308383597256729e-14
	1.469264322177690e-06
	1.308389687014548e-04
	1.575651395069248e-05
	1.924635016037555e-01

 58	5.800000000000003e-01
	-6.718051092875402e-15
	-2.500360440535975e-17
	-3.323304381974349e-14
	1.551167403296416e-06
	1.414480425084710e-04
	1.711728878224105e-05
	1.924636641505095e-01

 59	5.900000000000003e-01
	-6.697582426629072e-15
	-2.573217045196610e-17
	-3.337938270664132e-14
	1.637034687065523e-06
	1.527900078537862e-04
	1.858777994222649e-05
	1.924638398066714e-01

 60	6.000000000000003e-01
	-6.678410680650784e-15
	-2.648363067350672e-17
	-3.352286852008148e-14
	1.727027805655709e-06
	1.648988874216877e-04
	2.017548500724573e-05
	1.924640294681391e-01

 61	6.100000000000003e-01
	-6.660512835327093e-15
	-2.725878382569284e-17
	-3.366351847366934e-14
	1.821314311092177e-06
	1.778084455298241e-04
	2.188824045702737e-05
	1.924642340712689e-01

 62	6.200000000000003e-01
	-6.643865746835958e-15
	-2.805846004246129e-17
	-3.380135104814913e-14
	1.920068000185989e-06
	1.915519685667659e-04
	2.373421798277687e-05
	1.924644545924339e-01

 63	6.300000000000003e-01
	-6.628446172549819e-15
	-2.888352221343846e-17
	-3.393638593201775e-14
	2.023469276976753e-06
	2.061620319624999e-04
	2.572191853011507e-05
	1.924646920473036e-01

 64	6.400000000000003e-01
	-6.614230795628750e-15
	-2.973486742762606e-17
	-3.406864396251046e-14
	2.131705557470543e-06
	2.216702551985076e-04
	2.786016394930398e-05
	1.924649474898400e-01

 65	6.500000000000004e-01
	-6.601196248779338e-15
	-3.061342848671876e-17
	-3.419814706706685e-14
	2.244971721958353e-06
	2.381070466676074e-04
	3.015808614207206e-05
	1.924652220109948e-01

 66	6.600000000000004e-01
	-6.589319137159678e-15
	-3.152017549164129e-17
	-3.432491820537578e-14
	2.363470620741818e-06
	2.555013404930565e-04
	3.262511361399011e-05
	1.924655167370991e-01

 67	6.700000000000004e-01
	-6.578576060412628e-15
	-3.245611750607885e-17
	-3.444898131209412e-14
	2.487413639677176e-06
	2.738803277046752e-04
	3.527095536393249e-05
	1.924658328279393e-01

 68	6.800000000000004e-01
	-6.568943633813360e-15
	-3.342230430099997e-17
	-3.457036124032617e-14
	2.617021332578985e-06
	2.932691844397569e-04
	3.810558206754376e-05
	1.924661714744981e-01

 69	6.900000000000004e-01
	-6.560398508519849e-15
	-3.441982818435197e-17
	-3.468908370594414e-14
	2.752524128206126e-06
	3.136908000806678e-04
	4.113920453958843e-05
	1.924665338963835e-01

 70	7.000000000000004e-01
	-6.552917390917850e-15
	-3.544982592036988e-17
	-3.480517523282416e-14
	2.894163120288941e-06
	3.351655084518437e-04
	4.438224949030416e-05
	1.924669213389330e-01

 71	7.100000000000004e-01
	-6.546477061054247e-15
	-3.651348074315080e-17
	-3.491866309906588e-14
	3.042190949854306e-06
	3.577108253688743e-04
	4.784533262302543e-05
	1.924673350700066e-01

 72	7.200000000000004e-01
	-6.541054390155290e-15
	-3.761202446942379e-17
	-3.502957528425722e-14
	3.196872789972468e-06
	3.813411959546347e-04
	5.153922915396360e-05
	1.924677763764513e-01

 73	7.300000000000004e-01
	-6.536626357228824e-15
	-3.874673971567741e-17
	-3.513794041784029e-14
	3.358487443993594e-06
	4.060677552054715e-04
	5.547484186958038e-05
	1.924682465603137e-01

 74	7.400000000000004e-01
	-6.533170064750904e-15
	-3.991896222512812e-17
	-3.524378772862852e-14
	3.527328569376271e-06
	4.318981052991516e-04
	5.966316687196065e-05
	1.924687469347345e-01

 75	7.500000000000004e-01
	-6.530662753440393e-15
	-4.113008331027133e-17
	-3.534714699551915e-14
	3.703706040344514e-06
	4.588361130809624e-04
	6.411525719728065e-05
	1.924692788196151e-01

 76	7.600000000000005e-01
	-6.529081816125932e-15
	-4.238155241709072e-17
	-3.544804849944028e-14
	3.887947463862695e-06
	4.868817310424839e-04
	6.884218452629948e-05
	1.924698435370632e-01

 77	7.700000000000005e-01
	-6.528404810711830e-15
	-4.367487981732386e-17
	-3.554652297656575e-14
	4.080399864806093e-06
	5.160308449175583e-04
	7.385499923805560e-05
	1.924704424066089e-01

 78	7.800000000000005e-01
	-6.528609472251192e-15
	-4.501163943552041e-17
	-3.564260157282717e-14
	4.281431557750046e-06
	5.462751507622446e-04
	7.916468908794324e-05
	1.924710767402964e-01

 79	7.900000000000005e-01
	-6.529673724135481e-15
	-4.639347181801009e-17
	-3.573631579974615e-14
	4.491434224529997e-06
	5.776020640623326e-04
	8.478213681843880e-05
	1.924717478376275e-01

 80	8.000000000000005e-01
	-6.531575688411225e-15
	-4.782208725126046e-17
	-3.582769749160671e-14
	4.710825218666754e-06
	6.099946630272178e-04
	9.071807703428116e-05
	1.924724569804099e-01

 81	8.100000000000005e-01
	-6.534293695235954e-15
	-4.929926903752677e-17
	-3.591677876398240e-14
	4.940050119940946e-06
	6.434316677883938e-04
	9.698305269329146e-05
	1.924732054275784e-01

 82	8.200000000000005e-01
	-6.537806291485859e-15
	-5.082687693610674e-17
	-3.600359197362909e-14
	5.179585564879168e-06
	6.778874567321599e-04
	1.035873715787527e-04
	1.924739944099956e-01

 83	8.300000000000005e-01
	-6.542092248529137e-15
	-5.240685077896276e-17
	-3.608816967975008e-14
	5.429942381727167e-06
	7.133321206684011e-04
	1.105410631288961e-04
	1.924748251253112e-01

 84	8.400000000000005e-01
	-6.547130569179135e-15
	-5.404121426995162e-17
	-3.617054460663714e-14
	5.691669061686662e-06
	7.497315549808949e-04
	1.178538360032314e-04
	1.924756987328868e-01

 85	8.500000000000005e-01
	-6.552900493842423e-15
	-5.573207897737137e-17
	-3.625074960768691e-14
	5.965355601843446e-06
	7.870475893311429e-04
	1.255350367639836e-04
	1.924766163488707e-01

 86	8.600000000000005e-01
	-6.559381505877184e-15
	-5.748164853008244e-17
	-3.632881763078922e-14
	6.251637759385023e-06
	8.252381539093003e-04
	1.335936100436442e-04
	1.924775790414353e-01

 87	8.700000000000006e-01
	-6.566553336177833e-15
	-5.929222302795883e-17
	-3.640478168508074e-14
	6.551201761477688e-06
	8.642574806551509e-04
	1.420380605566400e-04
	1.924785878262428e-01

 88	8.800000000000006e-01
	-6.574395967001849e-15
	-6.116620367803566e-17
	-3.647867480905456e-14
	6.864789520636056e-06
	9.040563373216671e-04
	1.508764172944921e-04
	1.924796436621636e-01

 89	8.900000000000006e-01
	-6.582889635054782e-15
	-6.310609766827104e-17
	-3.655053004001399e-14
	7.193204411678797e-06
	9.445822917357407e-04
	1.601162002198596e-04
	1.924807474472915e-01

 90	9.000000000000006e-01
	-6.592014833850252e-15
	-6.511452329148822e-17
	-3.662038038485529e-14
	7.537317673541017e-06
	9.857800031364712e-04
	1.697643897459176e-04
	1.924819000152932e-01

 91	9.100000000000006e-01
	-6.601752315360493e-15
	-6.719421533268166e-17
	-3.668825879216346e-14
	7.898075507443794e-06
	1.027591537051175e-03
	1.798273992540952e-04
	1.924831021321187e-01

 92	9.200000000000006e-01
	-6.612083090974002e-15
	-6.934803073356856e-17
	-3.675419812560127e-14
	8.276506952359781e-06
	1.069956699811661e-03
	1.903110508658932e-04
	1.924843544931044e-01

 93	9.300000000000006e-01
	-6.622988431775531e-15
	-7.157895454894892e-17
	-3.681823113857172e-14
	8.673732629537782e-06
	1.112813388525359e-03
	2.012205546439674e-04
	1.924856577204670e-01

 94	9.400000000000006e-01
	-6.634449868164631e-15
	-7.389010621016150e-17
	-3.688039045013024e-14
	9.090974460260878e-06
	1.156097952102292e-03
	2.125604913546114e-04
	1.924870123612543e-01

 95	9.500000000000006e-01
	-6.646449188827020e-15
	-7.628474611169158e-17
	-3.694070852212328e-14
	9.529566475243425e-06
	1.199745558803085e-03
	2.243347988790293e-04
	1.924884188857012e-01

 96	9.600000000000006e-01
	-6.658968439073943e-15
	-7.876628253775660e-17
	-3.699921763752697e-14
	9.990966850380859e-06
	1.243690565715240e-03
	2.365467623150305e-04
	1.924898776860471e-01

 97	9.700000000000006e-01
	-6.671989918563446e-15
	-8.133827894649173e-17
	-3.705594987995912e-14
	1.047677132225386e-05
	1.287866885584051e-03
	2.491990077648855e-04
	1.924913890757891e-01

 98	9.800000000000006e-01
	-6.685496178416808e-15
	-8.400446163021340e-17
	-3.711093711433628e-14
	1.098872815818869e-05
	1.332208346516987e-03
	2.622934997597456e-04
	1.924929532893662e-01

 99	9.900000000000007e-01
	-6.699470017743167e-15
	-8.676872777106519e-17
	-3.716421096864628e-14
	1.152875488017008e-05
	1.376649040240921e-03
	2.758315422269752e-04
	1.924945704822734e-01

 100	1.000000000000001e+00
	-6.713894479584362e-15
	-8.963515391223426e-17
	-3.721580281680607e-14
	1.209895696991877e-05
	1.421123654813430e-03
	2.898137828646268e-04
	1.924962407315904e-01

 101	1.010000000000001e+00
	-6.728752846290867e-15
	-9.260800486584738e-17
	-3.726574376257404e-14
