Title: ** sch_path: /home/andylithia/openmpw/project-yatsuhashi-chip1/xschem/gmid_test/nmos_test.sch
Date: Tue Jul 19 23:15:45  2022
Plotname: DC transfer characteristic
Flags: real
No. Variables: 8
No. Points: 181
Variables:
	0	v(v-sweep)	voltage
	1	@m.xm1.msky130_fd_pr__nfet_01v8[cgb]	capacitance
	2	@m.xm1.msky130_fd_pr__nfet_01v8[cgd]	capacitance
	3	@m.xm1.msky130_fd_pr__nfet_01v8[cgs]	capacitance
	4	@m.xm1.msky130_fd_pr__nfet_01v8[gds]	admittance
	5	@m.xm1.msky130_fd_pr__nfet_01v8[gm]	admittance
	6	i(@m.xm1.msky130_fd_pr__nfet_01v8[id])	current
	7	v(@m.xm1.msky130_fd_pr__nfet_01v8[vth])	voltage
Values:
 0	0.000000000000000e+00
	-7.457836259802138e-15
	-3.668399839585336e-19
	-1.177353898233935e-14
	4.938932226199967e-08
	1.997443912096465e-06
	2.374084154812475e-07
	2.490011860930438e-01

 1	1.000000000000000e-02
	-7.376266033120626e-15
	-3.763024075560108e-19
	-1.196119068102585e-14
	5.360853657957237e-08
	2.169960667113817e-06
	2.582336240410062e-07
	2.490011876817624e-01

 2	2.000000000000000e-02
	-7.295563582290470e-15
	-3.859864536153362e-19
	-1.214904815030534e-14
	5.817253706433204e-08
	2.357239585906894e-06
	2.808567877386049e-07
	2.490011894085405e-01

 3	3.000000000000000e-02
	-7.215749755953300e-15
	-3.958963545293134e-19
	-1.233703735166947e-14
	6.310763660149815e-08
	2.560560069947812e-06
	3.054318316974821e-07
	2.490011912853479e-01

 4	4.000000000000000e-02
	-7.136845041112832e-15
	-4.060363989213907e-19
	-1.252508408498340e-14
	6.844194550894497e-08
	2.781318632757553e-06
	3.321260512022241e-07
	2.490011933252257e-01

 5	5.000000000000000e-02
	-7.058869520202812e-15
	-4.164109323600826e-19
	-1.271311409514287e-14
	7.420547191273695e-08
	3.021040685475811e-06
	3.611213407159947e-07
	2.490011955423761e-01

 6	6.000000000000000e-02
	-6.981842829437629e-15
	-4.270243581156466e-19
	-1.290105317882061e-14
	8.043022550034968e-08
	3.281393603818951e-06
	3.926155470493496e-07
	2.490011979522883e-01

 7	7.000000000000001e-02
	-6.905784118555926e-15
	-4.378811379610687e-19
	-1.308882729099496e-14
	8.715032455078274e-08
	3.564201211630900e-06
	4.268239601608279e-07
	2.490012005718503e-01

 8	8.000000000000000e-02
	-6.830712012063310e-15
	-4.489857930186271e-19
	-1.327636265095132e-14
	9.440210611605248e-08
	3.871459827281219e-06
	4.639809564764002e-07
	2.490012034194901e-01

 9	9.000000000000000e-02
	-6.756644572074244e-15
	-4.603429046537161e-19
	-1.346358584745123e-14
	1.022242392025613e-07
	4.205356030365227e-06
	5.043418111333821e-07
	2.490012065153369e-01

 10	9.999999999999999e-02
	-6.683599262847417e-15
	-4.719571154174955e-19
	-1.365042394276707e-14
	1.106578407735084e-07
	4.568286317336620e-06
	5.481846971848117e-07
	2.490012098813827e-01

 11	1.100000000000000e-01
	-6.611592917102571e-15
	-4.838331300397274e-19
	-1.383680457528451e-14
	1.197465943648720e-07
	4.962878825642891e-06
	5.958128915412637e-07
	2.490012135416721e-01

 12	1.200000000000000e-01
	-6.540641704199767e-15
	-4.959757164733479e-19
	-1.402265606038215e-14
	1.295368710776989e-07
	5.392017316387234e-06
	6.475572092754182e-07
	2.490012175225125e-01

 13	1.300000000000000e-01
	-6.470761100254624e-15
	-5.083897069920164e-19
	-1.420790748930571e-14
	1.400778526784750e-07
	5.858867615205278e-06
	7.037786898637618e-07
	2.490012218527045e-01

 14	1.400000000000000e-01
	-6.401965860255991e-15
	-5.210799993420698e-19
	-1.439248882576234e-14
	1.514216565073071e-07
	6.366906719570026e-06
	7.648715609800605e-07
	2.490012265638024e-01

 15	1.500000000000000e-01
	-6.334269992243851e-15
	-5.340515579501746e-19
	-1.457633099997284e-14
	1.636234618606205e-07
	6.919954787719070e-06
	8.312665075734326e-07
	2.490012316903951e-01

 16	1.600000000000000e-01
	-6.267686733597937e-15
	-5.473094151878225e-19
	-1.475936599992908e-14
	1.767416374810177e-07
	7.522210229367974e-06
	9.034342761418297e-07
	2.490012372704297e-01

 17	1.700000000000000e-01
	-6.202228529478524e-15
	-5.608586726939231e-19
	-1.494152695961892e-14
	1.908378697521256e-07
	8.178288120814467e-06
	9.818896463276381e-07
	2.490012433455574e-01

 18	1.800000000000000e-01
	-6.137907013452790e-15
	-5.747045027565951e-19
	-1.512274824399295e-14
	2.059772911604996e-07
	8.893262166356371e-06
	1.067195804186649e-06
	2.490012499615296e-01

 19	1.900000000000000e-01
	-6.074732990331502e-15
	-5.888521497553594e-19
	-1.530296553046356e-14
	2.222286085501938e-07
	9.672710423500840e-06
	1.159969153681435e-06
	2.490012571686213e-01

 20	2.000000000000000e-01
	-6.012716421232164e-15
	-6.033069316645906e-19
	-1.548211588674136e-14
	2.396642306584257e-07
	1.052276500051784e-05
	1.260884605083148e-06
	2.490012650221223e-01

 21	2.100000000000000e-01
	-5.951866410876171e-15
	-6.180742416193159e-19
	-1.566013784483147e-14
	2.583603943829473e-07
	1.145016592072494e-05
	1.370681380984284e-06
	2.490012735828644e-01

 22	2.200000000000001e-01
	-5.892191197119125e-15
	-6.331595495446425e-19
	-1.583697147102866e-14
	2.783972891933489e-07
	1.246231932765483e-05
	1.490169382471575e-06
	2.490012829177979e-01

 23	2.300000000000001e-01
	-5.833698142705199e-15
	-6.485684038490311e-19
	-1.601255843176707e-14
	2.998591790594631e-07
	1.356736017808326e-05
	1.620236159617772e-06
	2.490012931006577e-01

 24	2.400000000000001e-01
	-5.776393729227906e-15
	-6.643064331831791e-19
	-1.618684205520066e-14
	3.228345212308634e-07
	1.477421953489362e-05
	1.761854531752004e-06
	2.490013042126618e-01

 25	2.500000000000001e-01
	-5.720283553272174e-15
	-6.803793482646494e-19
	-1.635976738840540e-14
	3.474160811613944e-07
	1.609269652796881e-05
	1.916090903873029e-06
	2.490013163433180e-01

 26	2.600000000000001e-01
	-5.665372324704422e-15
	-6.967929437696228e-19
	-1.653128125011618e-14
	3.737010428328708e-07
	1.753353499784260e-05
	2.084114325991673e-06
	2.490013295912741e-01

 27	2.700000000000001e-01
	-5.611663867070505e-15
	-7.135531002922633e-19
	-1.670133227892666e-14
	4.017911136915985e-07
	1.910850477275475e-05
	2.267206342020080e-06
	2.490013440652896e-01

 28	2.800000000000001e-01
	-5.559161120053737e-15
	-7.306657863726655e-19
	-1.686987097690176e-14
	4.317926233712540e-07
	2.083048745421342e-05
	2.466771673961658e-06
	2.490013598852727e-01

 29	2.900000000000001e-01
	-5.507866143939198e-15
	-7.481370605942991e-19
	-1.703684974856810e-14
	4.638166153353362e-07
	2.271356649834458e-05
	2.684349785472492e-06
	2.490013771834397e-01

 30	3.000000000000001e-01
	-5.457780126023775e-15
	-7.659730737513484e-19
	-1.720222293526796e-14
	4.979789305327227e-07
	2.477312127956064e-05
	2.921627366241115e-06
	2.490013961055592e-01

 31	3.100000000000001e-01
	-5.408903388905834e-15
	-7.841800710871887e-19
	-1.736594684487831e-14
	5.344002821203953e-07
	2.702592470885351e-05
	3.180451774931838e-06
	2.490014168123426e-01

 32	3.200000000000001e-01
	-5.361235400583076e-15
	-8.027643946045906e-19
	-1.752797977691525e-14
	5.732063202693450e-07
	2.949024385103630e-05
	3.462845473526739e-06
	2.490014394809170e-01

 33	3.300000000000001e-01
	-5.314774786282242e-15
	-8.217324854483691e-19
	-1.768828204305898e-14
	6.145276860322411e-07
	3.218594284340795e-05
	3.771021479636591e-06
	2.490014643064719e-01

 34	3.400000000000001e-01
	-5.269519341939876e-15
	-8.410908863615474e-19
	-1.784681598315284e-14
	6.585000532164652e-07
	3.513458726291905e-05
	4.107399855603774e-06
	2.490014915040075e-01

 35	3.500000000000001e-01
	-5.225466049249617e-15
	-8.608462442155263e-19
	-1.800354597674314e-14
	7.052641571728130e-07
	3.835954892053284e-05
	4.474625243847448e-06
	2.490015213102484e-01

 36	3.600000000000002e-01
	-5.182611092188371e-15
	-8.810053126155134e-19
	-1.815843845024194e-14
	7.549658093800668e-07
	4.188610988122493e-05
	4.875585446786027e-06
	2.490015539857036e-01

 37	3.700000000000002e-01
	-5.140949874930042e-15
	-9.015749545818196e-19
	-1.831146187980997e-14
	8.077558966792833e-07
	4.574156431749548e-05
	5.313431036699641e-06
	2.490015898168690e-01

 38	3.800000000000002e-01
	-5.100477041054626e-15
	-9.225621453079562e-19
	-1.846258679006657e-14
	8.637903639892295e-07
	4.995531660548622e-05
	5.791595965969945e-06
	2.490016291186088e-01

 39	3.900000000000002e-01
	-5.061186493957143e-15
	-9.439739749967155e-19
	-1.861178574874915e-14
	9.232301793181782e-07
	5.455897386861812e-05
	6.313819131195605e-06
	2.490016722366911e-01

 40	4.000000000000002e-01
	-5.023071418360642e-15
	-9.658176517750030e-19
	-1.875903335745305e-14
	9.862412798768459e-07
	5.958643096744290e-05
	6.884166825681862e-06
	2.490017195504787e-01

 41	4.100000000000002e-01
	-4.986124302836457e-15
	-9.881005046885021e-19
	-1.890430623859342e-14
	1.052994498094821e-06
	6.507394573032002e-05
	7.507055993748100e-06
	2.490017714758053e-01

 42	4.200000000000002e-01
	-4.950336963234181e-15
	-1.010829986777523e-18
	-1.904758301874043e-14
	1.123665466349505e-06
	7.106020202245902e-05
	8.187278177233343e-06
	2.490018284679835e-01

 43	4.300000000000002e-01
	-4.915700566924640e-15
	-1.034013678234727e-18
	-1.918884430848575e-14
	1.198434499233199e-06
	7.758635806638061e-05
	8.930024019598707e-06
	2.490018910249888e-01

 44	4.400000000000002e-01
	-4.882205657759178e-15
	-1.057659289646464e-18
	-1.932807267900602e-14
	1.277486452212929e-06
	8.469607726133150e-05
	9.740908166291994e-06
	2.490019596907836e-01

 45	4.500000000000002e-01
	-4.849842181649795e-15
	-1.081774665318639e-18
	-1.946525263549497e-14
	1.361010555579889e-06
	9.243553860963011e-05
	1.062599437177498e-05
	2.490020350587618e-01

 46	4.600000000000002e-01
	-4.818599512676116e-15
	-1.106367786688624e-18
	-1.960037058764014e-14
	1.449200222642701e-06
	1.008534237518872e-04
	1.159182059411190e-05
	2.490021177753174e-01

 47	4.700000000000003e-01
	-4.788466479626890e-15
	-1.131446775824335e-18
	-1.973341481732415e-14
	1.542252831192883e-06
	1.100008775486814e-04
	1.264542382766223e-05
	2.490022085435141e-01

 48	4.800000000000003e-01
	-4.759431392885726e-15
	-1.157019899012626e-18
	-1.986437544373407e-14
	1.640369477364228e-06
	1.199314391319254e-04
	1.379436439366921e-05
	2.490023081267924e-01

 49	4.900000000000003e-01
	-4.731482071573429e-15
	-1.183095570437827e-18
	-1.999324438606300e-14
	1.743754701119982e-06
	1.307009403932817e-04
	1.504674937792000e-05
	2.490024173527441e-01

 50	5.000000000000002e-01
	-4.704605870861837e-15
	-1.209682355952411e-18
	-2.012001532399035e-14
	1.852616182737269e-06
	1.423673689880761e-04
	1.641125487482697e-05
	2.490025371168558e-01

 51	5.100000000000002e-01
	-4.678789709377043e-15
	-1.236788976941469e-18
	-2.024468365612640e-14
	1.967164409815555e-06
	1.549906931189602e-04
	1.789714666892320e-05
	2.490026683862194e-01

 52	5.200000000000002e-01
	-4.654020096613177e-15
	-1.264424314282995e-18
	-2.036724645660661e-14
	2.087612314518406e-06
	1.686326456314238e-04
	1.951429895869112e-05
	2.490028122031258e-01

 53	5.300000000000002e-01
	-4.630283160281438e-15
	-1.292597412405217e-18
	-2.048770243001892e-14
	2.214174880964695e-06
	1.833564653090326e-04
	2.127321070468188e-05
	2.490029696885278e-01

 54	5.400000000000003e-01
	-4.607564673521961e-15
	-1.321317483444111e-18
	-2.060605186484625e-14
	2.347068722918945e-06
	1.992265937046501e-04
	2.318501916496459e-05
	2.490031420452482e-01

 55	5.500000000000003e-01
	-4.585850081911077e-15
	-1.350593911501424e-18
	-2.072229658560135e-14
	2.486511632188143e-06
	2.163083263872350e-04
	2.526151016697731e-05
	2.490033305609391e-01

 56	5.600000000000003e-01
	-4.565124530198902e-15
	-1.380436257007435e-18
	-2.083643990382997e-14
	2.632722098416790e-06
	2.346674181226005e-04
	2.751512465683329e-05
	2.490035366106354e-01

 57	5.700000000000003e-01
	-4.545372888717263e-15
	-1.410854261188776e-18
	-2.094848656815176e-14
	2.785918801278282e-06
	2.543696422379630e-04
	2.995896106596154e-05
	2.490037616589126e-01

 58	5.800000000000003e-01
	-4.526579779401044e-15
	-1.441857850644979e-18
	-2.105844271350556e-14
	2.946320076391062e-06
	2.754803052389505e-04
	3.260677304159103e-05
	2.490040072614713e-01

 59	5.900000000000003e-01
	-4.508729601371002e-15
	-1.473457142035390e-18
	-2.116631580975832e-14
	3.114143356635137e-06
	2.980637186446180e-04
	3.547296210278486e-05
	2.490042750661655e-01

 60	6.000000000000003e-01
	-4.491806556028891e-15
	-1.505662446879205e-18
	-2.127211460983362e-14
	3.289604590910063e-06
	3.221826309688737e-04
	3.857256480830157e-05
	2.490045668132866e-01

 61	6.100000000000003e-01
	-4.475794671620988e-15
	-1.538484276471357e-18
	-2.137584909750739e-14
	3.472917642749443e-06
	3.478976237887309e-04
	4.192123405698483e-05
	2.490048843351050e-01

 62	6.200000000000003e-01
	-4.460677827229117e-15
	-1.571933346916769e-18
	-2.147753043501380e-14
	3.664293671589547e-06
	3.752664768817484e-04
	4.553521418616027e-05
	2.490052295545329e-01

 63	6.300000000000003e-01
	-4.446439776152706e-15
	-1.606020584285635e-18
	-2.157717091059649e-14
	3.863940499870285e-06
	4.043435084629611e-04
	4.943130958873762e-05
	2.490056044828637e-01

 64	6.400000000000003e-01
	-4.433064168649134e-15
	-1.640757129892660e-18
	-2.167478388613438e-14
	4.072061969521770e-06
	4.351788975795531e-04
	5.362684663537584e-05
	2.490060112164836e-01

 65	6.500000000000004e-01
	-4.420534574003275e-15
	-1.676154345703264e-18
	-2.177038374496351e-14
	4.288857291749484e-06
	4.678179967001924e-04
	5.813962876376920e-05
	2.490064519325498e-01

 66	6.600000000000004e-01
	-4.408834501901049e-15
	-1.712223819869775e-18
	-2.186398584000998e-14
	4.514520394369355e-06
	5.023006434346104e-04
	6.298788468224521e-05
	2.490069288835337e-01

 67	6.700000000000004e-01
	-4.397947423085058e-15
	-1.748977372400423e-18
	-2.195560644234159e-14
	4.749239271251161e-06
	5.386604811057558e-04
	6.819020972843285e-05
	2.490074443906260e-01

 68	6.800000000000004e-01
	-4.387856789274251e-15
	-1.786427060964377e-18
	-2.204526269023856e-14
	4.993195338696429e-06
	5.769242985398001e-04
	7.376550052448274e-05
	2.490080008360026e-01

 69	6.900000000000004e-01
	-4.378546052332281e-15
	-1.824585186836415e-18
	-2.213297253887727e-14
	5.246562803798776e-06
	6.171113999081391e-04
	7.973288317663659e-05
	2.490086006539112e-01

 70	7.000000000000004e-01
	-4.369998682673164e-15
	-1.863464300983758e-18
	-2.221875471071281e-14
	5.509508049998819e-06
	6.592330157217378e-04
	8.611163537688343e-05
	2.490092463206583e-01

 71	7.100000000000004e-01
	-4.362198186895081e-15
	-1.903077210299348e-18
	-2.230262864664088e-14
	5.782189045149667e-06
	7.032917661179120e-04
	9.292110287593958e-05
	2.490099403435000e-01

 72	7.200000000000004e-01
	-4.355128124636697e-15
	-1.943436983984364e-18
	-2.238461445801129e-14
	6.064754777442417e-06
	7.492811873731133e-04
	1.001806109073918e-04
	2.490106852485269e-01

 73	7.300000000000004e-01
	-4.348772124652962e-15
	-1.984556960083451e-18
	-2.246473287955946e-14
	6.357344724500858e-06
	7.971853321096934e-04
	1.079093712500557e-04
	2.490114835676578e-01

 74	7.400000000000004e-01
	-4.343113900109464e-15
	-2.026450752177097e-18
	-2.254300522331688e-14
	6.660088360837705e-06
	8.469784529340264e-04
	1.161263857168025e-04
	2.490123378247897e-01

 75	7.500000000000004e-01
	-4.338137263097931e-15
	-2.069132256233833e-18
	-2.261945333355280e-14
	6.973104708665956e-06
	8.986247782496324e-04
	1.248503469505666e-04
	2.490132505213419e-01

 76	7.600000000000005e-01
	-4.333826138376273e-15
	-2.112615657626583e-18
	-2.269409954279718e-14
	7.296501936783473e-06
	9.520783877434030e-04
	1.340995374895200e-04
	2.490142241212508e-01

 77	7.700000000000005e-01
	-4.330164576340276e-15
	-2.156915438318066e-18
	-2.276696662898544e-14
	7.630377011892862e-06
	1.007283193564507e-03
	1.438917281308919e-04
	2.490152610356530e-01

 78	7.800000000000005e-01
	-4.327136765234723e-15
	-2.202046384217110e-18
	-2.283807777376338e-14
	7.974815406289900e-06
	1.064173031532698e-03
	1.542440766745710e-04
	2.490163636074334e-01

 79	7.900000000000005e-01
	-4.324727042614236e-15
	-2.248023592712756e-18
	-2.290745652198343e-14
	8.329890865356754e-06
	1.122671864861579e-03
	1.651730281615146e-04
	2.490175340958005e-01

 80	8.000000000000005e-01
	-4.322919906065819e-15
	-2.294862480389009e-18
	-2.297512674241909e-14
	8.695665237737201e-06
	1.182694100906163e-03
	1.766942177366397e-04
	2.490187746611480e-01

 81	8.100000000000005e-01
	-4.321700023206036e-15
	-2.342578790925488e-18
	-2.304111258972039e-14
	9.072188370461719e-06
	1.244145019392178e-03
	1.888223772603397e-04
	2.490200873503524e-01

 82	8.200000000000005e-01
	-4.321052240967876e-15
	-2.391188603189240e-18
	-2.310543846762752e-14
	9.459498070638768e-06
	1.306921308510277e-03
	2.015712467665036e-04
	2.490214740827517e-01

 83	8.300000000000005e-01
	-4.320961594192827e-15
	-2.440708339522516e-18
	-2.316812899345716e-14
	9.857620134648557e-06
	1.370911703217562e-03
	2.149534918180475e-04
	2.490229366369620e-01

 84	8.400000000000005e-01
	-4.321413313545592e-15
	-2.491154774232740e-18
	-2.322920896387009e-14
	1.026656844507754e-05
	1.435997718137531e-03
	2.289806277440660e-04
	2.490244766387457e-01

 85	8.500000000000005e-01
	-4.322392832768940e-15
	-2.542545042289796e-18
	-2.328870332192731e-14
	1.068634513493069e-05
	1.502054465642346e-03
	2.436629516570235e-04
	2.490260955500815e-01

 86	8.600000000000005e-01
	-4.323885795297750e-15
	-2.594896648237864e-18
	-2.334663712543597e-14
	1.111694081796545e-05
	1.568951548088609e-03
	2.590094830455976e-04
	2.490277946595688e-01

 87	8.700000000000006e-01
	-4.325878060251564e-15
	-2.648227475327404e-18
	-2.340303551658507e-14
	1.155833488331867e-05
	1.636554011804035e-03
	2.750279136210375e-04
	2.490295750743331e-01

 88	8.800000000000006e-01
	-4.328355707825719e-15
	-2.702555794875784e-18
	-2.345792369286616e-14
	1.201049585195964e-05
	1.704723349325425e-03
	2.917245669648824e-04
	2.490314377134646e-01

 89	8.900000000000006e-01
	-4.331305044101604e-15
	-2.757900275862558e-18
	-2.351132687927265e-14
	1.247338179190524e-05
	1.773318535595656e-03
	3.091043683863966e-04
	2.490333833031270e-01

 90	9.000000000000006e-01
	-4.334712605296828e-15
	-2.814279994768135e-18
	-2.356327030176733e-14
	1.294694078859076e-05
	1.842197083357979e-03
	3.271708252524013e-04
	2.490354123733348e-01

 91	9.100000000000006e-01
	-4.338565161476571e-15
	-2.871714445664129e-18
	-2.361377916200590e-14
	1.343111146630815e-05
	1.911216102847657e-03
	3.459260179035406e-04
	2.490375252564214e-01

 92	9.200000000000006e-01
	-4.342849719747222e-15
	-2.930223550563815e-18
	-2.366287861330168e-14
	1.392582355620626e-05
	1.980233351070563e-03
	3.653706011226584e-04
	2.490397220872055e-01

 93	9.300000000000006e-01
	-4.347553526953913e-15
	-2.989827670042082e-18
	-2.371059373781411e-14
	1.443099850600597e-05
	2.049108256463975e-03
	3.855038159762947e-04
	2.490420028047755e-01

 94	9.400000000000006e-01
	-4.352664071903383e-15
	-3.050547614134285e-18
	-2.375694952494152e-14
	1.494655012631099e-05
	2.117702905532820e-03
	4.063235117121202e-04
	2.490443671558809e-01

 95	9.500000000000006e-01
	-4.358169087133197e-15
	-3.112404653524170e-18
	-2.380197085089749e-14
	1.547238526820319e-05
	2.185882979115575e-03
	4.278261772664846e-04
	2.490468146997769e-01

 96	9.600000000000006e-01
	-4.364056550249043e-15
	-3.175420531030784e-18
	-2.384568245944661e-14
	1.600840452668872e-05
	2.253518627218831e-03
	4.500069818192533e-04
	2.490493448144854e-01

 97	9.700000000000006e-01
	-4.370314684850710e-15
	-3.239617473405684e-18
	-2.388810894377585e-14
	1.655450296451851e-05
	2.320485272827407e-03
	4.728598237302019e-04
	2.490519567042813e-01

 98	9.800000000000006e-01
	-4.376931961067893e-15
	-3.305018203450631e-18
	-2.392927472947455e-14
	1.711057085092500e-05
	2.386664336698944e-03
	4.963773871034539e-04
	2.490546494083333e-01

 99	9.900000000000007e-01
	-4.383897095725978e-15
	-3.371645952468488e-18
	-2.396920405859559e-14
	1.767649440991033e-05
	2.451943876843592e-03
	5.205512051555597e-04
	2.490574218102882e-01

 100	1.000000000000001e+00
	-4.391199052162474e-15
	-3.439524473057245e-18
	-2.400792097476884e-14
	1.825215657286494e-05
	2.516219138119772e-03
	5.453717295087168e-04
	2.490602726487018e-01

 101	1.010000000000001e+00
	-4.398827039713298e-15
	-3.508678052260720e-18
	-2.404544930933708e-14
