Title: ** sch_path: /home/andylithia/openmpw/project-yatsuhashi-chip1/xschem/gmid_test/nmos_test.sch
Date: Sun Jul 17 22:51:45  2022
Plotname: DC transfer characteristic
Flags: real
No. Variables: 8
No. Points: 181
Variables:
	0	v(v-sweep)	voltage
	1	@m.xm1.msky130_fd_pr__nfet_01v8[cgb]	capacitance
	2	@m.xm1.msky130_fd_pr__nfet_01v8[cgd]	capacitance
	3	@m.xm1.msky130_fd_pr__nfet_01v8[cgs]	capacitance
	4	@m.xm1.msky130_fd_pr__nfet_01v8[gds]	admittance
	5	@m.xm1.msky130_fd_pr__nfet_01v8[gm]	admittance
	6	i(@m.xm1.msky130_fd_pr__nfet_01v8[id])	current
	7	v(@m.xm1.msky130_fd_pr__nfet_01v8[vth])	voltage
Values:
 0	0.000000000000000e+00
	-3.937514536433010e-15
	-6.066312350932654e-19
	-4.368153130881370e-15
	1.966309660323753e-08
	7.298150250928744e-07
	7.337133810476443e-08
	3.302381209309518e-01

 1	1.000000000000000e-02
	-3.894636477017364e-15
	-6.274770978231285e-19
	-4.462583260324996e-15
	2.169107751189702e-08
	8.049589930037123e-07
	8.103915948111279e-08
	3.302381217581412e-01

 2	2.000000000000000e-02
	-3.852004947768742e-15
	-6.490181856827942e-19
	-4.557685539251796e-15
	2.392201668638801e-08
	8.877180883736540e-07
	8.949588826249814e-08
	3.302381226704362e-01

 3	3.000000000000000e-02
	-3.809635120722079e-15
	-6.712754279120007e-19
	-4.653415096368457e-15
	2.637529878154205e-08
	9.788578175519212e-07
	9.882144119180870e-08
	3.302381236764632e-01

 4	4.000000000000000e-02
	-3.767542286545244e-15
	-6.942703002336536e-19
	-4.749725966127597e-15
	2.907202580223800e-08
	1.079222009902008e-06
	1.091037749245782e-07
	3.302381247857049e-01

 5	5.000000000000000e-02
	-3.725741814590435e-15
	-7.180248398919385e-19
	-4.846571169672870e-15
	3.203515064112444e-08
	1.189741394191515e-06
	1.204397113124219e-07
	3.302381260086099e-01

 6	6.000000000000000e-02
	-3.684249112670771e-15
	-7.425616614040817e-19
	-4.943902799399133e-15
	3.528961853771292e-08
	1.311443228811714e-06
	1.329358536075874e-07
	3.302381273566780e-01

 7	7.000000000000001e-02
	-3.643079586712346e-15
	-7.679039730632028e-19
	-5.041672106831970e-15
	3.886251661568187e-08
	1.445462127532318e-06
	1.467096048206377e-07
	3.302381288425767e-01

 8	8.000000000000000e-02
	-3.602248600434426e-15
	-7.940755942302389e-19
	-5.139829593511590e-15
	4.278323161627768e-08
	1.593052240780481e-06
	1.618903009703772e-07
	3.302381304802560e-01

 9	9.000000000000000e-02
	-3.561771435211995e-15
	-8.211009734541098e-19
	-5.238325104546994e-15
	4.708361590112629e-08
	1.755600972406387e-06
	1.786204736633554e-07
	3.302381322850971e-01

 10	9.999999999999999e-02
	-3.521663250275394e-15
	-8.490052074597829e-19
	-5.337107924490806e-15
	5.179816174755042e-08
	1.934644433518296e-06
	1.970572583466997e-07
	3.302381342740507e-01

 11	1.100000000000000e-01
	-3.481939043401443e-15
	-8.778140610444326e-19
	-5.436126875169412e-15
	5.696418390350429e-08
	2.131884858121176e-06
	2.173739667081883e-07
	3.302381364658133e-01

 12	1.200000000000000e-01
	-3.442613612248666e-15
	-9.075539879229012e-19
	-5.535330415091949e-15
	6.262201030767540e-08
	2.349210229782212e-06
	2.397618440662165e-07
	3.302381388810199e-01

 13	1.300000000000000e-01
	-3.403701516486946e-15
	-9.382521525643189e-19
	-5.634666740051376e-15
	6.881518081325992e-08
	2.588716394071738e-06
	2.644320352113306e-07
	3.302381415424517e-01

 14	1.400000000000000e-01
	-3.365217040868223e-15
	-9.699364530622812e-19
	-5.734083884523367e-15
	7.559065368168639e-08
	2.852731957666810e-06
	2.916177850386531e-07
	3.302381444752704e-01

 15	1.500000000000000e-01
	-3.327174159380389e-15
	-1.002635545081725e-18
	-5.833529823463877e-15
	8.299901953556914e-08
	3.143846301189060e-06
	3.215769034503360e-07
	3.302381477072934e-01

 16	1.600000000000000e-01
	-3.289586500620956e-15
	-1.036378866926876e-18
	-5.932952574104264e-15
	9.109472237895920e-08
	3.464941058342105e-06
	3.545945274061244e-07
	3.302381512692851e-01

 17	1.700000000000000e-01
	-3.252467314520734e-15
	-1.071196665774831e-18
	-6.032300297342645e-15
	9.993628720810190e-08
	3.819225437784400e-06
	3.909862166464702e-07
	3.302381551952899e-01

 18	1.800000000000000e-01
	-3.215829440540464e-15
	-1.107120025120457e-18
	-6.131521398333273e-15
	1.095865536482659e-07
	4.210275785278667e-06
	4.311014234849539e-07
	3.302381595230141e-01

 19	1.900000000000000e-01
	-3.179685277455146e-15
	-1.144180893479563e-18
	-6.230564625881507e-15
	1.201129149626847e-07
	4.642079800618477e-06
	4.753273811307214e-07
	3.302381642942367e-01

 20	2.000000000000000e-01
	-3.144046754832228e-15
	-1.182412114397719e-18
	-6.329379170259361e-15
	1.315875616891425e-07
	5.119085835004667e-06
	5.240934592071998e-07
	3.302381695552864e-01

 21	2.100000000000000e-01
	-3.108925306300082e-15
	-1.221847457813709e-18
	-6.427914759067811e-15
	1.440877290695852e-07
	5.646257698034483e-06
	5.778760394142984e-07
	3.302381753575638e-01

 22	2.200000000000001e-01
	-3.074331844693324e-15
	-1.262521652827401e-18
	-6.526121750784469e-15
	1.576959473493369e-07
	6.229135397087563e-06
	6.372039685490818e-07
	3.302381817581315e-01

 23	2.300000000000001e-01
	-3.040276739150913e-15
	-1.304470421923693e-18
	-6.623951225650668e-15
	1.725002939365589e-07
	6.873902213205609e-06
	7.026646502446188e-07
	3.302381888203708e-01

 24	2.400000000000001e-01
	-3.006769794232022e-15
	-1.347730516705032e-18
	-6.721355073569099e-15
	1.885946463307153e-07
	7.587458483857147e-06
	7.749108406713267e-07
	3.302381966147157e-01

 25	2.500000000000001e-01
	-2.973820231103450e-15
	-1.392339755187083e-18
	-6.818286078702594e-15
	2.060789346525696e-07
	8.377502411332328e-06
	8.546682169054194e-07
	3.302382052194709e-01

 26	2.600000000000001e-01
	-2.941436670840881e-15
	-1.438337060713623e-18
	-6.914698000485447e-15
	2.250593925388957e-07
	9.252618142813625e-06
	9.427437895095712e-07
	3.302382147217205e-01

 27	2.700000000000001e-01
	-2.909627119874645e-15
	-1.485762502548969e-18
	-7.010545650781655e-15
	2.456488051043185e-07
	1.022237127121110e-05
	1.040035232865907e-06
	3.302382252183289e-01

 28	2.800000000000001e-01
	-2.878398957599229e-15
	-1.534657338208045e-18
	-7.105784966947816e-15
	2.679667526215783e-07
	1.129741178139316e-05
	1.147541207690618e-06
	3.302382368170612e-01

 29	2.900000000000001e-01
	-2.847758926154090e-15
	-1.585064057586562e-18
	-7.200373080584301e-15
	2.921398485318477e-07
	1.248958431137945e-05
	1.266372749654075e-06
	3.302382496378120e-01

 30	3.000000000000001e-01
	-2.817713122372053e-15
	-1.637026428956812e-18
	-7.294268381784054e-15
	3.183019703693668e-07
	1.381204540949850e-05
	1.397765795807242e-06
	3.302382638139602e-01

 31	3.100000000000001e-01
	-2.788266991880559e-15
	-1.690589546896556e-18
	-7.387430578715191e-15
	3.465944821711584e-07
	1.527938724402615e-05
	1.543094916228561e-06
	3.302382794938404e-01

 32	3.200000000000001e-01
	-2.759425325330231e-15
	-1.745799882222200e-18
	-7.479820752400749e-15
	3.771664469436894e-07
	1.690776695959263e-05
	1.703888311584578e-06
	3.302382968423766e-01

 33	3.300000000000001e-01
	-2.731192256714927e-15
	-1.802705334000105e-18
	-7.571401406586942e-15
	4.101748277754189e-07
	1.871504057377533e-05
	1.881844127761736e-06
	3.302383160428348e-01

 34	3.400000000000001e-01
	-2.703571263737642e-15
	-1.861355283713966e-18
	-7.662136512618331e-15
	4.457846762174756e-07
	2.072089996797113e-05
	2.078848125986566e-06
	3.302383372987296e-01

 35	3.500000000000001e-01
	-2.676565170167402e-15
	-1.921800651669547e-18
	-7.751991549265752e-15
	4.841693066051272e-07
	2.294701115052482e-05
	2.296992730531275e-06
	3.302383608358879e-01

 36	3.600000000000002e-01
	-2.650176150123641e-15
	-1.984093955721854e-18
	-7.840933537480148e-15
	5.255104550606682e-07
	2.541715156053648e-05
	2.538597455848715e-06
	3.302383869046522e-01

 37	3.700000000000002e-01
	-2.624405734216513e-15
	-2.048289372415512e-18
	-7.928931070071427e-15
	5.699984220035646e-07
	2.815734374312946e-05
	2.806230690483751e-06
	3.302384157822254e-01

 38	3.800000000000002e-01
	-2.599254817464561e-15
	-2.114442800631432e-18
	-8.015954336336877e-15
	6.178321970962283e-07
	3.119598226889333e-05
	3.102732786123543e-06
	3.302384477751776e-01

 39	3.900000000000002e-01
	-2.574723668904375e-15
	-2.182611927840089e-18
	-8.101975141688771e-15
	6.692195656733963e-07
	3.456395030191375e-05
	3.431240366523786e-06
	3.302384832220546e-01

 40	4.000000000000002e-01
	-2.550811942801376e-15
	-2.252856299065785e-18
	-8.186966922353378e-15
	7.243771958380642e-07
	3.829472175509796e-05
	3.795211732735555e-06
	3.302385224961407e-01

 41	4.100000000000002e-01
	-2.527518691365783e-15
	-2.325237388671474e-18
	-8.270904755236612e-15
	7.835307055571887e-07
	4.242444452415834e-05
	4.198453198168784e-06
	3.302385660082873e-01

 42	4.200000000000002e-01
	-2.504842378873738e-15
	-2.399818675080763e-18
	-8.353765363071267e-15
	8.469147092530216e-07
	4.699199988103432e-05
	4.645146139828953e-06
	3.302386142098396e-01

 43	4.300000000000002e-01
	-2.482780897090165e-15
	-2.476665718558785e-18
	-8.435527114980829e-15
	9.147728435597673e-07
	5.203903275489068e-05
	5.139874501031737e-06
	3.302386675956057e-01

 44	4.400000000000002e-01
	-2.461331581887416e-15
	-2.555846242180347e-18
	-8.516170022611727e-15
	9.873577720970704e-07
	5.760994735753925e-05
	5.687652426728626e-06
	3.302387267068470e-01

 45	4.500000000000002e-01
	-2.440491230951931e-15
	-2.637430216121618e-18
	-8.595675732002366e-15
	1.064931169298603e-06
	6.375186244543690e-05
	6.293951656205200e-06
	3.302387921342300e-01

 46	4.600000000000002e-01
	-2.420256122470130e-15
	-2.721489945416969e-18
	-8.674027511370849e-15
	1.147763683521854e-06
	7.051452047862498e-05
	6.964728240540419e-06
	3.302388645207143e-01

 47	4.700000000000003e-01
	-2.400622034684445e-15
	-2.808100161331474e-18
	-8.751210235016212e-15
	1.236134879849968e-06
	7.795014506454069e-05
	7.706448095304584e-06
	3.302389445643117e-01

 48	4.800000000000003e-01
	-2.381584266210759e-15
	-2.897338116506835e-18
	-8.827210363538223e-15
	1.330333163173236e-06
	8.611324138692719e-05
	8.526110844248804e-06
	3.302390330206617e-01

 49	4.900000000000003e-01
	-2.363137657009643e-15
	-2.989283684047023e-18
	-8.902015920589846e-15
	1.430655682301130e-06
	9.506033484002490e-05
	9.431271359165103e-06
	3.302391307053569e-01

 50	5.000000000000002e-01
	-2.345276609905290e-15
	-3.084019460717749e-18
	-8.975616466383638e-15
	1.537408216000235e-06
	1.048496438348132e-04
	1.043005835685454e-05
	3.302392384959491e-01

 51	5.100000000000002e-01
	-2.327995112548460e-15
	-3.181630874443361e-18
	-9.048003068178386e-15
	1.650905041972667e-06
	1.155406837305040e-04
	1.153118937856657e-05
	3.302393573335729e-01

 52	5.200000000000002e-01
	-2.311286759722364e-15
	-3.282206296294450e-18
	-9.119168267976504e-15
	1.771468789878275e-06
	1.271938000766941e-04
	1.274398145281101e-05
	3.302394882240873e-01

 53	5.300000000000002e-01
	-2.295144775893710e-15
	-3.385837157167475e-18
	-9.189106047664352e-15
	1.899430279555305e-06
	1.398696308262056e-04
	1.407835673153410e-05
	3.302396322386871e-01

 54	5.400000000000003e-01
	-2.279562037914713e-15
	-3.492618069369997e-18
	-9.257811791828585e-15
	2.035128345604095e-06
	1.536284988819753e-04
	1.554484239467326e-05
	3.302397905138873e-01

 55	5.500000000000003e-01
	-2.264531097786025e-15
	-3.602646953333554e-18
	-9.325282248480466e-15
	2.178909649461342e-06
	1.685297382475780e-04
	1.715456414121760e-05
	3.302399642508275e-01

 56	5.600000000000003e-01
	-2.250044205394638e-15
	-3.716025169689623e-18
	-9.391515487918344e-15
	2.331128480005936e-06
	1.846309591218492e-04
	1.891923262796305e-05
	3.302401547137897e-01

 57	5.700000000000003e-01
	-2.236093331145678e-15
	-3.832857656952222e-18
	-9.456510859954462e-15
	2.492146543598739e-06
	2.019872594622812e-04
	2.085112228154729e-05
	3.302403632279131e-01

 58	5.800000000000003e-01
	-2.222670188411612e-15
	-3.953253075067334e-18
	-9.520268949728042e-15
	2.662332744269851e-06
	2.206503927758569e-04
	2.296304199592332e-05
	3.302405911760314e-01

 59	5.900000000000003e-01
	-2.209766255727381e-15
	-4.077323955097687e-18
	-9.582791532321166e-15
	2.842062954529468e-06
	2.406679041047227e-04
	2.526829733629322e-05
	3.302408399945758e-01

 60	6.000000000000003e-01
	-2.197372798665240e-15
	-4.205186855327775e-18
	-9.644081526386743e-15
	3.031719776998195e-06
	2.620822482734693e-04
	2.778064400100449e-05
	3.302411111685541e-01

 61	6.100000000000003e-01
	-2.185480891327898e-15
	-4.336962524087547e-18
	-9.704142946991475e-15
	3.231692296739851e-06
	2.849299063644597e-04
	3.051423244347771e-05
	3.302414062255586e-01

 62	6.200000000000003e-01
	-2.174081437404094e-15
	-4.472776069607002e-18
	-9.762980857867875e-15
	3.442375823844282e-06
	3.092405179943974e-04
	3.348354372439001e-05
	3.302417267288419e-01

 63	6.300000000000003e-01
	-2.163165190735641e-15
	-4.612757137231713e-18
	-9.820601323261355e-15
	3.664171625466995e-06
	3.350360481879675e-04
	3.670331684671158e-05
	3.302420742694648e-01

 64	6.400000000000003e-01
	-2.152722775350172e-15
	-4.757040094345149e-18
	-9.877011359549200e-15
	3.897486646203343e-06
	3.623300083980408e-04
	4.018846801847906e-05
	3.302424504575682e-01

 65	6.500000000000004e-01
	-2.142744704918891e-15
	-4.905764223360934e-18
	-9.932218886798873e-15
	4.142733215378702e-06
	3.911267514334554e-04
	4.395400248531768e-05
	3.302428569128593e-01

 66	6.600000000000004e-01
	-2.133221401603485e-15
	-5.059073923169463e-18
	-9.986232680423304e-15
	4.400328739596319e-06
	4.214208596683084e-04
	4.801491977097288e-05
	3.302432952543731e-01

 67	6.700000000000004e-01
	-2.124143214261144e-15
	-5.217118919441263e-18
	-1.003906232308135e-14
	4.670695378723300e-06
	4.531966448855656e-04
	5.238611335327322e-05
	3.302437670896443e-01

 68	6.800000000000004e-01
	-2.115500435981213e-15
	-5.380054484212820e-18
	-1.009071815696139e-14
	4.954259703436956e-06
	4.864277764423041e-04
	5.708226597861064e-05
	3.302442740033979e-01

 69	6.900000000000004e-01
	-2.107283320931552e-15
	-5.548041665202014e-18
	-1.014121123657626e-14
	5.251452332519162e-06
	5.210770521513089e-04
	6.211774197379302e-05
	3.302448175459326e-01

 70	7.000000000000004e-01
	-2.099482100496776e-15
	-5.721247525327305e-18
	-1.019055328218790e-14
	5.562707548295382e-06
	5.570963234004257e-04
	6.750647804395638e-05
	3.302453992213303e-01

 71	7.100000000000004e-01
	-2.092086998694585e-15
	-5.899845392927384e-18
	-1.023875663397040e-14
	5.888462888978531e-06
	5.944265826517235e-04
	7.326187414362560e-05
	3.302460204756743e-01

 72	7.200000000000004e-01
	-2.085088246860382e-15
	-6.084015123208135e-18
	-1.028583420701041e-14
	6.229158717205957e-06
	6.329982176787763e-04
	7.939668607044942e-05
	3.302466826854724e-01

 73	7.300000000000004e-01
	-2.078476097593740e-15
	-6.273943371472169e-18
	-1.033179944723482e-14
	6.585237764749954e-06
	6.727314328366039e-04
	8.592292145418277e-05
	3.302473871464214e-01

 74	7.400000000000004e-01
	-2.072240837963724e-15
	-6.469823878717418e-18
	-1.037666628834629e-14
	6.957144654227652e-06
	7.135368334564585e-04
	9.285174079500098e-05
	3.302481350627353e-01

 75	7.500000000000004e-01
	-2.066372801973347e-15
	-6.671857770220799e-18
	-1.042044910983840e-14
	7.345325399621643e-06
	7.553161652699089e-04
	1.001933651446764e-04
	3.302489275371989e-01

 76	7.600000000000005e-01
	-2.060862382286093e-15
	-6.880253867764315e-18
	-1.046316269615388e-14
	7.750226888519971e-06
	7.979631967493637e-04
	1.079569919224307e-04
	3.302497655620653e-01

 77	7.700000000000005e-01
	-2.055700041220323e-15
	-7.095229016187475e-18
	-1.050482219704088e-14
	8.172296350156165e-06
	8.413647285566058e-04
	1.161507202168326e-04
	3.302506500110188e-01

 78	7.800000000000005e-01
	-2.050876321019819e-15
	-7.317008424995624e-18
	-1.054544308915440e-14
	8.611980814543444e-06
	8.854017110570986e-04
	1.247814867500471e-04
	3.302515816322691e-01

 79	7.900000000000005e-01
	-2.046381853410801e-15
	-7.545826025791841e-18
	-1.058504113894271e-14
	9.069726569195122e-06
	9.299504482043989e-04
	1.338550134761165e-04
	3.302525610428911e-01

 80	8.000000000000005e-01
	-2.042207368458042e-15
	-7.781924846336604e-18
	-1.062363236685082e-14
	9.545978621062861e-06
	9.748838641206965e-04
	1.433757675572200e-04
	3.302535887245204e-01

 81	8.100000000000005e-01
	-2.038343702734304e-15
	-8.025557402091810e-18
	-1.066123301286669e-14
	1.004118017235260e-05
	1.020072807459958e-03
	1.533469342180922e-04
	3.302546650204263e-01

 82	8.200000000000005e-01
	-2.034781806819082e-15
	-8.276986106144003e-18
	-1.069785950342880e-14
	1.055577211974474e-05
	1.065387368170056e-03
	1.637704027265250e-04
	3.302557901340034e-01

 83	8.300000000000005e-01
	-2.031512752143997e-15
	-8.536483698452758e-18
	-1.073352841970808e-14
	1.109019258720823e-05
	1.110698181567182e-03
	1.746467654948946e-04
	3.302569641286816e-01

 84	8.400000000000005e-01
	-2.028527737203468e-15
	-8.804333695421962e-18
	-1.076825646727076e-14
	1.164487650302013e-05
	1.155877695664302e-03
	1.859753300514445e-04
	3.302581869292151e-01

 85	8.500000000000005e-01
	-2.025818093150339e-15
	-9.080830860840600e-18
	-1.080206044712343e-14
	1.222025523175394e-05
	1.200801379390604e-03
	1.977541433976059e-04
	3.302594583243180e-01

 86	8.600000000000005e-01
	-2.023375288797074e-15
	-9.366281699295894e-18
	-1.083495722813659e-14
	1.281675627186757e-05
	1.245348851611425e-03
	2.099800280552187e-04
	3.302607779705598e-01

 87	8.700000000000006e-01
	-2.021190935043778e-15
	-9.661004973223276e-18
	-1.086696372083777e-14
	1.343480302909949e-05
	1.289404913598886e-03
	2.226486289203398e-04
	3.302621453974131e-01

 88	8.800000000000006e-01
	-2.019256788754955e-15
	-9.965332244810371e-18
	-1.089809685256130e-14
	1.407481467517462e-05
	1.332860470690700e-03
	2.357544698824089e-04
	3.302635600133758e-01

 89	8.900000000000006e-01
	-2.017564756107330e-15
	-1.027960844404354e-17
	-1.092837354393736e-14
	1.473720610035508e-05
	1.375613332180942e-03
	2.492910190417958e-04
	3.302650211130028e-01

 90	9.000000000000006e-01
	-2.016106895431341e-15
	-1.060419246424677e-17
	-1.095781068669921e-14
	1.542238796716966e-05
	1.417568881884309e-03
	2.632507612666131e-04
	3.302665278847443e-01

 91	9.100000000000006e-01
	-2.014875419569009e-15
	-1.093945778653484e-17
	-1.098642512278464e-14
	1.613076687126356e-05
	1.458640615183874e-03
	2.776252767714816e-04
	3.302680794194182e-01

 92	9.200000000000006e-01
	-2.013862697771078e-15
	-1.128579313467692e-17
	-1.101423362470369e-14
	1.686274561376927e-05
	1.498750541601922e-03
	2.924053243757757e-04
	3.302696747191997e-01

 93	9.300000000000006e-01
	-2.013061257156094e-15
	-1.164360316194197e-17
	-1.104125287714297e-14
	1.761872358796729e-05
	1.537829454930373e-03
	3.075809281049302e-04
	3.302713127069676e-01

 94	9.400000000000006e-01
	-2.012463783753991e-15
	-1.201330917157882e-17
	-1.106749945977391e-14
	1.839909728132854e-05
	1.575817075645188e-03
	3.231414658328269e-04
	3.302729922358775e-01

 95	9.500000000000006e-01
	-2.012063123156409e-15
	-1.239534987267322e-17
	-1.109298983123062e-14
	1.920426089236848e-05
	1.612662072652166e-03
	3.390757587228229e-04
	3.302747120989982e-01

 96	9.600000000000006e-01
	-2.011852280795795e-15
	-1.279018217320755e-17
	-1.111774031422096e-14
	2.003460706013729e-05
	1.648321973332369e-03
	3.553721603055799e-04
	3.302764710389438e-01

 97	9.700000000000006e-01
	-2.011824421874574e-15
	-1.319828201224930e-17
	-1.114176708173348e-14
	2.089052770268125e-05
	1.682762972357905e-03
	3.720186441297057e-04
	3.302782677573242e-01

 98	9.800000000000006e-01
	-2.011972870965528e-15
	-1.362014523328947e-17
	-1.116508614430135e-14
	2.177241495945851e-05
	1.715959650831557e-03
	3.890028890317213e-04
	3.302801009239482e-01

 99	9.900000000000007e-01
	-2.012291111303741e-15
	-1.405628850086045e-17
	-1.118771333828369e-14
	2.268066223152546e-05
	1.747894617983150e-03
	4.063123611912367e-04
	3.302819691856863e-01

 100	1.000000000000001e+00
	-2.012772783789809e-15
	-1.450725026266903e-17
	-1.120966431512435e-14
	2.361566531234344e-05
	1.778558087959009e-03
	4.239343922613868e-04
	3.302838711748948e-01

 101	1.010000000000001e+00
	-2.013411685723625e-15
	-1.497359175959684e-17
	-1.123095453154735e-14
