Title: ** sch_path: /home/andylithia/openmpw/project-yatsuhashi-chip1/xschem/gmid_test/nmos_test.sch
Date: Sun Jul 17 22:51:45  2022
Plotname: DC transfer characteristic
Flags: real
No. Variables: 8
No. Points: 181
Variables:
	0	v(v-sweep)	voltage
	1	@m.xm1.msky130_fd_pr__nfet_01v8[cgb]	capacitance
	2	@m.xm1.msky130_fd_pr__nfet_01v8[cgd]	capacitance
	3	@m.xm1.msky130_fd_pr__nfet_01v8[cgs]	capacitance
	4	@m.xm1.msky130_fd_pr__nfet_01v8[gds]	admittance
	5	@m.xm1.msky130_fd_pr__nfet_01v8[gm]	admittance
	6	i(@m.xm1.msky130_fd_pr__nfet_01v8[id])	current
	7	v(@m.xm1.msky130_fd_pr__nfet_01v8[vth])	voltage
Values:
 0	0.000000000000000e+00
	-3.794694761647889e-16
	5.973904547932365e-20
	-4.851738104607455e-18
	1.252627107833179e-13
	2.734362662269141e-12
	1.053789825972561e-13
	7.693912890705957e-01

 1	1.000000000000000e-02
	-3.775976595646922e-16
	6.310289685427298e-20
	-5.149743340089327e-18
	1.614777571415624e-13
	3.544377331926651e-12
	1.365977504833440e-13
	7.693912890705970e-01

 2	2.000000000000000e-02
	-3.757475048977868e-16
	6.667082891141981e-20
	-5.470627180772203e-18
	2.081558399966590e-13
	4.594322099211199e-12
	1.770645068860051e-13
	7.693912890705997e-01

 3	3.000000000000000e-02
	-3.739180920846414e-16
	7.045760470962334e-20
	-5.816395636761839e-18
	2.683175662600334e-13
	5.955253648663136e-12
	2.295184960951851e-13
	7.693912890706025e-01

 4	4.000000000000000e-02
	-3.721084884791350e-16
	7.447892209164382e-20
	-6.189232988657125e-18
	3.458548102172676e-13
	7.719266961751557e-12
	2.975101804429172e-13
	7.693912890706058e-01

 5	5.000000000000000e-02
	-3.703177463104933e-16
	7.875142365360894e-20
	-6.591514686233926e-18
	4.457817642765089e-13
	1.000572165407412e-11
	3.856414120015112e-13
	7.693912890706114e-01

 6	6.000000000000000e-02
	-3.685449000807727e-16
	8.329270145248143e-20
	-7.025820908336651e-18
	5.745582372829196e-13
	1.296930976291815e-11
	4.998766780701739e-13
	7.693912890706175e-01

 7	7.000000000000001e-02
	-3.667889639137721e-16
	8.812129605575706e-20
	-7.494950814409345e-18
	7.405059582768377e-13
	1.681050900413988e-11
	6.479464380016690e-13
	7.693912890706258e-01

 8	8.000000000000000e-02
	-3.650489288513611e-16
	9.325668951408558e-20
	-8.001937518396658e-18
	9.543445946768769e-13
	2.178912595395658e-11
	8.398697768103320e-13
	7.693912890706368e-01

 9	9.000000000000000e-02
	-3.633237600934911e-16
	9.871929179867656e-20
	-8.550063814586901e-18
	1.229881846018853e-12
	2.824184122952878e-11
	1.088631639151047e-12
	7.693912890706506e-01

 10	9.999999999999999e-02
	-3.616123941788491e-16
	1.045304201868648e-19
	-9.142878681769015e-18
	1.584901811494680e-12
	3.660493735154914e-11
	1.411060313467134e-12
	7.693912890706683e-01

 11	1.100000000000000e-01
	-3.599137361043819e-16
	1.107122709965319e-19
	-9.784214586116842e-18
	2.042308472517857e-12
	4.744373739677237e-11
	1.828964305687318e-12
	7.693912890706917e-01

 12	1.200000000000000e-01
	-3.582266563838368e-16
	1.172878829588270e-19
	-1.047820559366068e-17
	2.631597376347429e-12
	6.149073177615547e-11
	2.370605173047224e-12
	7.693912890707226e-01

 13	1.300000000000000e-01
	-3.565499880483084e-16
	1.242810913747469e-19
	-1.122930628911430e-17
	3.390749473234488e-12
	7.969495113082104e-11
	3.072605441295388e-12
	7.693912890707616e-01

 14	1.400000000000000e-01
	-3.548825235956212e-16
	1.317164720216587e-19
	-1.204231147820481e-17
	4.368667853495644e-12
	1.032858935744435e-10
	3.982419899752681e-12
	7.693912890708124e-01

 15	1.500000000000000e-01
	-3.532230119004954e-16
	1.396192735589242e-19
	-1.292237662437030e-17
	5.628312523306239e-12
	1.338562834093679e-10
	5.161536289375879e-12
	7.693912890708784e-01

 16	1.600000000000000e-01
	-3.515701551039325e-16
	1.480153369275344e-19
	-1.387503893665311e-17
	7.250732485157765e-12
	1.734691890827848e-10
	6.689620158026208e-12
	7.693912890709641e-01

 17	1.700000000000000e-01
	-3.499226055083427e-16
	1.569309999492872e-19
	-1.490623898268938e-17
	9.340250979501655e-12
	2.247966414909287e-10
	8.669881659916988e-12
	7.693912890710753e-01

 18	1.800000000000000e-01
	-3.482789625147496e-16
	1.663929850115076e-19
	-1.602234264777804e-17
	1.203113227994618e-11
	2.912989735562267e-10
	1.123602344725045e-11
	7.693912890712189e-01

 19	1.900000000000000e-01
	-3.466377696500569e-16
	1.764282673814883e-19
	-1.723016319711570e-17
	1.549615135310466e-11
	3.774567810862300e-10
	1.456123384308833e-11
	7.693912890714051e-01

 20	2.000000000000000e-01
	-3.449975117459450e-16
	1.870639213421729e-19
	-1.853698312255858e-17
	1.995760664311335e-11
	4.890708528668696e-10
	1.886982500131467e-11
	7.693912890716463e-01

 21	2.100000000000000e-01
	-3.433566123464922e-16
	1.983269409920654e-19
	-1.995057536705033e-17
	2.570146839744798e-11
	6.336498508924786e-10
	2.445229047871105e-11
	7.693912890719589e-01

 22	2.200000000000001e-01
	-3.417134314390583e-16
	2.102440322270683e-19
	-2.147922341883668e-17
	3.309554941829759e-11
	8.209112143319298e-10
	3.168478173399465e-11
	7.693912890723642e-01

 23	2.300000000000001e-01
	-3.400662636221846e-16
	2.228413721432616e-19
	-2.313173965383110e-17
	4.261283342882142e-11
	1.063428061523222e-09
	4.105429280075756e-11
	7.693912890728891e-01

 24	2.400000000000001e-01
	-3.384133368450256e-16
	2.361443318953157e-19
	-2.491748117860807e-17
	5.486141294181818e-11
	1.377464212819314e-09
	5.319121494854731e-11
	7.693912890735686e-01

 25	2.500000000000001e-01
	-3.367528118747594e-16
	2.501771589477106e-19
	-2.684636228982512e-17
	7.062289194742216e-11
	1.784051406859033e-09
	6.891140169064546e-11
	7.693912890744490e-01

 26	2.600000000000001e-01
	-3.350827826709933e-16
	2.649626147020687e-19
	-2.892886252058041e-17
	9.090162192234680e-11
	2.310378026686808e-09
	8.927049836594441e-11
	7.693912890755896e-01

 27	2.700000000000001e-01
	-3.334012778686529e-16
	2.805215637148711e-19
	-3.117602909359332e-17
	1.169877914190493e-10
	2.991578052859641e-09
	1.156340768151608e-10
	7.693912890770662e-01

 28	2.800000000000001e-01
	-3.317062635922851e-16
	2.968725111801233e-19
	-3.359947244972051e-17
	1.505382157238991e-10
	3.873033585457407e-09
	1.497681211082422e-10
	7.693912890789780e-01

 29	2.900000000000001e-01
	-3.299956478438843e-16
	3.140310860882686e-19
	-3.621135337430894e-17
	1.936797183011784e-10
	5.013335435304868e-09
	1.939556934287748e-10
	7.693912890814530e-01

 30	3.000000000000001e-01
	-3.282672867218342e-16
	3.320094685327884e-19
	-3.902436011098947e-17
	2.491413148622897e-10
	6.488085568270292e-09
	2.511472431260530e-10
	7.693912890846564e-01

 31	3.100000000000001e-01
	-3.265189927385256e-16
	3.508157610647402e-19
	-4.205167374242453e-17
	3.204230711473205e-10
	8.394774506603844e-09
	3.251540971335225e-10
	7.693912890888015e-01

 32	3.200000000000001e-01
	-3.247485455067202e-16
	3.704533058312544e-19
	-4.530692004169367e-17
	4.120115885505332e-10
	1.085902840953096e-08
	4.208972977959350e-10
	7.693912890941639e-01

 33	3.300000000000001e-01
	-3.229537050574687e-16
	3.909199515048746e-19
	-4.880410596977326e-17
	5.296546758098372e-10
	1.404259709732512e-08
	5.447272704526804e-10
	7.693912891010997e-01

 34	3.400000000000001e-01
	-3.211322280329910e-16
	4.122072767273405e-19
	-5.255753902867967e-17
	6.807110068977618e-10
	1.815354872157681e-08
	7.048339717249623e-10
	7.693912891100673e-01

 35	3.500000000000001e-01
	-3.192818869639557e-16
	4.342997799417456e-19
	-5.658172779210800e-17
	8.745945817478114e-10
	2.345925237068522e-08
	9.117723853815581e-10
	7.693912891216580e-01

 36	3.600000000000002e-01
	-3.174004927897300e-16
	4.571740490281541e-19
	-6.089126214175594e-17
	1.123338754643309e-09
	3.030287001454934e-08
	1.179134724279455e-09
	7.693912891366328e-01

 37	3.700000000000002e-01
	-3.154859207104752e-16
	4.807979280092317e-19
	-6.550067205303783e-17
	1.442310651018126e-09
	3.912424707518175e-08
	1.524408725944239e-09
	7.693912891559717e-01

 38	3.800000000000002e-01
	-3.135361393700123e-16
	5.051297021307064e-19
	-7.042426421140345e-17
	1.851114147607208e-09
	5.048628921155656e-08
	1.970071287537020e-09
	7.693912891809335e-01

 39	3.900000000000002e-01
	-3.115492432577247e-16
	5.301173266744027e-19
	-7.567593630881399e-17
	2.374728439403522e-09
	6.510814299969584e-08
	2.544978685729491e-09
	7.693912892131339e-01

 40	4.000000000000002e-01
	-3.095234880870221e-16
	5.556977287088393e-19
	-8.126896957224676e-17
	3.044939745620638e-09
	8.390675914987657e-08
	3.286129084106093e-09
	7.693912892546455e-01

 41	4.100000000000002e-01
	-3.074573287592344e-16
	5.817962143566854e-19
	-8.721580090783354e-17
	3.902136066304704e-09
	1.080487040817741e-07
	4.240890234391180e-09
	7.693912893081217e-01

 42	4.200000000000002e-01
	-3.053494593590350e-16
	6.083260167553433e-19
	-9.352777699137598e-17
	4.997549168050407e-09
	1.390143887652270e-07
	5.469805444336727e-09
	7.693912893769537e-01

 43	4.300000000000002e-01
	-3.031988544563312e-16
	6.351880213779655e-19
	-1.002148936736136e-16
	6.396044098526076e-09
	1.786771842717652e-07
	7.050114089259909e-09
	7.693912894654663e-01

 44	4.400000000000002e-01
	-3.010048108175787e-16
	6.622707054363347e-19
	-1.072855251599933e-16
	8.179574244641931e-09
	2.294001618401298e-07
	9.080149023009674e-09
	7.693912895791685e-01

 45	4.500000000000002e-01
	-2.987669884660203e-16
	6.894503263964829e-19
	-1.147461485213279e-16
	1.045143868497734e-08
	2.941533872287243e-07
	1.168480166830050e-08
	7.693912897250550e-01

 46	4.600000000000002e-01
	-2.964854498861640e-16
	7.165913909506588e-19
	-1.226010701342330e-16
	1.334149732176860e-08
	3.766547525176927e-07
	1.502227527726427e-08
	7.693912899119872e-01

 47	4.700000000000003e-01
	-2.941606960545517e-16
	7.435474299411238e-19
	-1.308521615709535e-16
	1.701251637333539e-08
	4.815371604910091e-07
	1.929237606857161e-08
	7.693912901511558e-01

 48	4.800000000000003e-01
	-2.917936979082429e-16
	7.701620966806737e-19
	-1.394986131844194e-16
	2.166782981468358e-08
	6.145443830463309e-07
	2.474661794938875e-08
	7.693912904566479e-01

 49	4.900000000000003e-01
	-2.893859218454277e-16
	7.962705959695322e-19
	-1.485367140936069e-16
	2.756050780167185e-08
	7.827569730928662e-07
	3.170043546155121e-08
	7.693912908461314e-01

 50	5.000000000000002e-01
	-2.869393478982479e-16
	8.217014391458934e-19
	-1.579596673997286e-16
	3.500421631594738e-08
	9.948480869807959e-07
	4.054780630985037e-08
	7.693912913416727e-01

 51	5.100000000000002e-01
	-2.844564793324910e-16
	8.462785071814366e-19
	-1.677574492009546e-16
	4.438592718837531e-08
	1.261366847633746e-06
	5.177857289466005e-08
	7.693912919707084e-01

 52	5.200000000000002e-01
	-2.819403426146547e-16
	8.698233897626162e-19
	-1.779167192863452e-16
	5.618058691882416e-08
	1.595043859788698e-06
	6.599871415368148e-08
	7.693912927671788e-01

 53	5.300000000000002e-01
	-2.793944769417182e-16
	8.921579542421829e-19
	-1.884207902667455e-16
	7.096776783568495e-08
	2.011109667503559e-06
	8.395374666227517e-08
	7.693912937728408e-01

 54	5.400000000000003e-01
	-2.768229128455375e-16
	9.131070851529655e-19
	-1.992496603582670e-16
	8.945019718637440e-08
	2.527612436420758e-06
	1.065553197760537e-07
	7.693912950387558e-01

 55	5.500000000000003e-01
	-2.742301397497712e-16
	9.325015235313652e-19
	-2.103801131197792e-16
	1.124738804611005e-07
	3.165716243585067e-06
	1.349109080620882e-07
	7.693912966269533e-01

 56	5.600000000000003e-01
	-2.716210627558182e-16
	9.501807264434776e-19
	-2.217858852366963e-16
	1.410492988612976e-07
	3.949956577753612e-06
	1.703562938047030e-07
	7.693912986122521e-01

 57	5.700000000000003e-01
	-2.690009493449225e-16
	9.659956615716337e-19
	-2.334379010428351e-16
	1.763728665835577e-07
	4.908425726832726e-06
	2.144902776826652e-07
	7.693913010842000e-01

 58	5.800000000000003e-01
	-2.663753670836792e-16
	9.798114500465545e-19
	-2.453045700041081e-16
	2.198474888995371e-07
	6.072858555428364e-06
	2.692107697346678e-07
	7.693913041490993e-01

 59	5.900000000000003e-01
	-2.637501137864656e-16
	9.915097731989824e-19
	-2.573521409880157e-16
	2.731006857904888e-07
	7.478589678999578e-06
	3.367511176712483e-07
	7.693913079320415e-01

 60	6.000000000000003e-01
	-2.611311418988059e-16
	1.000990965573210e-18
	-2.695451049483581e-16
	3.379983714691800e-07
	9.164356943003594e-06
	4.197152561180846e-07
	7.693913125788738e-01

 61	6.100000000000003e-01
	-2.585244791016123e-16
	1.008175727114721e-18
	-2.818466357931688e-16
	4.166520565535356e-07
	1.117193364501248e-05
	5.211100441558979e-07
	7.693913182580123e-01

 62	6.200000000000003e-01
	-2.559361472833758e-16
	1.013006401358700e-18
	-2.942190577836743e-16
	5.114170301697133e-07
	1.354558255783284e-05
	6.443730338797674e-07
	7.693913251619966e-01

 63	6.300000000000003e-01
	-2.533720820774546e-16
	1.015447782909539e-18
	-3.066243269127931e-16
	6.248790555401775e-07
	1.633133707420524e-05
	7.933939040642626e-07
	7.693913335086908e-01

 64	6.400000000000003e-01
	-2.508380551127648e-16
	1.015487435545784e-18
	-3.190245133781670e-16
	7.598273443607050e-07
	1.957612645490927e-05
	9.725279061279092e-07
	7.693913435420372e-01

 65	6.500000000000004e-01
	-2.483396009831481e-16
	1.013135520848496e-18
	-3.313822725042607e-16
	9.192121157133163e-07
	2.332677064077538e-05
	1.186599885523874e-06
	7.693913555322816e-01

 66	6.600000000000004e-01
	-2.458819507142059e-16
	1.008424155267722e-18
	-3.436612922503801e-16
	1.106085914916609e-06
	2.762887323987809e-05
	1.440897717152940e-06
	7.693913697756061e-01

 67	6.700000000000004e-01
	-2.434699732121047e-16
	1.001406330024124e-18
	-3.558267067027170e-16
	1.323529040350358e-06
	3.252563831714655e-05
	1.741154269619509e-06
	7.693913865931189e-01

 68	6.800000000000004e-01
	-2.411081258359666e-16
	9.921544423569324e-19
	-3.678454665976913e-16
	1.574560821624134e-06
	3.805662873225837e-05
	2.093517233097426e-06
	7.693914063291653e-01

 69	6.900000000000004e-01
	-2.388004148649764e-16
	9.807584977486840e-19
	-3.796866598511143e-16
	1.862039979186663e-06
	4.425647442062696e-05
	2.504506275722403e-06
	7.693914293489285e-01

 70	7.000000000000004e-01
	-2.365503662544578e-16
	9.673240504956559e-19
	-3.913217771540866e-16
	2.188558705679398e-06
	5.115353315419714e-05
	2.980957043111374e-06
	7.693914560352918e-01

 71	7.100000000000004e-01
	-2.343610067116486e-16
	9.519699542143517e-19
	-4.027249198231737e-16
	2.556336261935412e-06
	5.876850902680723e-05
	3.529951545767132e-06
	7.693914867849423e-01

 72	7.200000000000004e-01
	-2.322348547888263e-16
	9.348259946752879e-19
	-4.138729491493991e-16
	2.967118608644763e-06
	6.711304853257167e-05
	4.158734594361492e-06
	7.693915220036867e-01

 73	7.300000000000004e-01
	-2.301739214022257e-16
	9.160304750380211e-19
	-4.247455783833449e-16
	3.422090771188247e-06
	7.618836062661488e-05
	4.874616265559652e-06
	7.693915621009917e-01

 74	7.400000000000004e-01
	-2.281797189491837e-16
	8.957278185801429e-19
	-4.353254101483132e-16
	3.921808191721221e-06
	8.598394136874765e-05
	5.684861012582841e-06
	7.693916074837699e-01

 75	7.500000000000004e-01
	-2.262532780181502e-16
	8.740662469305547e-19
	-4.455979234388983e-16
	4.466152260959052e-06
	9.647651768636569e-05
	6.596565014730442e-06
	7.693916585495107e-01

 76	7.600000000000005e-01
	-2.243951705677361e-16
	8.511955832419052e-19
	-4.555514154105988e-16
	5.054313617105489e-06
	1.076293484498088e-04
	7.616524636477119e-06
	7.693917156789102e-01

 77	7.700000000000005e-01
	-2.226055383893274e-16
	8.272652202813177e-19
	-4.651769038910621e-16
	5.684804794784176e-06
	1.193920250168297e-04
	8.751100287926158e-06
	7.693917792282464e-01

 78	7.800000000000005e-01
	-2.208841256578089e-16
	8.024222836501350e-19
	-4.744679969577261e-16
	6.355501603508775e-06
	1.317008916513907e-04
	1.000608131339647e-05
	7.693918495218079e-01

 79	7.900000000000005e-01
	-2.192303144094426e-16
	7.768100107631786e-19
	-4.834207360571657e-16
	7.063710449932198e-06
	1.444801582577227e-04
	1.138655851895543e-05
	7.693919268447562e-01

 80	8.000000000000005e-01
	-2.176431618565089e-16
	7.505663572285825e-19
	-4.920334190263637e-16
	7.806256933231213e-06
	1.576437094550894e-04
	1.289681134445557e-05
	7.693920114368028e-01

 81	8.100000000000005e-01
	-2.161214385462051e-16
	7.238228341798399e-19
	-5.003064090592779e-16
	8.579589649978742e-06
	1.710975361835289e-04
	1.454021633827224e-05
	7.693921034870816e-01

 82	8.200000000000005e-01
	-2.146636664878180e-16
	6.967035731235975e-19
	-5.082419351900985e-16
	9.379892388749487e-06
	1.847426425680914e-04
	1.631918247739098e-05
	7.693922031305274e-01

 83	8.300000000000005e-01
	-2.132681564993794e-16
	6.693246090921660e-19
	-5.158438892832118e-16
	1.020319782862693e-05
	1.984782249115959e-04
	1.823511710362429e-05
	7.693923104459655e-01

 84	8.400000000000005e-01
	-2.119330441558786e-16
	6.417933683577967e-19
	-5.231176238714294e-16
	1.104549643347979e-05
	2.122048909691643e-04
	2.028842404651068e-05
	7.693924254560099e-01

 85	8.500000000000005e-01
	-2.106563238498277e-16
	6.142083436379164e-19
	-5.300697545061133e-16
	1.190283532285262e-05
	2.258276898804980e-04
	2.247853317052801e-05
	7.693925481287156e-01

 86	8.600000000000005e-01
	-2.094358805969658e-16
	5.866589375098560e-19
	-5.367079696067434e-16
	1.277140331194925e-05
	2.392587539383940e-04
	2.480395842106170e-05
	7.693926783808303e-01

 87	8.700000000000006e-01
	-2.082695193318496e-16
	5.592254535363601e-19
	-5.430408501482880e-16
	1.364759984130168e-05
	2.524194053939848e-04
	2.726237970239602e-05
	7.693928160823840e-01

 88	8.800000000000006e-01
	-2.071549915377734e-16
	5.319792142355472e-19
	-5.490777009211796e-16
	1.452808697422307e-05
	2.652416445890242e-04
	2.985074276445079e-05
	7.693929610622817e-01

 89	8.900000000000006e-01
	-2.060900191417122e-16
	5.049827853605508e-19
	-5.548283945534365e-16
	1.540982488557625e-05
	2.776689994186249e-04
	3.256537076066719e-05
	7.693931131145542e-01

 90	9.000000000000006e-01
	-2.050723156774276e-16
	4.782902868324408e-19
	-5.603032290052223e-16
	1.629009221531992e-05
	2.896567718091901e-04
	3.540208122809106e-05
	7.693932720049101e-01

 91	9.100000000000006e-01
	-2.040996047787691e-16
	4.519477719551725e-19
	-5.655127988359492e-16
	1.716649328810558e-05
	3.011717589150663e-04
	3.835630282097055e-05
	7.693934374772764e-01

 92	9.200000000000006e-01
	-2.031696361113738e-16
	4.259936581051002e-19
	-5.704678802026876e-16
	1.803695452515491e-05
	3.121915527868818e-04
	4.142318705022835e-05
	7.693936092600554e-01

 93	9.300000000000006e-01
	-2.022801988854907e-16
	4.004591938190191e-19
	-5.751793292730490e-16
	1.889971244616530e-05
	3.227035329091337e-04
	4.459771138404094e-05
	7.693937870719019e-01

 94	9.400000000000006e-01
	-2.014291331168748e-16
	3.753689490119287e-19
	-5.796579935210002e-16
	1.975329554079916e-05
	3.327036637997405e-04
	4.787477120698661e-05
	7.693939706268742e-01

 95	9.500000000000006e-01
	-2.006143388180256e-16
	3.507413168633408e-19
	-5.839146352141448e-16
	2.059650204643469e-05
	3.421951983711886e-04
	5.124925920569004e-05
	7.693941596388801e-01

 96	9.600000000000006e-01
	-1.998337833098800e-16
	3.265890176627946e-19
	-5.879598662890983e-16
	2.142837535889454e-05
	3.511873706890047e-04
	5.471613167352002e-05
	7.693943538253920e-01

 97	9.700000000000006e-01
	-1.990855068458280e-16
	3.029195965578396e-19
	-5.918040937407492e-16
	2.224817847143686e-05
	3.596941424092722e-04
	5.827046196695531e-05
	7.693945529104386e-01

 98	9.800000000000006e-01
	-1.983676267367970e-16
	2.797359086742440e-19
	-5.954574746147290e-16
	2.305536851685377e-05
	3.677330480614717e-04
	6.190748189218110e-05
	7.693947566269267e-01

 99	9.900000000000007e-01
	-1.976783401593513e-16
	2.570365864590599e-19
	-5.989298796838069e-16
	2.384957219844766e-05
	3.753241671588849e-04
	6.562261216388571e-05
	7.693949647183452e-01

 100	1.000000000000001e+00
	-1.970159258192227e-16
	2.348164853265003e-19
	-6.022308649024909e-16
	2.463056264845772e-05
	3.824892367965212e-04
	6.941148328363582e-05
	7.693951769399342e-01

 101	1.010000000000001e+00
	-1.963787446312949e-16
	2.130671047610607e-19
	-6.053696497646055e-16
	2.539823805042904e-05
	3.892509072602784e-04
	7.326994826330590e-05
	7.693953930593993e-01

