Title: ** sch_path: /home/andylithia/openmpw/project-yatsuhashi-chip1/xschem/gmid_test/nmos_test.sch
Date: Sun Jul 17 22:51:45  2022
Plotname: DC transfer characteristic
Flags: real
No. Variables: 8
No. Points: 181
Variables:
	0	v(v-sweep)	voltage
	1	@m.xm1.msky130_fd_pr__nfet_01v8[cgb]	capacitance
	2	@m.xm1.msky130_fd_pr__nfet_01v8[cgd]	capacitance
	3	@m.xm1.msky130_fd_pr__nfet_01v8[cgs]	capacitance
	4	@m.xm1.msky130_fd_pr__nfet_01v8[gds]	admittance
	5	@m.xm1.msky130_fd_pr__nfet_01v8[gm]	admittance
	6	i(@m.xm1.msky130_fd_pr__nfet_01v8[id])	current
	7	v(@m.xm1.msky130_fd_pr__nfet_01v8[vth])	voltage
Values:
 0	0.000000000000000e+00
	-1.865620560313449e-14
	-1.175732722620301e-17
	-3.980780245985790e-14
	4.008762902355200e-08
	1.249369163750671e-06
	1.695737767351157e-07
	1.510381199018873e-01

 1	1.000000000000000e-02
	-1.846139927624750e-14
	-1.206447532481090e-17
	-4.027920141589791e-14
	4.296133754685626e-08
	1.345261895592925e-06
	1.825408634931615e-07
	1.510381214871739e-01

 2	2.000000000000000e-02
	-1.826949558345776e-14
	-1.237999556650372e-17
	-4.074910304075352e-14
	4.602946169450590e-08
	1.448729717808769e-06
	1.965042436285855e-07
	1.510381231942761e-01

 3	3.000000000000000e-02
	-1.808052331562508e-14
	-1.270413139939919e-17
	-4.121736753348586e-14
	4.930407197269442e-08
	1.560410003529328e-06
	2.115428084399285e-07
	1.510381250328459e-01

 4	4.000000000000000e-02
	-1.789450992616846e-14
	-1.303713404095773e-17
	-4.168385672484227e-14
	5.279789532435819e-08
	1.680998322170589e-06
	2.277421094531169e-07
	1.510381270133387e-01

 5	5.000000000000000e-02
	-1.771148148605705e-14
	-1.337926275446772e-17
	-4.214843421916579e-14
	5.652434371489788e-08
	1.811254036108334e-06
	2.451949679445500e-07
	1.510381291471120e-01

 6	6.000000000000000e-02
	-1.753146264199534e-14
	-1.373078513648313e-17
	-4.261096553255966e-14
	6.049754350498386e-08
	1.952006419363877e-06
	2.640021430066416e-07
	1.510381314464875e-01

 7	7.000000000000001e-02
	-1.735447657785480e-14
	-1.409197741568322e-17
	-4.307131822702231e-14
	6.473236561043859e-08
	2.104161339605674e-06
	2.842730635805275e-07
	1.510381339248481e-01

 8	8.000000000000000e-02
	-1.718054497939320e-14
	-1.446312476366299e-17
	-4.352936204028898e-14
	6.924445644884707e-08
	2.268708546727659e-06
	3.061266303036766e-07
	1.510381365967403e-01

 9	9.000000000000000e-02
	-1.700968800229389e-14
	-1.484452161817420e-17
	-4.398496901112866e-14
	7.405026967227818e-08
	2.446729613109207e-06
	3.296920934620602e-07
	1.510381394779685e-01

 10	9.999999999999999e-02
	-1.684192424354831e-14
	-1.523647201936923e-17
	-4.443801359985796e-14
	7.916709868527679e-08
	2.639406572353044e-06
	3.551100137959756e-07
	1.510381425857295e-01

 11	1.100000000000000e-01
	-1.667727071619490e-14
	-1.563928995962415e-17
	-4.488837280385462e-14
	8.461310994729279e-08
	2.848031304794703e-06
	3.825333133844710e-07
	1.510381459387253e-01

 12	1.200000000000000e-01
	-1.651574282741837e-14
	-1.605329974754509e-17
	-4.533592626786504e-14
	9.040737705869237e-08
	3.074015719323518e-06
	4.121284243223872e-07
	1.510381495573208e-01

 13	1.300000000000000e-01
	-1.635735436000355e-14
	-1.647883638679137e-17
	-4.578055638892289e-14
	9.656991562973126e-08
	3.318902782000433e-06
	4.440765434046616e-07
	1.510381534636757e-01

 14	1.400000000000000e-01
	-1.620211745712970e-14
	-1.691624597037754e-17
	-4.622214841570759e-14
	1.031217189320882e-07
	3.584378442532683e-06
	4.785750015401672e-07
	1.510381576819360e-01

 15	1.500000000000000e-01
	-1.605004261048056e-14
	-1.736588609115644e-17
	-4.666059054219678e-14
	1.100847943330573e-07
	3.872284509809784e-06
	5.158387571294554e-07
	1.510381622383941e-01

 16	1.600000000000000e-01
	-1.590113865163783e-14
	-1.782812626920425e-17
	-4.709577399547872e-14
	1.174822005129625e-07
	4.184632527333056e-06
	5.561020231507680e-07
	1.510381671617073e-01

 17	1.700000000000000e-01
	-1.575541274671591e-14
	-1.830334839688421e-17
	-4.752759311761494e-14
	1.253380854671346e-07
	4.523618698414582e-06
	5.996200382031858e-07
	1.510381724831051e-01

 18	1.800000000000000e-01
	-1.561287039418826e-14
	-1.879194720238243e-17
	-4.795594544145917e-14
	1.336777252945425e-07
	4.891639909380386e-06
	6.466709922463492e-07
	1.510381782366199e-01

 19	1.900000000000000e-01
	-1.547351542584706e-14
	-1.929433073256769e-17
	-4.838073176035690e-14
	1.425275637762130e-07
	5.291310896604371e-06
	6.975581182472186e-07
	1.510381844593607e-01

 20	2.000000000000000e-01
	-1.533735001082992e-14
	-1.981092085605276e-17
	-4.880185619167367e-14
	1.519152527477154e-07
	5.725482599920742e-06
	7.526119613869021e-07
	1.510381911917701e-01

 21	2.100000000000000e-01
	-1.520437466264050e-14
	-2.034215378739162e-17
	-4.921922623411222e-14
	1.618696932712845e-07
	6.197261740707862e-06
	8.121928378850716e-07
	1.510381984779394e-01

 22	2.200000000000001e-01
	-1.507458824908265e-14
	-2.088848063338128e-17
	-4.963275281880210e-14
	1.724210776147281e-07
	6.710031657604545e-06
	8.766934958568272e-07
	1.510382063659321e-01

 23	2.300000000000001e-01
	-1.494798800502036e-14
	-2.145036796249823e-17
	-5.004235035416278e-14
	1.836009320459576e-07
	7.267474426292729e-06
	9.465419909143452e-07
	1.510382149081310e-01

 24	2.400000000000001e-01
	-1.482456954787113e-14
	-2.202829839853695e-17
	-5.044793676455647e-14
	1.954421604539929e-07
	7.873594281948893e-06
	1.022204789451636e-06
	1.510382241616265e-01

 25	2.500000000000001e-01
	-1.470432689573339e-14
	-2.262277123958604e-17
	-5.084943352276795e-14
	2.079790888095496e-07
	8.532742353718669e-06
	1.104190112691538e-06
	1.510382341886156e-01

 26	2.600000000000001e-01
	-1.458725248804390e-14
	-2.323430310351775e-17
	-5.124676567636249e-14
	2.212475104808765e-07
	9.249642709786075e-06
	1.193051534614210e-06
	1.510382450568552e-01

 27	2.700000000000001e-01
	-1.447333720865627e-14
	-2.386342860124581e-17
	-5.163986186799140e-14
	2.352847324234743e-07
	1.002941969919257e-05
	1.289391846811291e-06
	1.510382568401286e-01

 28	2.800000000000001e-01
	-1.436257041122740e-14
	-2.451070103905500e-17
	-5.202865434972977e-14
	2.501296222657140e-07
	1.087762656239848e-05
	1.393867203101273e-06
	1.510382696187508e-01

 29	2.900000000000001e-01
	-1.425493994679546e-14
	-2.517669315136949e-17
	-5.241307899154386e-14
	2.658226563162062e-07
	1.180027526658345e-05
	1.507191556382361e-06
	1.510382834801209e-01

 30	3.000000000000001e-01
	-1.415043219342889e-14
	-2.586199786542256e-17
	-5.279307528400383e-14
	2.824059685233093e-07
	1.280386750377396e-05
	1.630141399670709e-06
	1.510382985192947e-01

 31	3.100000000000001e-01
	-1.404903208782399e-14
	-2.656722909932425e-17
	-5.316858633536691e-14
	2.999234004222765e-07
	1.389542676999128e-05
	1.763560822553627e-06
	1.510383148396099e-01

 32	3.200000000000001e-01
	-1.395072315872613e-14
	-2.729302259514038e-17
	-5.353955886317154e-14
	3.184205521115438e-07
	1.508253142169918e-05
	1.908366893360812e-06
	1.510383325533448e-01

 33	3.300000000000001e-01
	-1.385548756204784e-14
	-2.804003678865142e-17
	-5.390594318049269e-14
	3.379448343066257e-07
	1.637334858186681e-05
	2.065555376199807e-06
	1.510383517824150e-01

 34	3.400000000000001e-01
	-1.376330611755637e-14
	-2.880895371755862e-17
	-5.426769317702045e-14
	3.585455215281459e-07
	1.777666874196697e-05
	2.236206790595735e-06
	1.510383726591237e-01

 35	3.500000000000001e-01
	-1.367415834700169e-14
	-2.960047996999433e-17
	-5.462476629513417e-14
	3.802738064899529e-07
	1.930194087823990e-05
	2.421492819798595e-06
	1.510383953269402e-01

 36	3.600000000000002e-01
	-1.358802251355656e-14
	-3.041534767528740e-17
	-5.497712350115196e-14
	4.031828557642248e-07
	2.095930787065830e-05
	2.622683071855117e-06
	1.510384199413369e-01

 37	3.700000000000002e-01
	-1.350487566243966e-14
	-3.125431553903891e-17
	-5.532472925194621e-14
	4.273278668133517e-07
	2.275964198135805e-05
	2.841152195268146e-06
	1.510384466706517e-01

 38	3.800000000000002e-01
	-1.342469366259454e-14
	-3.211816992466688e-17
	-5.566755145711822e-14
	4.527661264931367e-07
	2.471458011602489e-05
	3.078387348466184e-06
	1.510384756970156e-01

 39	3.900000000000002e-01
	-1.334745124929640e-14
	-3.300772598370016e-17
	-5.600556143693802e-14
	4.795570711495351e-07
	2.683655855710707e-05
	3.335996019367661e-06
	1.510385072172944e-01

 40	4.000000000000002e-01
	-1.327312206756293e-14
	-3.392382883720254e-17
	-5.633873387625233e-14
	5.077623484511887e-07
	2.913884682202321e-05
	3.615714188031355e-06
	1.510385414441107e-01

 41	4.100000000000002e-01
	-1.320167871624358e-14
	-3.486735481086259e-17
	-5.666704677457730e-14
	5.374458811238360e-07
	3.163558026315977e-05
	3.919414821733669e-06
	1.510385786068713e-01

 42	4.200000000000002e-01
	-1.313309279266750e-14
	-3.583921272639062e-17
	-5.699048139258778e-14
	5.686739327801897e-07
	3.434179098980025e-05
	4.249116687794409e-06
	1.510386189528500e-01

 43	4.300000000000002e-01
	-1.306733493773053e-14
	-3.684034525201949e-17
	-5.730902219522279e-14
	6.015151760707042e-07
	3.727343665572810e-05
	4.606993465088521e-06
	1.510386627483031e-01

 44	4.400000000000002e-01
	-1.300437488130523e-14
	-3.787173031504281e-17
	-5.762265679162674e-14
	6.360407634178981e-07
	4.044742662068413e-05
	4.995383130437338e-06
	1.510387102796300e-01

 45	4.500000000000002e-01
	-1.294418148786096e-14
	-3.893438257950239e-17
	-5.793137587214701e-14
	6.723244006398424e-07
	4.388164495978435e-05
	5.416797590979314e-06
	1.510387618545414e-01

 46	4.600000000000002e-01
	-1.288672280218438e-14
	-4.002935499227015e-17
	-5.823517314260876e-14
	7.104424238180787e-07
	4.759496976315745e-05
	5.873932528195975e-06
	1.510388178032711e-01

 47	4.700000000000003e-01
	-1.283196609509435e-14
	-4.115774040097369e-17
	-5.853404525608735e-14
	7.504738798225611e-07
	5.160728813925249e-05
	6.369677413540983e-06
	1.510388784798002e-01

 48	4.800000000000003e-01
	-1.277987790904909e-14
	-4.232067324736773e-17
	-5.882799174239681e-14
	7.925006109724579e-07
	5.593950631037159e-05
	6.907125649623413e-06
	1.510389442631083e-01

 49	4.900000000000003e-01
	-1.273042410354675e-14
	-4.351933133999319e-17
	-5.911701493551231e-14
	8.366073443874852e-07
	6.061355416892651e-05
	7.489584784673490e-06
	1.510390155584067e-01

 50	5.000000000000002e-01
	-1.268356990022605e-14
	-4.475493771010584e-17
	-5.940111989913908e-14
	8.828817866716784e-07
	6.565238364867660e-05
	8.120586741622511e-06
	1.510390927984145e-01

 51	5.100000000000002e-01
	-1.263927992757603e-14
	-4.602876255514303e-17
	-5.968031435064096e-14
	9.314147246715900e-07
	7.107996025783668e-05
	8.803897996628438e-06
	1.510391764445791e-01

 52	5.200000000000002e-01
	-1.259751826517018e-14
	-4.734212527416409e-17
	-5.995460858353330e-14
	9.823001331647308e-07
	7.692124712138799e-05
	9.543529635334662e-06
	1.510392669883275e-01

 53	5.300000000000002e-01
	-1.255824848734287e-14
	-4.869639659998551e-17
	-6.022401538874487e-14
	1.035635290464771e-06
	8.320218088933825e-05
	1.034374720866446e-05
	1.510393649522594e-01

 54	5.400000000000003e-01
	-1.252143370623215e-14
	-5.009300083296052e-17
	-6.048854997484537e-14
	1.091520903078032e-06
	8.994963888693644e-05
	1.120908030360294e-05
	1.510394708913150e-01

 55	5.500000000000003e-01
	-1.248703661411630e-14
	-5.153341818162419e-17
	-6.074822988743091e-14
	1.150061240714630e-06
	9.719139691298140e-05
	1.214433173831886e-05
	1.510395853939092e-01

 56	5.600000000000003e-01
	-1.245501952497603e-14
	-5.301918721572395e-17
	-6.100307492785538e-14
	1.211364283148930e-06
	1.049560771342309e-04
	1.315458628524041e-05
	1.510397090829849e-01

 57	5.700000000000003e-01
	-1.242534441521974e-14
	-5.455190743743341e-17
	-6.125310707148755e-14
	1.275541880640779e-06
	1.132730855782147e-04
	1.424521882043730e-05
	1.510398426170110e-01

 58	5.800000000000003e-01
	-1.239797296351284e-14
	-5.613324197687391e-17
	-6.149835038566807e-14
	1.342709929874180e-06
	1.221725387941604e-04
	1.542190179301374e-05
	1.510399866908959e-01

 59	5.900000000000003e-01
	-1.237286658965664e-14
	-5.776492041840348e-17
	-6.173883094753482e-14
	1.412988567647163e-06
	1.316851793326201e-04
	1.669061190431002e-05
	1.510401420367944e-01

 60	6.000000000000003e-01
	-1.234998649246679e-14
	-5.944874176448086e-17
	-6.197457676187696e-14
	1.486502384859125e-06
	1.418422797889356e-04
	1.805763588367968e-05
	1.510403094248060e-01

 61	6.100000000000003e-01
	-1.232929368660627e-14
	-6.118657754426623e-17
	-6.220561767917117e-14
	1.563380663694192e-06
	1.526755352638868e-04
	1.952957524559754e-05
	1.510404896635599e-01

 62	6.200000000000003e-01
	-1.231074903833053e-14
	-6.298037507455196e-17
	-6.243198531394724e-14
	1.643757641296146e-06
	1.642169442163431e-04
	2.111334991199246e-05
	1.510406836006463e-01

 63	6.300000000000003e-01
	-1.229431330010775e-14
	-6.483216088098375e-17
	-6.265371296362172e-14
	1.727772803676900e-06
	1.764986778168165e-04
	2.281620058411401e-05
	1.510408921229026e-01

 64	6.400000000000003e-01
	-1.227994714408109e-14
	-6.674404428799766e-17
	-6.287083552793182e-14
	1.815571214103298e-06
	1.895529380565407e-04
	2.464568975006504e-05
	1.510411161565251e-01

 65	6.500000000000004e-01
	-1.226761119434255e-14
	-6.871822118634776e-17
	-6.308338942909311e-14
	1.907303880772328e-06
	2.034118050226145e-04
	2.660970121746029e-05
	1.510413566670080e-01

 66	6.600000000000004e-01
	-1.225726605799350e-14
	-7.075697798757317e-17
	-6.329141253279866e-14
	2.003128169221454e-06
	2.181070739142255e-04
	2.871643806561251e-05
	1.510416146588903e-01

 67	6.700000000000004e-01
	-1.224887235496830e-14
	-7.286269577528743e-17
	-6.349494407016887e-14
	2.103208265637100e-06
	2.336700825457580e-04
	3.097441891826175e-05
	1.510418911752875e-01

 68	6.800000000000004e-01
	-1.224239074660293e-14
	-7.503785466369265e-17
	-6.369402456075356e-14
	2.207715698031665e-06
	2.501315302573080e-04
	3.339247244621371e-05
	1.510421872972186e-01

 69	6.900000000000004e-01
	-1.223778196293239e-14
	-7.728503837428468e-17
	-6.388869573668115e-14
	2.316829923170136e-06
	2.675212893289055e-04
	3.597973001936172e-05
	1.510425041426989e-01

 70	7.000000000000004e-01
	-1.223500682870406e-14
	-7.960693904232664e-17
	-6.407900046804258e-14
	2.430738988155495e-06
	2.858682101683804e-04
	3.874561643941955e-05
	1.510428428656100e-01

 71	7.100000000000004e-01
	-1.223402628809733e-14
	-8.200636226529664e-17
	-6.426498268958989e-14
	2.549640276745600e-06
	3.051999217109922e-04
	4.169983869826886e-05
	1.510432046543170e-01

 72	7.200000000000004e-01
	-1.223480142814171e-14
	-8.448623240617314e-17
	-6.444668732882313e-14
	2.673741351792392e-06
	3.255426286279391e-04
	4.485237272203409e-05
	1.510435907300435e-01

 73	7.300000000000004e-01
	-1.223729350082982e-14
	-8.704959816509372e-17
	-6.462416023553162e-14
	2.803260906691126e-06
	3.469209070869190e-04
	4.821344807773412e-05
	1.510440023450191e-01

 74	7.400000000000004e-01
	-1.224146394392121e-14
	-8.969963843374588e-17
	-6.479744811285020e-14
	2.938429840431646e-06
	3.693575009373134e-04
	5.179353063749190e-05
	1.510444407803375e-01

 75	7.500000000000004e-01
	-1.224727440043838e-14
	-9.243966844748565e-17
	-6.496659844988290e-14
	3.079492472787211e-06
	3.928731203012552e-04
	5.560330321458142e-05
	1.510449073436107e-01

 76	7.600000000000005e-01
	-1.225468673685585e-14
	-9.527314625112368e-17
	-6.513165945594203e-14
	3.226707918400935e-06
	4.174862446365014e-04
	5.965364420589016e-05
	1.510454033663588e-01

 77	7.700000000000005e-01
	-1.226366305998552e-14
	-9.820367949509546e-17
	-6.529267999644356e-14
	3.380351641080537e-06
	4.432129323938863e-04
	6.395560429635560e-05
	1.510459302011645e-01

 78	7.800000000000005e-01
	-1.227416573256395e-14
	-1.012350325796584e-16
	-6.544970953049450e-14
	3.540717212546737e-06
	4.700666394183910e-04
	6.852038130235016e-05
	1.510464892186006e-01

 79	7.900000000000005e-01
	-1.228615738754793e-14
	-1.043711341656927e-16
	-6.560279805020121e-14
	3.708118303264966e-06
	4.980580482356115e-04
	7.335929325247790e-05
	1.510470818039515e-01

 80	8.000000000000005e-01
	-1.229960094112611e-14
	-1.076160850716718e-16
	-6.575199602172410e-14
	3.882890936906255e-06
	5.271949103228988e-04
	7.848374982551497e-05
	1.510477093537325e-01

 81	8.100000000000005e-01
	-1.231445960445456e-14
	-1.109741665774394e-16
	-6.589735432809805e-14
	4.065396044524947e-06
	5.574819033847996e-04
	8.390522228584670e-05
	1.510483732720098e-01

 82	8.200000000000005e-01
	-1.233069689412761e-14
	-1.144498491564479e-16
	-6.603892421383262e-14
	4.256022359825051e-06
	5.889205055352365e-04
	8.963521207640756e-05
	1.510490749665696e-01

 83	8.300000000000005e-01
	-1.234827664139295e-14
	-1.180478016593262e-16
	-6.617675723130259e-14
	4.455189703051237e-06
	6.215088881339660e-04
	9.568521824741460e-05
	1.510498158449443e-01

 84	8.400000000000005e-01
	-1.236716300012282e-14
	-1.217729009727846e-16
	-6.631090518893390e-14
	4.663352708249954e-06
	6.552418288330106e-04
	1.020667039157262e-04
	1.510505973103163e-01

 85	8.500000000000005e-01
	-1.238732045355177e-14
	-1.256302421791540e-16
	-6.644142010118780e-14
	4.881005057100468e-06
	6.901106461616243e-04
	1.087910619640953e-04
	1.510514207573096e-01

 86	8.600000000000005e-01
	-1.240871381979417e-14
	-1.296251492430830e-16
	-6.656835414033894e-14
	5.108684292455340e-06
	7.261031567181844e-04
	1.158695802015823e-04
	1.510522875677470e-01

 87	8.700000000000006e-01
	-1.243130825615127e-14
	-1.337631862533640e-16
	-6.669175959004414e-14
	5.346977296443896e-06
	7.632036557473394e-04
	1.233134062156284e-04
	1.510531991063356e-01

 88	8.800000000000006e-01
	-1.245506926222149e-14
	-1.380501692491859e-16
	-6.681168880068948e-14
	5.596526531830858e-06
	8.013929215644475e-04
	1.311335121524887e-04
	1.510541567163597e-01

 89	8.900000000000006e-01
	-1.247996268182381e-14
	-1.424921786616207e-16
	-6.692819414650611e-14
	5.858037161708112e-06
	8.406482439509729e-04
	1.393406596656345e-04
	1.510551617153779e-01

 90	9.000000000000006e-01
	-1.250595470374688e-14
	-1.470955724026502e-16
	-6.704132798443722e-14
	6.132285182043753e-06
	8.809434762887106e-04
	1.479453652711606e-04
	1.510562153909802e-01

 91	9.100000000000006e-01
	-1.253301186133362e-14
	-1.518669996356061e-16
	-6.715114261473937e-14
	6.420126724741672e-06
	9.222491108324375e-04
	1.569578663450541e-04
	1.510573189966158e-01

 92	9.200000000000006e-01
	-1.256110103091245e-14
	-1.568134152625453e-16
	-6.725769024329644e-14
	6.722508716432260e-06
	9.645323761443882e-04
	1.663880879892497e-04
	1.510584737475215e-01

 93	9.300000000000006e-01
	-1.259018942908390e-14
	-1.619420951656905e-16
	-6.736102294562398e-14
	7.040481111142085e-06
	1.007757355334737e-03
	1.762456109816820e-04
	1.510596808167906e-01

 94	9.400000000000006e-01
	-1.262024460887245e-14
	-1.672606522418708e-16
	-6.746119263253768e-14
	7.375210954400308e-06
	1.051885123374313e-03
	1.865396410100714e-04
	1.510609413315908e-01

 95	9.500000000000006e-01
	-1.265123445475042e-14
	-1.727770532705633e-16
	-6.755825101745993e-14
	7.727998583599772e-06
	1.096873901372420e-03
	1.972789793698997e-04
	1.510622563695636e-01

 96	9.600000000000006e-01
	-1.268312717654190e-14
	-1.784996366579929e-16
	-6.765224958533419e-14
	8.100296326218550e-06
	1.142679225347056e-03
	2.084719952841053e-04
	1.510636269554264e-01

 97	9.700000000000006e-01
	-1.271589130221195e-14
	-1.844371311015217e-16
	-6.774323956311718e-14
	8.493730125864630e-06
	1.189254126658147e-03
	2.201265999754598e-04
	1.510650540577871e-01

 98	9.800000000000006e-01
	-1.274949566954606e-14
	-1.905986752204525e-16
	-6.783127189181602e-14
	8.910124608538436e-06
	1.236549320927232e-03
	2.322502225925130e-04
	1.510665385861800e-01

 99	9.900000000000007e-01
	-1.278390941672377e-14
	-1.969938382011387e-16
	-6.791639720003714e-14
	9.351532201074340e-06
	1.284513401927579e-03
	2.448497880565092e-04
	1.510680813883600e-01

 100	1.000000000000001e+00
	-1.281910197178783e-14
	-2.036326415062491e-16
	-6.799866577901174e-14
	9.820267034162529e-06
	1.333093036593853e-03
	2.579316968598156e-04
	1.510696832478124e-01

 101	1.010000000000001e+00
	-1.285504304101106e-14
	-2.105255816997480e-16
	-6.807812755906128e-14
