Title: ** sch_path: /home/andylithia/openmpw/project-yatsuhashi-chip1/xschem/gmid_test/nmos_test.sch
Date: Sun Jul 17 22:51:45  2022
Plotname: DC transfer characteristic
Flags: real
No. Variables: 8
No. Points: 181
Variables:
	0	v(v-sweep)	voltage
	1	@m.xm1.msky130_fd_pr__nfet_01v8[cgb]	capacitance
	2	@m.xm1.msky130_fd_pr__nfet_01v8[cgd]	capacitance
	3	@m.xm1.msky130_fd_pr__nfet_01v8[cgs]	capacitance
	4	@m.xm1.msky130_fd_pr__nfet_01v8[gds]	admittance
	5	@m.xm1.msky130_fd_pr__nfet_01v8[gm]	admittance
	6	i(@m.xm1.msky130_fd_pr__nfet_01v8[id])	current
	7	v(@m.xm1.msky130_fd_pr__nfet_01v8[vth])	voltage
Values:
 0	0.000000000000000e+00
	-2.825044834186451e-15
	-4.569658839118428e-25
	-3.979492495668572e-18
	9.600239190739835e-26
	3.471020259049303e-23
	3.803358495165690e-25
	6.252989351550149e-01

 1	1.000000000000000e-02
	-2.813092563477457e-15
	-5.974801827179099e-25
	-3.970020199471309e-18
	2.391383924379981e-25
	8.645988538916299e-23
	9.474024831669379e-25
	6.252989351550149e-01

 2	2.000000000000000e-02
	-2.801288700441084e-15
	-7.811972553540073e-25
	-3.963380998376398e-18
	5.955917271683914e-25
	2.153461121331746e-22
	2.359575477293029e-24
	6.252989351550149e-01

 3	3.000000000000000e-02
	-2.789630060184724e-15
	-1.021397115156494e-24
	-3.960386066119973e-18
	1.483551800396160e-24
	5.363952917734754e-22
	5.877436371685455e-24
	6.252989351550149e-01

 4	4.000000000000000e-02
	-2.778113483682904e-15
	-1.335439643022202e-24
	-3.962100439181137e-18
	3.695379837420805e-24
	1.336076181083261e-21
	1.464010899998748e-23
	6.252989351550149e-01

 5	5.000000000000000e-02
	-2.766735817364558e-15
	-1.746016410080746e-24
	-3.969921606076980e-18
	9.204471893835516e-24
	3.327858126865241e-21
	3.646566225648499e-23
	6.252989351550149e-01

 6	6.000000000000000e-02
	-2.755493887277487e-15
	-2.282785474511130e-24
	-3.985682207597938e-18
	2.292608752470875e-23
	8.288713648935141e-21
	9.082704384589520e-23
	6.252989351550149e-01

 7	7.000000000000001e-02
	-2.744384466134880e-15
	-2.984505527131088e-24
	-4.011784085604024e-18
	5.710253999281827e-23
	2.064409506818206e-20
	2.262250349564955e-22
	6.252989351550149e-01

 8	8.000000000000000e-02
	-2.733404231056852e-15
	-3.901820568620920e-24
	-4.051372979752747e-18
	1.422188343636694e-22
	5.141331824988011e-20
	5.634330990789848e-22
	6.252989351550149e-01

 9	9.000000000000000e-02
	-2.722549709202401e-15
	-5.100891134057708e-24
	-4.108565742516356e-18
	3.541916705036705e-22
	1.280319492429041e-19
	1.403212966293644e-21
	6.252989351550149e-01

 10	9.999999999999999e-02
	-2.711817207725018e-15
	-6.668125555565808e-24
	-4.188745092400465e-18
	8.820075028546025e-22
	3.187830000178253e-19
	3.494278603711661e-21
	6.252989351550149e-01

 11	1.100000000000000e-01
	-2.701202723566573e-15
	-8.716337987694098e-24
	-4.298940687389613e-18
	2.196043229370125e-21
	7.935469854222818e-19
	8.700137941726842e-21
	6.252989351550149e-01

 12	1.200000000000000e-01
	-2.690701827534466e-15
	-1.139275248234990e-23
	-4.448319629641451e-18
	5.466437893621754e-21
	1.974661202803252e-18
	2.165657011239824e-20
	6.252989351550149e-01

 13	1.300000000000000e-01
	-2.680309515926551e-15
	-1.488938816406660e-23
	-4.648814210674853e-18
	1.360196100924968e-20
	4.910932119041404e-18
	5.388734505740649e-20
	6.252989351550149e-01

 14	1.400000000000000e-01
	-2.670020021777707e-15
	-1.945650332654260e-23
	-4.915919312579541e-18
	3.382506718911123e-20
	1.220239302588177e-17
	1.340059042231906e-19
	6.252989351550149e-01

 15	1.500000000000000e-01
	-2.659826576800760e-15
	-2.541994914476455e-23
	-5.269695515692022e-18
	8.403601545913690e-20
	3.027693748482050e-17
	3.329283067413749e-19
	6.252989351550149e-01

 16	1.600000000000000e-01
	-2.649721114625791e-15
	-3.320348800729852e-23
	-5.736015146940232e-18
	2.084725391921192e-19
	7.495768525036749e-17
	8.259126727042600e-19
	6.252989351550149e-01

 17	1.700000000000000e-01
	-2.639693906531922e-15
	-4.335736540425715e-23
	-6.348085014449313e-18
	5.159712715829713e-19
	1.849337391318208e-16
	2.044140766286304e-18
	6.252989351550149e-01

 18	1.800000000000000e-01
	-2.629733123212089e-15
	-5.659468143720462e-23
	-7.148268536635059e-18
	1.272431111992462e-18
	4.538151095891879e-16
	5.041033244762393e-18
	6.252989351550149e-01

 19	1.900000000000000e-01
	-2.619824320933011e-15
	-7.383737691478221e-23
	-8.190208558820351e-18
	3.120470364812596e-18
	1.104441325516741e-15
	1.236247279240748e-17
	6.252989351550149e-01

 20	2.000000000000000e-01
	-2.609949858033531e-15
	-9.627391622941561e-23
	-9.541219585053968e-18
	7.587604722524603e-18
	2.654233820261017e-15
	3.006007008879962e-17
	6.252989351550149e-01

 21	2.100000000000000e-01
	-2.600088256905054e-15
	-1.254310103303734e-22
	-1.128487996656804e-17
	1.821523203029023e-17
	6.260404032217698e-15
	7.216390114018957e-17
	6.252989351550149e-01

 22	2.200000000000001e-01
	-2.590213533154456e-15
	-1.632620082443368e-22
	-1.352372974345020e-17
	4.291862403818744e-17
	1.437272136998977e-14
	1.700321669965525e-16
	6.252989351550149e-01

 23	2.300000000000001e-01
	-2.580294507992984e-15
	-2.122550058842631e-22
	-1.638200958003029e-17
	9.849971090011917e-17
	3.179255009211264e-14
	3.902296461662863e-16
	6.252989351550149e-01

 24	2.400000000000001e-01
	-2.570294085778697e-15
	-2.755645333445292e-22
	-2.000852895952715e-17
	2.182669411779718e-16
	6.702872116313617e-14
	8.647155549373435e-16
	6.252989351550149e-01

 25	2.500000000000001e-01
	-2.560168395545832e-15
	-3.571723463078755e-22
	-2.458011132509313e-17
	4.630115715989897e-16
	1.335115671442531e-13
	1.834328692390020e-15
	6.252989351550149e-01

 26	2.600000000000001e-01
	-2.549865548549210e-15
	-4.620860095214737e-22
	-3.030668531605367e-17
	9.344847271919980e-16
	2.503903048005135e-13
	3.702179978761688e-15
	6.252989351550149e-01

 27	2.700000000000001e-01
	-2.539323562880538e-15
	-5.965892690422840e-22
	-3.743992313032677e-17
	1.791292019277218e-15
	4.439874262548541e-13
	7.096622730084042e-15
	6.252989351550149e-01

 28	2.800000000000001e-01
	-2.528466802798989e-15
	-7.685659180399463e-22
	-4.628813977482493e-17
	3.271913341323919e-15
	7.524390476147026e-13
	1.296245103018415e-14
	6.252989351550160e-01

 29	2.900000000000001e-01
	-2.517200165657435e-15
	-9.879283343048292e-22
	-5.724057340778446e-17
	5.735687188837566e-15
	1.235454348812750e-12
	2.272326886296474e-14
	6.252989351550160e-01

 30	3.000000000000001e-01
	-2.505400315495176e-15
	-1.267191327780642e-21
	-7.080379189197796e-17
	9.735361767253128e-15
	1.989605918678837e-12
	3.856891869536985e-14
	6.252989351550183e-01

 31	3.100000000000001e-01
	-2.492903548750249e-15
	-1.622238735397512e-21
	-8.765167931544016e-17
	1.613623950729179e-14
	3.170388272072468e-12
	6.392750132302438e-14
	6.252989351550208e-01

 32	3.200000000000001e-01
	-2.479490353343712e-15
	-2.073331479539489e-21
	-1.086884139328212e-16
	2.630372666920640e-14
	5.025369930120541e-12
	1.042083999102883e-13
	6.252989351550243e-01

 33	3.300000000000001e-01
	-2.464867337872041e-15
	-2.646398880388591e-21
	-1.351212921290503e-16
	4.239634132557019e-14
	7.946178453643527e-12
	1.679631056202662e-13
	6.252989351550302e-01

 34	3.400000000000001e-01
	-2.448647966582818e-15
	-3.374636957246570e-21
	-1.685371820620287e-16
	6.782542308004395e-14
	1.255095270147588e-11
	2.687064799938418e-13
	6.252989351550410e-01

 35	3.500000000000001e-01
	-2.430334507466856e-15
	-4.300404245747521e-21
	-2.109725304035216e-16
	1.079791474359587e-13
	1.981494744389607e-11
	4.277851439661475e-13
	6.252989351550555e-01

 36	3.600000000000002e-01
	-2.409304859189190e-15
	-5.477351868297610e-21
	-2.649619090105952e-16
	1.713646550987243e-13
	3.127695131607672e-11
	6.789023815728332e-13
	6.252989351550806e-01

 37	3.700000000000002e-01
	-2.384809483862530e-15
	-6.972644367100563e-21
	-3.335440345608442e-16
	2.714105636277026e-13
	4.936518589759954e-11
	1.075259438614670e-12
	6.252989351551188e-01

 38	3.800000000000002e-01
	-2.355985457669042e-15
	-8.869017300364163e-21
	-4.201973706671725e-16
	4.293118570235989e-13
	7.791167372445801e-11
	1.700826783392123e-12
	6.252989351551798e-01

 39	3.900000000000002e-01
	-2.321896346213825e-15
	-1.126627959248430e-20
	-5.286711205448427e-16
	6.785197971312030e-13
	1.229639994815142e-10
	2.688133347799419e-12
	6.252989351552765e-01

 40	4.000000000000002e-01
	-2.281607259737634e-15
	-1.428172116400321e-20
	-6.626755099042169e-16
	1.071827730197200e-12
	1.940663766661772e-10
	4.246342109992447e-12
	6.252989351554281e-01

 41	4.100000000000002e-01
	-2.234301928681211e-15
	-1.804877591480254e-20
	-8.254062098746122e-16
	1.692553025940927e-12
	3.062812894070717e-10
	6.705558682820073e-12
	6.252989351556684e-01

 42	4.200000000000002e-01
	-2.179439858693128e-15
	-2.271330192279375e-20
	-1.018913760615683e-15
	2.672181752669667e-12
	4.833796914130091e-10
	1.058675653851756e-11
	6.252989351560470e-01

 43	4.300000000000002e-01
	-2.116934488247314e-15
	-2.842708647730195e-20
	-1.243397652403924e-15
	4.218208341111472e-12
	7.628748480494365e-10
	1.671212442743025e-11
	6.252989351566438e-01

 44	4.400000000000002e-01
	-2.047310715643184e-15
	-3.533874315131345e-20
	-1.496593613941310e-15
	6.658053610904032e-12
	1.203964342830076e-09
	2.637919257054397e-11
	6.252989351575864e-01

 45	4.500000000000002e-01
	-1.971783434501533e-15
	-4.358298823338638e-20
	-1.773486077137306e-15
	1.050832907089719e-11
	1.900058015411238e-09
	4.163557465451653e-11
	6.252989351590745e-01

 46	4.600000000000002e-01
	-1.892204306064385e-15
	-5.327009950027078e-20
	-2.066550681005711e-15
	1.658403103725331e-11
	2.998534021783858e-09
	6.571240045209262e-11
	6.252989351614215e-01

 47	4.700000000000003e-01
	-1.810861093501951e-15
	-6.447775230551278e-20
	-2.366579984409255e-15
	2.617057289326624e-11
	4.731878773262498e-09
	1.037079387017509e-10
	6.252989351651270e-01

 48	4.800000000000003e-01
	-1.730170517181500e-15
	-7.724706424311823e-20
	-2.663920062614660e-15
	4.129454201807413e-11
	7.466734060768438e-09
	1.636654295137546e-10
	6.252989351709741e-01

 49	4.900000000000003e-01
	-1.652350436400794e-15
	-9.158359641296903e-20
	-2.949772012554476e-15
	6.514915331458667e-11
	1.178105842916787e-08
	2.582714549449281e-10
	6.252989351801987e-01

 50	5.000000000000002e-01
	-1.579162279153715e-15
	-1.074627135561287e-19
	-3.217199171220853e-15
	1.027610887577825e-10
	1.858529238543151e-08
	4.075296392057179e-10
	6.252989351947531e-01

 51	5.100000000000002e-01
	-1.511778848472642e-15
	-1.248376958352634e-19
	-3.461628450195252e-15
	1.620314749831927e-10
	2.931205900305093e-08
	6.429636310950180e-10
	6.252989352177102e-01

 52	5.200000000000002e-01
	-1.450780894746451e-15
	-1.436486783882938e-19
	-3.680840780248097e-15
	2.553505418792577e-10
	4.621176058609898e-08
	1.014208739712345e-09
	6.252989352539109e-01

 53	5.300000000000002e-01
	-1.396246913805539e-15
	-1.638308221050698e-19
	-3.874597612190489e-15
	4.020766412697312e-10
	7.280967449741995e-08
	1.599311524169919e-09
	6.252989353109648e-01

 54	5.400000000000003e-01
	-1.347887365730163e-15
	-1.853207741874072e-19
	-4.044099181262240e-15
	6.322802482215757e-10
	1.146040035715093e-07
	2.520727862180050e-09
	6.252989354008129e-01

 55	5.500000000000003e-01
	-1.305182134266707e-15
	-2.080611275775130e-19
	-4.191436950975283e-15
	9.922489280166020e-10
	1.801099301880555e-07
	3.969934904400879e-09
	6.252989355421267e-01

 56	5.600000000000003e-01
	-1.267496480117883e-15
	-2.320030435819694e-19
	-4.319136058465475e-15
	1.552227962303671e-09
	2.823662572662534e-07
	6.244704648236769e-09
	6.252989357639411e-01

 57	5.700000000000003e-01
	-1.234166191031147e-15
	-2.571074262346153e-19
	-4.429822238941538e-15
	2.416490003621379e-09
	4.409729318787962e-07
	9.804093680975989e-09
	6.252989361110202e-01

 58	5.800000000000003e-01
	-1.204552823735340e-15
	-2.833450844208320e-19
	-4.526007892764661e-15
	3.734621725771431e-09
	6.845103695878539e-07
	1.534601080045327e-08
	6.252989366514184e-01

 59	5.900000000000003e-01
	-1.178074772972242e-15
	-3.106962653907317e-19
	-4.609973503480015e-15
	5.710279679830403e-09
	1.052599756264428e-06
	2.390819409240969e-08
	6.252989374863253e-01

 60	6.000000000000003e-01
	-1.154221053249516e-15
	-3.391498529784756e-19
	-4.683716648350886e-15
	8.599553533518643e-09
	1.595684161398273e-06
	3.698063608526821e-08
	6.252989387610327e-01

 61	6.100000000000003e-01
	-1.132553912278981e-15
	-3.687024327927177e-19
	-4.748944262517999e-15
	1.268784328146119e-08
	2.369170237910705e-06
	5.659081795289263e-08
	6.252989406732431e-01

 62	6.200000000000003e-01
	-1.112704953711905e-15
	-3.993573515232532e-19
	-4.807089728834940e-15
	1.823825893386166e-08
	3.418905270197918e-06
	8.528824887221717e-08
	6.252989434715637e-01

 63	6.300000000000003e-01
	-1.094368002390331e-15
	-4.311238423646027e-19
	-4.859342165212096e-15
	2.542209014220453e-08
	4.760556583602825e-06
	1.259471482849714e-07
	6.252989474362658e-01

 64	6.400000000000003e-01
	-1.077290770602644e-15
	-4.640162513446898e-19
	-4.906679942997708e-15
	3.426449840575103e-08
	6.365099946594106e-06
	1.813801587820786e-07
	6.252989528416161e-01

 65	6.500000000000004e-01
	-1.061266532347305e-15
	-4.980533760191936e-19
	-4.949903818592908e-15
	4.463981104830168e-08
	8.164237372780810e-06
	2.538991561727565e-07
	6.252989599130534e-01

 66	6.600000000000004e-01
	-1.046126442624618e-15
	-5.332579145267946e-19
	-4.989667283530471e-15
	5.631907288354783e-08
	1.007463599859262e-05
	3.450338208463831e-07
	6.252989687997438e-01

 67	6.700000000000004e-01
	-1.031732781449405e-15
	-5.696560160752029e-19
	-5.026503119518574e-15
	6.903829152759963e-08
	1.202400080795076e-05
	4.555180667308730e-07
	6.252989795732545e-01

 68	6.800000000000004e-01
	-1.017973192453326e-15
	-6.072769210186676e-19
	-5.060845947246021e-15
	8.255281657451694e-08
	1.396439475757867e-05
	5.854800623690760e-07
	6.252989922460874e-01

 69	6.900000000000004e-01
	-1.004755872313097e-15
	-6.461526780567135e-19
	-5.093050985545346e-15
	9.666436796218989e-08
	1.587186423124365e-05
	7.346928267854224e-07
	6.252990067961112e-01

 70	7.000000000000004e-01
	-9.920056130963131e-16
	-6.863179266711236e-19
	-5.123409435719456e-15
	1.112258324123921e-07
	1.773937397723782e-05
	9.027811956987988e-07
	6.252990231867434e-01

 71	7.100000000000004e-01
	-9.796605803427061e-16
	-7.278097341118047e-19
	-5.152160970828647e-15
	1.261344667830785e-07
	1.956925330303980e-05
	1.089352042227758e-06
	6.252990413796503e-01

 72	7.200000000000004e-01
	-9.676697096026423e-16
	-7.706674776732935e-19
	-5.179503802471242e-15
	1.413216194474649e-07
	2.136776410381266e-05
	1.294058686490922e-06
	6.252990613410265e-01

 73	7.300000000000004e-01
	-9.559906136543239e-16
	-8.149327644494363e-19
	-5.205602755009000e-15
	1.567430912137121e-07
	2.314197695367757e-05
	1.516622911510438e-06
	6.252990830437403e-01

 74	7.400000000000004e-01
	-9.445879061044986e-16
	-8.606493820946331e-19
	-5.230595720717778e-15
	1.723715279211168e-07
	2.489829345135992e-05
	1.756834602604754e-06
	6.252991064673039e-01

 75	7.500000000000004e-01
	-9.334318614183083e-16
	-9.078632753025196e-19
	-5.254598810769251e-15
	1.881909165489611e-07
	2.664192594592056e-05
	2.014541893085531e-06
	6.252991315969069e-01

 76	7.600000000000005e-01
	-9.224973450036721e-16
	-9.566225437246072e-19
	-5.277710462245921e-15
	2.041927951294089e-07
	2.837685500859819e-05
	2.289638802944119e-06
	6.252991584222132e-01

 77	7.700000000000005e-01
	-9.117629590605754e-16
	-1.006977457900468e-18
	-5.300014713157370e-15
	2.203737196585509e-07
	3.010598608665412e-05
	2.582053613618954e-06
	6.252991869362287e-01

 78	7.800000000000005e-01
	-9.012103602610154e-16
	-1.058980490473713e-18
	-5.321583816379588e-15
	2.367336031529674e-07
	3.183136243574532e-05
	2.891739169989663e-06
	6.252992171343541e-01

 79	7.900000000000005e-01
	-8.908237139800169e-16
	-1.112686360545106e-18
	-5.342480329324256e-15
	2.532746409474525e-07
	3.355436966448328e-05
	3.218665302375049e-06
	6.252992490136456e-01

 80	8.000000000000005e-01
	-8.805892569079837e-16
	-1.168152089484834e-18
	-5.362758788250723e-15
	2.700006227695655e-07
	3.527590798031344e-05
	3.562813142025080e-06
	6.252992825722623e-01

 81	8.100000000000005e-01
	-8.704949456440469e-16
	-1.225437066908221e-18
	-5.382467053590794e-15
	2.869164972212369e-07
	3.699652756634083e-05
	3.924170973989997e-06
	6.252993178090621e-01

 82	8.200000000000005e-01
	-8.605301735102367e-16
	-1.284603125830310e-18
	-5.401647394593241e-15
	3.040281000001375e-07
	3.871653060504507e-05
	4.302731272434079e-06
	6.252993547233069e-01

 83	8.300000000000005e-01
	-8.506855415335658e-16
	-1.345714626266000e-18
	-5.420337367211311e-15
	3.213419880874731e-07
	4.043604604492267e-05
	4.698488614539945e-06
	6.252993933144699e-01

 84	8.400000000000005e-01
	-8.409526724906704e-16
	-1.408838546747152e-18
	-5.438570527756184e-15
	3.388653425610538e-07
	4.215508331615740e-05
	5.111438231924395e-06
	6.252994335820830e-01

 85	8.500000000000005e-01
	-8.313240592448474e-16
	-1.474044583395083e-18
	-5.456377015833517e-15
	3.566059160305963e-07
	4.387357035828999e-05
	5.541575016742294e-06
	6.252994755256489e-01

 86	8.600000000000005e-01
	-8.217929404501782e-16
	-1.541405256322712e-18
	-5.473784032984124e-15
	3.745720093319225e-07
	4.559138023863326e-05
	5.988892847898654e-06
	6.252995191445684e-01

 87	8.700000000000006e-01
	-8.123531981526472e-16
	-1.610996023253702e-18
	-5.490816237867137e-15
	3.927724676871197e-07
	4.730834961868477e-05
	6.453384140350363e-06
	6.252995644381014e-01

 88	8.800000000000006e-01
	-8.029992729641511e-16
	-1.682895400338873e-18
	-5.507496074437319e-15
	4.112166901207689e-07
	4.902429147321906e-05
	6.935039548634503e-06
	6.252996114053356e-01

 89	8.900000000000006e-01
	-7.937260933873611e-16
	-1.757185090228912e-18
	-5.523844046122906e-15
	4.299146482248758e-07
	5.073900379939627e-05
	7.433847776319732e-06
	6.252996600451690e-01

 90	9.000000000000006e-01
	-7.845290165792186e-16
	-1.833950117529437e-18
	-5.539878946304735e-15
	4.488769118459466e-07
	5.245227555114647e-05
	7.949795457815302e-06
	6.252997103562988e-01

 91	9.100000000000006e-01
	-7.754037783993476e-16
	-1.913278971822157e-18
	-5.555618053272404e-15
	4.681146802221348e-07
	5.416389066630596e-05
	8.482867089387474e-06
	6.252997623372105e-01

 92	9.200000000000006e-01
	-7.663464510293224e-16
	-1.995263758486599e-18
	-5.571077296162754e-15
	4.876398177165876e-07
	5.587363078970261e-05
	9.033044993510872e-06
	6.252998159861803e-01

 93	9.300000000000006e-01
	-7.573534067952223e-16
	-2.080000357603383e-18
	-5.586271397072038e-15
	5.074648936970137e-07
	5.758127710823610e-05
	9.600309305725314e-06
	6.252998713012701e-01

 94	9.400000000000006e-01
	-7.484212870990108e-16
	-2.167588591261158e-18
	-5.601213993497716e-15
	5.276032263790484e-07
	5.928661158294360e-05
	1.018463797663304e-05
	6.252999282803298e-01

 95	9.500000000000006e-01
	-7.395469755801059e-16
	-2.258132399628654e-18
	-5.615917744449357e-15
	5.480689306324730e-07
	6.098941777212081e-05
	1.078600678403920e-05
	6.252999869209975e-01

 96	9.600000000000006e-01
	-7.307275747991446e-16
	-2.351740026191198e-18
	-5.630394422922217e-15
	5.688769698768411e-07
	6.268948137695166e-05
	1.140438935184679e-05
	6.253000472206979e-01

 97	9.700000000000006e-01
	-7.219603858712712e-16
	-2.448524212586336e-18
	-5.644654996915607e-15
	5.900432122871977e-07
	6.438659059823816e-05
	1.203975717340214e-05
	6.253001091766538e-01

 98	9.800000000000006e-01
	-7.132428905836608e-16
	-2.548602403510021e-18
	-5.658709700771960e-15
	6.115844916049847e-07
	6.608053636371815e-05
	1.269207963772116e-05
	6.253001727858770e-01

 99	9.900000000000007e-01
	-7.045727356176882e-16
	-2.652096962199366e-18
	-5.672568098288657e-15
	6.335186729121985e-07
	6.777111246549038e-05
	1.336132405751144e-05
	6.253002380451814e-01

 100	1.000000000000001e+00
	-6.959477185644012e-16
	-2.759135397035623e-18
	-5.686239138796188e-15
	6.558647237846586e-07
	6.945811563404883e-05
	1.404745569823428e-05
	6.253003049511776e-01

 101	1.010000000000001e+00
	-6.873657754768088e-16
	-2.869850599846412e-18
	-5.699731207188834e-15
