Title: ** sch_path: /home/andylithia/openmpw/project-yatsuhashi-chip1/xschem/gmid_test/nmos_test.sch
Date: Sun Jul 17 22:51:45  2022
Plotname: DC transfer characteristic
Flags: real
No. Variables: 8
No. Points: 181
Variables:
	0	v(v-sweep)	voltage
	1	@m.xm1.msky130_fd_pr__nfet_01v8[cgb]	capacitance
	2	@m.xm1.msky130_fd_pr__nfet_01v8[cgd]	capacitance
	3	@m.xm1.msky130_fd_pr__nfet_01v8[cgs]	capacitance
	4	@m.xm1.msky130_fd_pr__nfet_01v8[gds]	admittance
	5	@m.xm1.msky130_fd_pr__nfet_01v8[gm]	admittance
	6	i(@m.xm1.msky130_fd_pr__nfet_01v8[id])	current
	7	v(@m.xm1.msky130_fd_pr__nfet_01v8[vth])	voltage
Values:
 0	0.000000000000000e+00
	-8.100325103937780e-15
	-3.228559094074655e-18
	-1.416138773205982e-14
	2.992293762992016e-08
	1.003541357369569e-06
	1.219348096275483e-07
	2.179627077264288e-01

 1	1.000000000000000e-02
	-8.010509325311888e-15
	-3.318250379502066e-18
	-1.437110828680438e-14
	3.238640543796366e-08
	1.089021499846484e-06
	1.323917557159757e-07
	2.179627089554208e-01

 2	2.000000000000000e-02
	-7.921744446876710e-15
	-3.410466953723085e-18
	-1.458076986759482e-14
	3.504304939824761e-08
	1.181847863147861e-06
	1.437397104581132e-07
	2.179627102891378e-01

 3	3.000000000000000e-02
	-7.834051329707854e-15
	-3.505281790886491e-18
	-1.479029363018085e-14
	3.790693798824471e-08
	1.282677968252742e-06
	1.560553731097384e-07
	2.179627117365976e-01

 4	4.000000000000000e-02
	-7.747450318427819e-15
	-3.602770107350679e-18
	-1.499960093551914e-14
	4.099305063643283e-08
	1.392232970603726e-06
	1.694223309839508e-07
	2.179627133076217e-01

 5	5.000000000000000e-02
	-7.661961201237709e-15
	-3.703009437995641e-18
	-1.520861345667552e-14
	4.431732569889857e-08
	1.511304359994793e-06
	1.839317287161911e-07
	2.179627150129253e-01

 6	6.000000000000000e-02
	-7.577603171585151e-15
	-3.806079715447712e-18
	-1.541725328482273e-14
	4.789671000594704e-08
	1.640761383575170e-06
	1.996830080861135e-07
	2.179627168641980e-01

 7	7.000000000000001e-02
	-7.494394791559263e-15
	-3.912063352339815e-18
	-1.562544303404359e-14
	5.174920995714907e-08
	1.781559262457221e-06
	2.167847259757675e-07
	2.179627188742046e-01

 8	8.000000000000000e-02
	-7.412353957097461e-15
	-4.021045326736590e-18
	-1.583310594465587e-14
	5.589394413786719e-08
	1.934748277120247e-06
	2.353554587720395e-07
	2.179627210568807e-01

 9	9.000000000000000e-02
	-7.331497865082281e-15
	-4.133113270857836e-18
	-1.604016598477977e-14
	6.035119742490243e-08
	2.101483801392462e-06
	2.555248022961723e-07
	2.179627234274631e-01

 10	9.999999999999999e-02
	-7.251842982399340e-15
	-4.248357563242879e-18
	-1.624654794987859e-14
	6.514247654364643e-08
	2.283037369173963e-06
	2.774344771631959e-07
	2.179627260026097e-01

 11	1.100000000000000e-01
	-7.173405017020449e-15
	-4.366871424502279e-18
	-1.645217756000982e-14
	7.029056703394863e-08
	2.480808862115080e-06
	3.012395503361421e-07
	2.179627288005557e-01

 12	1.200000000000000e-01
	-7.096198891168127e-15
	-4.488751016811947e-18
	-1.665698155453597e-14
	7.581959157698128e-08
	2.696339910056074e-06
	3.271097845405371e-07
	2.179627318412541e-01

 13	1.300000000000000e-01
	-7.020238716610302e-15
	-4.614095547310705e-18
	-1.686088778405297e-14
	8.175506963059945e-08
	2.931328599007433e-06
	3.552311281378489e-07
	2.179627351465706e-01

 14	1.400000000000000e-01
	-6.945537772125761e-15
	-4.743007375571092e-18
	-1.706382529930885e-14
	8.812397831635226e-08
	3.187645583637555e-06
	3.858073590162835e-07
	2.179627387404599e-01

 15	1.500000000000000e-01
	-6.872108483172993e-15
	-4.875592125320084e-18
	-1.726572443689594e-14
	9.495481449708590e-08
	3.467351702431062e-06
	4.190618970333670e-07
	2.179627426491939e-01

 16	1.600000000000000e-01
	-6.799962403786770e-15
	-5.011958800596393e-18
	-1.746651690151582e-14
	1.022776579804733e-07
	3.772717193679643e-06
	4.552398005277061e-07
	2.179627469015814e-01

 17	1.700000000000000e-01
	-6.729110200718907e-15
	-5.152219906536580e-18
	-1.766613584462882e-14
	1.101242357804121e-07
	4.106242609018155e-06
	4.946099633924851e-07
	2.179627515292411e-01

 18	1.800000000000000e-01
	-6.659561639831080e-15
	-5.296491574995965e-18
	-1.786451593931749e-14
	1.185279873654977e-07
	4.470681518070052e-06
	5.374675301562982e-07
	2.179627565668740e-01

 19	1.900000000000000e-01
	-6.591325574739706e-15
	-5.444893695215642e-18
	-1.806159345120747e-14
	1.275241308214061e-07
	4.869065092627200e-06
	5.841365474280720e-07
	2.179627620525862e-01

 20	2.000000000000000e-01
	-6.524409937704893e-15
	-5.597550049759811e-18
	-1.825730630530684e-14
	1.371497298523376e-07
	5.304728651367637e-06
	6.349728709120370e-07
	2.179627680282222e-01

 21	2.100000000000000e-01
	-6.458821732747515e-15
	-5.754588455957982e-18
	-1.845159414864143e-14
	1.474437615454829e-07
	5.781340236084657e-06
	6.903673479602760e-07
	2.179627745397397e-01

 22	2.200000000000001e-01
	-6.394567030970903e-15
	-5.916140913096446e-18
	-1.864439840858030e-14
	1.584471848220208e-07
	6.302931277437897e-06
	7.507492962776259e-07
	2.179627816376241e-01

 23	2.300000000000001e-01
	-6.331650968056156e-15
	-6.082343755616184e-18
	-1.883566234676388e-14
	1.702030094983823e-07
	6.873929391998509e-06
	8.165902998950387e-07
	2.179627893773315e-01

 24	2.400000000000001e-01
	-6.270077743892978e-15
	-6.253337812588207e-18
	-1.902533110856355e-14
	1.827563658824377e-07
	7.499193332502558e-06
	8.884083438483415e-07
	2.179627978197807e-01

 25	2.500000000000001e-01
	-6.209850624301092e-15
	-6.429268573746670e-18
	-1.921335176801990e-14
	1.961545748311692e-07
	8.184050089415788e-06
	9.667723091025141e-07
	2.179628070318718e-01

 26	2.600000000000001e-01
	-6.150971944791001e-15
	-6.610286362379066e-18
	-1.939967336822252e-14
	2.104472181989739e-07
	8.934334113813344e-06
	1.052306849104598e-06
	2.179628170870697e-01

 27	2.700000000000001e-01
	-6.093443116306302e-15
	-6.796546515380706e-18
	-1.958424695711320e-14
	2.256862096095384e-07
	9.756428598899333e-06
	1.145697668888502e-06
	2.179628280660210e-01

 28	2.800000000000001e-01
	-6.037264632884650e-15
	-6.988209570803390e-18
	-1.976702561870945e-14
	2.419258654889388e-07
	1.065730871995009e-05
	1.247697226843232e-06
	2.179628400572283e-01

 29	2.900000000000001e-01
	-5.982436081168666e-15
	-7.185441463237445e-18
	-1.994796449976250e-14
	2.592229763036421e-07
	1.164458668985213e-05
	1.359130878044112e-06
	2.179628531577688e-01

 30	3.000000000000001e-01
	-5.928956151693593e-15
	-7.388413727387552e-18
	-2.012702083187938e-14
	2.776368779544529e-07
	1.272655843955779e-05
	1.480903476382026e-06
	2.179628674740715e-01

 31	3.100000000000001e-01
	-5.876822651873960e-15
	-7.597303710217807e-18
	-2.030415394915378e-14
	2.972295232862516e-07
	1.391225167961804e-05
	1.614006450555607e-06
	2.179628831227616e-01

 32	3.200000000000001e-01
	-5.826032520607537e-15
	-7.812294792063766e-18
	-2.047932530136623e-14
	3.180655536841650e-07
	1.521147504050905e-05
	1.759525366264041e-06
	2.179629002315300e-01

 33	3.300000000000001e-01
	-5.776581844411751e-15
	-8.033576617122513e-18
	-2.065249846282582e-14
	3.402123707391327e-07
	1.663486792585641e-05
	1.918647983597942e-06
	2.179629189401044e-01

 34	3.400000000000001e-01
	-5.728465875004273e-15
	-8.261345333761094e-18
	-2.082363913694180e-14
	3.637402079809618e-07
	1.819395064420074e-05
	2.092672814627784e-06
	2.179629394012353e-01

 35	3.500000000000001e-01
	-5.681679048237539e-15
	-8.495803845095703e-18
	-2.099271515662299e-14
	3.887222026940656e-07
	1.990117431202607e-05
	2.283018181480044e-06
	2.179629617817846e-01

 36	3.600000000000002e-01
	-5.636215004294504e-15
	-8.737162070327108e-18
	-2.115969648061722e-14
	4.152344678516950e-07
	2.176996994406671e-05
	2.491231769736893e-06
	2.179629862638308e-01

 37	3.700000000000002e-01
	-5.592066609051786e-15
	-8.985637217332731e-18
	-2.132455518591122e-14
	4.433561642278464e-07
	2.381479606717770e-05
	2.719000665753523e-06
	2.179630130458651e-01

 38	3.800000000000002e-01
	-5.549225976515068e-15
	-9.241454067047890e-18
	-2.148726545632330e-14
	4.731695727737453e-07
	2.605118411240014e-05
	2.968161859441070e-06
	2.179630423440173e-01

 39	3.900000000000002e-01
	-5.507684492231074e-15
	-9.504845270192001e-18
	-2.164780356742901e-14
	5.047601673774044e-07
	2.849578075750060e-05
	3.240713186192396e-06
	2.179630743933521e-01

 40	4.000000000000002e-01
	-5.467432837580386e-15
	-9.776051656924163e-18
	-2.180614786796782e-14
	5.382166881616358e-07
	3.116638631077541e-05
	3.538824672938717e-06
	2.179631094492063e-01

 41	4.100000000000002e-01
	-5.428461014855366e-15
	-1.005532256004556e-17
	-2.196227875788710e-14
	5.736312155180434e-07
	3.408198814804063e-05
	3.864850243830814e-06
	2.179631477885544e-01

 42	4.200000000000002e-01
	-5.390758373028535e-15
	-1.034291615239052e-17
	-2.211617866318392e-14
	6.110992451230047e-07
	3.726278814051629e-05
	4.221339730776758e-06
	2.179631897114382e-01

 43	4.300000000000002e-01
	-5.354313634117313e-15
	-1.063909979908946e-17
	-2.226783200771237e-14
	6.507197642373000e-07
	4.073022294405364e-05
	4.611051123098604e-06
	2.179632355424040e-01

 44	4.400000000000002e-01
	-5.319114920052801e-15
	-1.094415042541502e-17
	-2.241722518212692e-14
	6.925953296541747e-07
	4.450697596232829e-05
	5.036962978971017e-06
	2.179632856319563e-01

 45	4.500000000000002e-01
	-5.285149779962076e-15
	-1.125835490096189e-17
	-2.256434651013603e-14
	7.368321477326517e-07
	4.861697975096683e-05
	5.502286909186744e-06
	2.179633403580407e-01

 46	4.600000000000002e-01
	-5.252405217774995e-15
	-1.158201044095209e-17
	-2.270918621224321e-14
	7.835401570344541e-07
	5.308540759896739e-05
	6.010480031293621e-06
	2.179634001274966e-01

 47	4.700000000000003e-01
	-5.220867720069770e-15
	-1.191542502548995e-17
	-2.285173636715360e-14
	8.328331141746936e-07
	5.793865301116931e-05
	6.565257279425893e-06
	2.179634653775201e-01

 48	4.800000000000003e-01
	-5.190523284073171e-15
	-1.225891783764533e-17
	-2.299199087102540e-14
	8.848286835999948e-07
	6.320429582401074e-05
	7.170603442412920e-06
	2.179635365770651e-01

 49	4.900000000000003e-01
	-5.161357445735078e-15
	-1.261281972127802e-17
	-2.312994539474489e-14
	9.396485321231621e-07
	6.891105371931917e-05
	7.830784790207168e-06
	2.179636142282236e-01

 50	5.000000000000002e-01
	-5.133355307799194e-15
	-1.297747365956928e-17
	-2.326559733940403e-14
	9.974184291724750e-07
	7.508871796032881e-05
	8.550360136594816e-06
	2.179636988675218e-01

 51	5.100000000000002e-01
	-5.106501567796021e-15
	-1.335323527527786e-17
	-2.339894579015645e-14
	1.058268353856532e-06
	8.176807226311176e-05
	9.334191174813199e-06
	2.179637910671340e-01

 52	5.200000000000002e-01
	-5.080780545886433e-15
	-1.374047335378381e-17
	-2.352999146862756e-14
	1.122332610103309e-06
	8.898079383743047e-05
	1.018745191240921e-05
	2.179638914359931e-01

 53	5.300000000000002e-01
	-5.056176212488949e-15
	-1.413957039004684e-17
	-2.365873668404958e-14
	1.189749951305397e-06
	9.675933578548523e-05
	1.111563702276154e-05
	2.179640006207765e-01

 54	5.400000000000003e-01
	-5.032672215626363e-15
	-1.455092316066037e-17
	-2.378518528329072e-14
	1.260663716092976e-06
	1.051367902363205e-04
	1.212456892349842e-05
	2.179641193067185e-01

 55	5.500000000000003e-01
	-5.010251907931975e-15
	-1.497494332224068e-17
	-2.390934259994214e-14
	1.335221977061656e-06
	1.141467318181884e-04
	1.322040338691893e-05
	2.179642482182899e-01

 56	5.600000000000003e-01
	-4.988898373258974e-15
	-1.541205803746611e-17
	-2.403121540262329e-14
	1.413577704505852e-06
	1.238230413306403e-04
	1.440963348483709e-05
	2.179643881196428e-01

 57	5.700000000000003e-01
	-4.968594452840154e-15
	-1.586271063013512e-17
	-2.415081184266101e-14
	1.495888947447404e-06
	1.341997097709303e-04
	1.569909167033045e-05
	2.179645398148605e-01

 58	5.800000000000003e-01
	-4.949322770949811e-15
	-1.632736127069966e-17
	-2.426814140129155e-14
	1.582319034506405e-06
	1.453106231931947e-04
	1.709594980204172e-05
	2.179647041479456e-01

 59	5.900000000000003e-01
	-4.931065760022575e-15
	-1.680648769379280e-17
	-2.438321483653052e-14
	1.673036797433858e-06
	1.571893292299511e-04
	1.860771692321904e-05
	2.179648820025610e-01

 60	6.000000000000003e-01
	-4.913805685188150e-15
	-1.730058594935779e-17
	-2.449604412984919e-14
	1.768216820415194e-06
	1.698687864790180e-04
	2.024223461785635e-05
	2.179650743014802e-01

 61	6.100000000000003e-01
	-4.897524668184840e-15
	-1.781017118907039e-17
	-2.460664243278899e-14
	1.868039718558214e-06
	1.833810983488124e-04
	2.200766978029727e-05
	2.179652820057189e-01

 62	6.200000000000003e-01
	-4.882204710617971e-15
	-1.833577848982878e-17
	-2.471502401364105e-14
	1.972692449297571e-06
	1.977572333537977e-04
	2.391250465261181e-05
	2.179655061133721e-01

 63	6.300000000000003e-01
	-4.867827716533488e-15
	-1.887796371618783e-17
	-2.482120420430966e-14
	2.082368660781028e-06
	2.130267342513851e-04
	2.596552400602039e-05
	2.179657476580913e-01

 64	6.400000000000003e-01
	-4.854375514279756e-15
	-1.943730442370993e-17
	-2.492519934747317e-14
	2.197269081647182e-06
	2.292174188022258e-04
	2.817579936854721e-05
	2.179660077072214e-01

 65	6.500000000000004e-01
	-4.841829877635342e-15
	-2.001440080530574e-17
	-2.502702674414799e-14
	2.317601956961362e-06
	2.463550753076009e-04
	3.055267023082817e-05
	2.179662873595950e-01

 66	6.600000000000004e-01
	-4.830172546181915e-15
	-2.060987668275749e-17
	-2.512670460175626e-14
	2.443583535443749e-06
	2.644631564196961e-04
	3.310572219531728e-05
	2.179665877429487e-01

 67	6.700000000000004e-01
	-4.819385244906647e-15
	-2.122438054572742e-17
	-2.522425198278937e-14
	2.575438613501435e-06
	2.835624750219786e-04
	3.584476207067662e-05
	2.179669100109922e-01

 68	6.800000000000004e-01
	-4.809449703020026e-15
	-2.185858664067700e-17
	-2.531968875415407e-14
	2.713401141963826e-06
	3.036709062268069e-04
	3.877978995244433e-05
	2.179672553401264e-01

 69	6.900000000000004e-01
	-4.800347671978676e-15
	-2.251319611226014e-17
	-2.541303553728065e-14
	2.857714901819211e-06
	3.248030997253872e-04
	4.192096837258024e-05
	2.179676249258053e-01

 70	7.000000000000004e-01
	-4.792060942705300e-15
	-2.318893819987933e-17
	-2.550431365906679e-14
	3.008634255659706e-06
	3.469702068415593e-04
	4.527858864351129e-05
	2.179680199785844e-01

 71	7.100000000000004e-01
	-4.784571362000507e-15
	-2.388657149225206e-17
	-2.559354510372367e-14
	3.166424981965350e-06
	3.701796266774521e-04
	4.886303456609854e-05
	2.179684417198468e-01

 72	7.200000000000004e-01
	-4.777860848143887e-15
	-2.460688524297600e-17
	-2.568075246558506e-14
	3.331365199797407e-06
	3.944347756889162e-04
	5.268474371466203e-05
	2.179688913772602e-01

 73	7.300000000000004e-01
	-4.771911405683687e-15
	-2.535070075025140e-17
	-2.576595890293430e-14
	3.503746391931654e-06
	4.197348848872957e-04
	5.675416655496749e-05
	2.179693701799627e-01

 74	7.400000000000004e-01
	-4.766705139417106e-15
	-2.611887280408743e-17
	-2.584918809289761e-14
	3.683874534948629e-06
	4.460748286289332e-04
	6.108172369193707e-05
	2.179698793535460e-01

 75	7.500000000000004e-01
	-4.762224267564807e-15
	-2.691229120449596e-17
	-2.593046418744688e-14
	3.872071345318297e-06
	4.734449886252383e-04
	6.567776158189382e-05
	2.179704201148489e-01

 76	7.600000000000005e-01
	-4.758451134145246e-15
	-2.773188235437482e-17
	-2.600981177054985e-14
	4.068675651078247e-06
	5.018311563867723e-04
	7.055250707841963e-05
	2.179709936666149e-01

 77	7.700000000000005e-01
	-4.755368220556306e-15
	-2.857861093097122e-17
	-2.608725581649967e-14
	4.274044899320119e-06
	5.312144768106650e-04
	7.571602121056124e-05
	2.179716011920735e-01

 78	7.800000000000005e-01
	-4.752958156372940e-15
	-2.945348164004454e-17
	-2.616282164945142e-14
	4.488556810379308e-06
	5.615714350399859e-04
	8.117815261632343e-05
	2.179722438494522e-01

 79	7.900000000000005e-01
	-4.751203729371352e-15
	-3.035754105704823e-17
	-2.623653490418805e-14
	4.712611190382929e-06
	5.928738880775937e-04
	8.694849107241972e-05
	2.179729227665311e-01

 80	8.000000000000005e-01
	-4.750087894791125e-15
	-3.129187955990900e-17
	-2.630842148813398e-14
	4.946631914668515e-06
	6.250891419391381e-04
	9.303632157257522e-05
	2.179736390352475e-01

 81	8.100000000000005e-01
	-4.749593783848135e-15
	-3.225763335821476e-17
	-2.637850754462948e-14
	5.191069095557498e-06
	6.581800743954698e-04
	9.945057941078308e-05
	2.179743937064081e-01

 82	8.200000000000005e-01
	-4.749704711511855e-15
	-3.325598662388632e-17
	-2.644681941747623e-14
	5.446401449075407e-06
	6.921053026009365e-04
	1.061998067225743e-04
	2.179751877845865e-01

 83	8.300000000000005e-01
	-4.750404183561945e-15
	-3.428817372868092e-17
	-2.651338361675882e-14
	5.713138876477464e-06
	7.268193941488778e-04
	1.132921109264532e-04
	2.179760222232467e-01

 84	8.400000000000005e-01
	-4.751675902939065e-15
	-3.535548159417536e-17
	-2.657822678594503e-14
	5.991825277889163e-06
	7.622731193575536e-04
	1.207351254892609e-04
	2.179768979201160e-01

 85	8.500000000000005e-01
	-4.753503775406225e-15
	-3.645925216016183e-17
	-2.664137567026310e-14
	6.283041617032759e-06
	7.984137418868991e-04
	1.285359734136111e-04
	2.179778157129008e-01

 86	8.600000000000005e-01
	-4.755871914536982e-15
	-3.760088497772290e-17
	-2.670285708635154e-14
	6.587409257913093e-06
	8.351853441363998e-04
	1.367012338131473e-04
	2.179787763753450e-01

 87	8.700000000000006e-01
	-4.758764646047447e-15
	-3.878183993357678e-17
	-2.676269789317403e-14
	6.905593596511062e-06
	8.725291832930567e-04
	1.452369119028259e-04
	2.179797806137095e-01

 88	8.800000000000006e-01
	-4.762166511489287e-15
	-4.000364011264533e-17
	-2.682092496418876e-14
	7.238308013014216e-06
	9.103840733997278e-04
	1.541484126874631e-04
	2.179808290636623e-01

 89	8.900000000000006e-01
	-4.766062271320937e-15
	-4.126787480615263e-17
	-2.687756516075980e-14
	7.586318172938526e-06
	9.486867884098087e-04
	1.634405185833111e-04
	2.179819222876478e-01

 90	9.000000000000006e-01
	-4.770436907374851e-15
	-4.257620267295538e-17
	-2.693264530679441e-14
	7.950446708702764e-06
	9.873724808929227e-04
	1.731173711554370e-04
	2.179830607727314e-01

 91	9.100000000000006e-01
	-4.775275624737748e-15
	-4.393035506220667e-17
	-2.698619216458973e-14
	8.331578316849326e-06
	1.026375110863747e-03
	1.831824570992165e-04
	2.179842449289432e-01

 92	9.200000000000006e-01
	-4.780563853061863e-15
	-4.533213950587282e-17
	-2.703823241186816e-14
	8.730665310209371e-06
	1.065627879124733e-03
	1.936385985384494e-04
	2.179854750881398e-01

 93	9.300000000000006e-01
	-4.786287247323782e-15
	-4.678344339007283e-17
	-2.708879261998101e-14
	9.148733668934532e-06
	1.105063659542669e-03
	2.044879476565549e-04
	2.179867515033551e-01

 94	9.400000000000006e-01
	-4.792431688048453e-15
	-4.828623781464736e-17
	-2.713789923325654e-14
	9.586889639515858e-06
	1.144615424814518e-03
	2.157319856220762e-04
	2.179880743486784e-01

 95	9.500000000000006e-01
	-4.798983281014515e-15
	-4.984258165086934e-17
	-2.718557854946822e-14
	1.004632693674263e-05
	1.184216660513729e-03
	2.273715257164171e-04
	2.179894437196082e-01

 96	9.600000000000006e-01
	-4.805928356457861e-15
	-5.145462580767632e-17
	-2.723185670139661e-14
	1.052833461007975e-05
	1.223801762534026e-03
	2.394067205212036e-04
	2.179908596339076e-01

 97	9.700000000000006e-01
	-4.813253467788618e-15
	-5.312461771734627e-17
	-2.727675963945821e-14
	1.103430564323476e-05
	1.263306413453137e-03
	2.518370729758799e-04
	2.179923220328884e-01

 98	9.800000000000006e-01
	-4.820945389837407e-15
	-5.485490605205477e-17
	-2.732031311537239e-14
	1.156574636381279e-05
	1.302667933809920e-03
	2.646614510736937e-04
	2.179938307831468e-01

 99	9.900000000000007e-01
	-4.828991116645576e-15
	-5.664794568331366e-17
	-2.736254266683715e-14
	1.212428674900583e-05
	1.341825604811536e-03
	2.778781059268340e-04
	2.179953856786823e-01

 100	1.000000000000001e+00
	-4.837377858813455e-15
	-5.850630289686356e-17
	-2.740347360318360e-14
	1.271169172331078e-05
	1.380720959547170e-03
	2.914846928994909e-04
	2.179969864433880e-01

 101	1.010000000000001e+00
	-4.846093040420408e-15
	-6.043266087618038e-17
	-2.744313099197836e-14
