Title: ** sch_path: /home/andylithia/openmpw/project-yatsuhashi-chip1/xschem/gmid_test/nmos_test.sch
Date: Tue Jul 19 23:15:45  2022
Plotname: DC transfer characteristic
Flags: real
No. Variables: 8
No. Points: 181
Variables:
	0	v(v-sweep)	voltage
	1	@m.xm1.msky130_fd_pr__nfet_01v8[cgb]	capacitance
	2	@m.xm1.msky130_fd_pr__nfet_01v8[cgd]	capacitance
	3	@m.xm1.msky130_fd_pr__nfet_01v8[cgs]	capacitance
	4	@m.xm1.msky130_fd_pr__nfet_01v8[gds]	admittance
	5	@m.xm1.msky130_fd_pr__nfet_01v8[gm]	admittance
	6	i(@m.xm1.msky130_fd_pr__nfet_01v8[id])	current
	7	v(@m.xm1.msky130_fd_pr__nfet_01v8[vth])	voltage
Values:
 0	0.000000000000000e+00
	-1.516267094720146e-14
	-1.290242838669980e-18
	-3.118791695203110e-14
	3.662101125094712e-08
	1.374269190929923e-06
	1.839496842936924e-07
	1.647039966033877e-01

 1	1.000000000000000e-02
	-1.500171946406846e-14
	-1.319401967646297e-18
	-3.157447211970996e-14
	3.932000181635051e-08
	1.480208068257459e-06
	1.982154328417415e-07
	1.647039976734927e-01

 2	2.000000000000000e-02
	-1.484306368284122e-14
	-1.349170399255889e-18
	-3.196000107931944e-14
	4.220686360727583e-08
	1.594424482763906e-06
	2.135814147322809e-07
	1.647039988272689e-01

 3	3.000000000000000e-02
	-1.468673017539205e-14
	-1.379559450171251e-18
	-3.234438303913330e-14
	4.529359498694087e-08
	1.717597181405725e-06
	2.301337508598536e-07
	1.647040000714343e-01

 4	4.000000000000000e-02
	-1.453274442396822e-14
	-1.410580625899503e-18
	-3.272749842316025e-14
	4.859286265232382e-08
	1.850465249319482e-06
	2.479656466678028e-07
	1.647040014132790e-01

 5	5.000000000000000e-02
	-1.438113077823973e-14
	-1.442245624318279e-18
	-3.310922900187667e-14
	5.211803076897103e-08
	1.993833865951386e-06
	2.671780238683510e-07
	1.647040028607253e-01

 6	6.000000000000000e-02
	-1.423191241510663e-14
	-1.474566339311494e-18
	-3.348945801994740e-14
	5.588319077993088e-08
	2.148580607498863e-06
	2.878802124182401e-07
	1.647040044223841e-01

 7	7.000000000000001e-02
	-1.408511130132638e-14
	-1.507554864507632e-18
	-3.386807032065548e-14
	5.990319186443501e-08
	2.315662340523029e-06
	3.101907084352555e-07
	1.647040061076191e-01

 8	8.000000000000000e-02
	-1.394074815901205e-14
	-1.541223497123399e-18
	-3.424495246677674e-14
	6.419367201899146e-08
	2.496122753838441e-06
	3.342380042008395e-07
	1.647040079266254e-01

 9	9.000000000000000e-02
	-1.379884243404422e-14
	-1.575584741916142e-18
	-3.461999285764629e-14
	6.877108973055969e-08
	2.691100577910834e-06
	3.601614968758608e-07
	1.647040098904999e-01

 10	9.999999999999999e-02
	-1.365941226743036e-14
	-1.610651315248007e-18
	-3.499308184217690e-14
	7.365275620831222e-08
	2.901838542944263e-06
	3.881124830586050e-07
	1.647040120113432e-01

 11	1.100000000000000e-01
	-1.352247446963655e-14
	-1.646436149264501e-18
	-3.536411182760675e-14
	7.885686813736201e-08
	3.129693128565463e-06
	4.182552468349265e-07
	1.647040143023459e-01

 12	1.200000000000000e-01
	-1.338804449790784e-14
	-1.682952396192105e-18
	-3.573297738376502e-14
	8.440254091446258e-08
	3.376145159447714e-06
	4.507682495067104e-07
	1.647040167778955e-01

 13	1.300000000000000e-01
	-1.325613643658422e-14
	-1.720213432756392e-18
	-3.609957534266296e-14
	9.030984232233556e-08
	3.642811302295809e-06
	4.858454297340095e-07
	1.647040194537052e-01

 14	1.400000000000000e-01
	-1.312676298041026e-14
	-1.758232864725412e-18
	-3.646380489323360e-14
	9.659982659573778e-08
	3.931456520258620e-06
	5.236976233840271e-07
	1.647040223469273e-01

 15	1.500000000000000e-01
	-1.299993542082855e-14
	-1.797024531581018e-18
	-3.682556767105877e-14
	1.032945688286801e-07
	4.244007540961162e-06
	5.645541129415406e-07
	1.647040254763167e-01

 16	1.600000000000000e-01
	-1.287566363523722e-14
	-1.836602511322245e-18
	-3.718476784294266e-14
	1.104171996684927e-07
	4.582567393868316e-06
	6.086643168957493e-07
	1.647040288623670e-01

 17	1.700000000000000e-01
	-1.275395607918440e-14
	-1.876981125403221e-18
	-3.754131218620424e-14
	1.179919402383151e-07
	4.949431071498093e-06
	6.562996300696355e-07
	1.647040325274989e-01

 18	1.800000000000000e-01
	-1.263481978146411e-14
	-1.918174943810909e-18
	-3.789511016258323e-14
	1.260441372255471e-07
	5.347102366999308e-06
	7.077554263941884e-07
	1.647040364962442e-01

 19	1.900000000000000e-01
	-1.251826034206915e-14
	-1.960198790284090e-18
	-3.824607398666973e-14
	1.346002980693415e-07
	5.778311937670851e-06
	7.633532361406100e-07
	1.647040407954573e-01

 20	2.000000000000000e-01
	-1.240428193295071e-14
	-2.003067747680148e-18
	-3.859411868878573e-14
	1.436881261756328e-07
	6.246036640015075e-06
	8.234431101003325e-07
	1.647040454545391e-01

 21	2.100000000000000e-01
	-1.229288730152526e-14
	-2.046797163490546e-18
	-3.893916217226560e-14
	1.533365560833616e-07
	6.753520176755168e-06
	8.884061836335136e-07
	1.647040505056968e-01

 22	2.200000000000001e-01
	-1.218407777686359e-14
	-2.091402655511281e-18
	-3.928112526510009e-14
	1.635757885004070e-07
	7.304295089776927e-06
	9.586574538796053e-07
	1.647040559842138e-01

 23	2.300000000000001e-01
	-1.207785327848929e-14
	-2.136900117671032e-18
	-3.961993176592612e-14
	1.744373251223335e-07
	7.902206125041221e-06
	1.034648783724390e-06
	1.647040619287567e-01

 24	2.400000000000001e-01
	-1.197421232770894e-14
	-2.183305726021779e-18
	-3.995550848436147e-14
	1.859540031413619e-07
	8.551434986022033e-06
	1.116872146332101e-06
	1.647040683816946e-01

 25	2.500000000000001e-01
	-1.187315206138943e-14
	-2.230635944895091e-18
	-4.028778527570071e-14
	1.981600293468657e-07
	9.256526481014278e-06
	1.205863124161421e-06
	1.647040753894752e-01

 26	2.600000000000001e-01
	-1.177466824809286e-14
	-2.278907533229671e-18
	-4.061669507000597e-14
	2.110910137124178e-07
	1.002241605660074e-05
	1.302204676373950e-06
	1.647040830030098e-01

 27	2.700000000000001e-01
	-1.167875530647512e-14
	-2.328137551073627e-18
	-4.094217389564113e-14
	2.247840023575749e-07
	1.085445869452953e-05
	1.406531188391990e-06
	1.647040912781055e-01

 28	2.800000000000001e-01
	-1.158540632584904e-14
	-2.378343366266036e-18
	-4.126416089731337e-14
	2.392775097655674e-07
	1.175845913212540e-05
	1.519532817050865e-06
	1.647041002759309e-01

 29	2.900000000000001e-01
	-1.149461308880988e-14
	-2.429542661302901e-18
	-4.158259834870187e-14
	2.546115501306390e-07
	1.274070334702691e-05
	1.641960144296432e-06
	1.647041100635334e-01

 30	3.000000000000001e-01
	-1.140636609581678e-14
	-2.481753440391205e-18
	-4.189743165976669e-14
	2.708276677009708e-07
	1.380799122542600e-05
	1.774629151679611e-06
	1.647041207143862e-01

 31	3.100000000000001e-01
	-1.132065459162151e-14
	-2.534994036697050e-18
	-4.220860937884443e-14
	2.879689659750707e-07
	1.496767030901621e-05
	1.918426526972386e-06
	1.647041323089858e-01

 32	3.200000000000001e-01
	-1.123746659343322e-14
	-2.589283119792165e-18
	-4.251608318964952e-14
	3.060801356010271e-07
	1.622767048949979e-05
	2.074315313050766e-06
	1.647041449355150e-01

 33	3.300000000000001e-01
	-1.115678892070553e-14
	-2.644639703303224e-18
	-4.281980790331300e-14
	3.252074808195252e-07
	1.759653949076344e-05
	2.243340907736346e-06
	1.647041586905374e-01

 34	3.400000000000001e-01
	-1.107860722643146e-14
	-2.701083152770922e-18
	-4.311974144559991e-14
	3.453989442824654e-07
	1.908347894773314e-05
	2.426637421533267e-06
	1.647041736797621e-01

 35	3.500000000000001e-01
	-1.100290602983039e-14
	-2.758633193721888e-18
	-4.341584483945778e-14
	3.667041300701654e-07
	2.069838085756647e-05
	2.625434398121640e-06
	1.647041900188621e-01

 36	3.600000000000002e-01
	-1.092966875031055e-14
	-2.817309919960937e-18
	-4.370808218305755e-14
	3.891743247209283e-07
	2.245186414336101e-05
	2.841063900047242e-06
	1.647042078343540e-01

 37	3.700000000000002e-01
	-1.085887774259092e-14
	-2.877133802087677e-18
	-4.399642062349567e-14
	4.128625160778479e-07
	2.435531103316000e-05
	3.074967959261593e-06
	1.647042272645516e-01

 38	3.800000000000002e-01
	-1.079051433286607e-14
	-2.938125696244151e-18
	-4.428083032633575e-14
	4.378234097486771e-07
	2.642090291799271e-05
	3.328706388998276e-06
	1.647042484605764e-01

 39	3.900000000000002e-01
	-1.072455885589913e-14
	-3.000306853099433e-18
	-4.456128444117194e-14
	4.641134429662199e-07
	2.866165531233926e-05
	3.603964949905548e-06
	1.647042715874389e-01

 40	4.000000000000002e-01
	-1.066099069292807e-14
	-3.063698927076364e-18
	-4.483775906340386e-14
	4.917907956283247e-07
	3.109145149918403e-05
	3.902563859380286e-06
	1.647042968252070e-01

 41	4.100000000000002e-01
	-1.059978831027343e-14
	-3.128323985827855e-18
	-4.511023319241670e-14
	5.209153982894258e-07
	3.372507440024471e-05
	4.226466628660669e-06
	1.647043243702214e-01

 42	4.200000000000002e-01
	-1.054092929853597e-14
	-3.194204519968337e-18
	-4.537868868636413e-14
	5.515489368687363e-07
	3.657823617061272e-05
	4.577789207428727e-06
	1.647043544364159e-01

 43	4.300000000000002e-01
	-1.048439041227619e-14
	-3.261363453067305e-18
	-4.564311021375503e-14
	5.837548538349761e-07
	3.966760497665064e-05
	4.958809410461988e-06
	1.647043872566803e-01

 44	4.400000000000002e-01
	-1.043014761006957e-14
	-3.329824151911823e-18
	-4.590348520204612e-14
	6.175983456233845e-07
	4.301082837730951e-05
	5.371976595261157e-06
	1.647044230843319e-01

 45	4.500000000000002e-01
	-1.037817609483422e-14
	-3.399610437044735e-18
	-4.615980378344565e-14
	6.531463560385695e-07
	4.662655269298935e-05
	5.819921553598178e-06
	1.647044621946255e-01

 46	4.600000000000002e-01
	-1.032845035433091e-14
	-3.470746593586155e-18
	-4.641205873813169e-14
	6.904675653964779e-07
	5.053443771359161e-05
	6.305466573598936e-06
	1.647045048863652e-01

 47	4.700000000000003e-01
	-1.028094420173854e-14
	-3.543257382345322e-18
	-4.666024543509078e-14
	7.296323751609960e-07
	5.475516606960779e-05
	6.831635622345959e-06
	1.647045514835578e-01

 48	4.800000000000003e-01
	-1.023563081621155e-14
	-3.617168051230520e-18
	-4.690436177077967e-14
	7.707128878357219e-07
	5.931044656804093e-05
	7.401664592104577e-06
	1.647046023371383e-01

 49	4.900000000000003e-01
	-1.019248278333016e-14
	-3.692504346965192e-18
	-4.714440810581192e-14
	8.137828818796748e-07
	6.422301077987905e-05
	8.019011546208802e-06
	1.647046578267619e-01

 50	5.000000000000002e-01
	-1.015147213535675e-14
	-3.769292527118884e-18
	-4.738038719987024e-14
	8.589177814278095e-07
	6.951660215896141e-05
	8.687366893467140e-06
	1.647047183626144e-01

 51	5.100000000000002e-01
	-1.011257039121752e-14
	-3.847559372459325e-18
	-4.761230414503992e-14
	9.061946206128781e-07
	7.521595697460326e-05
	9.410663412744820e-06
	1.647047843872924e-01

 52	5.200000000000002e-01
	-1.007574859613085e-14
	-3.927332199637446e-18
	-4.784016629775791e-14
	9.556920023062285e-07
	8.134677635358296e-05
	1.019308604226083e-05
	1.647048563776767e-01

 53	5.300000000000002e-01
	-1.004097736080942e-14
	-4.008638874211674e-18
	-4.806398320956643e-14
	1.007490051120328e-06
	8.793568875216585e-05
	1.103908134120418e-05
	1.647049348468421e-01

 54	5.400000000000003e-01
	-1.000822690016641e-14
	-4.091507824021530e-18
	-4.828376655685616e-14
	1.061670360546978e-06
	9.501020221692852e-05
	1.195336652466009e-05
	1.647050203459489e-01

 55	5.500000000000003e-01
	-9.977467071460960e-15
	-4.175968052921335e-18
	-4.849953006977900e-14
	1.118315934141990e-06
	1.025986458452417e-04
	1.294093796667303e-05
	1.647051134661077e-01

 56	5.600000000000003e-01
	-9.948667411822101e-15
	-4.262049154881483e-18
	-4.871128946050566e-14
	1.177511120709910e-06
	1.107300999232306e-04
	1.400707906070335e-05
	1.647052148402069e-01

 57	5.700000000000003e-01
	-9.921797175094855e-15
	-4.349781328469856e-18
	-4.891906235099640e-14
	1.239341543492048e-06
	1.194343143015523e-04
	1.515736732191693e-05
	1.647053251446707e-01

 58	5.800000000000003e-01
	-9.896825367956083e-15
	-4.439195391722072e-18
	-4.912286820044912e-14
	1.303894023416954e-06
	1.287416146677895e-04
	1.639768061183046e-05
	1.647054451011191e-01

 59	5.900000000000003e-01
	-9.873720785252686e-15
	-4.530322797412948e-18
	-4.932272823258085e-14
	1.371256496535459e-06
	1.386827964888577e-04
	1.773420236299023e-05
	1.647055754779074e-01

 60	6.000000000000003e-01
	-9.852452044518208e-15
	-4.623195648739054e-18
	-4.951866536289350e-14
	1.441517925832348e-06
	1.492890065273206e-04
	1.917342567974158e-05
	1.647057170915270e-01

 61	6.100000000000003e-01
	-9.832987619628499e-15
	-4.717846715425189e-18
	-4.971070412606762e-14
	1.514768207683006e-06
	1.605916119813819e-04
	2.072215619091205e-05
	1.647058708078088e-01

 62	6.200000000000003e-01
	-9.815295873560709e-15
	-4.814309450266276e-18
	-4.989887060362135e-14
	1.591098073306692e-06
	1.726220574585968e-04
	2.238751353153028e-05
	1.647060375429196e-01

 63	6.300000000000003e-01
	-9.799345090224733e-15
	-4.912618006117200e-18
	-5.008319235196409e-14
	1.670598985657124e-06
	1.854117101666278e-04
	2.417693133367092e-05
	1.647062182641266e-01

 64	6.400000000000003e-01
	-9.785103505338635e-15
	-5.012807253343517e-18
	-5.026369833096878e-14
	1.753363032286234e-06
	1.989916938888473e-04
	2.609815561128463e-05
	1.647064139902457e-01

 65	6.500000000000004e-01
	-9.772539336325403e-15
	-5.114912797746945e-18
	-5.044041883317729e-14
	1.839482814816264e-06
	2.133927125058686e-04
	2.815924143051882e-05
	1.647066257918171e-01

 66	6.600000000000004e-01
	-9.761620811209486e-15
	-5.218970998978102e-18
	-5.061338541374980e-14
	1.929051335759727e-06
	2.286448640235528e-04
	3.036854776566936e-05
	1.647068547909032e-01

 67	6.700000000000004e-01
	-9.752316196497624e-15
	-5.325018989452589e-18
	-5.078263082125810e-14
	2.022161883533194e-06
	2.447774462703407e-04
	3.273473045153541e-05
	1.647071021605181e-01

 68	6.800000000000004e-01
	-9.744593824029906e-15
	-5.433094693783683e-18
	-5.094818892941880e-14
	2.118907916619559e-06
	2.618187556283857e-04
	3.526673315561221e-05
	1.647073691236517e-01

 69	6.900000000000004e-01
	-9.738422116791385e-15
	-5.543236848747813e-18
	-5.111009466985377e-14
	2.219382947942604e-06
	2.797958803599832e-04
	3.797377630822260e-05
	1.647076569518496e-01

 70	7.000000000000004e-01
	-9.733769613677021e-15
	-5.655485023798547e-18
	-5.126838396595916e-14
	2.323680430625227e-06
	2.987344902788379e-04
	4.086534394527119e-05
	1.647079669633339e-01

 71	7.100000000000004e-01
	-9.730604993206549e-15
	-5.769879642144597e-18
	-5.142309366795651e-14
	2.431893646408129e-06
	3.186586246905579e-04
	4.395116843672208e-05
	1.647083005206617e-01

 72	7.200000000000004e-01
	-9.728897096187145e-15
	-5.886462002409685e-18
	-5.157426148919519e-14
	2.544115598106235e-06
	3.395904806836448e-04
	4.724121309396802e-05
	1.647086590278679e-01

 73	7.300000000000004e-01
	-9.728614947326442e-15
	-6.005274300891397e-18
	-5.172192594376527e-14
	2.660438907574630e-06
	3.615502039868579e-04
	5.074565267079551e-05
	1.647090439271213e-01

 74	7.400000000000004e-01
	-9.729727775799399e-15
	-6.126359654435824e-18
	-5.186612628547789e-14
	2.780955720742092e-06
	3.845556847166085e-04
	5.447485179539133e-05
	1.647094566948961e-01

 75	7.500000000000004e-01
	-9.732205034775450e-15
	-6.249762123948114e-18
	-5.200690244826057e-14
	2.905757621347278e-06
	4.086223604150930e-04
	5.843934139452133e-05
	1.647098988376242e-01

 76	7.600000000000005e-01
	-9.736016419914834e-15
	-6.375526738556869e-18
	-5.214429498801173e-14
	3.034935555077370e-06
	4.337630288221995e-04
	6.264979319526358e-05
	1.647103718868893e-01

 77	7.700000000000005e-01
	-9.741131886844804e-15
	-6.503699520451126e-18
	-5.227834502595066e-14
	3.168579765861919e-06
	4.599876728291075e-04
	6.711699241420462e-05
	1.647108773941605e-01

 78	7.800000000000005e-01
	-9.747521667628731e-15
	-6.634327510412502e-18
	-5.240909419349592e-14
	3.306779746112280e-06
	4.873033000259766e-04
	7.185180876833763e-05
	1.647114169251050e-01

 79	7.900000000000005e-01
	-9.755156286242088e-15
	-6.767458794059780e-18
	-5.253658457869889e-14
	3.449624202719966e-06
	5.157137991789682e-04
	7.686516596569861e-05
	1.647119920535203e-01

 80	8.000000000000005e-01
	-9.764006573072327e-15
	-6.903142528830037e-18
	-5.266085867425354e-14
	3.597201040634104e-06
	5.452198158519611e-04
	8.216800985656502e-05
	1.647126043549247e-01

 81	8.100000000000005e-01
	-9.774043678460216e-15
	-7.041428971715636e-18
	-5.278195932710068e-14
	3.749597365827822e-06
	5.758186492260073e-04
	8.777127544740913e-05
	1.647132553998902e-01

 82	8.200000000000005e-01
	-9.785239085301354e-15
	-7.182369507782398e-18
	-5.289992968963886e-14
	3.906899509437467e-06
	6.075041719661801e-04
	9.368585299935853e-05
	1.647139467471319e-01

 83	8.300000000000005e-01
	-9.797564620729671e-15
	-7.326016679488287e-18
	-5.301481317255000e-14
	4.069193074815084e-06
	6.402667747428914e-04
	9.992255345018815e-05
	1.647146799364866e-01

 84	8.400000000000005e-01
	-9.810992466903264e-15
	-7.472424216828818e-18
	-5.312665339924475e-14
	4.236563009176862e-06
	6.740933367368279e-04
	1.064920734135909e-04
	1.647154564817931e-01

 85	8.500000000000005e-01
	-9.825495170916173e-15
	-7.621647068333634e-18
	-5.323549416192834e-14
	4.409093701456835e-06
	7.089672231470806e-04
	1.134049600211808e-04
	1.647162778638150e-01

 86	8.600000000000005e-01
	-9.841045653859611e-15
	-7.773741432937587e-18
	-5.334137937928305e-14
	4.586869107890348e-06
	7.448683103865911e-04
	1.206715758812209e-04
	1.647171455232323e-01

 87	8.700000000000006e-01
	-9.857617219056666e-15
	-7.928764792752987e-18
	-5.344435305576246e-14
	4.769972906755235e-06
	7.817730392932397e-04
	1.283020644330780e-04
	1.647180608538235e-01

 88	8.800000000000006e-01
	-9.875183559496322e-15
	-8.086775946770458e-18
	-5.354445924248697e-14
	4.958488683594661e-06
	8.196544963157549e-04
	1.363063159778293e-04
	1.647190251959164e-01

 89	8.900000000000006e-01
	-9.893718764491542e-15
	-8.247835045514704e-18
	-5.364174199972918e-14
	5.152500148135806e-06
	8.584825222580821e-04
	1.446939346630992e-04
	1.647200398301699e-01

 90	9.000000000000006e-01
	-9.913197325588080e-15
	-8.412003626684614e-18
	-5.373624536097438e-14
	5.352091384006720e-06
	8.982238477914257e-04
	1.534742066941212e-04
	1.647211059717854e-01

 91	9.100000000000006e-01
	-9.933594141750395e-15
	-8.579344651806418e-18
	-5.382801329853767e-14
	5.557347132243099e-06
	9.388422545774003e-04
	1.626560700332127e-04
	1.647222247652158e-01

 92	9.200000000000006e-01
	-9.954884523850918e-15
	-8.749922543931100e-18
	-5.391708969071955e-14
	5.768353109470841e-06
	9.802987604960081e-04
	1.722480858364663e-04
	1.647233972794371e-01

 93	9.300000000000006e-01
	-9.977044198489496e-15
	-8.923803226407675e-18
	-5.400351829047737e-14
	5.985196361552784e-06
	1.022551827145519e-03
	1.822584118596786e-04
	1.647246245038334e-01

 94	9.400000000000006e-01
	-1.000004931116952e-14
	-9.101054162766265e-18
	-5.408734269558971e-14
	6.207965653403496e-06
	1.065557587484463e-03
	1.926947780456492e-04
	1.647259073447524e-01

 95	9.500000000000006e-01
	-1.002387642885795e-14
	-9.281744397742278e-18
	-5.416860632028738e-14
	6.436751895606575e-06
	1.109270091224474e-03
	2.035644644822697e-04
	1.647272466227797e-01

 96	9.600000000000006e-01
	-1.004850254195481e-14
	-9.465944599482503e-18
	-5.424735236832484e-14
	6.671648608421286e-06
	1.153641565361959e-03
	2.148742818957478e-04
	1.647286430707365e-01

 97	9.700000000000006e-01
	-1.007390506569879e-14
	-9.653727102966008e-18
	-5.432362380746385e-14
	6.912752423739123e-06
	1.198622687060003e-03
	2.266305548161826e-04
	1.647300973324273e-01

 98	9.800000000000006e-01
	-1.010006184103466e-14
	-9.845165954681271e-18
	-5.439746334533916e-14
	7.160163625553961e-06
	1.244162865962926e-03
	2.388391075241253e-04
	1.647316099621494e-01

 99	9.900000000000007e-01
	-1.012695113496807e-14
	-1.004033695859894e-17
	-5.446891340667559e-14
	7.413986729541524e-06
	1.290210532945839e-03
	2.515052528570782e-04
	1.647331814249461e-01

 100	1.000000000000001e+00
	-1.015455164043239e-14
	-1.023931772348455e-17
	-5.453801611182548e-14
	7.674331102410090e-06
	1.336713432271049e-03
	2.646337839246903e-04
	1.647348120975849e-01

 101	1.010000000000001e+00
	-1.018284247569243e-14
	-1.044218771159260e-17
	-5.460481325659289e-14
