Title: ** sch_path: /home/andylithia/openmpw/project-yatsuhashi-chip1/xschem/gmid_test/nmos_test.sch
Date: Sun Jul 17 22:51:45  2022
Plotname: DC transfer characteristic
Flags: real
No. Variables: 8
No. Points: 181
Variables:
	0	v(v-sweep)	voltage
	1	@m.xm1.msky130_fd_pr__nfet_01v8[cgb]	capacitance
	2	@m.xm1.msky130_fd_pr__nfet_01v8[cgd]	capacitance
	3	@m.xm1.msky130_fd_pr__nfet_01v8[cgs]	capacitance
	4	@m.xm1.msky130_fd_pr__nfet_01v8[gds]	admittance
	5	@m.xm1.msky130_fd_pr__nfet_01v8[gm]	admittance
	6	i(@m.xm1.msky130_fd_pr__nfet_01v8[id])	current
	7	v(@m.xm1.msky130_fd_pr__nfet_01v8[vth])	voltage
Values:
 0	0.000000000000000e+00
	-3.011692839005049e-15
	2.639076099990319e-19
	-1.935259715445973e-17
	3.698836115677767e-14
	8.558306970846032e-13
	2.612872391522813e-14
	7.491109154550590e-01

 1	1.000000000000000e-02
	-2.997333991457758e-15
	2.827470927912809e-19
	-2.065579986537555e-17
	5.094529033562572e-14
	1.187504684828291e-12
	3.625503519978922e-14
	7.491109154550597e-01

 2	2.000000000000000e-02
	-2.983154716034032e-15
	3.027506386720688e-19
	-2.206713600649905e-17
	7.016459938526268e-14
	1.647712436828459e-12
	5.030573755292567e-14
	7.491109154550605e-01

 3	3.000000000000000e-02
	-2.969149321345414e-15
	3.239955482009204e-19
	-2.359607366904191e-17
	9.662879973037922e-14
	2.286261421139237e-12
	6.980163758566021e-14
	7.491109154550618e-01

 4	4.000000000000000e-02
	-2.955312073079055e-15
	3.465683424492725e-19
	-2.525321663837494e-17
	1.330666059910711e-13
	3.172257686889014e-12
	9.685285294874642e-14
	7.491109154550635e-01

 5	5.000000000000000e-02
	-2.941637163839473e-15
	3.705659324034568e-19
	-2.705046339218495e-17
	1.832335198020305e-13
	4.401582064581291e-12
	1.343871432442233e-13
	7.491109154550656e-01

 6	6.000000000000000e-02
	-2.928118680682038e-15
	3.960968058139867e-19
	-2.900118192108068e-17
	2.522977969451936e-13
	6.107261798677301e-12
	1.864666918836624e-13
	7.491109154550687e-01

 7	7.000000000000001e-02
	-2.914750570303876e-15
	4.232822099118723e-19
	-3.112040072391234e-17
	3.473713252653066e-13
	8.473858456170270e-12
	2.587275925123300e-13
	7.491109154550727e-01

 8	8.000000000000000e-02
	-2.901526601865817e-15
	4.522573072475027e-19
	-3.342501629253079e-17
	4.782397426964867e-13
	1.175742651350292e-11
	3.589895520304079e-13
	7.491109154550787e-01

 9	9.000000000000000e-02
	-2.888440327423528e-15
	4.831722811323293e-19
	-3.593401738045073e-17
	6.583664577529666e-13
	1.631319807901789e-11
	4.981017081473166e-13
	7.491109154550868e-01

 10	9.999999999999999e-02
	-2.875485039947352e-15
	5.161933667019973e-19
	-3.866872634392644e-17
	9.062731605812666e-13
	2.263398234282284e-11
	6.911159535251181e-13
	7.491109154550981e-01

 11	1.100000000000000e-01
	-2.862653728909845e-15
	5.515037833933721e-19
	-4.165305784871758e-17
	1.247437757179975e-12
	3.140342294821325e-11
	9.589145041672949e-13
	7.491109154551139e-01

 12	1.200000000000000e-01
	-2.849939033417410e-15
	5.893045445680952e-19
	-4.491379524734485e-17
	1.716903296506127e-12
	4.356985623727819e-11
	1.330467446531092e-12
	7.491109154551355e-01

 13	1.300000000000000e-01
	-2.837333192859145e-15
	6.298151200655210e-19
	-4.848088494623853e-17
	2.362863697273122e-12
	6.044872930009747e-11
	1.845963907008636e-12
	7.491109154551657e-01

 14	1.400000000000000e-01
	-2.824827995042200e-15
	6.732739275835157e-19
	-5.238774909582149e-17
	3.251591184303835e-12
	8.386460536608179e-11
	2.561154589123774e-12
	7.491109154552077e-01

 15	1.500000000000000e-01
	-2.812414721779363e-15
	7.199386289224935e-19
	-5.667161694460987e-17
	4.474206256738441e-12
	1.163480318561444e-10
	3.553373789694797e-12
	7.491109154552658e-01

 16	1.600000000000000e-01
	-2.800084091892650e-15
	7.700862072269547e-19
	-6.137387519356925e-17
	6.155977328353519e-12
	1.614084239832795e-10
	4.929889559602654e-12
	7.491109154553464e-01

 17	1.700000000000000e-01
	-2.787826201597972e-15
	8.240128013279907e-19
	-6.654043765807433e-17
	8.469092479261287e-12
	2.239122453787567e-10
	6.839480655926351e-12
	7.491109154554584e-01

 18	1.800000000000000e-01
	-2.775630462243478e-15
	8.820332729866287e-19
	-7.222213447395464e-17
	1.165019539295864e-11
	3.106070022768154e-10
	9.488484900166231e-12
	7.491109154556135e-01

 19	1.900000000000000e-01
	-2.763485535392678e-15
	9.444804820587266e-19
	-7.847512094466817e-17
	1.602445609307736e-11
	4.308470856438923e-10
	1.316304214791535e-11
	7.491109154558289e-01

 20	2.000000000000000e-01
	-2.751379265279059e-15
	1.011704243081817e-18
	-8.536130588077388e-17
	2.203860161167822e-11
	5.975989111526853e-10
	1.825991676528093e-11
	7.491109154561273e-01

 21	2.100000000000000e-01
	-2.739298608720373e-15
	1.084069934210577e-18
	-9.294879888040313e-17
	3.030622621929550e-11
	8.288323327039763e-10
	2.532919876090347e-11
	7.491109154565416e-01

 22	2.200000000000001e-01
	-2.727229562678849e-15
	1.161956725468468e-18
	-1.013123753768413e-16
	4.166992218933869e-11
	1.149445965640862e-09
	3.513344497723766e-11
	7.491109154571161e-01

 23	2.300000000000001e-01
	-2.715157089801086e-15
	1.245755387635005e-18
	-1.105339573607675e-16
	5.728643791895129e-11
	1.593929973479863e-09
	4.872956290754659e-11
	7.491109154579122e-01

 24	2.400000000000001e-01
	-2.703065042482745e-15
	1.335865635532771e-18
	-1.207031063840024e-16
	7.874333956381768e-11
	2.210046647314903e-09
	6.758213892677274e-11
	7.491109154590166e-01

 25	2.500000000000001e-01
	-2.690936086294153e-15
	1.432692949953223e-18
	-1.319175236761490e-16
	1.082187393805009e-10
	3.063914317694753e-09
	9.372021458050047e-11
	7.491109154605475e-01

 26	2.600000000000001e-01
	-2.678751623988451e-15
	1.536644811130603e-18
	-1.442835498616790e-16
	1.486998463665283e-10
	4.247023987475175e-09
	1.299540519280433e-10
	7.491109154626706e-01

 27	2.700000000000001e-01
	-2.666491721808853e-15
	1.648126264002046e-18
	-1.579166537651915e-16
	2.042817773151543e-10
	5.885914217195678e-09
	1.801746531725440e-10
	7.491109154656121e-01

 28	2.800000000000001e-01
	-2.654135040426635e-15
	1.767534722302777e-18
	-1.729418960643000e-16
	2.805757512739669e-10
	8.155496378451844e-09
	2.497673203690329e-10
	7.491109154696886e-01

 29	2.900000000000001e-01
	-2.641658773584126e-15
	1.895253906071114e-18
	-1.894943490459369e-16
	3.852661556741314e-10
	1.129738331488111e-08
	3.461821764168771e-10
	7.491109154753371e-01

 30	3.000000000000001e-01
	-2.629038598386744e-15
	2.031646797053672e-18
	-2.077194484346541e-16
	5.288699095475238e-10
	1.564506084157844e-08
	4.797204111554786e-10
	7.491109154831592e-01

 31	3.100000000000001e-01
	-2.616248642175936e-15
	2.177047490935574e-18
	-2.277732472367938e-16
	7.257702207294743e-10
	2.165839334685622e-08
	6.646165126807147e-10
	7.491109154939902e-01

 32	3.200000000000001e-01
	-2.603261471999298e-15
	2.331751826841705e-18
	-2.498225349010348e-16
	9.956217403257152e-10
	2.997082245181217e-08
	9.205257911822993e-10
	7.491109155089813e-01

 33	3.300000000000001e-01
	-2.590048113836856e-15
	2.496006686124801e-18
	-2.740447780466498e-16
	1.365257171966195e-09
	4.145376331626223e-08
	1.274565559610153e-09
	7.491109155297204e-01

 34	3.400000000000001e-01
	-2.576578109886978e-15
	2.669997877331318e-18
	-3.006278318870566e-16
	1.871268996251814e-09
	5.730420074223201e-08
	1.764110542094585e-09
	7.491109155583977e-01

 35	3.500000000000001e-01
	-2.562819623280005e-15
	2.853836565808714e-18
	-3.297693647511041e-16
	2.563497075172540e-09
	7.916342081868393e-08
	2.440612370157005e-09
	7.491109155980263e-01

 36	3.600000000000002e-01
	-2.548739600464794e-15
	3.047544267962320e-18
	-3.616759324145789e-16
	3.509727043978141e-09
	1.092772722200708e-07
	3.374804202144383e-09
	7.491109156527507e-01

 37	3.700000000000002e-01
	-2.534304002066298e-15
	3.251036514469721e-18
	-3.965616351132074e-16
	4.801999663913256e-09
	1.507114162015963e-07
	4.663770232516218e-09
	7.491109157282567e-01

 38	3.800000000000002e-01
	-2.519478113076431e-15
	3.464105395613460e-18
	-4.346462891023819e-16
	6.565052172614176e-09
	2.076387494357713e-07
	6.440512513742223e-09
	7.491109158323369e-01

 39	3.900000000000002e-01
	-2.504226942628846e-15
	3.686401335462658e-18
	-4.761530475915034e-16
	8.967563631709770e-09
	2.857205592549101e-07
	8.886840719189766e-09
	7.491109159756402e-01

 40	4.000000000000002e-01
	-2.488515722121522e-15
	3.917414597710857e-18
	-5.213054140300314e-16
	1.223706118620192e-08
	3.926078688000045e-07
	1.225065022119699e-08
	7.491109161726889e-01

 41	4.100000000000002e-01
	-2.472310507897067e-15
	4.156457199177249e-18
	-5.703236052570203e-16
	1.667956508750912e-08
	5.385945260769032e-07
	1.686894395210374e-08
	7.491109164432239e-01

 42	4.200000000000002e-01
	-2.455578890908129e-15
	4.402646088032034e-18
	-6.234202439740376e-16
	2.270530582106297e-08
	7.374582626686832e-07
	2.319829312354608e-08
	7.491109168139913e-01

 43	4.300000000000002e-01
	-2.438290810689326e-15
	4.654888619071287e-18
	-6.807953900237411e-16
	3.086212916891058e-08
	1.007529150784234e-06
	3.185481193362084e-08
	7.491109173210818e-01

 44	4.400000000000002e-01
	-2.420419464535493e-15
	4.911871509805434e-18
	-7.426309581152892e-16
	4.187849748238106e-08
	1.373025039798541e-06
	4.366611978070173e-08
	7.491109180129772e-01

 45	4.500000000000002e-01
	-2.401942295199347e-15
	5.172054566938890e-18
	-8.090846151600635e-16
	5.671826709818362e-08
	1.865688472928159e-06
	5.973814030278201e-08
	7.491109189544607e-01

 46	4.600000000000002e-01
	-2.382842031995955e-15
	5.433670508950197e-18
	-8.802833014464250e-16
	7.664962371260555e-08
	2.526746563500150e-06
	8.153987424283224e-08
	7.491109202315850e-01

 47	4.700000000000003e-01
	-2.363107751457706e-15
	5.694732153066021e-18
	-9.563165734958816e-16
	1.033306184965647e-07
	3.409191455809085e-06
	1.110093887359152e-07
	7.491109219578808e-01

 48	4.800000000000003e-01
	-2.342735915332918e-15
	5.953048063624767e-18
	-1.037230018437432e-15
	1.389135730958582e-07
	4.580341982960053e-06
	1.506840682262486e-07
	7.491109242819854e-01

 49	4.900000000000003e-01
	-2.321731336630396e-15
	6.206247460774732e-18
	-1.123019034960371e-15
	1.861700970253681e-07
	6.124596484011704e-06
	2.038575356369196e-07
	7.491109273968359e-01

 50	5.000000000000002e-01
	-2.300108019532485e-15
	6.451814762245417e-18
	-1.213623308622426e-15
	2.486374649442004e-07
	8.146225584765311e-06
	2.747644520529228e-07
	7.491109315504956e-01

 51	5.100000000000002e-01
	-2.277889817260464e-15
	6.687133589982320e-18
	-1.308922323789239e-15
	3.307855305719284e-07
	1.077199070577373e-05
	3.687925717920233e-07
	7.491109370585728e-01

 52	5.200000000000002e-01
	-2.255110854158566e-15
	6.909539447812705e-18
	-1.408732245850193e-15
	4.382011624193027e-07
	1.415332441701479e-05
	4.927190192705573e-07
	7.491109443180666e-01

 53	5.300000000000002e-01
	-2.231815664856255e-15
	7.116379612313605e-18
	-1.512804472316969e-15
	5.777844349948482e-07
	1.846779353152501e-05
	6.549650000151087e-07
	7.491109538222828e-01

 54	5.400000000000003e-01
	-2.208059014449325e-15
	7.305078136045469e-18
	-1.620826089087363e-15
	7.579477148761254e-07
	2.391960733411976e-05
	8.658605181833052e-07
	7.491109661763438e-01

 55	5.500000000000003e-01
	-2.183905378788699e-15
	7.473203306732668e-18
	-1.732422380615007e-15
	9.888057434827227e-07
	3.073904655183395e-05
	1.137908799948531e-06
	7.491109821126782e-01

 56	5.600000000000003e-01
	-2.159428082244710e-15
	7.618534503176209e-18
	-1.847161435147018e-15
	1.282342391979151e-06
	3.918086987077480e-05
	1.486039734941931e-06
	7.491110025058667e-01

 57	5.700000000000003e-01
	-2.134708110328599e-15
	7.739125193686960e-18
	-1.964560766591802e-15
	1.652538549761561e-06
	4.952197196761973e-05
	1.927843292363552e-06
	7.491110283863169e-01

 58	5.800000000000003e-01
	-2.109832634584662e-15
	7.833358871556390e-18
	-2.084095753044143e-15
	2.115446062599103e-06
	6.205875868737244e-05
	2.483777618252773e-06
	7.491110609524512e-01

 59	5.900000000000003e-01
	-2.084893305375454e-15
	7.899995024788229e-18
	-2.205209579529859e-15
	2.689194838750784e-06
	7.710479326129094e-05
	3.177351735381452e-06
	7.491111015814143e-01

 60	6.000000000000003e-01
	-2.059984382839838e-15
	7.938202775537683e-18
	-2.327324279682318e-15
	3.393923720058294e-06
	9.498918492972513e-05
	4.035288053894095e-06
	7.491111518385901e-01

 61	6.100000000000003e-01
	-2.035200786019195e-15
	7.947580552637622e-18
	-2.449852406527700e-15
	4.251629459758634e-06
	1.160559128248313e-04
	5.087673378418862e-06
	7.491112134864510e-01

 62	6.200000000000003e-01
	-2.010636144054485e-15
	7.928161010638807e-18
	-2.572208832051809e-15
	5.285930889304537e-06
	1.406638413143715e-04
	6.368106939918211e-06
	7.491112884932299e-01

 63	6.300000000000003e-01
	-1.986380931219810e-15
	7.880401300617117e-18
	-2.693822180768377e-15
	6.521746075691386e-06
	1.691866857266936e-04
	7.913849053516380e-06
	7.491113790416302e-01

 64	6.400000000000003e-01
	-1.962520759783615e-15
	7.805159649219936e-18
	-2.814145442286576e-15
	7.984878771491292e-06
	2.020117578661645e-04
	9.765964334444585e-06
	7.491114875372169e-01

 65	6.500000000000004e-01
	-1.939134892245980e-15
	7.703659939235871e-18
	-2.932665376621390e-15
	9.701507722610237e-06
	2.395360774342998e-04
	1.196944028888774e-05
	7.491116166153676e-01

 66	6.600000000000004e-01
	-1.916295018765644e-15
	7.577446550815177e-18
	-3.048910415879496e-15
	1.169757051745044e-05
	2.821584542662886e-04
	1.457324782177763e-05
	7.491117691448143e-01

 67	6.700000000000004e-01
	-1.894064328146595e-15
	7.428332083491441e-18
	-3.162456867746051e-15
	1.399803530706015e-05
	3.302664497983516e-04
	1.763029754773471e-05
	7.491119482250872e-01

 68	6.800000000000004e-01
	-1.872496883185412e-15
	7.258340725855389e-18
	-3.272933330470925e-15
	1.662606128243478e-05
	3.842176937285707e-04
	2.119723752838184e-05
	7.491121571746688e-01

 69	6.900000000000004e-01
	-1.851637294889649e-15
	7.069649985107261e-18
	-3.380023327297549e-15
	1.960206341691387e-05
	4.443158160498309e-04
	2.533403660994780e-05
	7.491123995065792e-01

 70	7.000000000000004e-01
	-1.831520676155908e-15
	6.864533263558786e-18
	-3.483466253716725e-15
	2.294271784569750e-05
	5.107821888418063e-04
	3.010330474874867e-05
	7.491126788885620e-01

 71	7.100000000000004e-01
	-1.812172844651479e-15
	6.645305415787691e-18
	-3.583056798991712e-15
	2.665996822935809e-05
	5.837256621742388e-04
	3.556931864358490e-05
	7.491129990859978e-01

 72	7.200000000000004e-01
	-1.793610737191279e-15
	6.414272985809770e-18
	-3.678643051827476e-15
	3.076011535400435e-05
	6.631133861879859e-04
	4.179674754641164e-05
	7.491133638872542e-01

 73	7.300000000000004e-01
	-1.775842993804676e-15
	6.173690354416143e-18
	-3.770123528705634e-15
	3.524308578593860e-05
	7.487464493010658e-04
	4.884910856353037e-05
	7.491137770131880e-01

 74	7.400000000000004e-01
	-1.758870668628180e-15
	5.925722563119016e-18
	-3.857443373845925e-15
	4.010197486203830e-05
	8.402442170939972e-04
	5.678701931521615e-05
	7.491142420147703e-01

 75	7.500000000000004e-01
	-1.742688026235184e-15
	5.672415154699771e-18
	-3.940589974745739e-15
	4.532294133110629e-05
	9.370407489629605e-04
	6.566635269539485e-05
	7.491147621649786e-01

 76	7.600000000000005e-01
	-1.727283385420405e-15
	5.415671003028628e-18
	-4.019588220211383e-15
	5.088549628703478e-05
	1.038395438759632e-03
	7.553642660300066e-05
	7.491153403527370e-01

 77	7.700000000000005e-01
	-1.712639977174708e-15
	5.157233808885949e-18
	-4.094495602326158e-15
	5.676318297382175e-05
	1.143418196502657e-03
	8.643837412907729e-05
	7.491159789874253e-01

 78	7.800000000000005e-01
	-1.698736789039103e-15
	4.898677717803078e-18
	-4.165397333305909e-15
	6.292459551073623e-05
	1.251107384496963e-03
	9.840383228063127e-05
	7.491166799220582e-01

 79	7.900000000000005e-01
	-1.685549373722511e-15
	4.641402367718520e-18
	-4.232401615628547e-15
	6.933464365989646e-05
	1.360396795455501e-03
	1.114540593847895e-04
	7.491174444015736e-01

 80	8.000000000000005e-01
	-1.673050605417597e-15
	4.386632591185698e-18
	-4.295635171564867e-15
	7.595594566684777e-05
	1.470206658113168e-03
	1.255995469461716e-04
	7.491182730400959e-01

 81	8.100000000000005e-01
	-1.661211372371843e-15
	4.135421968856617e-18
	-4.355239108038846e-15
	8.275022594374256e-05
	1.579493267871698e-03
	1.408401388118258e-04
	7.491191658279204e-01

 82	8.200000000000005e-01
	-1.650001198785907e-15
	3.888659446725409e-18
	-4.411365165777563e-15
	8.967960787531454e-05
	1.687292407634302e-03
	1.571656186060881e-04
	7.491201221659348e-01

 83	8.300000000000005e-01
	-1.639388792923351e-15
	3.647078277820317e-18
	-4.464172378633884e-15
	9.670771912328893e-05
	1.792753040425582e-03
	1.745566842250964e-04
	7.491211409227190e-01

 84	8.400000000000005e-01
	-1.629342521398015e-15
	3.411266619207948e-18
	-4.513824150027800e-15
	1.038005602600911e-04
	1.895159454638835e-03
	1.929862014469167e-04
	7.491222205079975e-01

 85	8.500000000000005e-01
	-1.619830811982336e-15
	3.181679198173688e-18
	-4.560485738586705e-15
	1.109271203937353e-04
	1.993941729614805e-03
	2.124206192191691e-04
	7.491233589555605e-01

 86	8.600000000000005e-01
	-1.610822489011147e-15
	2.958649549767754e-18
	-4.604322133982636e-15
	1.180597505519419e-04
	2.088675753457518e-03
	2.328214351324140e-04
	7.491245540091322e-01

 87	8.700000000000006e-01
	-1.602287046621603e-15
	2.742402415727162e-18
	-4.645496296236291e-15
	1.251743244039628e-04
	2.179074901613816e-03
	2.541466167824898e-04
	7.491258032056447e-01

 88	8.800000000000006e-01
	-1.594194865761590e-15
	2.533065977933412e-18
	-4.684167726881178e-15
	1.322502261398823e-04
	2.264975854901041e-03
	2.763519080860937e-04
	7.491271039517765e-01

 89	8.900000000000006e-01
	-1.586517381208133e-15
	2.330683675273232e-18
	-4.720491337836605e-15
	1.392702082930312e-04
	2.346320985981216e-03
	2.993919744483894e-04
	7.491284535910481e-01

 90	9.000000000000006e-01
	-1.579227204850493e-15
	2.135225419502295e-18
	-4.754616583123459e-15
	1.462201600106539e-04
	2.423139411051530e-03
	3.232213634645045e-04
	7.491298494601051e-01

 91	9.100000000000006e-01
	-1.572298211287901e-15
	1.946598082860434e-18
	-4.786686819216793e-15
	1.530888208481793e-04
	2.495528329251276e-03
	3.477952764670478e-04
	7.491312889339223e-01

 92	9.200000000000006e-01
	-1.565705591435672e-15
	1.764655177832025e-18
	-4.816838861468815e-15
	1.598674683441582e-04
	2.563635769921389e-03
	3.730701598954643e-04
	7.491327694604505e-01

 93	9.300000000000006e-01
	-1.559425879380735e-15
	1.589205688138963e-18
	-4.845202706325313e-15
	1.665496006901721e-04
	2.627645413240016e-03
	3.990041342966712e-04
	7.491342885857475e-01

 94	9.400000000000006e-01
	-1.553436957222262e-15
	1.420022040642713e-18
	-4.871901391732361e-15
	1.731306295170139e-04
	2.687763782227122e-03
	4.255572834748254e-04
	7.491358439709184e-01

 95	9.500000000000006e-01
	-1.547718042107997e-15
	1.256847231282577e-18
	-4.897050970983712e-15
	1.796075925534843e-04
	2.744209834873207e-03
	4.526918278388989e-04
	7.491374334022695e-01

 96	9.600000000000006e-01
	-1.542249659157184e-15
	1.099401135532727e-18
	-4.920760578138263e-15
	1.859788917785331e-04
	2.797206807410621e-03
	4.803722053097587e-04
	7.491390547960454e-01

 97	9.700000000000006e-01
	-1.537013603463094e-15
	9.473860461097326e-19
	-4.943132565932854e-15
	1.922440596146573e-04
	2.846976057567337e-03
	5.085650810828373e-04
	7.491407061990015e-01

 98	9.800000000000006e-01
	-1.531992893903886e-15
	8.004914887314862e-19
	-4.964262699753691e-15
	1.984035535494236e-04
	2.893732611298597e-03
	5.372393047594557e-04
	7.491423857858889e-01

 99	9.900000000000007e-01
	-1.527171721065977e-15
	6.583983714610116e-19
	-4.984240393664439e-15
	2.044585781436277e-04
	2.937682110346127e-03
	5.663658303362375e-04
	7.491440918547662e-01

 100	1.000000000000001e+00
	-1.522535391202699e-15
	5.207825252779164e-19
	-5.003148976695942e-15
	2.104109325152222e-04
	2.979018876362704e-03
	5.959176115928060e-04
	7.491458228208685e-01

 101	1.010000000000001e+00
	-1.518070267813004e-15
	3.873176936368750e-19
	-5.021065979572809e-15
	2.162628809260698e-04
	3.017924839113101e-03
	6.258694827286650e-04
	7.491475772096141e-01

