Title: ** sch_path: /home/andylithia/openmpw/project-yatsuhashi-chip1/xschem/gmid_test/nmos_test.sch
Date: Tue Jul 19 23:15:45  2022
Plotname: DC transfer characteristic
Flags: real
No. Variables: 8
No. Points: 181
Variables:
	0	v(v-sweep)	voltage
	1	@m.xm1.msky130_fd_pr__nfet_01v8[cgb]	capacitance
	2	@m.xm1.msky130_fd_pr__nfet_01v8[cgd]	capacitance
	3	@m.xm1.msky130_fd_pr__nfet_01v8[cgs]	capacitance
	4	@m.xm1.msky130_fd_pr__nfet_01v8[gds]	admittance
	5	@m.xm1.msky130_fd_pr__nfet_01v8[gm]	admittance
	6	i(@m.xm1.msky130_fd_pr__nfet_01v8[id])	current
	7	v(@m.xm1.msky130_fd_pr__nfet_01v8[vth])	voltage
Values:
 0	0.000000000000000e+00
	-4.081327314442653e-15
	-1.294488598014263e-19
	-5.041368422334629e-15
	1.404276896183653e-08
	6.495116628686625e-07
	6.685455602570046e-08
	3.035977343031406e-01

 1	1.000000000000000e-02
	-4.035397621058240e-15
	-1.332815445108934e-19
	-5.144164973103544e-15
	1.545243904376860e-08
	7.146064786673264e-07
	7.367005092119936e-08
	3.035977348809231e-01

 2	2.000000000000000e-02
	-3.989777712231771e-15
	-1.372172867230233e-19
	-5.247522943746035e-15
	1.699874856868766e-08
	7.861081642611542e-07
	8.116803151925910e-08
	3.035977355167079e-01

 3	3.000000000000000e-02
	-3.944483681125902e-15
	-1.412582764087198e-19
	-5.351392943330896e-15
	1.869423543786536e-08
	8.646415524362399e-07
	8.941564139971050e-08
	3.035977362162353e-01

 4	4.000000000000000e-02
	-3.899531630461521e-15
	-1.454067289002505e-19
	-5.455724725016990e-15
	2.055248901971834e-08
	9.508936092513007e-07
	9.848657789409668e-08
	3.035977369858069e-01

 5	5.000000000000000e-02
	-3.854937631527471e-15
	-1.496648848466295e-19
	-5.560467276374974e-15
	2.258822501853416e-08
	1.045620072897597e-06
	1.084617459876534e-07
	3.035977378323491e-01

 6	6.000000000000000e-02
	-3.810717683347311e-15
	-1.540350101918188e-19
	-5.665568912349767e-15
	2.481736395688079e-08
	1.149652885736472e-06
	1.194299824955161e-07
	3.035977387634759e-01

 7	7.000000000000001e-02
	-3.766887672154161e-15
	-1.585193961776960e-19
	-5.770977370528697e-15
	2.725711322648138e-08
	1.263908520587172e-06
	1.314888589407978e-07
	3.035977397875601e-01

 8	8.000000000000000e-02
	-3.723463331324367e-15
	-1.631203593737759e-19
	-5.876639908366701e-15
	2.992605262817817e-08
	1.389397313938095e-06
	1.447455726302578e-07
	3.035977409138094e-01

 9	9.000000000000000e-02
	-3.680460201919583e-15
	-1.678402417355663e-19
	-5.982503402007748e-15
	3.284422328382023e-08
	1.527233931087534e-06
	1.593179366110457e-07
	3.035977421523667e-01

 10	9.999999999999999e-02
	-3.637893593984602e-15
	-1.726814106934394e-19
	-6.088514446332587e-15
	3.603321976150092e-08
	1.678649101164724e-06
	1.753354805063680e-07
	3.035977435143868e-01

 11	1.100000000000000e-01
	-3.595778548745238e-15
	-1.776462592737747e-19
	-6.194619455854355e-15
	3.951628521049674e-08
	1.845002773359128e-06
	1.929406756738495e-07
	3.035977450121697e-01

 12	1.200000000000000e-01
	-3.554129801846407e-15
	-1.827372062541206e-19
	-6.300764766079843e-15
	4.331840925370574e-08
	2.027798859259124e-06
	2.122902997115897e-07
	3.035977466592679e-01

 13	1.300000000000000e-01
	-3.512961747765510e-15
	-1.879566963539835e-19
	-6.406896734950265e-15
	4.746642833333716e-08
	2.228701739648475e-06
	2.335569570531507e-07
	3.035977484706326e-01

 14	1.400000000000000e-01
	-3.472288405530480e-15
	-1.933072004627925e-19
	-6.512961843975885e-15
	5.198912815038256e-08
	2.449554727034269e-06
	2.569307742414832e-07
	3.035977504627636e-01

 15	1.500000000000000e-01
	-3.432123385865058e-15
	-1.987912159065629e-19
	-6.618906798680345e-15
	5.691734778014144e-08
	2.692400687080940e-06
	2.826212904449092e-07
	3.035977526538843e-01

 16	1.600000000000000e-01
	-3.392479859876324e-15
	-2.044112667545188e-19
	-6.724678627975864e-15
	6.228408498517644e-08
	2.959505032400345e-06
	3.108595658629791e-07
	3.035977550641284e-01

 17	1.700000000000000e-01
	-3.353370529391557e-15
	-2.101699041670382e-19
	-6.830224782095973e-15
	6.812460218379455e-08
	3.253381310074261e-06
	3.419005328460710e-07
	3.035977577157748e-01

 18	1.800000000000000e-01
	-3.314807599042161e-15
	-2.160697067861249e-19
	-6.935493228724095e-15
	7.447653246711185e-08
	3.576819609028001e-06
	3.760256167932443e-07
	3.035977606334612e-01

 19	1.900000000000000e-01
	-3.276802750183634e-15
	-2.221132811692936e-19
	-7.040432546964425e-15
	8.137998499114314e-08
	3.932918013950755e-06
	4.135456561599800e-07
	3.035977638444864e-01

 20	2.000000000000000e-01
	-3.239367116729863e-15
	-2.283032622680526e-19
	-7.144992018818844e-15
	8.887764900315581e-08
	4.325117327792250e-06
	4.548041531562790e-07
	3.035977673790914e-01

 21	2.100000000000000e-01
	-3.202511262970423e-15
	-2.346423139516996e-19
	-7.249121717846043e-15
	9.701489569386038e-08
	4.757239273714617e-06
	5.001808888849878e-07
	3.035977712708148e-01

 22	2.200000000000001e-01
	-3.166245163428214e-15
	-2.411331295772883e-19
	-7.352772594698934e-15
	1.058398770000135e-07
	5.233528368430440e-06
	5.500959386913680e-07
	3.035977755568620e-01

 23	2.300000000000001e-01
	-3.130578184804417e-15
	-2.477784326062968e-19
	-7.455896559253981e-15
	1.154036204160254e-07
	5.758697630664926e-06
	6.050141252805605e-07
	3.035977802785390e-01

 24	2.400000000000001e-01
	-3.095519070046217e-15
	-2.545809772686699e-19
	-7.558446559068198e-15
	1.257601188092842e-07
	6.337978249553372e-06
	6.654499486115244e-07
	3.035977854817167e-01

 25	2.500000000000001e-01
	-3.061075924561974e-15
	-2.615435492746821e-19
	-7.660376653920717e-15
	1.369664141726800e-07
	6.977173286573885e-06
	7.319730325777676e-07
	3.035977912173582e-01

 26	2.600000000000001e-01
	-3.027256204597168e-15
	-2.686689665748452e-19
	-7.761642086219603e-15
	1.490826741903411e-07
	7.682715419597369e-06
	8.052141289072197e-07
	3.035977975421144e-01

 27	2.700000000000001e-01
	-2.994066707773574e-15
	-2.759600801683320e-19
	-7.862199347079314e-15
	1.621722604396975e-07
	8.461728657346253e-06
	8.858717184102506e-07
	3.035978045189558e-01

 28	2.800000000000001e-01
	-2.961513565783312e-15
	-2.834197749599879e-19
	-7.962006237898225e-15
	1.763017870055157e-07
	9.322093855653655e-06
	9.747192485154737e-07
	3.035978122178952e-01

 29	2.900000000000001e-01
	-2.929602239218970e-15
	-2.910509706660127e-19
	-8.061021927292197e-15
	1.915411682408054e-07
	1.027251775231263e-05
	1.072613043787649e-06
	3.035978207167804e-01

 30	3.000000000000001e-01
	-2.898337514510670e-15
	-2.988566227684633e-19
	-8.159207003265768e-15
	2.079636543762540e-07
	1.132260510419427e-05
	1.180500922637702e-06
	3.035978301021595e-01

 31	3.100000000000001e-01
	-2.867723502931436e-15
	-3.068397235184092e-19
	-8.256523520528608e-15
	2.256458536553221e-07
	1.248293335832940e-05
	1.299431548524788e-06
	3.035978404702349e-01

 32	3.200000000000001e-01
	-2.837763641622927e-15
	-3.150033029877766e-19
	-8.352935042890761e-15
	2.446677396575393e-07
	1.376512911796514e-05
	1.430564537426378e-06
	3.035978519279051e-01

 33	3.300000000000001e-01
	-2.808460696584749e-15
	-3.233504301696182e-19
	-8.448406680696384e-15
	2.651126424689698e-07
	1.518194547606327e-05
	1.575181335030673e-06
	3.035978645938979e-01

 34	3.400000000000001e-01
	-2.779816767562849e-15
	-3.318842141267078e-19
	-8.542905123280199e-15
	2.870672223675641e-07
	1.674733908393548e-05
	1.734696866814877e-06
	3.035978786000069e-01

 35	3.500000000000001e-01
	-2.751833294764640e-15
	-3.406078051881936e-19
	-8.636398666456419e-15
	3.106214247135708e-07
	1.847654560428494e-05
	1.910671951763792e-06
	3.035978940924163e-01

 36	3.600000000000002e-01
	-2.724511067322087e-15
	-3.495243961940517e-19
	-8.728857235072824e-15
	3.358684147724486e-07
	2.038615196943299e-05
	2.104826455834450e-06
	3.035979112331320e-01

 37	3.700000000000002e-01
	-2.697850233417836e-15
	-3.586372237870370e-19
	-8.820252400685805e-15
	3.629044912514287e-07
	2.249416363172582e-05
	2.319053144308146e-06
	3.035979302015254e-01

 38	3.800000000000002e-01
	-2.671850311984010e-15
	-3.679495697519058e-19
	-8.910557394434533e-15
	3.918289774023689e-07
	2.482006476001707e-05
	2.555432172867006e-06
	3.035979511959500e-01

 39	3.900000000000002e-01
	-2.646510205879136e-15
	-3.774647624015252e-19
	-8.999747115211434e-15
	4.227440886338059e-07
	2.738486911092842e-05
	2.816246135627142e-06
	3.035979744354838e-01

 40	4.000000000000002e-01
	-2.621828216444347e-15
	-3.871861780095955e-19
	-9.087798133246911e-15
	4.557547756863388e-07
	3.021115909485903e-05
	3.103995564581560e-06
	3.035980001617414e-01

 41	4.100000000000002e-01
	-2.597802059337355e-15
	-3.971172422897459e-19
	-9.174688689242837e-15
	4.909685425579267e-07
	3.332311037408127e-05
	3.421414749157894e-06
	3.035980286407720e-01

 42	4.200000000000002e-01
	-2.574428881540241e-15
	-4.072614319205814e-19
	-9.260398689205768e-15
	5.284952385213724e-07
	3.674649918452340e-05
	3.771487717198965e-06
	3.035980601650403e-01

 43	4.300000000000002e-01
	-2.551705279435417e-15
	-4.176222761166520e-19
	-9.344909695145906e-15
	5.684468237558257e-07
	4.050868947557155e-05
	4.157464190052692e-06
	3.035980950554373e-01

 44	4.400000000000002e-01
	-2.529627317843356e-15
	-4.282033582447254e-19
	-9.428204911820126e-15
	6.109371083181846e-07
	4.463859692551802e-05
	4.582875295154948e-06
	3.035981336633563e-01

 45	4.500000000000002e-01
	-2.508190549915545e-15
	-4.390083174857211e-19
	-9.510269169709339e-15
	6.560814644098918e-07
	4.916662692641779e-05
	5.051548790177661e-06
	3.035981763727549e-01

 46	4.600000000000002e-01
	-2.487390037776287e-15
	-4.500408505415377e-19
	-9.591088904429894e-15
	7.039965121489857e-07
	5.412458375290282e-05
	5.567623524276098e-06
	3.035982236022212e-01

 47	4.700000000000003e-01
	-2.467220373808369e-15
	-4.613047133870179e-19
	-9.670652132786934e-15
	7.547997793369761e-07
	5.954554834590145e-05
	6.135562835114197e-06
	3.035982758069884e-01

 48	4.800000000000003e-01
	-2.447675702479086e-15
	-4.728037230669815e-19
	-9.748948425683930e-15
	8.086093360133827e-07
	6.546372246347398e-05
	6.760166556174418e-06
	3.035983334808705e-01

 49	4.900000000000003e-01
	-2.428749742605178e-15
	-4.845417595380239e-19
	-9.825968878107916e-15
	8.655434049163773e-07
	7.191423738407071e-05
	7.446581288457439e-06
	3.035983971580684e-01

 50	5.000000000000002e-01
	-2.410435809958154e-15
	-4.965227675554747e-19
	-9.901706076412849e-15
	9.257199493134458e-07
	7.893292589634123e-05
	8.200308575188460e-06
	3.035984674148234e-01

 51	5.100000000000002e-01
	-2.392726840114310e-15
	-5.087507586051464e-19
	-9.976154063125776e-15
	9.892562400279668e-07
	8.655605697426433e-05
	9.027210608734046e-06
	3.035985448708372e-01

 52	5.200000000000002e-01
	-2.375615411457519e-15
	-5.212298128805000e-19
	-1.004930829950059e-14
	1.056268403861758e-06
	9.482003331239702e-05
	9.933513096731171e-06
	3.035986301904549e-01

 53	5.300000000000002e-01
	-2.359093768246321e-15
	-5.339640813050592e-19
	-1.012116562604406e-14
	1.126870955995521e-06
	1.037610527741322e-04
	1.092580492052329e-05
	3.035987240834978e-01

 54	5.400000000000003e-01
	-2.343153843661460e-15
	-5.469577876004232e-19
	-1.019172422123573e-14
	1.201176319331226e-06
	1.134147357709918e-04
	1.201103423431914e-05
	3.035988273057442e-01

 55	5.500000000000003e-01
	-2.327787282754013e-15
	-5.602152304002440e-19
	-1.026098355866077e-14
	1.279294334117131e-06
	1.238157216227803e-04
	1.319650067882944e-05
	3.035989406589745e-01

 56	5.600000000000003e-01
	-2.312985465219060e-15
	-5.737407854105646e-19
	-1.032894436277054e-14
	1.361331761558381e-06
	1.349972380207216e-04
	1.448984341902474e-05
	3.035990649905354e-01

 57	5.700000000000003e-01
	-2.298739527924529e-15
	-5.875389076168055e-19
	-1.039560856347977e-14
	1.447391785455276e-06
	1.469906487971988e-04
	1.589902476234655e-05
	3.035992011923710e-01

 58	5.800000000000003e-01
	-2.285040387129678e-15
	-6.016141335380779e-19
	-1.046097924980396e-14
	1.537573516218407e-06
	1.598249862606949e-04
	1.743230917111580e-05
	3.035993501994698e-01

 59	5.900000000000003e-01
	-2.271878760332841e-15
	-6.159710835292680e-19
	-1.052506062273291e-14
	1.631971501874105e-06
	1.735264753436563e-04
	1.909823755054488e-05
	3.035995129877073e-01

 60	6.000000000000003e-01
	-2.259245187692667e-15
	-6.306144641315298e-19
	-1.058785794752933e-14
	1.730675250886545e-06
	1.881180576931243e-04
	2.090559677082110e-05
	3.035996905710420e-01

 61	6.100000000000003e-01
	-2.247130052972395e-15
	-6.455490704719858e-19
	-1.064937750563325e-14
	1.833768771773472e-06
	2.036189245673608e-04
	2.286338446689921e-05
	3.035998839980251e-01

 62	6.200000000000003e-01
	-2.235523603961522e-15
	-6.607797887131702e-19
	-1.070962654634405e-14
	1.941330134572132e-06
	2.200440679461887e-04
	2.498076925121862e-05
	3.036000943476495e-01

 63	6.300000000000003e-01
	-2.224415972334037e-15
	-6.763115985532631e-19
	-1.076861323844330e-14
	2.053431059213372e-06
	2.374038595820599e-04
	2.726704657049179e-05
	3.036003227245337e-01

 64	6.400000000000003e-01
	-2.213797192907314e-15
	-6.921495757778398e-19
	-1.082634662191254e-14
	2.170136535777511e-06
	2.557036677820199e-04
	2.973159053555547e-05
	3.036005702534489e-01

 65	6.500000000000004e-01
	-2.203657222270214e-15
	-7.082988948640891e-19
	-1.088283655989024e-14
	2.291504481431137e-06
	2.749435214948446e-04
	3.238380215036212e-05
	3.036008380732280e-01

 66	6.600000000000004e-01
	-2.193985956753719e-15
	-7.247648316386921e-19
	-1.093809369100307e-14
	2.417585438576970e-06
	2.951178307691734e-04
	3.523305445963629e-05
	3.036011273301300e-01

 67	6.700000000000004e-01
	-2.184773249721515e-15
	-7.415527659901166e-19
	-1.099212938219686e-14
	2.548422318389573e-06
	3.162151718450796e-04
	3.828863522159907e-05
	3.036014391706955e-01

 68	6.800000000000004e-01
	-2.176008928162349e-15
	-7.586681846368453e-19
	-1.104495568218327e-14
	2.684050193459963e-06
	3.382181440525176e-04
	4.155968778952640e-05
	3.036017747342005e-01

 69	6.900000000000004e-01
	-2.167682808569766e-15
	-7.761166839526708e-19
	-1.109658527560841e-14
	2.824496142738582e-06
	3.611033043374872e-04
	4.505515095103525e-05
	3.036021351447981e-01

 70	7.000000000000004e-01
	-2.159784712098766e-15
	-7.939039728501380e-19
	-1.114703143804088e-14
	2.969779151355989e-06
	3.848411836541955e-04
	4.878369852436972e-05
	3.036025215034550e-01

 71	7.100000000000004e-01
	-2.152304478992415e-15
	-8.120358757240842e-19
	-1.119630799186703e-14
	3.119910067226134e-06
	4.093963876941756e-04
	5.275367954454412e-05
	3.036029348797956e-01

 72	7.200000000000004e-01
	-2.145231982274904e-15
	-8.305183354562260e-19
	-1.124442926317265e-14
	3.274891615610006e-06
	4.347277825253684e-04
	5.697305988736742e-05
	3.036033763039956e-01

 73	7.300000000000004e-01
	-2.138557140710441e-15
	-8.493574164829501e-19
	-1.129141003968176e-14
	3.434718472055507e-06
	4.607887637476395e-04
	6.144936617517845e-05
	3.036038467588345e-01

 74	7.400000000000004e-01
	-2.132269931030657e-15
	-8.685593079276165e-19
	-1.133726552981448e-14
	3.599377393346797e-06
	4.875276058019159e-04
	6.618963278415067e-05
	3.036043471720525e-01

 75	7.500000000000004e-01
	-2.126360399435510e-15
	-8.881303267995698e-19
	-1.138201132291832e-14
	3.768847405313667e-06
	5.148878861662180e-04
	7.120035272965394e-05
	3.036048784091155e-01

 76	7.600000000000005e-01
	-2.120818672375491e-15
	-9.080769212617237e-19
	-1.142566335071902e-14
	3.943100045584348e-06
	5.428089773990949e-04
	7.648743314432949e-05
	3.036054412665403e-01

 77	7.700000000000005e-01
	-2.115634966624895e-15
	-9.284056739687134e-19
	-1.146823785003029e-14
	4.122099658633771e-06
	5.712265984108773e-04
	8.205615598492118e-05
	3.036060364658474e-01

 78	7.800000000000005e-01
	-2.110799598658190e-15
	-9.491233054781292e-19
	-1.150975132675428e-14
	4.305803739798209e-06
	6.000734150090632e-04
	8.791114451067479e-05
	3.036066646482760e-01

 79	7.900000000000005e-01
	-2.106302993343300e-15
	-9.702366777369975e-19
	-1.155022052119798e-14
	4.494163324313236e-06
	6.292796787195320e-04
	9.405633597098721e-05
	3.036073263703168e-01

 80	8.000000000000005e-01
	-2.102135691967120e-15
	-9.917527976461240e-19
	-1.158966237472492e-14
	4.687123416897407e-06
	6.587738921613611e-04
	1.004949608260284e-04
	3.036080221001365e-01

 81	8.100000000000005e-01
	-2.098288359610292e-15
	-1.013678820705095e-18
	-1.162809399775460e-14
	4.884623456959158e-06
	6.884834888675160e-04
	1.072295287045441e-04
	3.036087522149353e-01

 82	8.200000000000005e-01
	-2.094751791889252e-15
	-1.036022054740422e-18
	-1.166553263911762e-14
	5.086597814158008e-06
	7.183355154009277e-04
	1.142618211814593e-04
	3.036095169992638e-01

 83	8.300000000000005e-01
	-2.091516921084903e-15
	-1.058789963720067e-18
	-1.170199565676822e-14
	5.292976308805516e-06
	7.482573039055352e-04
	1.215928913375523e-04
	3.036103166443055e-01

 84	8.400000000000005e-01
	-2.088574821677937e-15
	-1.081990171657402e-18
	-1.173750048985172e-14
	5.503684751451905e-06
	7.781771238331444e-04
	1.292230699476793e-04
	3.036111512481142e-01

 85	8.500000000000005e-01
	-2.085916715311789e-15
	-1.105630466607655e-18
	-1.177206463211944e-14
	5.718645495964502e-06
	8.080248024656540e-04
	1.371519780356459e-04
	3.036120208167634e-01

 86	8.600000000000005e-01
	-2.083533975204758e-15
	-1.129718804760247e-18
	-1.180570560667954e-14
	5.937778000465406e-06
	8.377323049668823e-04
	1.453785454355202e-04
	3.036129252663833e-01

 87	8.700000000000006e-01
	-2.081418130033179e-15
	-1.154263314630462e-18
	-1.183844094206852e-14
	6.160999390646708e-06
	8.672342659997138e-04
	1.539010349129778e-04
	3.036138644260011e-01

 88	8.800000000000006e-01
	-2.079560867308034e-15
	-1.179272301354283e-18
	-1.187028814962437e-14
	6.388225020217709e-06
	8.964684663804499e-04
	1.627170713278662e-04
	3.036148380411217e-01

 89	8.900000000000006e-01
	-2.077954036267446e-15
	-1.204754251089481e-18
	-1.190126470213950e-14
	6.619369023546161e-06
	9.253762497587506e-04
	1.718236752615404e-04
	3.036158457779659e-01

 90	9.000000000000006e-01
	-2.076589650307849e-15
	-1.230717835527362e-18
	-1.193138801376808e-14
	6.854344855926202e-06
	9.539028758558905e-04
	1.812173004902766e-04
	3.036168872282826e-01

 91	9.100000000000006e-01
	-2.075459888976127e-15
	-1.257171916518801e-18
	-1.196067542116090e-14
	7.093065817325714e-06
	9.819978083164791e-04
	1.908938746592010e-04
	3.036179619146119e-01

 92	9.200000000000006e-01
	-2.074557099545529e-15
	-1.284125550818412e-18
	-1.198914416579748e-14
	7.335445555923055e-06
	1.009614936684686e-03
	2.008488424991888e-04
	3.036190692959376e-01

 93	9.300000000000006e-01
	-2.073873798197526e-15
	-1.311587994951159e-18
	-1.201681137748402e-14
	7.581398548225979e-06
	1.036712733367556e-03
	2.110772109312898e-04
	3.036202087736302e-01

 94	9.400000000000006e-01
	-2.073402670831596e-15
	-1.339568710205649e-18
	-1.204369405898391e-14
	7.830840553063579e-06
	1.063254347664620e-03
	2.215735954182354e-04
	3.036213796975460e-01

 95	9.500000000000006e-01
	-2.073136573524714e-15
	-1.368077367758148e-18
	-1.206980907174590e-14
	8.083689037239799e-06
	1.089207640001188e-03
	2.323322669488272e-04
	3.036225813722436e-01

 96	9.600000000000006e-01
	-2.073068532661804e-15
	-1.397123853931707e-18
	-1.209517312269409e-14
	8.339863571131726e-06
	1.114545160388667e-03
	2.433471990771152e-04
	3.036238130632093e-01

 97	9.700000000000006e-01
	-2.073191744757890e-15
	-1.426718275595265e-18
	-1.211980275204327e-14
	8.599286192992562e-06
	1.139244075840600e-03
	2.546121144822297e-04
	3.036250740030154e-01

 98	9.800000000000006e-01
	-2.073499575992342e-15
	-1.456870965706916e-18
	-1.214371432210181e-14
	8.861881741173851e-06
	1.163286051998088e-03
	2.661205305648454e-04
	3.036263633973374e-01

 99	9.900000000000007e-01
	-2.073985561474867e-15
	-1.487592489005987e-18
	-1.216692400702451e-14
	9.127578153907201e-06
	1.186657094568027e-03
	2.778658036507143e-04
	3.036276804307926e-01

 100	1.000000000000001e+00
	-2.074643404262505e-15
	-1.518893647859306e-18
	-1.218944778347727e-14
	9.396306736678134e-06
	1.209347356363339e-03
	2.898411714288246e-04
	3.036290242725246e-01

 101	1.010000000000001e+00
	-2.075466974145980e-15
	-1.550785488265809e-18
	-1.221130142217537e-14
