Title: ** sch_path: /home/andylithia/openmpw/project-yatsuhashi-chip1/xschem/gmid_test/nmos_test.sch
Date: Tue Jul 19 23:15:45  2022
Plotname: DC transfer characteristic
Flags: real
No. Variables: 8
No. Points: 181
Variables:
	0	v(v-sweep)	voltage
	1	@m.xm1.msky130_fd_pr__nfet_01v8[cgb]	capacitance
	2	@m.xm1.msky130_fd_pr__nfet_01v8[cgd]	capacitance
	3	@m.xm1.msky130_fd_pr__nfet_01v8[cgs]	capacitance
	4	@m.xm1.msky130_fd_pr__nfet_01v8[gds]	admittance
	5	@m.xm1.msky130_fd_pr__nfet_01v8[gm]	admittance
	6	i(@m.xm1.msky130_fd_pr__nfet_01v8[id])	current
	7	v(@m.xm1.msky130_fd_pr__nfet_01v8[vth])	voltage
Values:
 0	0.000000000000000e+00
	-8.312483003706637e-15
	-4.272270091603247e-19
	-1.343313392739873e-14
	5.856375320129697e-08
	2.336771192304636e-06
	2.818546766128007e-07
	2.429719185587647e-01

 1	1.000000000000000e-02
	-8.222039279971704e-15
	-4.380967561885563e-19
	-1.364184347967322e-14
	6.348403387167987e-08
	2.535598122552914e-06
	3.062030828354944e-07
	2.429719203871936e-01

 2	2.000000000000000e-02
	-8.132591740819773e-15
	-4.492177670480734e-19
	-1.385070259477511e-14
	6.879936913536602e-08
	2.751206572569736e-06
	3.326225146612427e-07
	2.429719223722658e-01

 3	3.000000000000000e-02
	-8.044162598905856e-15
	-4.605947991255921e-19
	-1.405963090135323e-14
	7.453934273637943e-08
	2.985034776738278e-06
	3.612878740292840e-07
	2.429719245273959e-01

 4	4.000000000000000e-02
	-7.956773642181896e-15
	-4.722326739367308e-19
	-1.426854794951454e-14
	8.073551764125491e-08
	3.238651562144756e-06
	3.923890877449159e-07
	2.429719268671892e-01

 5	5.000000000000000e-02
	-7.870446189154305e-15
	-4.841362779949749e-19
	-1.447737332328840e-14
	8.742154396055415e-08
	3.513769389681489e-06
	4.261324774815728e-07
	2.429719294075358e-01

 6	6.000000000000000e-02
	-7.785201045588338e-15
	-4.963105637278207e-19
	-1.468602675293820e-14
	9.463327038890365e-08
	3.812258794850068e-06
	4.627422670727110e-07
	2.429719321657580e-01

 7	7.000000000000001e-02
	-7.701058462769347e-15
	-5.087605504416887e-19
	-1.489442822680663e-14
	1.024088590579195e-07
	4.136164372773401e-06
	5.024622418031905e-07
	2.429719351607236e-01

 8	8.000000000000000e-02
	-7.618038097425865e-15
	-5.214913253373368e-19
	-1.510249810237839e-14
	1.107889036718996e-07
	4.487722463316612e-06
	5.455575759110113e-07
	2.429719384130160e-01

 9	9.000000000000000e-02
	-7.536158973413478e-15
	-5.345080445774718e-19
	-1.531015721625084e-14
	1.198165507706008e-07
	4.869380703719835e-06
	5.923168461271170e-07
	2.429719419451005e-01

 10	9.999999999999999e-02
	-7.455439445251735e-15
	-5.478159344079241e-19
	-1.551732699270622e-14
	1.295376239364946e-07
	5.283819627569592e-06
	6.430542508118354e-07
	2.429719457814949e-01

 11	1.100000000000000e-01
	-7.375897163599881e-15
	-5.614202923342385e-19
	-1.572392955058372e-14
	1.400007507358087e-07
	5.733976500066280e-06
	6.981120560903215e-07
	2.429719499490030e-01

 12	1.200000000000000e-01
	-7.297549042749686e-15
	-5.753264883549961e-19
	-1.592988780816073e-14
	1.512574921535809e-07
	6.223071590130348e-06
	7.578632923427982e-07
	2.429719544769197e-01

 13	1.300000000000000e-01
	-7.220411230205908e-15
	-5.895399662532556e-19
	-1.613512558575758e-14
	1.633624742525672e-07
	6.754637089605644e-06
	8.227147264590855e-07
	2.429719593973072e-01

 14	1.400000000000000e-01
	-7.144499078417191e-15
	-6.040662449478688e-19
	-1.633956770579318e-14
	1.763735217546857e-07
	7.332548898330620e-06
	8.931101374136624e-07
	2.429719647452572e-01

 15	1.500000000000000e-01
	-7.069827118711889e-15
	-6.189109199055323e-19
	-1.654314009002815e-14
	1.903517932113001e-07
	7.961061500723885e-06
	9.695339249398195e-07
	2.429719705592166e-01

 16	1.600000000000000e-01
	-6.996409037484930e-15
	-6.340796646154382e-19
	-1.674576985374584e-14
	2.053619173955264e-07
	8.644846164323631e-06
	1.052515083363845e-06
	2.429719768813383e-01

 17	1.700000000000000e-01
	-6.924257654672892e-15
	-6.495782321273766e-19
	-1.694738539663552e-14
	2.214721305156564e-07
	9.389032692891713e-06
	1.142631574977026e-06
	2.429719837578562e-01

 18	1.800000000000000e-01
	-6.853384904546594e-15
	-6.654124566548392e-19
	-1.714791649015480e-14
	2.387544138137914e-07
	1.019925496565885e-05
	1.240515139645977e-06
	2.429719912395150e-01

 19	1.900000000000000e-01
	-6.783801818840688e-15
	-6.815882552439944e-19
	-1.734729436116581e-14
	2.572846310780545e-07
	1.108170048940624e-05
	1.346856579655901e-06
	2.429719993820504e-01

 20	2.000000000000000e-01
	-6.715518512231952e-15
	-6.981116295101661e-19
	-1.754545177165499e-14
	2.771426655602396e-07
	1.204316418063875e-05
	1.462411561004214e-06
	2.429720082467018e-01

 21	2.100000000000000e-01
	-6.648544170168631e-15
	-7.149886674423817e-19
	-1.774232309436309e-14
	2.984125557533232e-07
	1.309110658033682e-05
	1.588006974463468e-06
	2.429720179007995e-01

 22	2.200000000000001e-01
	-6.582887039044976e-15
	-7.322255452776305e-19
	-1.793784438417022e-14
	3.211826294453458e-07
	1.423371668287389e-05
	1.724547901657326e-06
	2.429720284183988e-01

 23	2.300000000000001e-01
	-6.518554418706421e-15
	-7.498285294453912e-19
	-1.813195344509825e-14
	3.455456354273097e-07
	1.547997953277315e-05
	1.873025233073292e-06
	2.429720398809867e-01

 24	2.400000000000001e-01
	-6.455552657262934e-15
	-7.678039785838032e-19
	-1.832458989281112e-14
	3.715988721933194e-07
	1.683974870716671e-05
	2.034523986298401e-06
	2.429720523782669e-01

 25	2.500000000000001e-01
	-6.393887148179666e-15
	-7.861583456285368e-19
	-1.851569521251290e-14
	3.994443129312161e-07
	1.832382375718323e-05
	2.210232373724755e-06
	2.429720660090083e-01

 26	2.600000000000001e-01
	-6.333562329606700e-15
	-8.048981799748577e-19
	-1.870521281216150e-14
	4.291887260611407e-07
	1.994403262709323e-05
	2.401451669436632e-06
	2.429720808819970e-01

 27	2.700000000000001e-01
	-6.274581685902194e-15
	-8.240301297146490e-19
	-1.889308807093448e-14
	4.609437905384684e-07
	2.171331900498420e-05
	2.609606924859968e-06
	2.429720971170701e-01

 28	2.800000000000001e-01
	-6.216947751296079e-15
	-8.435609439485919e-19
	-1.907926838290326e-14
	4.948262050959246e-07
	2.364583448213366e-05
	2.836258581915036e-06
	2.429721148462483e-01

 29	2.900000000000001e-01
	-6.160662115635198e-15
	-8.634974751750020e-19
	-1.926370319588862e-14
	5.309577905578019e-07
	2.575703530929372e-05
	3.083115030744782e-06
	2.429721342149931e-01

 30	3.000000000000001e-01
	-6.105725432144083e-15
	-8.838466817560196e-19
	-1.944634404549050e-14
	5.694655843174390e-07
	2.806378343611458e-05
	3.352046156469931e-06
	2.429721553835601e-01

 31	3.100000000000001e-01
	-6.052137427130621e-15
	-9.046156304622130e-19
	-1.962714458430093e-14
	6.104819260270807e-07
	3.058445140432838e-05
	3.645097915709137e-06
	2.429721785284932e-01

 32	3.200000000000001e-01
	-5.999896911559569e-15
	-9.258114990966523e-19
	-1.980606060632797e-14
	6.541445335079398e-07
	3.333903053576483e-05
	3.964507978665916e-06
	2.429722038442406e-01

 33	3.300000000000001e-01
	-5.949001794413207e-15
	-9.474415791992916e-19
	-1.998305006667368e-14
	7.005965678475627e-07
	3.634924171262065e-05
	4.312722466278478e-06
	2.429722315449117e-01

 34	3.400000000000001e-01
	-5.899449097753369e-15
	-9.695132788326265e-19
	-2.015807309652586e-14
	7.499866866118584e-07
	3.963864788984474e-05
	4.692413804115599e-06
	2.429722618662017e-01

 35	3.500000000000001e-01
	-5.851234973395698e-15
	-9.920341254501972e-19
	-2.033109201353905e-14
	8.024690840615043e-07
	4.323276730856648e-05
	5.106499705246048e-06
	2.429722950674451e-01

 36	3.600000000000002e-01
	-5.804354721103761e-15
	-1.015011768848198e-18
	-2.050207132769364e-14
	8.582035172264186e-07
	4.715918619609658e-05
	5.558163283076464e-06
	2.429723314338461e-01

 37	3.700000000000002e-01
	-5.758802808207845e-15
	-1.038453984201926e-18
	-2.067097774273633e-14
	9.173553166593113e-07
	5.144766954362335e-05
	6.050874282030005e-06
	2.429723712788867e-01

 38	3.800000000000002e-01
	-5.714572890551200e-15
	-1.062368675188130e-18
	-2.083778015331804e-14
	9.800953806603110e-07
	5.613026834925930e-05
	6.588411398823213e-06
	2.429724149468920e-01

 39	3.900000000000002e-01
	-5.671657834664736e-15
	-1.086763877194015e-18
	-2.100244963795641e-14
	1.046600151739978e-06
	6.124142150409994e-05
	7.174885649909510e-06
	2.429724628157937e-01

 40	4.000000000000002e-01
	-5.630049741069993e-15
	-1.111647760614854e-18
	-2.116495944796213e-14
	1.117051574069511e-06
	6.681805028569969e-05
	7.814764721352719e-06
	2.429725153000522e-01

 41	4.100000000000002e-01
	-5.589739968609910e-15
	-1.137028634241090e-18
	-2.132528499247618e-14
	1.191637030654599e-06
	7.289964321066932e-05
	8.512898215947891e-06
	2.429725728537868e-01

 42	4.200000000000002e-01
	-5.550719159706003e-15
	-1.162914948736043e-18
	-2.148340381977672e-14
	1.270549258966013e-06
	7.952832879069214e-05
	9.274543688862846e-06
	2.429726359740527e-01

 43	4.300000000000002e-01
	-5.512977266441744e-15
	-1.189315300206340e-18
	-2.163929559501871e-14
	1.353986243765087e-06
	8.674893353937423e-05
	1.010539333749343e-05
	2.429727052043258e-01

 44	4.400000000000002e-01
	-5.476503577371822e-15
	-1.216238433866118e-18
	-2.179294207457951e-14
	1.442151085879597e-06
	9.460902239722560e-05
	1.101160118376403e-05
	2.429727811381272e-01

 45	4.500000000000002e-01
	-5.441286744958744e-15
	-1.243693247796368e-18
	-2.194432707718677e-14
	1.535251845714484e-06
	1.031589185853747e-04
	1.199981055794530e-05
	2.429728644228117e-01

 46	4.600000000000002e-01
	-5.407314813539308e-15
	-1.271688796801725e-18
	-2.209343645201118e-14
	1.633501360325842e-06
	1.124516997728727e-04
	1.307718166248880e-05
	2.429729557634906e-01

 47	4.700000000000003e-01
	-5.374575247725659e-15
	-1.300234296365590e-18
	-2.224025804390980e-14
	1.737117032946611e-06
	1.225431673555462e-04
	1.425141896273592e-05
	2.429730559270707e-01

 48	4.800000000000003e-01
	-5.343054961147816e-15
	-1.329339126706336e-18
	-2.238478165600835e-14
	1.846320593930239e-06
	1.334917856046881e-04
	1.553079811907881e-05
	2.429731657463760e-01

 49	4.900000000000003e-01
	-5.312740345447000e-15
	-1.359012836935383e-18
	-2.252699900981285e-14
	1.961337832176304e-06
	1.453585874599953e-04
	1.692419214275013e-05
	2.429732861243425e-01

 50	5.000000000000002e-01
	-5.283617299432035e-15
	-1.389265149320254e-18
	-2.266690370304196e-14
	2.082398296221534e-06
	1.582070438216716e-04
	1.844109642550291e-05
	2.429734180382027e-01

 51	5.100000000000002e-01
	-5.255671258314183e-15
	-1.420105963653519e-18
	-2.280449116537074e-14
	2.209734964321590e-06
	1.721028933497375e-04
	2.009165226268632e-05
	2.429735625436681e-01

 52	5.200000000000002e-01
	-5.228887222939077e-15
	-1.451545361730959e-18
	-2.293975861227644e-14
	2.343583883016313e-06
	1.871139300121673e-04
	2.188666846041438e-05
	2.429737207790199e-01

 53	5.300000000000002e-01
	-5.203249788937912e-15
	-1.483593611940100e-18
	-2.307270499717468e-14
	2.484183773863704e-06
	2.033097459442080e-04
	2.383764059148581e-05
	2.429738939690564e-01

 54	5.400000000000003e-01
	-5.178743175723615e-15
	-1.516261173962162e-18
	-2.320333096203246e-14
	2.631775608246931e-06
	2.207614275946710e-04
	2.595676744235301e-05
	2.429740834288532e-01

 55	5.500000000000003e-01
	-5.155351255261929e-15
	-1.549558703589726e-18
	-2.333163878664080e-14
	2.786602150405650e-06
	2.395412036450191e-04
	2.825696417571755e-05
	2.429742905672270e-01

 56	5.600000000000003e-01
	-5.133057580550762e-15
	-1.583497057662309e-18
	-2.345763233672613e-14
	2.948907469115526e-06
	2.597220437952388e-04
	3.075187172119811e-05
	2.429745168898680e-01

 57	5.700000000000003e-01
	-5.111845413745370e-15
	-1.618087299122781e-18
	-2.358131701107621e-14
	3.118936418740339e-06
	2.813772082162878e-04
	3.345586190099809e-05
	2.429747640020122e-01

 58	5.800000000000003e-01
	-5.091697753871293e-15
	-1.653340702197658e-18
	-2.370269968784941e-14
	3.296934090705124e-06
	3.045797482683587e-04
	3.638403779950745e-05
	2.429750336105953e-01

 59	5.900000000000003e-01
	-5.072597364070516e-15
	-1.689268757703250e-18
	-2.382178867023286e-14
	3.483145236786759e-06
	3.294019599707393e-04
	3.955222889625376e-05
	2.429753275258019e-01

 60	6.000000000000003e-01
	-5.054526798330884e-15
	-1.725883178481369e-18
	-2.393859363160793e-14
	3.677813665986222e-06
	3.559147926721957e-04
	4.297698050137643e-05
	2.429756476618763e-01

 61	6.100000000000003e-01
	-5.037468427652678e-15
	-1.763195904967113e-18
	-2.405312556037568e-14
	3.881181617130197e-06
	3.841872163965443e-04
	4.667553706252178e-05
	2.429759960371572e-01

 62	6.200000000000003e-01
	-5.021404465610328e-15
	-1.801219110892600e-18
	-2.416539670458862e-14
	4.093489109746023e-06
	4.142855524088820e-04
	5.066581895231666e-05
	2.429763747731863e-01

 63	6.300000000000003e-01
	-5.006316993271407e-15
	-1.839965209128684e-18
	-2.427542051652774e-14
	4.314973276154921e-06
	4.462727726422834e-04
	5.496639239668037e-05
	2.429767860928581e-01

 64	6.400000000000003e-01
	-4.992187983438701e-15
	-1.879446857669145e-18
	-2.438321159735784e-14
	4.545867678130901e-06
	4.802077747181996e-04
	5.959643226633524e-05
	2.429772323174796e-01

 65	6.500000000000004e-01
	-4.978999324185379e-15
	-1.919676965760103e-18
	-2.448878564198577e-14
	4.786401611866032e-06
	5.161446403581498e-04
	6.457567752676476e-05
	2.429777158627114e-01

 66	6.600000000000004e-01
	-4.966732841656682e-15
	-1.960668700178112e-18
	-2.459215938424045e-14
	5.036799405362910e-06
	5.541318859899768e-04
	6.992437922517896e-05
	2.429782392332950e-01

 67	6.700000000000004e-01
	-4.955370322115437e-15
	-2.002435491660957e-18
	-2.469335054248495e-14
	5.297279712730326e-06
	5.942117152664463e-04
	7.566324098594120e-05
	2.429788050165415e-01

 68	6.800000000000004e-01
	-4.944893533212267e-15
	-2.044991041494656e-18
	-2.479237776576449e-14
	5.568054810182798e-06
	6.364192840052322e-04
	8.181335208738502e-05
	2.429794158745419e-01

 69	6.900000000000004e-01
	-4.935284244464504e-15
	-2.088349328259633e-18
	-2.488926058058694e-14
	5.849329898827377e-06
	6.807819886944808e-04
	8.839611330153283e-05
	2.429800745351091e-01

 70	7.000000000000004e-01
	-4.926524246931435e-15
	-2.132524614741369e-18
	-2.498401933842477e-14
	6.141302419556532e-06
	7.273187901568061e-04
	9.543315579226679e-05
	2.429807837814192e-01

 71	7.100000000000004e-01
	-4.918595372076394e-15
	-2.177531455007881e-18
	-2.507667516402116e-14
	6.444161385542115e-06
	7.760395841979957e-04
	1.029462534848887e-04
	2.429815464404510e-01

 72	7.200000000000004e-01
	-4.911479509809261e-15
	-2.223384701659121e-18
	-2.516724990457537e-14
	6.758086737939007e-06
	8.269446310612949e-04
	1.109572294385544e-04
	2.429823653702253e-01

 73	7.300000000000004e-01
	-4.905158625705868e-15
	-2.270099513251639e-18
	-2.525576607987643e-14
	7.083248730448053e-06
	8.800240552445870e-04
	1.194878568701946e-04
	2.429832434459566e-01

 74	7.400000000000004e-01
	-4.899614777403373e-15
	-2.317691361902809e-18
	-2.534224683344747e-14
	7.419807348353816e-06
	9.352574267038531e-04
	1.285597555916410e-04
	2.429841835452338e-01

 75	7.500000000000004e-01
	-4.894830130173232e-15
	-2.366176041079251e-18
	-2.542671588475643e-14
	7.767911767538220e-06
	9.926134336569264e-04
	1.381942847279966e-04
	2.429851885323372e-01

 76	7.600000000000005e-01
	-4.890786971675819e-15
	-2.415569673573132e-18
	-2.550919748254389e-14
	8.127699858774846e-06
	1.052049656119946e-03
	1.484124326820721e-04
	2.429862612418725e-01

 77	7.700000000000005e-01
	-4.887467725902882e-15
	-2.465888719671140e-18
	-2.558971635931167e-14
	8.499297742330686e-06
	1.113512447967066e-03
	1.592347053943033e-04
	2.429874044618875e-01

 78	7.800000000000005e-01
	-4.884854966316122e-15
	-2.517149985521391e-18
	-2.566829768701171e-14
	8.882819397543727e-06
	1.176936933722768e-03
	1.706810140174402e-04
	2.429886209166639e-01

 79	7.900000000000005e-01
	-4.882931428192229e-15
	-2.569370631701171e-18
	-2.574496703396825e-14
	9.278366331609704e-06
	1.242247124505062e-03
	1.827705631782157e-04
	2.429899132494022e-01

 80	8.000000000000005e-01
	-4.881680020186040e-15
	-2.622568181993231e-18
	-2.581975032306249e-14
	9.686027311306427e-06
	1.309356155574960e-03
	1.955217410322710e-04
	2.429912840050058e-01

 81	8.100000000000005e-01
	-4.881083835125689e-15
	-2.676760532373261e-18
	-2.589267379120317e-14
	1.010587816081505e-05
	1.378166645857509e-03
	2.089520123323071e-04
	2.429927356132043e-01

 82	8.200000000000005e-01
	-4.881126160054582e-15
	-2.731965960216210e-18
	-2.596376395010285e-14
	1.053798162817536e-05
	1.448571177633514e-03
	2.230778157217748e-04
	2.429942703722173e-01

 83	8.300000000000005e-01
	-4.881790485536402e-15
	-2.788203133725411e-18
	-2.603304754837488e-14
	1.098238732224589e-05
	1.520452892413802e-03
	2.379144664369027e-04
	2.429958904332055e-01

 84	8.400000000000005e-01
	-4.883060514240825e-15
	-2.845491121592321e-18
	-2.610055153496248e-14
	1.143913172134211e-05
	1.593686196857173e-03
	2.534760655486197e-04
	2.429975977857042e-01

 85	8.500000000000005e-01
	-4.884920168828279e-15
	-2.903849402892030e-18
	-2.616630302390678e-14
	1.190823825400908e-05
	1.668137570536780e-03
	2.697754168036044e-04
	2.429993942442334e-01

 86	8.600000000000005e-01
	-4.887353599153055e-15
	-2.963297877222582e-18
	-2.623032926045856e-14
	1.238971745166051e-05
	1.743666465453541e-03
	2.868239520315100e-04
	2.430012814362734e-01

 87	8.700000000000006e-01
	-4.890345188805155e-15
	-3.023856875094685e-18
	-2.629265758853280e-14
	1.288356717209987e-05
	1.820126285491924e-03
	3.046316659752246e-04
	2.430032607917728e-01

 88	8.800000000000006e-01
	-4.893879561011172e-15
	-3.085547168579899e-18
	-2.635331541950470e-14
	1.338977289223984e-05
	1.897365432558919e-03
	3.232070612750500e-04
	2.430053335342730e-01

 89	8.900000000000006e-01
	-4.897941583916074e-15
	-3.148389982225775e-18
	-2.641233020234002e-14
	1.390830806766847e-05
	1.975228404980058e-03
	3.425571041986097e-04
	2.430075006738315e-01

 90	9.000000000000006e-01
	-4.902516375266956e-15
	-3.212407004246822e-18
	-2.646972939505193e-14
	1.443913455608430e-05
	2.053556932877223e-03
	3.626871915592832e-04
	2.430097630017311e-01

 91	9.100000000000006e-01
	-4.907589306521264e-15
	-3.277620397999841e-18
	-2.652554043747269e-14
	1.498220310104613e-05
	2.132191134740267e-03
	3.836011291101235e-04
	2.430121210870844e-01

 92	9.200000000000006e-01
	-4.913146006401297e-15
	-3.344052813754540e-18
	-2.657979072532604e-14
	1.553745387196731e-05
	2.210970679238380e-03
	4.053011215411743e-04
	2.430145752753129e-01

 93	9.300000000000006e-01
	-4.919172363917622e-15
	-3.411727400768561e-18
	-2.663250758558435e-14
	1.610481705583270e-05
	2.289735936494681e-03
	4.277877740491313e-04
	2.430171256884996e-01

 94	9.400000000000006e-01
	-4.925654530883441e-15
	-3.480667819679380e-18
	-2.668371825309176e-14
	1.668421349573651e-05
	2.368329103557177e-03
	4.510601052929753e-04
	2.430197722275360e-01

 95	9.500000000000006e-01
	-4.932578923942513e-15
	-3.550898255222344e-18
	-2.673344984843272e-14
	1.727555537103162e-05
	2.446595289617956e-03
	4.751155714005240e-04
	2.430225145760458e-01

 96	9.600000000000006e-01
	-4.939932226132670e-15
	-3.622443429288627e-18
	-2.678172935702312e-14
	1.787874691365017e-05
	2.524383547630365e-03
	4.999501005520083e-04
	2.430253522059237e-01

 97	9.700000000000006e-01
	-4.947701388006958e-15
	-3.695328614333764e-18
	-2.682858360940022e-14
	1.849368515499737e-05
	2.601547840311624e-03
	5.255581375400806e-04
	2.430282843844261e-01

 98	9.800000000000006e-01
	-4.955873628334252e-15
	-3.769579647150498e-18
	-2.687403926268476e-14
	1.912026069773950e-05
	2.677947930053355e-03
	5.519326975935783e-04
	2.430313101826398e-01

 99	9.900000000000007e-01
	-4.964436434400970e-15
	-3.845222943018666e-18
	-2.691812278318793e-14
	1.975835850679341e-05
	2.753450183946240e-03
	5.790654286563291e-04
	2.430344284851971e-01

 100	1.000000000000001e+00
	-4.973377561934704e-15
	-3.922285510246020e-18
	-2.696086043013463e-14
	2.040785871388236e-05
	2.827928286908970e-03
	6.069466812337981e-04
	2.430376380010575e-01

 101	1.010000000000001e+00
	-4.982685034671160e-15
	-4.000794965112696e-18
	-2.700227824047263e-14
