Title: ** sch_path: /home/andylithia/openmpw/project-yatsuhashi-chip1/xschem/gmid_test/nmos_test.sch
Date: Tue Jul 19 23:15:45  2022
Plotname: DC transfer characteristic
Flags: real
No. Variables: 8
No. Points: 181
Variables:
	0	v(v-sweep)	voltage
	1	@m.xm1.msky130_fd_pr__nfet_01v8[cgb]	capacitance
	2	@m.xm1.msky130_fd_pr__nfet_01v8[cgd]	capacitance
	3	@m.xm1.msky130_fd_pr__nfet_01v8[cgs]	capacitance
	4	@m.xm1.msky130_fd_pr__nfet_01v8[gds]	admittance
	5	@m.xm1.msky130_fd_pr__nfet_01v8[gm]	admittance
	6	i(@m.xm1.msky130_fd_pr__nfet_01v8[id])	current
	7	v(@m.xm1.msky130_fd_pr__nfet_01v8[vth])	voltage
Values:
 0	0.000000000000000e+00
	-5.756808785837832e-15
	-2.468845958670814e-19
	-8.436198758327551e-15
	3.128796978733264e-08
	1.319750390209272e-06
	1.498705727354840e-07
	2.671332453706646e-01

 1	1.000000000000000e-02
	-5.692996594228311e-15
	-2.535327037106962e-19
	-8.581662838106586e-15
	3.410192309656941e-08
	1.439181153288588e-06
	1.636567076253789e-07
	2.671332464673187e-01

 2	2.000000000000000e-02
	-5.629787619107842e-15
	-2.603431756282902e-19
	-8.727468189497189e-15
	3.715868736367955e-08
	1.569283014848438e-06
	1.786897408455610e-07
	2.671332476636361e-01

 3	3.000000000000000e-02
	-5.567200145114475e-15
	-2.673192043365692e-19
	-8.873553202154742e-15
	4.047791164207471e-08
	1.711014333684284e-06
	1.950811035534371e-07
	2.671332489686175e-01

 4	4.000000000000000e-02
	-5.505252239657169e-15
	-2.744640230717307e-19
	-9.019855880115257e-15
	4.408067710571905e-08
	1.865423427869799e-06
	2.129522529390277e-07
	2.671332503920774e-01

 5	5.000000000000000e-02
	-5.443961712578950e-15
	-2.817809059719840e-19
	-9.166313938442760e-15
	4.798958329362369e-08
	2.033657827037130e-06
	2.324356172470534e-07
	2.671332519447392e-01

 6	6.000000000000000e-02
	-5.383346076713236e-15
	-2.892731684931782e-19
	-9.312864900677026e-15
	5.222883758247463e-08
	2.216974568059018e-06
	2.536756384436302e-07
	2.671332536383200e-01

 7	7.000000000000001e-02
	-5.323422509451748e-15
	-2.969441678593076e-19
	-9.459446196775736e-15
	5.682434779963635e-08
	2.416751651665553e-06
	2.768299235400993e-07
	2.671332554856269e-01

 8	8.000000000000000e-02
	-5.264207815438482e-15
	-3.047973035492364e-19
	-9.605995261242855e-15
	6.180381786200612e-08
	2.634500788264025e-06
	3.020705168151854e-07
	2.671332575006747e-01

 9	9.000000000000000e-02
	-5.205718390500015e-15
	-3.128360178213019e-19
	-9.752449631134441e-15
	6.719684629761546e-08
	2.871881572262327e-06
	3.295853065143387e-07
	2.671332596987916e-01

 10	9.999999999999999e-02
	-5.147970186917668e-15
	-3.210637962771867e-19
	-9.898747043631905e-15
	7.303502747647392e-08
	3.130717235364629e-06
	3.595795810536537e-07
	2.671332620967654e-01

 11	1.100000000000000e-01
	-5.090978680141344e-15
	-3.294841684663899e-19
	-1.004482553287631e-14
	7.935205534511466e-08
	3.413012140418246e-06
	3.922777513161751e-07
	2.671332647129964e-01

 12	1.200000000000000e-01
	-5.034758837038840e-15
	-3.381007085328135e-19
	-1.019062352576046e-14
	8.618382942561528e-08
	3.720971188192974e-06
	4.279252572984396e-07
	2.671332675676579e-01

 13	1.300000000000000e-01
	-4.979325085768312e-15
	-3.469170359046276e-19
	-1.033607993637994e-14
	9.356856280463014e-08
	4.057021319670116e-06
	4.667906791402287e-07
	2.671332706828822e-01

 14	1.400000000000000e-01
	-4.924691287354038e-15
	-3.559368160287207e-19
	-1.048113425885223e-14
	1.015468918013697e-07
	4.423835305655376e-06
	5.091680744433472e-07
	2.671332740829688e-01

 15	1.500000000000000e-01
	-4.870870709038629e-15
	-3.651637611508125e-19
	-1.062572665822044e-14
	1.101619869655477e-07
	4.824358023386478e-06
	5.553795657437201e-07
	2.671332777946147e-01

 16	1.600000000000000e-01
	-4.817875999477067e-15
	-3.746016311424934e-19
	-1.076979805916821e-14
	1.194596650172477e-07
	5.261835425800052e-06
	6.057782040292774e-07
	2.671332818471684e-01

 17	1.700000000000000e-01
	-4.765719165829631e-15
	-3.842542343760971e-19
	-1.091329023228344e-14
	1.294885013005504e-07
	5.739846412697288e-06
	6.607511362723916e-07
	2.671332862729249e-01

 18	1.800000000000000e-01
	-4.714411552802787e-15
	-3.941254286486092e-19
	-1.105614587762156e-14
	1.402999422818779e-07
	6.262337813582499e-06
	7.207231070434165e-07
	2.671332911074250e-01

 19	1.900000000000000e-01
	-4.663963823678612e-15
	-4.042191221551827e-19
	-1.119830870533068e-14
	1.519484175822590e-07
	6.833662688733866e-06
	7.861603263559099e-07
	2.671332963898247e-01

 20	2.000000000000000e-01
	-4.614385943364338e-15
	-4.145392745135741e-19
	-1.133972351311837e-14
	1.644914509906140e-07
	7.458622147345166e-06
	8.575747379251305e-07
	2.671333021632827e-01

 21	2.100000000000000e-01
	-4.565687163485475e-15
	-4.250898978400596e-19
	-1.148033626035368e-14
	1.779897698625594e-07
	8.142510868498512e-06
	9.355287239482279e-07
	2.671333084753868e-01

 22	2.200000000000001e-01
	-4.517876009536804e-15
	-4.358750578775910e-19
	-1.162009413861480e-14
	1.925074122664297e-07
	8.891166491394869e-06
	1.020640284279963e-06
	2.671333153786487e-01

 23	2.300000000000001e-01
	-4.470960270097119e-15
	-4.468988751769268e-19
	-1.175894563851104e-14
	2.081118311955606e-07
	9.711023014733935e-06
	1.113588729415196e-06
	2.671333229310350e-01

 24	2.400000000000001e-01
	-4.424946988104917e-15
	-4.581655263316748e-19
	-1.189684061262511e-14
	2.248739951232457e-07
	1.060916831039330e-05
	1.215120927920272e-06
	2.671333311965494e-01

 25	2.500000000000001e-01
	-4.379842454183954e-15
	-4.696792452672217e-19
	-1.203373033443979e-14
	2.428684841346275e-07
	1.159340581260085e-05
	1.326058149793435e-06
	2.671333402459082e-01

 26	2.600000000000001e-01
	-4.335652201999212e-15
	-4.814443245848587e-19
	-1.216956755313344e-14
	2.621735808284163e-07
	1.267232038962165e-05
	1.447303547583555e-06
	2.671333501572418e-01

 27	2.700000000000001e-01
	-4.292381005616090e-15
	-4.934651169611214e-19
	-1.230430654414620e-14
	2.828713551405612e-07
	1.385534833958326e-05
	1.579850316846015e-06
	2.671333610169026e-01

 28	2.800000000000001e-01
	-4.250032878827833e-15
	-5.057460366030519e-19
	-1.243790315543924e-14
	3.050477422027564e-07
	1.515285137455938e-05
	1.724790576552378e-06
	2.671333729203334e-01

 29	2.900000000000001e-01
	-4.208611076409000e-15
	-5.182915607597141e-19
	-1.257031484938799e-14
	3.287926123106742e-07
	1.657619436657786e-05
	1.883325008266752e-06
	2.671333859730361e-01

 30	3.000000000000001e-01
	-4.168118097245920e-15
	-5.311062312907164e-19
	-1.270150074026997e-14
	3.541998320408725e-07
	1.813782652518137e-05
	2.056773290127009e-06
	2.671334002916146e-01

 31	3.100000000000001e-01
	-4.128555689288482e-15
	-5.441946562916004e-19
	-1.283142162732598e-14
	3.813673155215081e-07
	1.985136555807650e-05
	2.246585357781956e-06
	2.671334160049319e-01

 32	3.200000000000001e-01
	-4.089924856261824e-15
	-5.575615117771727e-19
	-1.296004002339250e-14
	4.103970648310974e-07
	2.173168423409273e-05
	2.454353519297227e-06
	2.671334332553668e-01

 33	3.300000000000001e-01
	-4.052225866070530e-15
	-5.712115434225479e-19
	-1.308732017912123e-14
	4.413951984718888e-07
	2.379499862127225e-05
	2.681825444509087e-06
	2.671334522001677e-01

 34	3.400000000000001e-01
	-4.015458260823521e-15
	-5.851495683628024e-19
	-1.321322810281828e-14
	4.744719668405666e-07
	2.605895711297060e-05
	2.930918041238041e-06
	2.671334730129439e-01

 35	3.500000000000001e-01
	-3.979620868402664e-15
	-5.993804770512162e-19
	-1.333773157595352e-14
	5.097417536000836e-07
	2.854272918241738e-05
	3.203732221045166e-06
	2.671334958852582e-01

 36	3.600000000000002e-01
	-3.944711815494671e-15
	-6.139092351768067e-19
	-1.346080016440557e-14
	5.473230618425172e-07
	3.126709262279753e-05
	3.502568545701014e-06
	2.671335210283498e-01

 37	3.700000000000002e-01
	-3.910728542002051e-15
	-6.287408856413138e-19
	-1.358240522552358e-14
	5.873384839255469e-07
	3.425451783780144e-05
	3.829943732145096e-06
	2.671335486749961e-01

 38	3.800000000000002e-01
	-3.877667816746197e-15
	-6.438805505963232e-19
	-1.370251991110127e-14
	6.299146538651524e-07
	3.752924754962069e-05
	4.188607978368622e-06
	2.671335790814832e-01

 39	3.900000000000002e-01
	-3.845525754373281e-15
	-6.593334335406284e-19
	-1.382111916637172e-14
	6.751821811752320e-07
	4.111737009114623e-05
	4.581563055310094e-06
	2.671336125297221e-01

 40	4.000000000000002e-01
	-3.814297833371742e-15
	-6.751048214786853e-19
	-1.393817972514370e-14
	7.232755650629070e-07
	4.504688425110828e-05
	5.012081090517551e-06
	2.671336493294936e-01

 41	4.100000000000002e-01
	-3.783978915109030e-15
	-6.912000871402327e-19
	-1.405368010121191e-14
	7.743330879169971e-07
	4.934775345027202e-05
	5.483723948044681e-06
	2.671336898208139e-01

 42	4.200000000000002e-01
	-3.754563263794216e-15
	-7.076246912620851e-19
	-1.416760057618353e-14
	8.284966870681211e-07
	5.405194684963684e-05
	6.000363085918019e-06
	2.671337343764142e-01

 43	4.300000000000002e-01
	-3.726044567273183e-15
	-7.243841849321922e-19
	-1.427992318387194e-14
	8.859118038535966e-07
	5.919346483467080e-05
	6.566199747704176e-06
	2.671337834043529e-01

 44	4.400000000000002e-01
	-3.698415958562958e-15
	-7.414842119969798e-19
	-1.439063169141753e-14
	9.467272090901494e-07
	6.480834619052530e-05
	7.185785318464177e-06
	2.671338373507003e-01

 45	4.500000000000002e-01
	-3.671670038032733e-15
	-7.589305115323455e-19
	-1.449971157730127e-14
	1.011094804143998e-06
	7.093465419001266e-05
	7.864041648019865e-06
	2.671338967023215e-01

 46	4.600000000000002e-01
	-3.645798896139897e-15
	-7.767289203791185e-19
	-1.460715000642303e-14
	1.079169396892308e-06
	7.761243876750510e-05
	8.606281116380391e-06
	2.671339619897339e-01

 47	4.700000000000003e-01
	-3.620794136631163e-15
	-7.948853757439947e-19
	-1.471293580242136e-14
	1.151108451994611e-06
	8.488367195670868e-05
	9.418226187879740e-06
	2.671340337899735e-01

 48	4.800000000000003e-01
	-3.596646900120736e-15
	-8.134059178661783e-19
	-1.481705941741429e-14
	1.227071815037168e-06
	9.279215383719086e-05
	1.030602817262372e-05
	2.671341127295032e-01

 49	4.900000000000003e-01
	-3.573347887959462e-15
	-8.322966927512325e-19
	-1.491951289934404e-14
	1.307221410280822e-06
	1.013833863722746e-04
	1.127628488692432e-05
	2.671341994870789e-01

 50	5.000000000000002e-01
	-3.550887386311880e-15
	-8.515639549728185e-19
	-1.502028985710935e-14
	1.391720911932065e-06
	1.107044127370977e-04
	1.233605687923561e-05
	2.671342947965655e-01

 51	5.100000000000002e-01
	-3.529255290360379e-15
	-8.712140705431463e-19
	-1.511938542367026e-14
	1.480735389070526e-06
	1.208036200371845e-04
	1.349288186554061e-05
	2.671343994496334e-01

 52	5.200000000000002e-01
	-3.508441128559380e-15
	-8.912535198535609e-19
	-1.521679621730902e-14
	1.574430924601971e-06
	1.317305037098570e-04
	1.475478699903416e-05
	2.671345142983256e-01

 53	5.300000000000002e-01
	-3.488434086865154e-15
	-9.116889006862341e-19
	-1.531252030123042e-14
	1.672974208866133e-06
	1.435353923866703e-04
	1.613029858425276e-05
	2.671346402573722e-01

 54	5.400000000000003e-01
	-3.469223032871011e-15
	-9.325269312979993e-19
	-1.540655714168163e-14
	1.776532108809209e-06
	1.562691325753463e-04
	1.762844883642644e-05
	2.671347783062836e-01

 55	5.500000000000003e-01
	-3.450796539780604e-15
	-9.537744535778813e-19
	-1.549890756477000e-14
	1.885271213933843e-06
	1.699827331927030e-04
	1.925877928375764e-05
	2.671349294910845e-01

 56	5.600000000000003e-01
	-3.433142910156549e-15
	-9.754384362796915e-19
	-1.558957371215240e-14
	1.999357360558652e-06
	1.847269707401594e-04
	2.103134041442113e-05
	2.671350949256538e-01

 57	5.700000000000003e-01
	-3.416250199384849e-15
	-9.975259783305628e-19
	-1.567855899576649e-14
	2.118955136254604e-06
	2.005519567518970e-04
	2.295668718219296e-05
	2.671352757926109e-01

 58	5.800000000000003e-01
	-3.400106238800026e-15
	-1.020044312217721e-18
	-1.576586805176899e-14
	2.244227366671465e-06
	2.175066700498626e-04
	2.504587000546846e-05
	2.671354733436497e-01

 59	5.900000000000003e-01
	-3.384698658419618e-15
	-1.043000807454369e-18
	-1.585150669384044e-14
	2.375334587318907e-06
	2.356384572927608e-04
	2.731042092457926e-05
	2.671356888992879e-01

 60	6.000000000000003e-01
	-3.370014909240754e-15
	-1.066402974126573e-18
	-1.593548186601088e-14
	2.512434503219832e-06
	2.549925062877695e-04
	2.976233462219241e-05
	2.671359238479404e-01

 61	6.100000000000003e-01
	-3.356042285055554e-15
	-1.090258466522891e-18
	-1.601780159515406e-14
	2.655681439699080e-06
	2.756112975194337e-04
	3.241404406129233e-05
	2.671361796442502e-01

 62	6.200000000000003e-01
	-3.342767943746207e-15
	-1.114575086848315e-18
	-1.609847494329122e-14
	2.805225787903694e-06
	2.975340403130366e-04
	3.527839055474977e-05
	2.671364578066547e-01

 63	6.300000000000003e-01
	-3.330178928024128e-15
	-1.139360789024550e-18
	-1.617751195983959e-14
	2.961213448963098e-06
	3.207961009596394e-04
	3.836858814937913e-05
	2.671367599140937e-01

 64	6.400000000000003e-01
	-3.318262185581988e-15
	-1.164623682578292e-18
	-1.625492363393232e-14
	3.123785280979899e-06
	3.454284309552877e-04
	4.169818228497346e-05
	2.671370876018620e-01

 65	6.500000000000004e-01
	-3.307004588630700e-15
	-1.190372036619560e-18
	-1.633072184693100e-14
	3.293076553287663e-06
	3.714570042154030e-04
	4.528100277410286e-05
	2.671374425565618e-01

 66	6.600000000000004e-01
	-3.296392952797402e-15
	-1.216614283912269e-18
	-1.640491932524328e-14
	3.469216412611454e-06
	3.989022726850744e-04
	4.913111124010464e-05
	2.671378265101332e-01

 67	6.700000000000004e-01
	-3.286414055363886e-15
	-1.243359025038809e-18
	-1.647752959355194e-14
	3.652327365912632e-06
	4.277786501468774e-04
	5.326274324705146e-05
	2.671382412329938e-01

 68	6.800000000000004e-01
	-3.277054652828573e-15
	-1.270615032660893e-18
	-1.654856692855370e-14
	3.842524784784359e-06
	4.580940342030873e-04
	5.769024545462802e-05
	2.671386885263005e-01

 69	6.900000000000004e-01
	-3.268301497778055e-15
	-1.298391255878914e-18
	-1.661804631329936e-14
	4.039916436281566e-06
	4.898493763563576e-04
	6.242800823059538e-05
	2.671391702133690e-01

 70	7.000000000000004e-01
	-3.260141355057673e-15
	-1.326696824692250e-18
	-1.668598339221952e-14
	4.244602045013985e-06
	5.230383098157113e-04
	6.749039425150383e-05
	2.671396881302964e-01

 71	7.100000000000004e-01
	-3.252561017233621e-15
	-1.355541054562637e-18
	-1.675239442691298e-14
	4.456672891198471e-06
	5.576468441035899e-04
	7.289166371601060e-05
	2.671402441159165e-01

 72	7.200000000000004e-01
	-3.245547319341612e-15
	-1.384933451082938e-18
	-1.681729625276853e-14
	4.676211449157863e-06
	5.936531347337306e-04
	7.864589688206835e-05
	2.671408400011272e-01

 73	7.300000000000004e-01
	-3.239087152920119e-15
	-1.414883714754510e-18
	-1.688070623648363e-14
	4.903291070464021e-06
	6.310273351758251e-04
	8.476691471676928e-05
	2.671414775977373e-01

 74	7.400000000000004e-01
	-3.233167479328635e-15
	-1.445401745875028e-18
	-1.694264223453742e-14
	5.137975715558353e-06
	6.697315370381508e-04
	9.126819851343066e-05
	2.671421586869619e-01

 75	7.500000000000004e-01
	-3.227775342353575e-15
	-1.476497649539934e-18
	-1.700312255266924e-14
	5.380319737245571e-06
	7.097198029089295e-04
	9.816280938235928e-05
	2.671428850076943e-01

 76	7.600000000000005e-01
	-3.222897880107055e-15
	-1.508181740760423e-18
	-1.706216590640731e-14
	5.630367718952294e-06
	7.509382946351274e-04
	1.054633085577477e-04
	2.671436582447335e-01

 77	7.700000000000005e-01
	-3.218522336225205e-15
	-1.540464549700870e-18
	-1.711979138268748e-14
	5.888154370081113e-06
	7.933254980254643e-04
	1.131816794818597e-04
	2.671444800170918e-01

 78	7.800000000000005e-01
	-3.214636070375125e-15
	-1.573356827038913e-18
	-1.717601840259532e-14
	6.153704480178916e-06
	8.368125430899779e-04
	1.213292526279184e-04
	2.671453518665865e-01

 79	7.900000000000005e-01
	-3.211226568080999e-15
	-1.606869549451351e-18
	-1.723086668526035e-14
	6.427032932992226e-06
	8.813236170245951e-04
	1.299166340044719e-04
	2.671462752468580e-01

 80	8.000000000000005e-01
	-3.208281449881268e-15
	-1.641013925230153e-18
	-1.728435621292603e-14
	6.708144780809462e-06
	9.267764652701249e-04
	1.389536382463630e-04
	2.671472515129657e-01

 81	8.100000000000005e-01
	-3.205788479830724e-15
	-1.675801400031080e-18
	-1.733650719721372e-14
	6.997035378806332e-06
	9.730829741766554e-04
	1.484492271413425e-04
	2.671482819117466e-01

 82	8.200000000000005e-01
	-3.203735573361860e-15
	-1.711243662759872e-18
	-1.738734004659584e-14
	7.293690578430152e-06
	1.020149827140220e-03
	1.584114543679783e-04
	2.671493675730436e-01

 83	8.300000000000005e-01
	-3.202110804521672e-15
	-1.747352651600070e-18
	-1.743687533508709e-14
	7.598086978192504e-06
	1.067879224598069e-03
	1.688474171313304e-04
	2.671505095019308e-01

 84	8.400000000000005e-01
	-3.200902412600466e-15
	-1.784140560186220e-18
	-1.748513377216072e-14
	7.910192229603123e-06
	1.116169657015818e-03
	1.797632152800279e-04
	2.671517085720762e-01

 85	8.500000000000005e-01
	-3.200098808170481e-15
	-1.821619843927983e-18
	-1.753213617389115e-14
	8.229965395381891e-06
	1.164916719009913e-03
	1.911639183743568e-04
	2.671529655202884e-01

 86	8.600000000000005e-01
	-3.199688578552558e-15
	-1.859803226489457e-18
	-1.757790343532208e-14
	8.557357356541851e-06
	1.214013952048813e-03
	2.030535410525060e-04
	2.671542809423258e-01

 87	8.700000000000006e-01
	-3.199660492729886e-15
	-1.898703706429257e-18
	-1.762245650405496e-14
	8.892311264451971e-06
	1.263353702782311e-03
	2.154350269142061e-04
	2.671556552900263e-01

 88	8.800000000000006e-01
	-3.200003505728131e-15
	-1.938334564006548e-18
	-1.766581635505011e-14
	9.234763033575001e-06
	1.312827983966659e-03
	2.283102410108035e-04
	2.671570888697443e-01

 89	8.900000000000006e-01
	-3.200706762481953e-15
	-1.978709368158907e-18
	-1.770800396662926e-14
	9.584641870234118e-06
	1.362329325178245e-03
	2.416799709013451e-04
	2.671585818421303e-01

 90	9.000000000000006e-01
	-3.201759601207503e-15
	-2.019841983657836e-18
	-1.774904029766644e-14
	9.941870832500710e-06
	1.411751601025855e-03
	2.555439361086197e-04
	2.671601342231632e-01

 91	9.100000000000006e-01
	-3.203151556301784e-15
	-2.061746578448297e-18
	-1.778894626595046e-14
	1.030636741611097e-05
	1.460990825356169e-03
	2.699008056899677e-04
	2.671617458864765e-01

 92	9.200000000000006e-01
	-3.204872360788534e-15
	-2.104437631178630e-18
	-1.782774272770099e-14
	1.067804416121722e-05
	1.509945900967883e-03
	2.847482235277784e-04
	2.671634165668113e-01

 93	9.300000000000006e-01
	-3.206911948331485e-15
	-2.147929938927310e-18
	-1.786545045821737e-14
	1.105680927475127e-05
	1.558519315566735e-03
	3.000828408457839e-04
	2.671651458645983e-01

 94	9.400000000000006e-01
	-3.209260454834915e-15
	-2.192238625133755e-18
	-1.790209013363766e-14
	1.144256726322603e-05
	1.606617776065441e-03
	3.159003553716428e-04
	2.671669332515145e-01

 95	9.500000000000006e-01
	-3.211908219651775e-15
	-2.237379147740779e-18
	-1.793768231378382e-14
	1.183521957091583e-05
	1.654152774812083e-03
	3.321955564948702e-04
	2.671687780769185e-01

 96	9.600000000000006e-01
	-3.214845786419426e-15
	-2.283367307554649e-18
	-1.797224742606670e-14
	1.223466521853429e-05
	1.701041082872257e-03
	3.489623757129317e-04
	2.671706795750836e-01

 97	9.700000000000006e-01
	-3.218063903542468e-15
	-2.330219256831774e-18
	-1.800580575042425e-14
	1.264080143776342e-05
	1.747205167049523e-03
	3.661939416177351e-04
	2.671726368730456e-01

 98	9.800000000000006e-01
	-3.221553524342218e-15
	-2.377951508098935e-18
	-1.803837740526398e-14
	1.305352429726710e-05
	1.792573528861420e-03
	3.838826386494433e-04
	2.671746489989888e-01

 99	9.900000000000007e-01
	-3.225305806891885e-15
	-2.426580943215539e-18
	-1.806998233438049e-14
	1.347272931614519e-05
	1.837080965157907e-03
	4.020201688344865e-04
	2.671767148910189e-01

 100	1.000000000000001e+00
	-3.229312113555997e-15
	-2.476124822685021e-18
	-1.810064029481780e-14
	1.389831206113642e-05
	1.880668751440601e-03
	4.205976157286426e-04
	2.671788334062281e-01

 101	1.010000000000001e+00
	-3.233564010252426e-15
	-2.526600795225509e-18
	-1.813037084564551e-14
