Title: ** sch_path: /home/andylithia/openmpw/project-yatsuhashi-chip1/xschem/gmid_test/nmos_test.sch
Date: Sun Jul 17 22:51:45  2022
Plotname: DC transfer characteristic
Flags: real
No. Variables: 8
No. Points: 181
Variables:
	0	v(v-sweep)	voltage
	1	@m.xm1.msky130_fd_pr__nfet_01v8[cgb]	capacitance
	2	@m.xm1.msky130_fd_pr__nfet_01v8[cgd]	capacitance
	3	@m.xm1.msky130_fd_pr__nfet_01v8[cgs]	capacitance
	4	@m.xm1.msky130_fd_pr__nfet_01v8[gds]	admittance
	5	@m.xm1.msky130_fd_pr__nfet_01v8[gm]	admittance
	6	i(@m.xm1.msky130_fd_pr__nfet_01v8[id])	current
	7	v(@m.xm1.msky130_fd_pr__nfet_01v8[vth])	voltage
Values:
 0	0.000000000000000e+00
	-1.290692821440303e-14
	-6.697054769026309e-18
	-2.535490604099126e-14
	2.251819774644577e-08
	7.377006583474606e-07
	9.429980505820706e-08
	1.791279881645689e-01

 1	1.000000000000000e-02
	-1.276618776202370e-14
	-6.878532537112962e-18
	-2.568992918041504e-14
	2.425222055460529e-08
	7.976911823547318e-07
	1.019727813318516e-07
	1.791279890921356e-01

 2	2.000000000000000e-02
	-1.262732751639559e-14
	-7.065074476655346e-18
	-2.602428922846426e-14
	2.611265992369586e-08
	8.626646654160115e-07
	1.102702289324430e-07
	1.791279900951961e-01

 3	3.000000000000000e-02
	-1.249037418598854e-14
	-7.256828917558917e-18
	-2.635787312861482e-14
	2.810800239662559e-08
	9.330586665180707e-07
	1.192441320706587e-07
	1.791279911800408e-01

 4	4.000000000000000e-02
	-1.235535352624970e-14
	-7.453948901264544e-18
	-2.669056874543090e-14
	3.024723464336969e-08
	1.009352465513554e-06
	1.289510557721640e-07
	1.791279923535052e-01

 5	5.000000000000000e-02
	-1.222229029401005e-14
	-7.656592347259696e-18
	-2.702226499870047e-14
	3.253986691144537e-08
	1.092071305581053e-06
	1.394525839565453e-07
	1.791279936230393e-01

 6	6.000000000000000e-02
	-1.209120820449765e-14
	-7.864922226151551e-18
	-2.735285199497584e-14
	3.499595711892434e-08
	1.181791061337856e-06
	1.508158020389386e-07
	1.791279949967541e-01

 7	7.000000000000001e-02
	-1.196212989103531e-14
	-8.079106739587601e-18
	-2.768222115620412e-14
	3.762613557833907e-08
	1.279143369370345e-06
	1.631138284929522e-07
	1.791279964834916e-01

 8	8.000000000000000e-02
	-1.183507686749198e-14
	-8.299319507322688e-18
	-2.801026534514579e-14
	4.044163033819366e-08
	1.384821259879692e-06
	1.764264001908975e-07
	1.791279980928932e-01

 9	9.000000000000000e-02
	-1.171006949354731e-14
	-8.525739761745699e-18
	-2.833687898729165e-14
	4.345429312719371e-08
	1.499585329960300e-06
	1.908405167335149e-07
	1.791279998354812e-01

 10	9.999999999999999e-02
	-1.158712694282037e-14
	-8.758552550196245e-18
	-2.866195818900184e-14
	4.667662588478099e-08
	1.624270500689338e-06
	2.064511493949888e-07
	1.791280017227386e-01

 11	1.100000000000000e-01
	-1.146626717390334e-14
	-8.997948945411765e-18
	-2.898540085160523e-14
	5.012180786008644e-08
	1.759793401655091e-06
	2.233620207382272e-07
	1.791280037672086e-01

 12	1.200000000000000e-01
	-1.134750690433175e-14
	-9.244126264469746e-18
	-2.930710678121357e-14
	5.380372326006647e-08
	1.907160427731438e-06
	2.416864613978313e-07
	1.791280059825986e-01

 13	1.300000000000000e-01
	-1.123086158751297e-14
	-9.497288296599968e-18
	-2.962697779402101e-14
	5.773698942629955e-08
	2.067476513748094e-06
	2.615483509806987e-07
	1.791280083838939e-01

 14	1.400000000000000e-01
	-1.111634539262540e-14
	-9.757645540265371e-18
	-2.994491781687706e-14
	6.193698551873955e-08
	2.241954673139385e-06
	2.830831504932255e-07
	1.791280109874710e-01

 15	1.500000000000000e-01
	-1.100397118749061e-14
	-1.002541544992390e-17
	-3.026083298293798e-14
	6.641988168367444e-08
	2.431926346596509e-06
	3.064390341649479e-07
	1.791280138112572e-01

 16	1.600000000000000e-01
	-1.089375052441171e-14
	-1.030082269291154e-17
	-3.057463172222314e-14
	7.120266868219282e-08
	2.638852606113678e-06
	3.317781289961534e-07
	1.791280168748571e-01

 17	1.700000000000000e-01
	-1.078569362896137e-14
	-1.058409941689770e-17
	-3.088622484691769e-14
	7.630318795461849e-08
	2.864336258508189e-06
	3.592778708046554e-07
	1.791280201997347e-01

 18	1.800000000000000e-01
	-1.067980939169436e-14
	-1.087548552839758e-17
	-3.119552563128615e-14
	8.174016209572550e-08
	3.110134890411898e-06
	3.891324859781549e-07
	1.791280238093838e-01

 19	1.900000000000000e-01
	-1.057610536274972e-14
	-1.117522898283967e-17
	-3.150244988607918e-14
	8.753322571497124e-08
	3.378174893762847e-06
	4.215546085442760e-07
	1.791280277295227e-01

 20	2.000000000000000e-01
	-1.047458774930005e-14
	-1.148358608671861e-17
	-3.180691602733535e-14
	9.370295665560365e-08
	3.670566506860460e-06
	4.567770425416298e-07
	1.791280319883133e-01

 21	2.100000000000000e-01
	-1.037526141579607e-14
	-1.180082181238544e-17
	-3.210884513950130e-14
	1.002709075462865e-07
	3.989619900966375e-06
	4.950546800014050e-07
	1.791280366165925e-01

 22	2.200000000000001e-01
	-1.027812988694711e-14
	-1.212721012605678e-17
	-3.240816103281257e-14
	1.072596376588278e-07
	4.337862336112077e-06
	5.366665851180740e-07
	1.791280416481157e-01

 23	2.300000000000001e-01
	-1.018319535337104e-14
	-1.246303432965068e-17
	-3.270479029489578e-14
	1.146927450457466e-07
	4.718056402091567e-06
	5.819182553869548e-07
	1.791280471198434e-01

 24	2.400000000000001e-01
	-1.009045867983896e-14
	-1.280858741709130e-17
	-3.299866233657512e-14
	1.225948989318191e-07
	5.133219351449950e-06
	6.311440706015594e-07
	1.791280530722291e-01

 25	2.500000000000001e-01
	-9.999919416034516e-15
	-1.316417244575325e-17
	-3.328970943188234e-14
	1.309918723343632e-07
	5.586643520503794e-06
	6.847099406188907e-07
	1.791280595495425e-01

 26	2.600000000000001e-01
	-9.911575809740248e-15
	-1.353010292375083e-17
	-3.357786675229032e-14
	1.399105748879415e-07
	6.081917821934383e-06
	7.430161626999841e-07
	1.791280666002143e-01

 27	2.700000000000001e-01
	-9.825424822358865e-15
	-1.390670321381243e-17
	-3.386307239520631e-14
	1.493790858504491e-07
	6.622950278174011e-06
	8.065004989980334e-07
	1.791280742772156e-01

 28	2.800000000000001e-01
	-9.741462146671154e-15
	-1.429430895452146e-17
	-3.414526740678093e-14
	1.594266872692253e-07
	7.213991548567698e-06
	8.756414843788287e-07
	1.791280826384437e-01

 29	2.900000000000001e-01
	-9.659682226728356e-15
	-1.469326749973713e-17
	-3.442439579910277e-14
	1.700838972879195e-07
	7.859659385058713e-06
	9.509619741978096e-07
	1.791280917471691e-01

 30	3.000000000000001e-01
	-9.580078279771900e-15
	-1.510393837705809e-17
	-3.470040456186796e-14
	1.813825035775849e-07
	8.564963930874309e-06
	1.033032940905900e-06
	1.791281016724830e-01

 31	3.100000000000001e-01
	-9.502642320070658e-15
	-1.552669376622890e-17
	-3.497324366862644e-14
	1.933555968787637e-07
	9.335333754340564e-06
	1.122477527389926e-06
	1.791281124897990e-01

 32	3.200000000000001e-01
	-9.427365184562155e-15
	-1.596191899844242e-17
	-3.524286607772300e-14
	2.060376046454898e-07
	1.017664248555845e-05
	1.219975363754429e-06
	1.791281242813564e-01

 33	3.300000000000001e-01
	-9.354236560182044e-15
	-1.641001307752840e-17
	-3.550922772806322e-14
	2.194643247870563e-07
	1.109523589725745e-05
	1.326267152796925e-06
	1.791281371368023e-01

 34	3.400000000000001e-01
	-9.283245012764150e-15
	-1.687138922408661e-17
	-3.577228752984886e-14
	2.336729595096576e-07
	1.209795924283286e-05
	1.442159527702243e-06
	1.791281511537621e-01

 35	3.500000000000001e-01
	-9.214378017391474e-15
	-1.734647544365962e-17
	-3.603200735043746e-14
	2.487021492672429e-07
	1.319218463448572e-05
	1.568530183460553e-06
	1.791281664384639e-01

 36	3.600000000000002e-01
	-9.147621990078663e-15
	-1.783571512010964e-17
	-3.628835199549133e-14
	2.645920068398665e-07
	1.438583821275924e-05
	1.706333281185566e-06
	1.791281831063965e-01

 37	3.700000000000002e-01
	-9.082962320664884e-15
	-1.833956763541675e-17
	-3.654128918559238e-14
	2.813841515684246e-07
	1.568742682586291e-05
	1.856605121857480e-06
	1.791282012829952e-01

 38	3.800000000000002e-01
	-9.020383406796879e-15
	-1.885850901718411e-17
	-3.679078952850611e-14
	2.991217437873638e-07
	1.710606390334943e-05
	2.020470083029455e-06
	1.791282211043627e-01

 39	3.900000000000002e-01
	-8.959868688882257e-15
	-1.939303261520045e-17
	-3.703682648728656e-14
	3.178495195119747e-07
	1.865149417438553e-05
	2.199146808709267e-06
	1.791282427180171e-01

 40	4.000000000000002e-01
	-8.901400685893951e-15
	-1.994364980847817e-17
	-3.727937634442079e-14
	3.376138254547402e-07
	2.033411684654495e-05
	2.393954638957020e-06
	1.791282662836690e-01

 41	4.100000000000002e-01
	-8.844961031908622e-15
	-2.051089074426546e-17
	-3.751841816221556e-14
	3.584626544662003e-07
	2.216500682734250e-05
	2.606320261728127e-06
	1.791282919740337e-01

 42	4.200000000000002e-01
	-8.790530513262994e-15
	-2.109530511060619e-17
	-3.775393373963558e-14
	3.804456815205759e-07
	2.415593353830157e-05
	2.837784565148115e-06
	1.791283199756554e-01

 43	4.300000000000002e-01
	-8.738089106214844e-15
	-2.169746294410271e-17
	-3.798590756580422e-14
	4.036143003952301e-07
	2.631937684096538e-05
	3.090009663747755e-06
	1.791283504897598e-01

 44	4.400000000000002e-01
	-8.687616014997526e-15
	-2.231795547462796e-17
	-3.821432677038138e-14
	4.280216612268677e-07
	2.866853956676997e-05
	3.364786067239219e-06
	1.791283837331253e-01

 45	4.500000000000002e-01
	-8.639089710159959e-15
	-2.295739600882325e-17
	-3.843918107103478e-14
	4.537227091666312e-07
	3.121735611901791e-05
	3.664039955209739e-06
	1.791284199389565e-01

 46	4.600000000000002e-01
	-8.592487967087629e-15
	-2.361642085431650e-17
	-3.866046271821978e-14
	4.807742244016663e-07
	3.398049659629803e-05
	3.989840515690150e-06
	1.791284593577855e-01

 47	4.700000000000003e-01
	-8.547787904601858e-15
	-2.429569028669702e-17
	-3.887816643748738e-14
	5.092348638633321e-07
	3.697336587364722e-05
	4.344407299978125e-06
	1.791285022583463e-01

 48	4.800000000000003e-01
	-8.504966023541153e-15
	-2.499588956139389e-17
	-3.909228936953223e-14
	5.391652050025510e-07
	4.021209707158300e-05
	4.730117540418533e-06
	1.791285489284802e-01

 49	4.900000000000003e-01
	-8.463998245228926e-15
	-2.571772997272259e-17
	-3.930283100819820e-14
	5.706277920822527e-07
	4.371353884498018e-05
	5.149513372147323e-06
	1.791285996759833e-01

 50	5.000000000000002e-01
	-8.424859949739235e-15
	-2.646194996247014e-17
	-3.950979313664981e-14
	6.036871855159119e-07
	4.749523593463792e-05
	5.605308894167585e-06
	1.791286548294923e-01

 51	5.100000000000002e-01
	-8.387526013873324e-15
	-2.722931628054489e-17
	-3.971317976192026e-14
	6.384100148716627e-07
	5.157540244538694e-05
	6.100396999653092e-06
	1.791287147392812e-01

 52	5.200000000000002e-01
	-8.351970848766569e-15
	-2.802062520031974e-17
	-3.991299704803893e-14
	6.748650362638835e-07
	5.597288734660315e-05
	6.637855900159996e-06
	1.791287797780691e-01

 53	5.300000000000002e-01
	-8.318168437048270e-15
	-2.883670379146886e-17
	-4.010925324793924e-14
	7.131231949703904e-07
	6.070713173494557e-05
	7.220955263597793e-06
	1.791288503417518e-01

 54	5.400000000000003e-01
	-8.286092369481804e-15
	-2.967841125322234e-17
	-4.030195863434186e-14
	7.532576942444976e-07
	6.579811745566788e-05
	7.853161881479525e-06
	1.791289268500937e-01

 55	5.500000000000003e-01
	-8.255715881017078e-15
	-3.054664031115136e-17
	-4.049112542980289e-14
	7.953440714389682e-07
	7.126630674851001e-05
	8.538144777273995e-06
	1.791290097473312e-01

 56	5.600000000000003e-01
	-8.227011886191992e-15
	-3.144231868072707e-17
	-4.067676773611063e-14
	8.394602827246986e-07
	7.713257266721620e-05
	9.279779664747200e-06
	1.791290995027290e-01

 57	5.700000000000003e-01
	-8.199953013823432e-15
	-3.236641060111913e-17
	-4.085890146320937e-14
	8.856867978730160e-07
	8.341812011818907e-05
	1.008215266314702e-05
	1.791291966110042e-01

 58	5.800000000000003e-01
	-8.174511640933942e-15
	-3.331991844283487e-17
	-4.103754425782017e-14
	9.341067067781061e-07
	9.014439747331379e-05
	1.094956317507675e-05
	1.791293015926891e-01

 59	5.900000000000003e-01
	-8.150659925863650e-15
	-3.430388439304735e-17
	-4.121271543192331e-14
	9.848058396282625e-07
	9.733299883401666e-05
	1.188652583306266e-05
	1.791294149943541e-01

 60	6.000000000000003e-01
	-8.128369840522058e-15
	-3.531939222262921e-17
	-4.138443589125934e-14
	1.037872902892760e-06
	1.050055571570340e-04
	1.289777142225123e-05
	1.791295373887178e-01

 61	6.100000000000003e-01
	-8.107613201738438e-15
	-3.636756913915734e-17
	-4.155272806399787e-14
	1.093399633578772e-06
	1.131836285958322e-04
	1.398824668949493e-05
	1.791296693746247e-01

 62	6.200000000000003e-01
	-8.088361701673693e-15
	-3.744958773036606e-17
	-4.171761582971684e-14
	1.151480974532089e-06
	1.218885685632672e-04
	1.516311295338510e-05
	1.791298115768595e-01

 63	6.300000000000003e-01
	-8.070586937261052e-15
	-3.856666800278090e-17
	-4.187912444882602e-14
	1.212215273910203e-06
	1.311414001786654e-04
	1.642774343563656e-05
	1.791299646458388e-01

 64	6.400000000000003e-01
	-8.054260438646401e-15
	-3.972007952052973e-17
	-4.203728049256221e-14
	1.275704512350446e-06
	1.409626759234960e-04
	1.778771924167851e-05
	1.791301292571063e-01

 65	6.500000000000004e-01
	-8.039353696603420e-15
	-4.091114364958225e-17
	-4.219211177367460e-14
	1.342054561793315e-06
	1.513723334910795e-04
	1.924882392736153e-05
	1.791303061106809e-01

 66	6.600000000000004e-01
	-8.025838188902182e-15
	-4.214123591298019e-17
	-4.234364727791185e-14
	1.411375480407692e-06
	1.623895469741559e-04
	2.081703659935571e-05
	1.791304959302108e-01

 67	6.700000000000004e-01
	-8.013685405613422e-15
	-4.341178846290407e-17
	-4.249191709641455e-14
	1.483781848605811e-06
	1.740325746859471e-04
	2.249852350903028e-05
	1.791306994619649e-01

 68	6.800000000000004e-01
	-8.002866873334124e-15
	-4.472429267576385e-17
	-4.263695235910904e-14
	1.559393151739207e-06
	1.863186050518923e-04
	2.429962811329447e-05
	1.791309174736160e-01

 69	6.900000000000004e-01
	-7.993354178323549e-15
	-4.608030187681877e-17
	-4.277878516919084e-14
	1.638334215740243e-06
	1.992636021365712e-04
	2.622685959090912e-05
	1.791311507528678e-01

 70	7.000000000000004e-01
	-7.985118988541052e-15
	-4.748143420120939e-17
	-4.291744853877936e-14
	1.720735702728508e-06
	2.128821524797404e-04
	2.828687981900966e-05
	1.791314001058573e-01

 71	7.100000000000004e-01
	-7.978133074581576e-15
	-4.892937559864498e-17
	-4.305297632581666e-14
	1.806734674447532e-06
	2.271873150029190e-04
	3.048648883177906e-05
	1.791316663554200e-01

 72	7.200000000000004e-01
	-7.972368329505029e-15
	-5.042588298940467e-17
	-4.318540317227852e-14
	1.896475232351320e-06
	2.421904758103269e-04
	3.283260880118113e-05
	1.791319503391350e-01

 73	7.300000000000004e-01
	-7.967796787561098e-15
	-5.197278757971218e-17
	-4.331476444375580e-14
	1.990109244237411e-06
	2.579012097417846e-04
	3.533226659809761e-05
	1.791322529072329e-01

 74	7.400000000000004e-01
	-7.964390641810445e-15
	-5.357199834499992e-17
	-4.344109617046111e-14
	2.087797168545385e-06
	2.743271505379576e-04
	3.799257501084654e-05
	1.791325749203158e-01

 75	7.500000000000004e-01
	-7.962122260648208e-15
	-5.522550569004269e-17
	-4.356443498970602e-14
	2.189708988830473e-06
	2.914738714478249e-04
	4.082071271654059e-05
	1.791329172469495e-01

 76	7.600000000000005e-01
	-7.960964203235335e-15
	-5.693538529542751e-17
	-4.368481808989009e-14
	2.296025272511054e-06
	3.093447780431899e-04
	4.382390311875623e-05
	1.791332807610974e-01

 77	7.700000000000005e-01
	-7.960889233846755e-15
	-5.870380216034598e-17
	-4.380228315603599e-14
	2.406938369810768e-06
	3.279410149047320e-04
	4.700939218216139e-05
	1.791336663394528e-01

 78	7.800000000000005e-01
	-7.961870335146321e-15
	-6.053301485224262e-17
	-4.391686831689896e-14
	2.522653770912495e-06
	3.472613877087855e-04
	5.038442541074364e-05
	1.791340748586603e-01

 79	7.900000000000005e-01
	-7.963880720399410e-15
	-6.242537997442513e-17
	-4.402861209367494e-14
	2.643391641762782e-06
	3.673023020749030e-04
	5.395622413076086e-05
	1.791345071924405e-01

 80	8.000000000000005e-01
	-7.966893844636919e-15
	-6.438335686333774e-17
	-4.413755335032387e-14
	2.769388561769266e-06
	3.880577203331269e-04
	5.773196125213412e-05
	1.791349642086801e-01

 81	8.100000000000005e-01
	-7.970883414783514e-15
	-6.640951252785368e-17
	-4.424373124552269e-14
	2.900899489893388e-06
	4.095191371399547e-04
	6.171873669247552e-05
	1.791354467664463e-01

 82	8.200000000000005e-01
	-7.975823398765561e-15
	-6.850652684357639e-17
	-4.434718518625524e-14
	3.038199989437735e-06
	4.316755746165544e-04
	6.592355265594417e-05
	1.791359557130028e-01

 83	8.300000000000005e-01
	-7.981688033614480e-15
	-7.067719801586259e-17
	-4.444795478304354e-14
	3.181588746265361e-06
	4.545135974066274e-04
	7.035328896448866e-05
	1.791364918808411e-01

 84	8.400000000000005e-01
	-7.988451832580846e-15
	-7.292444832601178e-17
	-4.454607980682012e-14
	3.331390420386073e-06
	4.780173477592926e-04
	7.501467864154144e-05
	1.791370560847070e-01

 85	8.500000000000005e-01
	-7.996089591277459e-15
	-7.525133017581567e-17
	-4.464160014743674e-14
	3.487958876946749e-06
	5.021686004399534e-04
	7.991428394774861e-05
	1.791376491187138e-01

 86	8.600000000000005e-01
	-8.004576392867133e-15
	-7.766103244648125e-17
	-4.473455577380230e-14
	3.651680849842333e-06
	5.269468369652727e-04
	8.505847306480060e-05
	1.791382717535182e-01

 87	8.700000000000006e-01
	-8.013887612313345e-15
	-8.015688718878580e-17
	-4.482498669563805e-14
	3.822980099628116e-06
	5.523293383529170e-04
	9.045339761683549e-05
	1.791389247335853e-01

 88	8.800000000000006e-01
	-8.023998919711264e-15
	-8.274237666216766e-17
	-4.491293292683559e-14
	4.002322137410122e-06
	5.782912952784419e-04
	9.610497120925715e-05
	1.791396087746070e-01

 89	8.900000000000006e-01
	-8.034886282715993e-15
	-8.542114074142242e-17
	-4.499843445040039e-14
	4.190219598220048e-06
	6.048059342463648e-04
	1.020188491522856e-04
	1.791403245610297e-01

 90	9.000000000000006e-01
	-8.046525968085675e-15
	-8.819698471058414e-17
	-4.508153118496081e-14
	4.387238361401750e-06
	6.318446581148781e-04
	1.082004095212341e-04
	1.791410727437565e-01

 91	9.100000000000006e-01
	-8.058894542356617e-15
	-9.107388746457908e-17
	-4.516226295281899e-14
	4.594004532183907e-06
	6.593771990684654e-04
	1.146547356876387e-04
	1.791418539380339e-01

 92	9.200000000000006e-01
	-8.071968871666766e-15
	-9.405601014027898e-17
	-4.524066944951935e-14
	4.811212418411381e-06
	6.873717819133376e-04
	1.213866004351601e-04
	1.791426687215201e-01

 93	9.300000000000006e-01
	-8.085726120743763e-15
	-9.714770519963430e-17
	-4.531679021490710e-14
	5.039633659990332e-06
	7.157952953798048e-04
	1.284004517519431e-04
	1.791435176325569e-01

 94	9.400000000000006e-01
	-8.100143751073229e-15
	-1.003535259886759e-16
	-4.539066460564784e-14
	5.280127696733883e-06
	7.446134689546918e-04
	1.357004003670894e-04
	1.791444011686633e-01

 95	9.500000000000006e-01
	-8.115199518262228e-15
	-1.036782367973247e-16
	-4.546233176917679e-14
	5.533653793906726e-06
	7.737910526363016e-04
	1.432902090734656e-04
	1.791453197852293e-01

 96	9.600000000000006e-01
	-8.130871468612036e-15
	-1.071268234460922e-16
	-4.553183061904601e-14
	5.801284884977545e-06
	8.032919969027781e-04
	1.511732838524298e-04
	1.791462738944452e-01

 97	9.700000000000006e-01
	-8.147137934913472e-15
	-1.107045044270015e-16
	-4.559919981163504e-14
	6.084223539260140e-06
	8.330796301099460e-04
	1.593526667885837e-04
	1.791472638644372e-01

 98	9.800000000000006e-01
	-8.163977531477519e-15
	-1.144167426272427e-16
	-4.566447772418994e-14
	6.383820419898719e-06
	8.631168304828795e-04
	1.678310307345326e-04
	1.791482900186218e-01

 99	9.900000000000007e-01
	-8.181369148412532e-15
	-1.182692576653650e-16
	-4.572770243415481e-14
	6.701595667015789e-06
	8.933661898314988e-04
	1.766106756571110e-04
	1.791493526352623e-01

 100	1.000000000000001e+00
	-8.199291945158434e-15
	-1.222680388710566e-16
	-4.578891169975813e-14
	7.039263724181145e-06
	9.237901660978412e-04
	1.856935265677049e-04
	1.791504519472206e-01

 101	1.010000000000001e+00
	-8.217725343287428e-15
	-1.264193589408778e-16
	-4.584814294181640e-14
