Title: ** sch_path: /home/andylithia/openmpw/project-yatsuhashi-chip1/xschem/gmid_test/nmos_test.sch
Date: Sun Jul 17 22:51:45  2022
Plotname: DC transfer characteristic
Flags: real
No. Variables: 8
No. Points: 181
Variables:
	0	v(v-sweep)	voltage
	1	@m.xm1.msky130_fd_pr__nfet_01v8[cgb]	capacitance
	2	@m.xm1.msky130_fd_pr__nfet_01v8[cgd]	capacitance
	3	@m.xm1.msky130_fd_pr__nfet_01v8[cgs]	capacitance
	4	@m.xm1.msky130_fd_pr__nfet_01v8[gds]	admittance
	5	@m.xm1.msky130_fd_pr__nfet_01v8[gm]	admittance
	6	i(@m.xm1.msky130_fd_pr__nfet_01v8[id])	current
	7	v(@m.xm1.msky130_fd_pr__nfet_01v8[vth])	voltage
Values:
 0	0.000000000000000e+00
	-2.058672628557407e-14
	-1.346605868666011e-17
	-4.459720779437960e-14
	4.595939444902596e-08
	1.418928645596950e-06
	1.948101410358165e-07
	1.454365931950063e-01

 1	1.000000000000000e-02
	-2.037381143536122e-14
	-1.381548541169762e-17
	-4.511425279930356e-14
	4.920898298332011e-08
	1.526644106965520e-06
	2.095312494630394e-07
	1.454365949987173e-01

 2	2.000000000000000e-02
	-2.016413339202393e-14
	-1.417439729895597e-17
	-4.562954396095955e-14
	5.267528851165584e-08
	1.642787657551886e-06
	2.253710904927764e-07
	1.454365969395181e-01

 3	3.000000000000000e-02
	-1.995772196814360e-14
	-1.454306984170676e-17
	-4.614293181963686e-14
	5.637156737523274e-08
	1.768062575917121e-06
	2.424174105244075e-07
	1.454365990281647e-01

 4	4.000000000000000e-02
	-1.975460551652792e-14
	-1.492178733288014e-17
	-4.665426875404985e-14
	6.031178607395784e-08
	1.903235798189393e-06
	2.607653021709725e-07
	1.454366012763136e-01

 5	5.000000000000000e-02
	-1.955481088426090e-14
	-1.531084317861083e-17
	-4.716340912839652e-14
	6.451065179060571e-08
	2.049143972412148e-06
	2.805178706541665e-07
	1.454366036966014e-01

 6	6.000000000000000e-02
	-1.935836337015251e-14
	-1.571054022421134e-17
	-4.767020943533848e-14
	6.898364375936633e-08
	2.206700069749872e-06
	3.017869634908039e-07
	1.454366063027417e-01

 7	7.000000000000001e-02
	-1.916528668563458e-14
	-1.612119109311796e-17
	-4.817452843462395e-14
	7.374704548157554e-08
	2.376900595915286e-06
	3.246939692542993e-07
	1.454366091096075e-01

 8	8.000000000000000e-02
	-1.897560291914060e-14
	-1.654311853937276e-17
	-4.867622728708411e-14
	7.881797779127616e-08
	2.560833448199647e-06
	3.493706916383308e-07
	1.454366121333633e-01

 9	9.000000000000000e-02
	-1.878933250399651e-14
	-1.697665581424934e-17
	-4.917516968375746e-14
	8.421443277326087e-08
	2.759686465395557e-06
	3.759603055135154e-07
	1.454366153915597e-01

 10	9.999999999999999e-02
	-1.860649418984051e-14
	-1.742214704763536e-17
	-4.967122196990407e-14
	8.995530853632492e-08
	2.974756719654206e-06
	4.046184021494630e-07
	1.454366189032666e-01

 11	1.100000000000000e-01
	-1.842710501758029e-14
	-1.787994764483342e-17
	-5.016425326369273e-14
	9.606044484463685e-08
	3.207460600874915e-06
	4.355141312729535e-07
	1.454366226892254e-01

 12	1.200000000000000e-01
	-1.825118029788572e-14
	-1.835042469946639e-17
	-5.065413556936318e-14
	1.025506596105336e-07
	3.459344745533288e-06
	4.688314481458493e-07
	1.454366267719900e-01

 13	1.300000000000000e-01
	-1.807873359320549e-14
	-1.883395742320530e-17
	-5.114074388468000e-14
	1.094477862524374e-07
	3.732097862854811e-06
	5.047704743703641e-07
	1.454366311760956e-01

 14	1.400000000000000e-01
	-1.790977670328842e-14
	-1.933093759307469e-17
	-5.162395630251348e-14
	1.167747119222114e-07
	4.027563511876935e-06
	5.435489816619595e-07
	1.454366359282399e-01

 15	1.500000000000000e-01
	-1.774431965417778e-14
	-1.984177001712633e-17
	-5.210365410640526e-14
	1.245554166070103e-07
	4.347753883142062e-06
	5.854040083668158e-07
	1.454366410574936e-01

 16	1.600000000000000e-01
	-1.758237069064091e-14
	-2.036687301931522e-17
	-5.257972185999188e-14
	1.328150131115406e-07
	4.694864638454665e-06
	6.305936190371602e-07
	1.454366465954939e-01

 17	1.700000000000000e-01
	-1.742393627198593e-14
	-2.090667894443994e-17
	-5.305204749017815e-14
	1.415797879276343e-07
	5.071290861233037e-06
	6.793988179075877e-07
	1.454366525767064e-01

 18	1.800000000000000e-01
	-1.726902107120876e-14
	-2.146163468407028e-17
	-5.352052236397790e-14
	1.508772429992944e-07
	5.479644168412170e-06
	7.321256276339656e-07
	1.454366590386538e-01

 19	1.900000000000000e-01
	-1.711762797740714e-14
	-2.203220222441295e-17
	-5.398504135894767e-14
	1.607361383925935e-07
	5.922771032502403e-06
	7.891073451541169e-07
	1.454366660222122e-01

 20	2.000000000000000e-01
	-1.696975810138763e-14
	-2.261885921712402e-17
	-5.444550292717161e-14
	1.711865358814473e-07
	6.403772359196737e-06
	8.507069870006736e-07
	1.454366735718991e-01

 21	2.100000000000000e-01
	-1.682541078438768e-14
	-2.322209957412315e-17
	-5.490180915276194e-14
	1.822598434618776e-07
	6.926024361728500e-06
	9.173199368294847e-07
	1.454366817362124e-01

 22	2.200000000000001e-01
	-1.668458360982410e-14
	-2.384243408751845e-17
	-5.535386580286973e-14
	1.939888608093989e-07
	7.493200767917399e-06
	9.893768083138686e-07
	1.454366905679613e-01

 23	2.300000000000001e-01
	-1.654727241797607e-14
	-2.448039107580233e-17
	-5.580158237220859e-14
	2.064078256962062e-07
	8.109296389378868e-06
	1.067346536882074e-06
	1.454367001246671e-01

 24	2.400000000000001e-01
	-1.641347132350219e-14
	-2.513651705754038e-17
	-5.624487212112059e-14
	2.195524613873723e-07
	8.778652074613042e-06
	1.151739714032778e-06
	1.454367104689608e-01

 25	2.500000000000001e-01
	-1.628317273568663e-14
	-2.581137745384064e-17
	-5.668365210722622e-14
	2.334600250378663e-07
	9.505981058501769e-06
	1.243112178134771e-06
	1.454367216690237e-01

 26	2.600000000000001e-01
	-1.615636738130427e-14
	-2.650555732094153e-17
	-5.711784321071799e-14
	2.481693571153266e-07
	1.029639671002621e-05
	1.342068875689823e-06
	1.454367337990693e-01

 27	2.700000000000001e-01
	-1.603304432998939e-14
	-2.721966211434112e-17
	-5.754737015337547e-14
	2.637209318769406e-07
	1.115544166765410e-05
	1.449268006994774e-06
	1.454367469398477e-01

 28	2.800000000000001e-01
	-1.591319102198893e-14
	-2.795431848595389e-17
	-5.797216151139350e-14
	2.801569089327223e-07
	1.208911833773012e-05
	1.565425469963590e-06
	1.454367611791888e-01

 29	2.900000000000001e-01
	-1.579679329817764e-14
	-2.871017511585251e-17
	-5.839214972212998e-14
	2.975211859318439e-07
	1.310392071523742e-05
	1.691319615544243e-06
	1.454367766125889e-01

 30	3.000000000000001e-01
	-1.568383543220869e-14
	-2.948790358024353e-17
	-5.880727108489639e-14
	3.158594524138665e-07
	1.420686746839746e-05
	1.827796327670473e-06
	1.454367933438363e-01

 31	3.100000000000001e-01
	-1.557430016467191e-14
	-3.028819925739535e-17
	-5.921746575592356e-14
	3.352192448724091e-07
	1.540553620866140e-05
	1.975774440003871e-06
	1.454368114856822e-01

 32	3.200000000000001e-01
	-1.546816873912821e-14
	-3.111178227334489e-17
	-5.962267773765310e-14
	3.556500030855608e-07
	1.670809884567507e-05
	2.136251500828520e-06
	1.454368311605343e-01

 33	3.300000000000001e-01
	-1.536542093988851e-14
	-3.195939848928095e-17
	-6.002285486251009e-14
	3.772031277749317e-07
	1.812335790272278e-05
	2.310309896335337e-06
	1.454368525012213e-01

 34	3.400000000000001e-01
	-1.526603513140355e-14
	-3.283182053261271e-17
	-6.041794877132984e-14
	3.999320396642165e-07
	1.966078364199382e-05
	2.499123341158768e-06
	1.454368756517871e-01

 35	3.500000000000001e-01
	-1.516998829913076e-14
	-3.372984887383910e-17
	-6.080791488661640e-14
	4.238922400183344e-07
	2.133055182077238e-05
	2.703963743379990e-06
	1.454369007683340e-01

 36	3.600000000000002e-01
	-1.507725609174414e-14
	-3.465431295143696e-17
	-6.119271238082257e-14
	4.491413727561483e-07
	2.314358186941216e-05
	2.926208449270601e-06
	1.454369280199149e-01

 37	3.700000000000002e-01
	-1.498781286455313e-14
	-3.560607234710222e-17
	-6.157230413984785e-14
	4.757392882436187e-07
	2.511157524982117e-05
	3.167347870798199e-06
	1.454369575894682e-01

 38	3.800000000000002e-01
	-1.490163172399779e-14
	-3.658601801380329e-17
	-6.194665672195797e-14
	5.037481088901807e-07
	2.724705371930969e-05
	3.428993496331940e-06
	1.454369896747986e-01

 39	3.900000000000002e-01
	-1.481868457308847e-14
	-3.759507355923189e-17
	-6.231574031233495e-14
	5.332322966898576e-07
	2.956339718925820e-05
	3.712886282056345e-06
	1.454370244896242e-01

 40	4.000000000000002e-01
	-1.473894215765895e-14
	-3.863419658738276e-17
	-6.267952867347553e-14
	5.642587228702680e-07
	3.207488083141589e-05
	4.020905418311707e-06
	1.454370622646350e-01

 41	4.100000000000002e-01
	-1.466237411330633e-14
	-3.970438010111163e-17
	-6.303799909165340e-14
	5.968967398376663e-07
	3.479671104706668e-05
	4.355077461416056e-06
	1.454371032486251e-01

 42	4.200000000000002e-01
	-1.458894901288982e-14
	-4.080665396870733e-17
	-6.339113231967190e-14
	6.312182556355013e-07
	3.774505987622498e-05
	4.717585817483961e-06
	1.454371477096520e-01

 43	4.300000000000002e-01
	-1.451863441446684e-14
	-4.194208645763627e-17
	-6.373891251612875e-14
	6.672978111674901e-07
	4.093709738589221e-05
	5.110780560333037e-06
	1.454371959362562e-01

 44	4.400000000000002e-01
	-1.445139690954445e-14
	-4.311178583882374e-17
	-6.408132718142367e-14
	7.052126604756782e-07
	4.439102153881264e-05
	5.537188560769349e-06
	1.454372482386879e-01

 45	4.500000000000002e-01
	-1.438720217153012e-14
	-4.431690206497797e-17
	-6.441836709073331e-14
	7.450428544088186e-07
	4.812608500767987e-05
	5.999523899366751e-06
	1.454373049502005e-01

 46	4.600000000000002e-01
	-1.432601500426768e-14
	-4.555862852668230e-17
	-6.475002622418320e-14
	7.868713280689231e-07
	5.216261836513512e-05
	6.500698529328144e-06
	1.454373664283537e-01

 47	4.700000000000003e-01
	-1.426779939054822e-14
	-4.683820389015279e-17
	-6.507630169444331e-14
	8.307839924839923e-07
	5.652204904788685e-05
	7.043833150151825e-06
	1.454374330563480e-01

 48	4.800000000000003e-01
	-1.421251854049045e-14
	-4.815691402078612e-17
	-6.539719367197290e-14
	8.768698310242736e-07
	6.122691546474995e-05
	7.632268246659254e-06
	1.454375052443831e-01

 49	4.900000000000003e-01
	-1.416013493968784e-14
	-4.951609399683858e-17
	-6.571270530813824e-14
	9.252210011592573e-07
	6.630087559425818e-05
	8.269575241510084e-06
	1.454375834310256e-01

 50	5.000000000000002e-01
	-1.411061039702550e-14
	-5.091713021779824e-17
	-6.602284265642368e-14
	9.759329422439454e-07
	7.176870939870004e-05
	8.959567702682300e-06
	1.454376680845852e-01

 51	5.100000000000002e-01
	-1.406390609207226e-14
	-5.236146261228341e-17
	-6.632761459195443e-14
	1.029104490127977e-06
	7.765631436901094e-05
	9.706312540593303e-06
	1.454377597044887e-01

 52	5.200000000000002e-01
	-1.401998262196081e-14
	-5.385058695053451e-17
	-6.662703272954209e-14
	1.084837999500866e-06
	8.399069350992550e-05
	1.051414112264535e-05
	1.454378588226368e-01

 53	5.300000000000002e-01
	-1.397880004766938e-14
	-5.538605726684523e-17
	-6.692111134046488e-14
	1.143239475023494e-06
	9.079993507823349e-05
	1.138766022607840e-05
	1.454379660047564e-01

 54	5.400000000000003e-01
	-1.394031793962653e-14
	-5.696948839759716e-17
	-6.720986726818410e-14
	1.204418712452061e-06
	9.811318339994050e-05
	1.233176274319713e-05
	1.454380818517035e-01

 55	5.500000000000003e-01
	-1.390449542256371e-14
	-5.860255864081851e-17
	-6.749331984319536e-14
	1.268489451137956e-06
	1.059606001155821e-04
	1.335163804640058e-05
	1.454382070007346e-01

 56	5.600000000000003e-01
	-1.387129121954443e-14
	-6.028701254354845e-17
	-6.777149079720894e-14
	1.335569539488680e-06
	1.143733152378623e-04
	1.445278191409886e-05
	1.454383421267269e-01

 57	5.700000000000003e-01
	-1.384066369510426e-14
	-6.202466382361994e-17
	-6.804440417684360e-14
	1.405781115203637e-06
	1.233833674530348e-04
	1.564100591267002e-05
	1.454384879433135e-01

 58	5.800000000000003e-01
	-1.381257089744089e-14
	-6.381739843281811e-17
	-6.831208625701485e-14
	1.479250802357451e-06
	1.330236331576994e-04
	1.692244612421139e-05
	1.454386452039555e-01

 59	5.900000000000003e-01
	-1.378697059959640e-14
	-6.566717776875911e-17
	-6.857456545419045e-14
	1.556109927696706e-06
	1.433277437966094e-04
	1.830357110512014e-05
	1.454388147029193e-01

 60	6.000000000000003e-01
	-1.376382033958036e-14
	-6.757604204325689e-17
	-6.883187223967913e-14
	1.636494758847094e-06
	1.543299911549551e-04
	1.979118895662394e-05
	1.454389972761225e-01

 61	6.100000000000003e-01
	-1.374307745938484e-14
	-6.954611381531619e-17
	-6.908403905311188e-14
	1.720546767501893e-06
	1.660652203606119e-04
	2.139245338541912e-05
	1.454391938018817e-01

 62	6.200000000000003e-01
	-1.372469914284844e-14
	-7.157960169737893e-17
	-6.933110021626609e-14
	1.808412921084641e-06
	1.785687104678850e-04
	2.311486863070715e-05
	1.454394052015082e-01

 63	6.300000000000003e-01
	-1.370864245232919e-14
	-7.367880424391116e-17
	-6.957309184737844e-14
	1.900246006854759e-06
	1.918760426239260e-04
	2.496629313328214e-05
	1.454396324397465e-01

 64	6.400000000000003e-01
	-1.369486436415131e-14
	-7.584611403189225e-17
	-6.981005177608073e-14
	1.996204992961065e-06
	2.060229559614763e-04
	2.695494182304575e-05
	1.454398765250496e-01

 65	6.500000000000004e-01
	-1.368332180279394e-14
	-7.808402194331020e-17
	-7.004201945908942e-14
	2.096455431552938e-06
	2.210451915158519e-04
	2.908938690354104e-05
	1.454401385096708e-01

 66	6.600000000000004e-01
	-1.367397167379407e-14
	-8.039512166031668e-17
	-7.026903589676900e-14
	2.201169909740344e-06
	2.369783246286306e-04
	3.137855701590737e-05
	1.454404194895432e-01

 67	6.700000000000004e-01
	-1.366677089533988e-14
	-8.278211438426086e-17
	-7.049114355068267e-14
	2.310528554962827e-06
	2.538575864734781e-04
	3.383173467015918e-05
	1.454407206039693e-01

 68	6.800000000000004e-01
	-1.366167642853320e-14
	-8.524781379043831e-17
	-7.070838626223709e-14
	2.424719602195148e-06
	2.717176755187717e-04
	3.645855183896226e-05
	1.454410430350714e-01

 69	6.900000000000004e-01
	-1.365864530630395e-14
	-8.779515123105548e-17
	-7.092080917251921e-14
	2.543940031397505e-06
	2.905925599245231e-04
	3.926898361816454e-05
	1.454413880070053e-01

 70	7.000000000000004e-01
	-1.365763466096239e-14
	-9.042718119954675e-17
	-7.112845864341576e-14
	2.668396284726543e-06
	3.105152720545802e-04
	4.227333986925388e-05
	1.454417567849355e-01

 71	7.100000000000004e-01
	-1.365860175037730e-14
	-9.314708707014423e-17
	-7.133138218010051e-14
	2.798305074279240e-06
	3.315176964660527e-04
	4.548225477166809e-05
	1.454421506737498e-01

 72	7.200000000000004e-01
	-1.366150398277202e-14
	-9.595818712730703e-17
	-7.152962835496424e-14
	2.933894292565976e-06
	3.536303529126851e-04
	4.890667422740842e-05
	1.454425710165158e-01

 73	7.300000000000004e-01
	-1.366629894013148e-14
	-9.886394090044892e-17
	-7.172324673305925e-14
	3.075404039528351e-06
	3.768821760638525e-04
	5.255784107664160e-05
	1.454430191926700e-01

 74	7.400000000000004e-01
	-1.367294440021725e-14
	-1.018679558202040e-16
	-7.191228779911897e-14
	3.223087781761783e-06
	4.013002937920548e-04
	5.644727810079550e-05
	1.454434966159335e-01

 75	7.500000000000004e-01
	-1.368139835718866e-14
	-1.049739942133821e-16
	-7.209680288621056e-14
	3.377213661708617e-06
	4.269098060153012e-04
	6.058676880889661e-05
	1.454440047319626e-01

 76	7.600000000000005e-01
	-1.369161904083024e-14
	-1.081859806546337e-16
	-7.227684410606987e-14
	3.538065976997462e-06
	4.537335661926894e-04
	6.498833602337116e-05
	1.454445450157300e-01

 77	7.700000000000005e-01
	-1.370356493438836e-14
	-1.115080096938814e-16
	-7.245246428116204e-14
	3.705946852869920e-06
	4.817919676580935e-04
	6.966421830300659e-05
	1.454451189686472e-01

 78	7.800000000000005e-01
	-1.371719479101969e-14
	-1.149443539795366e-16
	-7.262371687850670e-14
	3.881178133817103e-06
	5.111027370345295e-04
	7.462684426295558e-05
	1.454457281154093e-01

 79	7.900000000000005e-01
	-1.373246764885847e-14
	-1.184994727986093e-16
	-7.279065594529799e-14
	4.064103524218192e-06
	5.416807369974125e-04
	7.988880487427306e-05
	1.454463740006303e-01

 80	8.000000000000005e-01
	-1.374934284470741e-14
	-1.221780210559382e-16
	-7.295333604634736e-14
	4.255091012018865e-06
	5.735377806457816e-04
	8.546282384817438e-05
	1.454470581852023e-01

 81	8.100000000000005e-01
	-1.376778002636101e-14
	-1.259848587159498e-16
	-7.311181220337011e-14
	4.454535614411120e-06
	6.066824596943607e-04
	9.136172623259925e-05
	1.454477822424726e-01

 82	8.200000000000005e-01
	-1.378773916356905e-14
	-1.299250607315622e-16
	-7.326613983613136e-14
	4.662862490203628e-06
	6.411199886146577e-04
	9.759840537042739e-05
	1.454485477541897e-01

 83	8.300000000000005e-01
	-1.380918055764954e-14
	-1.340039274861602e-16
	-7.341637470546442e-14
	4.880530470251554e-06
	6.768520667292041e-04
	1.041857883893930e-04
	1.454493563062848e-01

 84	8.400000000000005e-01
	-1.383206484976134e-14
	-1.382269957758891e-16
	-7.356257285816700e-14
	5.108036065125377e-06
	7.138767600993548e-04
	1.111368004129952e-04
	1.454502094844947e-01

 85	8.500000000000005e-01
	-1.385635302784597e-14
	-1.426000503609512e-16
	-7.370479057377938e-14
	5.345918018357062e-06
	7.521884048447044e-04
	1.184643276991366e-04
	1.454511088698382e-01

 86	8.600000000000005e-01
	-1.388200643224907e-14
	-1.471291361160036e-16
	-7.384308431324300e-14
	5.594762484365917e-06
	7.917775332922031e-04
	1.261811799284006e-04
	1.454520560340003e-01

 87	8.700000000000006e-01
	-1.390898676003227e-14
	-1.518205708113191e-16
	-7.397751066943447e-14
	5.855208922852204e-06
	8.326308240781603e-04
	1.343000518765151e-04
	1.454530525346313e-01

 88	8.800000000000006e-01
	-1.393725606798511e-14
	-1.566809585579731e-16
	-7.410812631956709e-14
	6.127956816430742e-06
	8.747310770190523e-04
	1.428334847152397e-04
	1.454540999105910e-01

 89	8.900000000000006e-01
	-1.396677677434791e-14
	-1.617172039518632e-16
	-7.423498797944740e-14
	6.413773336018405e-06
	9.180572132310138e-04
	1.517938271923698e-04
	1.454551996771902e-01

 90	9.000000000000006e-01
	-1.399751165925458e-14
	-1.669365269532232e-16
	-7.435815235957290e-14
	6.713502099547645e-06
	9.625843006174535e-04
	1.611931969445562e-04
	1.454563533214293e-01

 91	9.100000000000006e-01
	-1.402942386390481e-14
	-1.723464785399260e-16
	-7.447767612305332e-14
	7.028073194624799e-06
	1.008283604463253e-03
	1.710434421958790e-04
	1.454575622972904e-01

 92	9.200000000000006e-01
	-1.406247688847501e-14
	-1.779549571747242e-16
	-7.459361584533346e-14
	7.358514665613050e-06
	1.055122662477519e-03
	1.813561040904896e-04
	1.454588280211088e-01

 93	9.300000000000006e-01
	-1.409663458877422e-14
	-1.837702261285008e-16
	-7.470602797569790e-14
	7.705965701296817e-06
	1.103065383219159e-03
	1.921423798989709e-04
	1.454601518670368e-01

 94	9.400000000000006e-01
	-1.413186117165354e-14
	-1.898009317034171e-16
	-7.481496880053014e-14
	8.071691801999659e-06
	1.152072166425111e-03
	2.034130873253006e-04
	1.454615351626520e-01

 95	9.500000000000006e-01
	-1.416812118917432e-14
	-1.960561224018978e-16
	-7.492049440829980e-14
	8.457102256277627e-06
	1.202100043343422e-03
	2.151786301243401e-04
	1.454629791847201e-01

 96	9.600000000000006e-01
	-1.420537953154059e-14
	-2.025452690892867e-16
	-7.502266065624923e-14
	8.863770318922695e-06
	1.253102834755856e-03
	2.274489652186669e-04
	1.454644851551581e-01

 97	9.700000000000006e-01
	-1.424360141879833e-14
	-2.092782862001635e-16
	-7.512152313874893e-14
	9.293456556228616e-06
	1.305031323959309e-03
	2.402335714782985e-04
	1.454660542371663e-01

 98	9.800000000000006e-01
	-1.428275239130603e-14
	-2.162655540401620e-16
	-7.521713715728861e-14
	9.748135914033844e-06
	1.357833441562171e-03
	2.535414202974045e-04
	1.454676875316298e-01

 99	9.900000000000007e-01
	-1.432279829897607e-14
	-2.235179422373703e-16
	-7.530955769207023e-14
	1.023002917233401e-05
	1.411454458540844e-03
	2.673809480686093e-04
	1.454693860737160e-01

 100	1.000000000000001e+00
	-1.436370528928784e-14
	-2.310468343992332e-16
	-7.539883937516899e-14
	1.074163958136390e-05
	1.465837183588846e-03
	2.817600306178179e-04
	1.454711508297405e-01

 101	1.010000000000001e+00
	-1.440543979407025e-14
	-2.388641540330594e-16
	-7.548503646522422e-14
