Title: ** sch_path: /home/andylithia/openmpw/project-yatsuhashi-chip1/xschem/gmid_test/nmos_test.sch
Date: Tue Jul 19 23:15:45  2022
Plotname: DC transfer characteristic
Flags: real
No. Variables: 8
No. Points: 181
Variables:
	0	v(v-sweep)	voltage
	1	@m.xm1.msky130_fd_pr__nfet_01v8[cgb]	capacitance
	2	@m.xm1.msky130_fd_pr__nfet_01v8[cgd]	capacitance
	3	@m.xm1.msky130_fd_pr__nfet_01v8[cgs]	capacitance
	4	@m.xm1.msky130_fd_pr__nfet_01v8[gds]	admittance
	5	@m.xm1.msky130_fd_pr__nfet_01v8[gm]	admittance
	6	i(@m.xm1.msky130_fd_pr__nfet_01v8[id])	current
	7	v(@m.xm1.msky130_fd_pr__nfet_01v8[vth])	voltage
Values:
 0	0.000000000000000e+00
	-1.951566663426063e-15
	7.019837701045036e-21
	-8.471195653511452e-16
	7.050510270294958e-10
	4.775809455323058e-08
	3.209492548354618e-09
	4.506923214442942e-01

 1	1.000000000000000e-02
	-1.933456188046632e-15
	6.973088612213308e-21
	-8.821889801126730e-16
	8.179361613780270e-10
	5.534873689212845e-08
	3.724105009823604e-09
	4.506923214905172e-01

 2	2.000000000000000e-02
	-1.915191433914256e-15
	6.902232196422231e-21
	-9.183181339286810e-16
	9.486967966453077e-10
	6.412884280350091e-08
	4.320429506319188e-09
	4.506923215440800e-01

 3	3.000000000000000e-02
	-1.896774987567236e-15
	6.805361536954755e-21
	-9.555075043259681e-16
	1.100114493068716e-09
	7.428091297080355e-08
	5.011252035315233e-09
	4.506923216061313e-01

 4	4.000000000000000e-02
	-1.878210284549732e-15
	6.680504255352525e-21
	-9.937550211366045e-16
	1.275391616929613e-09
	8.601459878913215e-08
	5.811316332729552e-09
	4.506923216779949e-01

 5	5.000000000000000e-02
	-1.859501623479819e-15
	6.525625932514290e-21
	-1.033055955947018e-15
	1.478212080264076e-09
	9.957056912663198e-08
	6.737614305643704e-09
	4.506923217612007e-01

 6	6.000000000000000e-02
	-1.840654175571183e-15
	6.338634052555227e-21
	-1.073402822411434e-15
	1.712810144254605e-09
	1.152248974998202e-07
	7.809717682607614e-09
	4.506923218575046e-01

 7	7.000000000000001e-02
	-1.821673989268889e-15
	6.117382462112924e-21
	-1.114785288873178e-15
	1.984048188095423e-09
	1.332940360886637e-07
	9.050156411049558e-09
	4.506923219689326e-01

 8	8.000000000000000e-02
	-1.802567989696930e-15
	5.859676331319152e-21
	-1.157190104684595e-15
	2.297504404916980e-09
	1.541404517428891e-07
	1.048485003808771e-08
	4.506923220978143e-01

 9	9.000000000000000e-02
	-1.783343972658955e-15
	5.563277595971281e-21
	-1.200601041540494e-15
	2.659571439214604e-09
	1.781790093448837e-07
	1.214359911223728e-08
	4.506923222468285e-01

 10	9.999999999999999e-02
	-1.764010592983310e-15
	5.225910853693985e-21
	-1.244998851042054e-15
	3.077567022394477e-09
	2.058841999564899e-07
	1.406064455575096e-08
	4.506923224190527e-01

 11	1.100000000000000e-01
	-1.744577347058796e-15
	4.845269680134448e-21
	-1.290361239587763e-15
	3.559857689924029e-09
	2.377983255340808e-07
	1.627530400125642e-08
	4.506923226180244e-01

 12	1.200000000000000e-01
	-1.725054549467764e-15
	4.419023324646205e-21
	-1.336662861545979e-15
	4.115996669612462e-09
	2.745407691945394e-07
	1.883269528755606e-08
	4.506923228477994e-01

 13	1.300000000000000e-01
	-1.705453303687512e-15
	3.944823738602285e-21
	-1.383875331501394e-15
	4.756877009195912e-09
	3.168185007063591e-07
	2.178455869950357e-08
	4.506923231130321e-01

 14	1.400000000000000e-01
	-1.685785466898567e-15
	3.420312883538534e-21
	-1.431967256186771e-15
	5.494900955049623e-09
	3.654379918235240e-07
	2.519019115443415e-08
	4.506923234190588e-01

 15	1.500000000000000e-01
	-1.666063609008229e-15
	2.843130260938511e-21
	-1.480904286513769e-15
	6.344166493805548e-09
	4.213187461253647e-07
	2.911750742937195e-08
	4.506923237719918e-01

 16	1.600000000000000e-01
	-1.646300966068760e-15
	2.210920600687933e-21
	-1.530649189905194e-15
	7.320671815219006e-09
	4.855086840829436e-07
	3.364424574472661e-08
	4.506923241788287e-01

 17	1.700000000000000e-01
	-1.626511388340502e-15
	1.521341641223625e-21
	-1.581161942908558e-15
	8.442538237217567e-09
	5.592016670476301e-07
	3.885933763610304e-08
	4.506923246475800e-01

 18	1.800000000000000e-01
	-1.606709283319846e-15
	7.720719312322582e-22
	-1.632399843840901e-15
	9.730251841451208e-09
	6.437574945501786e-07
	4.486446512950098e-08
	4.506923251874069e-01

 19	1.900000000000000e-01
	-1.586909554119095e-15
	-3.918141948429688e-23
	-1.684317644980676e-15
	1.120692368834472e-08
	7.407247682472765e-07
	5.177583186672856e-08
	4.506923258087841e-01

 20	2.000000000000000e-01
	-1.567127533648590e-15
	-9.146751135410302e-22
	-1.736867703588630e-15
	1.289856800339258e-08
	8.518670831132888e-07
	5.972617909065718e-08
	4.506923265236837e-01

 21	2.100000000000000e-01
	-1.547378915109849e-15
	-1.856622237677316e-21
	-1.790000150809355e-15
	1.483439714096574e-08
	9.791930813209974e-07
	6.886708237427878e-08
	4.506923273457852e-01

 22	2.200000000000001e-01
	-1.527679679360618e-15
	-2.867185105436372e-21
	-1.843663077283365e-15
	1.704713142983762e-08
	1.124990984788674e-06
	7.937157073091440e-08
	4.506923282907145e-01

 23	2.300000000000001e-01
	-1.508046019757854e-15
	-3.948468441615929e-21
	-1.897802734089453e-15
	1.957332118061133e-08
	1.291868305042482e-06
	9.143711631604876e-08
	4.506923293763186e-01

 24	2.400000000000001e-01
	-1.488494265121537e-15
	-5.102512976187921e-21
	-1.952363747443300e-15
	2.245367718823664e-08
	1.482797508092946e-06
	1.052890503188451e-07
	4.506923306229806e-01

 25	2.500000000000001e-01
	-1.469040801490246e-15
	-6.331289511209639e-21
	-2.007289345404081e-15
	2.573340499767160e-08
	1.701168478863603e-06
	1.211844687668243e-07
	4.506923320539781e-01

 26	2.600000000000001e-01
	-1.449701993358077e-15
	-7.636693519164674e-21
	-2.062521594689486e-15
	2.946253702979389e-08
	1.950848672306877e-06
	1.394167006512536e-07
	4.506923336959013e-01

 27	2.700000000000001e-01
	-1.430494105091062e-15
	-9.020540325118529e-21
	-2.118001645574444e-15
	3.369625540942166e-08
	2.236251840692331e-06
	1.603204197046530e-07
	4.506923355791204e-01

 28	2.800000000000001e-01
	-1.411433223219895e-15
	-1.048456091830187e-20
	-2.173669982751576e-15
	3.849519702990716e-08
	2.562416168345884e-06
	1.842774898247957e-07
	4.506923377383363e-01

 29	2.900000000000001e-01
	-1.392535180294251e-15
	-1.203039843122950e-20
	-2.229466679964808e-15
	4.392573107350821e-08
	2.935092501802343e-06
	2.117236418169875e-07
	4.506923402132022e-01

 30	3.000000000000001e-01
	-1.373815480962540e-15
	-1.365960531648842e-20
	-2.285331656191777e-15
	5.006019794060069e-08
	3.360843106711556e-06
	2.431560848283875e-07
	4.506923430490389e-01

 31	3.100000000000001e-01
	-1.355289230910133e-15
	-1.537364124293152e-20
	-2.341204931147203e-15
	5.697709739375619e-08
	3.847150982498426e-06
	2.791421582907357e-07
	4.506923462976485e-01

 32	3.200000000000001e-01
	-1.336971069249432e-15
	-1.717387172438321e-20
	-2.397026877907255e-15
	6.476121277669629e-08
	4.402539191490412e-06
	3.203291277810179e-07
	4.506923500182439e-01

 33	3.300000000000001e-01
	-1.318875104907414e-15
	-1.906156748532042e-20
	-2.452738470514243e-15
	7.350365751500836e-08
	5.036698884545107e-06
	3.674552190767795e-07
	4.506923542784986e-01

 34	3.400000000000001e-01
	-1.301014857501514e-15
	-2.103790455935081e-20
	-2.508281524509338e-15
	8.330182984335534e-08
	5.760623712271301e-06
	4.213619667208842e-07
	4.506923591557263e-01

 35	3.500000000000001e-01
	-1.283403203134014e-15
	-2.310396510799303e-20
	-2.563598928457166e-15
	9.425926193213405e-08
	6.586747096399582e-06
	4.830079244056168e-07
	4.506923647382023e-01

 36	3.600000000000002e-01
	-1.266052325469538e-15
	-2.526073893927286e-20
	-2.618634864667121e-15
	1.064853503989441e-07
	7.529077417572547e-06
	5.534837422904861e-07
	4.506923711266262e-01

 37	3.700000000000002e-01
	-1.248973672391265e-15
	-2.750912569819088e-20
	-2.673335017479084e-15
	1.200949566673779e-07
	8.603324599610180e-06
	6.340285591479714e-07
	4.506923784357235e-01

 38	3.800000000000002e-01
	-1.232177918460267e-15
	-2.984993769436086e-20
	-2.727646767662559e-15
	1.352078678354932e-07
	9.827009915785025e-06
	7.260475837749446e-07
	4.506923867959771e-01

 39	3.900000000000002e-01
	-1.215674933330269e-15
	-3.228390332590629e-20
	-2.781519371674361e-15
	1.519481116653868e-07
	1.121954922692620e-05
	8.311306501858116e-07
	4.506923963554806e-01

 40	4.000000000000002e-01
	-1.199473756198441e-15
	-3.481167105359128e-20
	-2.834904124726877e-15
	1.704431229895709e-07
	1.280229843882672e-05
	9.510714258476948e-07
	4.506924072818789e-01

 41	4.100000000000002e-01
	-1.183582576302767e-15
	-3.743381387467398e-20
	-2.887754506832947e-15
	1.908227631876464e-07
	1.459854892435721e-05
	1.087886834473694e-06
	4.506924197643590e-01

 42	4.200000000000002e-01
	-1.168008719409230e-15
	-4.015083424247028e-20
	-2.940026311210022e-15
	2.132181993040481e-07
	1.663346020172295e-05
	1.243836129489118e-06
	4.506924340156505e-01

 43	4.300000000000002e-01
	-1.152758640168560e-15
	-4.296316937516795e-20
	-2.991677754642418e-15
	2.377606546869431e-07
	1.893391750506631e-05
	1.421438928170390e-06
	4.506924502739659e-01

 44	4.400000000000002e-01
	-1.137837920163417e-15
	-4.587119689569128e-20
	-3.042669569611937e-15
	2.645800485119290e-07
	2.152830321610921e-05
	1.623491398589653e-06
	4.506924688048105e-01

 45	4.500000000000002e-01
	-1.123251271413580e-15
	-4.887524074375474e-20
	-3.092965078210592e-15
	2.938035469525574e-07
	2.444617358428692e-05
	1.853079692506558e-06
	4.506924899025735e-01

 46	4.600000000000002e-01
	-1.109002545059307e-15
	-5.197557730138663e-20
	-3.142530248042260e-15
	3.255540537848607e-07
	2.771783580571419e-05
	2.113589648865790e-06
	4.506925138918133e-01

 47	4.700000000000003e-01
	-1.095094744902209e-15
	-5.517244167408984e-20
	-3.191333730499276e-15
	3.599486725658990e-07
	3.137382530830417e-05
	2.408711766276382e-06
	4.506925411281216e-01

 48	4.800000000000003e-01
	-1.081530045448858e-15
	-5.846603407150839e-20
	-3.239346881963937e-15
	3.970971759179308e-07
	3.544428882422360e-05
	2.742440469333440e-06
	4.506925719984889e-01

 49	4.900000000000003e-01
	-1.068309814075107e-15
	-6.185652623384930e-20
	-3.286543768631440e-15
	4.371005196240807e-07
	3.995828521088503e-05
	3.119066781022673e-06
	4.506926069210507e-01

 50	5.000000000000002e-01
	-1.055434636908721e-15
	-6.534406785309194e-20
	-3.332901155778941e-15
	4.800494399960609e-07
	4.494302257381788e-05
	3.543163666102950e-06
	4.506926463441449e-01

 51	5.100000000000002e-01
	-1.042904348014213e-15
	-6.892879294147823e-20
	-3.378398482414271e-15
	5.260231721824255e-07
	5.042305652079210e-05
	4.019563527837252e-06
	4.506926907446044e-01

 52	5.200000000000002e-01
	-1.030718061456465e-15
	-7.261082610354535e-20
	-3.423017822327320e-15
	5.750883247068952e-07
	5.641947976028578e-05
	4.553327616705277e-06
	4.506927406252380e-01

 53	5.300000000000002e-01
	-1.018874205818431e-15
	-7.639028867191682e-20
	-3.466743832636864e-15
	6.272979416167584e-07
	6.294913718461203e-05
	5.149707432995298e-06
	4.506927965114962e-01

 54	5.400000000000003e-01
	-1.007370560752470e-15
	-8.026730467147257e-20
	-3.509563690976870e-15
	6.826907783336703e-07
	7.002390256281324e-05
	5.814098558350736e-06
	4.506928589473107e-01

 55	5.500000000000003e-01
	-9.962042951541808e-16
	-8.424200658074864e-20
	-3.551467022498675e-15
	7.412908108715854e-07
	7.765005266632793e-05
	6.551987713131336e-06
	4.506929284902012e-01

 56	5.600000000000003e-01
	-9.853720065612182e-16
	-8.831454086399918e-20
	-3.592445817881595e-15
	8.031069908312561e-07
	8.582777191005555e-05
	7.368894183044993e-06
	4.506930057056966e-01

 57	5.700000000000003e-01
	-9.748697613972344e-16
	-9.248507325164033e-20
	-3.632494343543860e-15
	8.681332508570454e-07
	9.455081548421287e-05
	8.270307065675323e-06
	4.506930911612272e-01

 58	5.800000000000003e-01
	-9.646931357017302e-16
	-9.675379375118438e-20
	-3.671609045231553e-15
	9.363487574350547e-07
	1.038063517769255e-04
	9.261620032921683e-06
	4.506931854196217e-01

 59	5.900000000000003e-01
	-9.548372560100441e-16
	-1.011209213749556e-19
	-3.709788446135424e-15
	1.007718400402067e-06
	1.135749961447401e-04
	1.034806547064314e-05
	4.506932890323943e-01

 60	6.000000000000003e-01
	-9.452968400729858e-16
	-1.055867085748343e-19
	-3.747033040646942e-15
	1.082193501673855e-06
	1.238310384316912e-04
	1.153464992945616e-05
	4.506934025330198e-01

 61	6.100000000000003e-01
	-9.360662371324876e-16
	-1.101514453781166e-19
	-3.783345184816472e-15
	1.159712719787816e-06
	1.345428568043500e-04
	1.282609279519355e-05
	4.506935264303730e-01

 62	6.200000000000003e-01
	-9.271394674973132e-16
	-1.148154632220274e-19
	-3.818728984520032e-15
	1.240203122116730e-06
	1.456735012030829e-04
	1.422676996596388e-05
	4.506936612025558e-01

 63	6.300000000000003e-01
	-9.185102611910269e-16
	-1.195791384877412e-19
	-3.853190182278343e-15
	1.323581393197046e-06
	1.571814216805899e-04
	1.574066411419081e-05
	4.506938072912643e-01

 64	6.400000000000003e-01
	-9.101720954725174e-16
	-1.244428957376055e-19
	-3.886736043604082e-15
	1.409755145589028e-06
	1.690213106437407e-04
	1.737132283165039e-05
	4.506939650968666e-01

 65	6.500000000000004e-01
	-9.021182310570958e-16
	-1.294072106619865e-19
	-3.919375243682083e-15
	1.498624299031145e-06
	1.811450238890883e-04
	1.912182562306769e-05
	4.506941349743120e-01

 66	6.600000000000004e-01
	-8.943417468931770e-16
	-1.344726127444286e-19
	-3.951117755113621e-15
	1.590082494276889e-06
	1.935025434787263e-04
	2.099476035151264e-05
	4.506943172299664e-01

 67	6.700000000000004e-01
	-8.868355733754010e-16
	-1.396396876557609e-19
	-3.981974737381851e-15
	1.684018509760145e-06
	2.060429458941494e-04
	2.299220936939968e-05
	4.506945121194244e-01

 68	6.800000000000004e-01
	-8.795925238998192e-16
	-1.449090793895613e-19
	-4.011958428620971e-15
	1.780317651933396e-06
	2.187153413086754e-04
	2.511574521371836e-05
	4.506947198463107e-01

 69	6.900000000000004e-01
	-8.726053246898205e-16
	-1.502814921526974e-19
	-4.041082040198711e-15
	1.878863093543394e-06
	2.314697538755677e-04
	2.736643542161630e-05
	4.506949405620582e-01

 70	7.000000000000004e-01
	-8.658666428431752e-16
	-1.557576920256992e-19
	-4.069359654550573e-15
	1.979537138023955e-06
	2.442579181948542e-04
	2.974485574699378e-05
	4.506951743666061e-01

 71	7.100000000000004e-01
	-8.593691125703098e-16
	-1.613385084087009e-19
	-4.096806126635678e-15
	2.082222392373621e-06
	2.570339731174129e-04
	3.225111084004319e-05
	4.506954213099347e-01

 72	7.200000000000004e-01
	-8.531053596120771e-16
	-1.670248352689651e-19
	-4.123436989319019e-15
	2.186802835141763e-06
	2.697550403023083e-04
	3.488486129459749e-05
	4.506956813943434e-01

 73	7.300000000000004e-01
	-8.470680238414861e-16
	-1.728176322065798e-19
	-4.149268362923291e-15
	2.293164770293367e-06
	2.823816810445558e-04
	3.764535587321252e-05
	4.506959545773483e-01

 74	7.400000000000004e-01
	-8.412497800683422e-16
	-1.787179253548969e-19
	-4.174316869136154e-15
	2.401197661613688e-06
	2.948782304936698e-04
	4.053146768374107e-05
	4.506962407750820e-01

 75	7.500000000000004e-01
	-8.356433570784052e-16
	-1.847268081321293e-19
	-4.198599549405767e-15
	2.510794845839186e-06
	3.072130132376825e-04
	4.354173309744118e-05
	4.506965398660665e-01

 76	7.600000000000005e-01
	-8.302415549495827e-16
	-1.908454418604925e-19
	-4.222133787908869e-15
	2.621854125784392e-06
	3.193584481761795e-04
	4.667439225905025e-05
	4.506968516952328e-01

 77	7.700000000000005e-01
	-8.250372606970393e-16
	-1.970750562686619e-19
	-4.244937239131685e-15
	2.734278247332547e-06
	3.312910535810090e-04
	4.992743013426725e-05
	4.506971760780794e-01

 78	7.800000000000005e-01
	-8.200234623067331e-16
	-2.034169498929687e-19
	-4.267027760064605e-15
	2.847975266256273e-06
	3.429913652524493e-04
	5.329861715996857e-05
	4.506975128048553e-01

 79	7.900000000000005e-01
	-8.151932612232471e-16
	-2.098724903921334e-19
	-4.288423346976437e-15
	2.962858812443109e-06
	3.544437817892492e-04
	5.678554869787430e-05
	4.506978616446849e-01

 80	8.000000000000005e-01
	-8.105398833625835e-16
	-2.164431147896135e-19
	-4.309142076703679e-15
	3.078848260247092e-06
	3.656363513126155e-04
	6.038568263480495e-05
	4.506982223495413e-01

 81	8.100000000000005e-01
	-8.060566887243702e-16
	-2.231303296570782e-19
	-4.329202052363422e-15
	3.195868814414254e-06
	3.765605136516252e-04
	6.409637461490350e-05
	4.506985946580286e-01

 82	8.200000000000005e-01
	-8.017371796803165e-16
	-2.299357112515195e-19
	-4.348621353376263e-15
	3.313851521387607e-06
	3.872108111555462e-04
	6.791491052543385e-05
	4.506989782988983e-01

 83	8.300000000000005e-01
	-7.975750080174103e-16
	-2.368609056180711e-19
	-4.367417989666508e-15
	3.432733215840527e-06
	3.975845800898685e-04
	7.183853598360105e-05
	4.506993729942831e-01

 84	8.400000000000005e-01
	-7.935639808148763e-16
	-2.439076286694883e-19
	-4.385609859891562e-15
	3.552456412074105e-06
	4.076816331295548e-04
	7.586448268432502e-05
	4.506997784626203e-01

 85	8.500000000000005e-01
	-7.896980652337913e-16
	-2.510776662526330e-19
	-4.403214713540128e-15
	3.672969149497467e-06
	4.175039419000764e-04
	7.998999156624004e-05
	4.507001944212497e-01

 86	8.600000000000005e-01
	-7.859713922973880e-16
	-2.583728742116252e-19
	-4.420250116729304e-15
	3.794224800841927e-06
	4.270553269295002e-04
	8.421233283471922e-05
	4.507006205886967e-01

 87	8.700000000000006e-01
	-7.823782597386119e-16
	-2.657951784563131e-19
	-4.436733421524032e-15
	3.916181851086164e-06
	4.363411608376324e-04
	8.852882294657561e-05
	4.507010566866244e-01

 88	8.800000000000006e-01
	-7.789131339896665e-16
	-2.733465750441698e-19
	-4.452681738597523e-15
	4.038803654329160e-06
	4.453680891552828e-04
	9.293683871203306e-05
	4.507015024414913e-01

 89	8.900000000000006e-01
	-7.755706513858109e-16
	-2.810291302830815e-19
	-4.468111913049167e-15
	4.162058175076196e-06
	4.541437718745671e-04
	9.743382870688873e-05
	4.507019575859224e-01

 90	9.000000000000006e-01
	-7.723456186531249e-16
	-2.888449808615589e-19
	-4.483040503195630e-15
	4.285917719626314e-06
	4.626766477004055e-04
	1.020173222129664e-04
	4.507024218598047e-01

 91	9.100000000000006e-01
	-7.692330127469836e-16
	-2.967963340125980e-19
	-4.497483762151817e-15
	4.410358662490726e-06
	4.709757220123028e-04
	1.066849359196921e-04
	4.507028950111467e-01

 92	9.200000000000006e-01
	-7.662279801049013e-16
	-3.048854677165667e-19
	-4.511457622020747e-15
	4.535361172046237e-06
	4.790503787524363e-04
	1.114343786255878e-04
	4.507033767967116e-01

 93	9.300000000000006e-01
	-7.633258353741249e-16
	-3.131147309481117e-19
	-4.524977680514826e-15
	4.660908938948480e-06
	4.869102158223833e-04
	1.162634541773293e-04
	4.507038669824592e-01

 94	9.400000000000006e-01
	-7.605220596710896e-16
	-3.214865439714618e-19
	-4.538059189835433e-15
	4.786988910203788e-06
	4.945649030829172e-04
	1.211700628772597e-04
	4.507043653438200e-01

 95	9.500000000000006e-01
	-7.578122984263968e-16
	-3.300033986881285e-19
	-4.550717047643032e-15
	4.913591031231421e-06
	5.020240616930423e-04
	1.261522015793134e-04
	4.507048716658026e-01

 96	9.600000000000006e-01
	-7.551923588656684e-16
	-3.386678590403850e-19
	-4.562965789955833e-15
	5.040707997739435e-06
	5.092971632779543e-04
	1.312079626792995e-04
	4.507053857430033e-01

 97	9.700000000000006e-01
	-7.526582071732568e-16
	-3.474825614738494e-19
	-4.574819585821431e-15
	5.168335018790851e-06
	5.163934472636307e-04
	1.363355321896062e-04
	4.507059073794776e-01

 98	9.800000000000006e-01
	-7.502059653825028e-16
	-3.564502154617092e-19
	-4.586292233612574e-15
	5.296469592045607e-06
	5.233218546408557e-04
	1.415331870712765e-04
	4.507064363885521e-01

 99	9.900000000000007e-01
	-7.478319080330051e-16
	-3.655736040932172e-19
	-4.597397158805320e-15
	5.425111291829581e-06
	5.300909764084865e-04
	1.467992919789673e-04
	4.507069725925461e-01

 100	1.000000000000001e+00
	-7.455324586323207e-16
	-3.748555847284207e-19
	-4.608147413104817e-15
	5.554261570396807e-06
	5.367090149803224e-04
	1.521322955569022e-04
	4.507075158224477e-01

 101	1.010000000000001e+00
	-7.433041859563804e-16
	-3.842990897212354e-19
	-4.618555674791474e-15
	5.683923572513950e-06
