Title: ** sch_path: /home/andylithia/openmpw/project-yatsuhashi-chip1/xschem/gmid_test/nmos_test.sch
Date: Tue Jul 19 23:15:45  2022
Plotname: DC transfer characteristic
Flags: real
No. Variables: 8
No. Points: 181
Variables:
	0	v(v-sweep)	voltage
	1	@m.xm1.msky130_fd_pr__nfet_01v8[cgb]	capacitance
	2	@m.xm1.msky130_fd_pr__nfet_01v8[cgd]	capacitance
	3	@m.xm1.msky130_fd_pr__nfet_01v8[cgs]	capacitance
	4	@m.xm1.msky130_fd_pr__nfet_01v8[gds]	admittance
	5	@m.xm1.msky130_fd_pr__nfet_01v8[gm]	admittance
	6	i(@m.xm1.msky130_fd_pr__nfet_01v8[id])	current
	7	v(@m.xm1.msky130_fd_pr__nfet_01v8[vth])	voltage
Values:
 0	0.000000000000000e+00
	-5.811899108065000e-15
	-1.041567517984927e-19
	-4.826638729149670e-15
	1.074443748822758e-09
	6.576284605373226e-08
	5.181171746865519e-09
	3.505966885430956e-01

 1	1.000000000000000e-02
	-5.744592052877874e-15
	-1.080149636152422e-19
	-4.973854435485688e-15
	1.218650034688631e-09
	7.451312031570073e-08
	5.881658422629211e-09
	3.505966886117236e-01

 2	2.000000000000000e-02
	-5.677196917248582e-15
	-1.120035487043742e-19
	-5.123317595374656e-15
	1.381719935569000e-09
	8.440216041305357e-08
	6.675228222565502e-09
	3.505966886894770e-01

 3	3.000000000000000e-02
	-5.609746668420971e-15
	-1.161260172598597e-19
	-5.274942074120553e-15
	1.566021669618460e-09
	9.557442097508815e-08
	7.573976982898673e-09
	3.505966887775406e-01

 4	4.000000000000000e-02
	-5.542275660927682e-15
	-1.203859258700256e-19
	-5.428636113010464e-15
	1.774201080715683e-09
	1.081923058147462e-07
	8.591533074694600e-09
	3.505966888772559e-01

 5	5.000000000000000e-02
	-5.474819525383236e-15
	-1.247868763257887e-19
	-5.584302516969243e-15
	2.009210368951392e-09
	1.224384141560313e-07
	9.743247892489962e-09
	3.505966889901287e-01

 6	6.000000000000000e-02
	-5.407415049541451e-15
	-1.293325144205313e-19
	-5.741838871670142e-15
	2.274339069418286e-09
	1.385180889532511e-07
	1.104641027985766e-08
	3.505966891178566e-01

 7	7.000000000000001e-02
	-5.340100052236085e-15
	-1.340265287498641e-19
	-5.901137789318575e-15
	2.573247316637781e-09
	1.566623137255535e-07
	1.252048813898678e-08
	3.505966892623575e-01

 8	8.000000000000000e-02
	-5.272913250897779e-15
	-1.388726495198044e-19
	-6.062087182069245e-15
	2.910001401965874e-09
	1.771310119657847e-07
	1.418740097293859e-08
	3.505966894257817e-01

 9	9.000000000000000e-02
	-5.205894123409247e-15
	-1.438746473720492e-19
	-6.224570561783255e-15
	3.289111594662088e-09
	2.002168118184012e-07
	1.607182769216283e-08
	3.505966896105593e-01

 10	9.999999999999999e-02
	-5.139082765121966e-15
	-1.490363322351209e-19
	-6.388467364589701e-15
	3.715572153404819e-09
	2.262493483393898e-07
	1.820155469111238e-08
	3.505966898194288e-01

 11	1.100000000000000e-01
	-5.072519741911807e-15
	-1.543615522103093e-19
	-6.553653298481808e-15
	4.194903403395627e-09
	2.556001861626540e-07
	2.060786997578418e-08
	3.505966900554696e-01

 12	1.200000000000000e-01
	-5.006245940196635e-15
	-1.598541925011545e-19
	-6.720000711959323e-15
	4.733195694462805e-09
	2.886884566165953e-07
	2.332601000686567e-08
	3.505966903221542e-01

 13	1.300000000000000e-01
	-4.940302414874626e-15
	-1.655181743954393e-19
	-6.887378981528595e-15
	5.337154987580954e-09
	3.259873149482323e-07
	2.639566692151265e-08
	3.505966906234035e-01

 14	1.400000000000000e-01
	-4.874730236168448e-15
	-1.713574543082442e-19
	-7.055654915691732e-15
	6.014149741035155e-09
	3.680313348445828e-07
	2.986156491132999e-08
	3.505966909636313e-01

 15	1.500000000000000e-01
	-4.809570336376362e-15
	-1.773760228947194e-19
	-7.224693172897457e-15
	6.772258683431700e-09
	4.154249682179397e-07
	3.377411576084363e-08
	3.505966913478212e-01

 16	1.600000000000000e-01
	-4.744863357536096e-15
	-1.835779042407804e-19
	-7.394356690796684e-15
	7.620318969636449e-09
	4.688522073349555e-07
	3.819016487783383e-08
	3.505966917815979e-01

 17	1.700000000000000e-01
	-4.680649501001924e-15
	-1.899671551398310e-19
	-7.564507124039859e-15
	8.567974118611550e-09
	5.290875926410336e-07
	4.317384055194360e-08
	3.505966922713171e-01

 18	1.800000000000000e-01
	-4.616968379918739e-15
	-1.965478644631567e-19
	-7.735005287778757e-15
	9.625721030651608e-09
	5.970087115928871e-07
	4.879752062557940e-08
	3.505966928241563e-01

 19	1.900000000000000e-01
	-4.553858875549844e-15
	-2.033241526314042e-19
	-7.905711603989374e-15
	1.080495527777473e-08
	6.736103296896751e-07
	5.514293219946666e-08
	3.505966934482339e-01

 20	2.000000000000000e-01
	-4.491358998377832e-15
	-2.103001711938903e-19
	-8.076486547718657e-15
	1.211801375766819e-08
	7.600202826233099e-07
	6.230240135348478e-08
	3.505966941527356e-01

 21	2.100000000000000e-01
	-4.429505754850837e-15
	-2.174801025223092e-19
	-8.247191090373654e-15
	1.357821370178190e-08
	8.575172357347307e-07
	7.038027104860937e-08
	3.505966949480563e-01

 22	2.200000000000001e-01
	-4.368335020590501e-15
	-2.248681596247625e-19
	-8.417687137218174e-15
	1.519988693562361e-08
	9.675503812784063e-07
	7.949450627101967e-08
	3.505966958459706e-01

 23	2.300000000000001e-01
	-4.307881420813441e-15
	-2.324685860854111e-19
	-8.587837956319482e-15
	1.699840820820592e-08
	1.091761092828805e-06
	8.977850594248413e-08
	3.505966968598156e-01

 24	2.400000000000001e-01
	-4.248178218646779e-15
	-2.402856561347440e-19
	-8.757508596290977e-15
	1.899021634247068e-08
	1.232006487108810e-06
	1.013831409848981e-07
	3.505966980047105e-01

 25	2.500000000000001e-01
	-4.189257211940150e-15
	-2.483236748545838e-19
	-8.926566290310181e-15
	2.119282691420370e-08
	1.390384754550455e-06
	1.144790370020047e-07
	3.505966992977851e-01

 26	2.600000000000001e-01
	-4.131148639093967e-15
	-2.565869785216806e-19
	-9.094880844045759e-15
	2.362483514834161e-08
	1.569262009637768e-06
	1.292591181210028e-07
	3.505967007584525e-01

 27	2.700000000000001e-01
	-4.073881094336771e-15
	-2.650799350928174e-19
	-9.262325005307041e-15
	2.630590773349212e-08
	1.771300280155036e-06
	1.459414254053369e-07
	3.505967024087052e-01

 28	2.800000000000001e-01
	-4.017481452795178e-15
	-2.738069448340099e-19
	-9.428774813426233e-15
	2.925676230240985e-08
	1.999486101856328e-06
	1.647722186942899e-07
	3.505967042734487e-01

 29	2.900000000000001e-01
	-3.961974805608636e-15
	-2.827724410956767e-19
	-9.594109926598425e-15
	3.249913341199319e-08
	2.257159014507296e-06
	1.860293645504005e-07
	3.505967063808593e-01

 30	3.000000000000001e-01
	-3.907384405250653e-15
	-2.919808912350621e-19
	-9.758213925630410e-15
	3.605572398412432e-08
	2.548039071523298e-06
	2.100260050445974e-07
	3.505967087627840e-01

 31	3.100000000000001e-01
	-3.853731621127300e-15
	-3.014367976866357e-19
	-9.920974592787655e-15
	3.995014134031127e-08
	2.876252285673464e-06
	2.371144922834904e-07
	3.505967114551670e-01

 32	3.200000000000001e-01
	-3.801035905436446e-15
	-3.111446991806511e-19
	-1.008228416467094e-14
	4.420681717913631e-08
	3.246352747136785e-06
	2.676905618689750e-07
	3.505967144985080e-01

 33	3.300000000000001e-01
	-3.749314769185780e-15
	-3.211091721094890e-19
	-1.024203955830138e-14
	4.885091110494171e-08
	3.663339979596767e-06
	3.021977049711065e-07
	3.505967179383570e-01

 34	3.400000000000001e-01
	-3.698583768187419e-15
	-3.313348320410464e-19
	-1.040014256983871e-14
	5.390819761621441e-08
	4.132669959181480e-06
	3.411316836161615e-07
	3.505967218258187e-01

 35	3.500000000000001e-01
	-3.648856498771008e-15
	-3.418263353775616e-19
	-1.055650004560046e-14
	5.940493679805834e-08
	4.660258125579767e-06
	3.850451175172743e-07
	3.505967262180820e-01

 36	3.600000000000002e-01
	-3.600144602887571e-15
	-3.525883811585166e-19
	-1.071102402528639e-14
	6.536772932845944e-08
	5.252472680971598e-06
	4.345520538412169e-07
	3.505967311789550e-01

 37	3.700000000000002e-01
	-3.552457782213031e-15
	-3.636257130050898e-19
	-1.086363185754008e-14
	7.182335679437224e-08
	5.916116516406164e-06
	4.903324144098591e-07
	3.505967367794077e-01

 38	3.800000000000002e-01
	-3.505803820803488e-15
	-3.749431212038980e-19
	-1.101424628819641e-14
	7.879860871090355e-08
	6.658396240990892e-06
	5.531361988281622e-07
	3.505967430980773e-01

 39	3.900000000000002e-01
	-3.460188615805869e-15
	-3.865454449271125e-19
	-1.116279552176442e-14
	8.632009803360749e-08
	7.486877027328312e-06
	6.237873078856954e-07
	3.505967502217843e-01

 40	4.000000000000002e-01
	-3.415616215685156e-15
	-3.984375745858401e-19
	-1.130921325688465e-14
	9.441406733763668e-08
	8.409422332665806e-06
	7.031868403531809e-07
	3.505967582459718e-01

 41	4.100000000000002e-01
	-3.372088865396015e-15
	-4.106244543135808e-19
	-1.145343869666773e-14
	1.031061881949006e-07
	9.434118008288257e-06
	7.923157090687163e-07
	3.505967672750993e-01

 42	4.200000000000002e-01
	-3.329607057899972e-15
	-4.231110845760685e-19
	-1.159541653497428e-14
	1.124213565982904e-07
	1.056918086124146e-05
	8.922364200162346e-07
	3.505967774229616e-01

 43	4.300000000000002e-01
	-3.288169591410528e-15
	-4.359025249040813e-19
	-1.173509691982917e-14
	1.223834875473345e-07
	1.182285236560371e-05
	1.004093861847957e-06
	3.505967888129113e-01

 44	4.400000000000002e-01
	-3.247773631736918e-15
	-4.490038967452712e-19
	-1.187243539527624e-14
	1.330153121104129e-07
	1.320327890992804e-05
	1.129114963689363e-06
	3.505968015779689e-01

 45	4.500000000000002e-01
	-3.208414779092494e-15
	-4.624203864314539e-19
	-1.200739282307476e-14
	1.443381804042981e-07
	1.471838068020945e-05
	1.268607096493592e-06
	3.505968158607980e-01

 46	4.600000000000002e-01
	-3.170087138735709e-15
	-4.761572482573554e-19
	-1.213993528571275e-14
	1.563718739739328e-07
	1.637571197472198e-05
	1.423955117723982e-06
	3.505968318135418e-01

 47	4.700000000000003e-01
	-3.132783394819483e-15
	-4.902198076671744e-19
	-1.227003397226835e-14
	1.691344310079751e-07
	1.818231638548433e-05
	1.596616990369297e-06
	3.505968495975094e-01

 48	4.800000000000003e-01
	-3.096494886837942e-15
	-5.046134645451569e-19
	-1.239766504868904e-14
	1.826419876859078e-07
	2.014458081729393e-05
	1.788117944431602e-06
	3.505968693826745e-01

 49	4.900000000000003e-01
	-3.061211688078334e-15
	-5.193436966066228e-19
	-1.252280951407674e-14
	1.969086387205434e-07
	2.226809270812527e-05
	2.000043190838304e-06
	3.505968913470294e-01

 50	5.000000000000002e-01
	-3.026922685508285e-15
	-5.344160628859007e-19
	-1.264545304457257e-14
	2.119463198394894e-07
	2.455750502925413e-05
	2.234029242605816e-06
	3.505969156757536e-01

 51	5.100000000000002e-01
	-2.993615660555236e-15
	-5.498362073178322e-19
	-1.276558582642251e-14
	2.277647145476191e-07
	2.701641365408220e-05
	2.491753944099268e-06
	3.505969425602161e-01

 52	5.200000000000002e-01
	-2.961277370264648e-15
	-5.656098624097600e-19
	-1.288320237978064e-14
	2.443711870404144e-07
	2.964725147772613e-05
	2.774925354273534e-06
	3.505969721968233e-01

 53	5.300000000000002e-01
	-2.929893628355679e-15
	-5.817428530008184e-19
	-1.299830137476883e-14
	2.617707426087275e-07
	3.245120324524640e-05
	3.085269671658939e-06
	3.505970047857321e-01

 54	5.400000000000003e-01
	-2.899449385727378e-15
	-5.982411001062502e-19
	-1.311088544126325e-14
	2.799660163052034e-07
	3.542814441967765e-05
	3.424518425459837e-06
	3.505970405294354e-01

 55	5.500000000000003e-01
	-2.869928810003979e-15
	-6.151106248436646e-19
	-1.322096097382035e-14
	2.989572900491590e-07
	3.857660662040014e-05
	3.794395186570678e-06
	3.505970796312547e-01

 56	5.600000000000003e-01
	-2.841315363744639e-15
	-6.323575524397730e-19
	-1.332853793308803e-14
	3.187425377494440e-07
	4.189377122857857e-05
	4.196602073039882e-06
	3.505971222937751e-01

 57	5.700000000000003e-01
	-2.813591880979699e-15
	-6.499881163150066e-19
	-1.343362964497614e-14
	3.393174974429709e-07
	4.537549173921306e-05
	4.632806335436348e-06
	3.505971687172270e-01

 58	5.800000000000003e-01
	-2.786740641772804e-15
	-6.680086622448568e-19
	-1.353625259878090e-14
	3.606757688991468e-07
	4.901634439406894e-05
	5.104627308136785e-06
	3.505972190978938e-01

 59	5.900000000000003e-01
	-2.760743444544442e-15
	-6.864256525966172e-19
	-1.363642624537740e-14
	3.828089346447412e-07
	5.280970561293087e-05
	5.613624002758954e-06
	3.505972736265267e-01

 60	6.000000000000003e-01
	-2.735581675928592e-15
	-7.052456706402458e-19
	-1.373417279650820e-14
	4.057067019346636e-07
	5.674785380586179e-05
	6.161283600368838e-06
	3.505973324868514e-01

 61	6.100000000000003e-01
	-2.711236377968434e-15
	-7.244754249331745e-19
	-1.382951702611086e-14
	4.293570628442451e-07
	6.082209234340172e-05
	6.749011070758724e-06
	3.505973958541579e-01

 62	6.200000000000003e-01
	-2.687688312490778e-15
	-7.441217537783263e-19
	-1.392248607453961e-14
	4.537464693960548e-07
	6.502288982193680e-05
	7.378120111504257e-06
	3.505974638940233e-01

 63	6.300000000000003e-01
	-2.664918022530463e-15
	-7.641916297556806e-19
	-1.401310925645010e-14
	4.788600204644294e-07
	6.934003331299950e-05
	8.049825558466825e-06
	3.505975367611890e-01

 64	6.400000000000003e-01
	-2.642905890705848e-15
	-7.846921643275322e-19
	-1.410141787303123e-14
	5.046816571244829e-07
	7.376279004015816e-05
	8.765237374893655e-06
	3.505976145986023e-01

 65	6.500000000000004e-01
	-2.621632194474980e-15
	-8.056306125183051e-19
	-1.418744502918450e-14
	5.311943631267987e-07
	7.828007288466701e-05
	9.525356280320502e-06
	3.505976975366646e-01

 66	6.600000000000004e-01
	-2.601077158227828e-15
	-8.270143776698264e-19
	-1.427122545617087e-14
	5.583803672784310e-07
	8.288060526870529e-05
	1.033107103508257e-05
	3.505977856926476e-01

 67	6.700000000000004e-01
	-2.581221002194331e-15
	-8.488510162733646e-19
	-1.435279534016760e-14
	5.862213446858560e-07
	8.755308128030686e-05
	1.118315735316884e-05
	3.505978791703359e-01

 68	6.800000000000004e-01
	-2.562043988169796e-15
	-8.711482428803018e-19
	-1.443219215710388e-14
	6.146986140555971e-07
	9.228631735727794e-05
	1.208227837696650e-05
	3.505979780598510e-01

 69	6.900000000000004e-01
	-2.543526462079435e-15
	-8.939139350930147e-19
	-1.450945451407394e-14
	6.437933285399873e-07
	9.706939240388562e-05
	1.302898661332378e-05
	3.505980824376764e-01

 70	7.000000000000004e-01
	-2.525648893421245e-15
	-9.171561386386875e-19
	-1.458462199756109e-14
	6.734866579459692e-07
	1.018917738375960e-04
	1.402372720218034e-05
	3.505981923668495e-01

 71	7.100000000000004e-01
	-2.508391911642867e-15
	-9.408830725280700e-19
	-1.465773502864431e-14
	7.037599604796982e-07
	1.067434277178202e-04
	1.506684236724796e-05
	3.505983078973415e-01

 72	7.200000000000004e-01
	-2.491736339521414e-15
	-9.651031343026813e-19
	-1.472883472530294e-14
	7.345949425665582e-07
	1.116149117616360e-04
	1.615857688303389e-05
	3.505984290665615e-01

 73	7.300000000000004e-01
	-2.475663223627587e-15
	-9.898249053726474e-19
	-1.479796277188288e-14
	7.659738056519387e-07
	1.164974506741589e-04
	1.729908438369620e-05
	3.505985559000039e-01

 74	7.400000000000004e-01
	-2.460153861965552e-15
	-1.015057156449572e-18
	-1.486516129573958e-14
	7.978793792429354e-07
	1.213829937907173e-04
	1.848843433640711e-05
	3.505986884119899e-01

 75	7.500000000000004e-01
	-2.445189828888560e-15
	-1.040808853076977e-18
	-1.493047275103110e-14
	8.302952397853899e-07
	1.262642555271550e-04
	1.972661950443291e-05
	3.505988266065128e-01

 76	7.600000000000005e-01
	-2.430752997397127e-15
	-1.067089161263235e-18
	-1.499393980959532e-14
	8.632058152776139e-07
	1.311347395525324e-04
	2.101356373227175e-05
	3.505989704781255e-01

 77	7.700000000000005e-01
	-2.416825558932297e-15
	-1.093907453220137e-18
	-1.505560525881146e-14
	8.965964757962491e-07
	1.359887479298584e-04
	2.234912989606236e-05
	3.505991200128842e-01

 78	7.800000000000005e-01
	-2.403390040780262e-15
	-1.121273313212043e-18
	-1.511551190631603e-14
	9.304536103479413e-07
	1.408213767150214e-04
	2.373312787623376e-05
	3.505992751893144e-01

 79	7.900000000000005e-01
	-2.390429321207760e-15
	-1.149196543519825e-18
	-1.517370249141709e-14
	9.647646906609780e-07
	1.456284996655707e-04
	2.516532242514492e-05
	3.505994359793809e-01

 80	8.000000000000005e-01
	-2.377926642449138e-15
	-1.177687170524770e-18
	-1.523021960302846e-14
	9.995183226936540e-07
	1.504067417964074e-04
	2.664544081946756e-05
	3.505996023494387e-01

 81	8.100000000000005e-01
	-2.365865621666898e-15
	-1.206755450916796e-18
	-1.528510560392651e-14
	1.034704286762004e-06
	1.551534445379662e-04
	2.817318020458017e-05
	3.505997742611843e-01

 82	8.200000000000005e-01
	-2.354230260006894e-15
	-1.236411878032842e-18
	-1.533840256111691e-14
	1.070313567281063e-06
	1.598666242146303e-04
	2.974821455565745e-05
	3.505999516725403e-01

 83	8.300000000000005e-01
	-2.343004949868869e-15
	-1.266667188330534e-18
	-1.539015218208561e-14
	1.106338373173259e-06
	1.645449254778069e-04
	3.137020119692492e-05
	3.506001345385187e-01

 84	8.400000000000005e-01
	-2.332174480510773e-15
	-1.297532368002578e-18
	-1.544039575669926e-14
	1.142772150029202e-06
	1.691875712103192e-04
	3.303878683633647e-05
	3.506003228120150e-01

 85	8.500000000000005e-01
	-2.321724042103209e-15
	-1.329018659738155e-18
	-1.548917410451249e-14
	1.179609585112823e-06
	1.737943102766052e-04
	3.475361308739583e-05
	3.506005164445667e-01

 86	8.600000000000005e-01
	-2.311639228347357e-15
	-1.361137569636949e-18
	-1.553652752723519e-14
	1.216846606289303e-06
	1.783653643360389e-04
	3.651432146282176e-05
	3.506007153870189e-01

 87	8.700000000000006e-01
	-2.301906037766496e-15
	-1.393900874282402e-18
	-1.558249576610967e-14
	1.254480375923229e-06
	1.829013747723340e-04
	3.832055783609502e-05
	3.506009195901514e-01

 88	8.800000000000006e-01
	-2.292510873777504e-15
	-1.427320627980305e-18
	-1.562711796394700e-14
	1.292509280750706e-06
	1.874033506273307e-04
	4.017197637664043e-05
	3.506011290052349e-01

 89	8.900000000000006e-01
	-2.283440543644701e-15
	-1.461409170169566e-18
	-1.567043263157258e-14
	1.330932918675216e-06
	1.918726182677003e-04
	4.206824297246884e-05
	3.506013435845193e-01

 90	9.000000000000006e-01
	-2.274682256414263e-15
	-1.496179133012324e-18
	-1.571247761843332e-14
	1.369752083376345e-06
	1.963107733623677e-04
	4.400903816062683e-05
	3.506015632816600e-01

 91	9.100000000000006e-01
	-2.266223619923087e-15
	-1.531643449169895e-18
	-1.575329008712213e-14
	1.408968747555584e-06
	2.007196356096079e-04
	4.599405959087068e-05
	3.506017880520876e-01

 92	9.200000000000006e-01
	-2.258052636971467e-15
	-1.567815359772470e-18
	-1.579290649158013e-14
	1.448586045576858e-06
	2.051012065277306e-04
	4.802302405173479e-05
	3.506020178533280e-01

 93	9.300000000000006e-01
	-2.250157700744300e-15
	-1.604708422589705e-18
	-1.583136255874305e-14
	1.488608256192948e-06
	2.094576305129669e-04
	5.009566909074218e-05
	3.506022526452514e-01

 94	9.400000000000006e-01
	-2.242527589561226e-15
	-1.642336520410449e-18
	-1.586869327340375e-14
	1.529040785984109e-06
	2.137911592728763e-04
	5.221175426204021e-05
	3.506024923902887e-01

 95	9.500000000000006e-01
	-2.235151461031256e-15
	-1.680713869638895e-18
	-1.590493286607086e-14
	1.569890154073686e-06
	2.181041196630850e-04
	5.437106203542506e-05
	3.506027370535955e-01

 96	9.600000000000006e-01
	-2.228018845683166e-15
	-1.719855029116307e-18
	-1.594011480361002e-14
	1.611163978627807e-06
	2.223988848886315e-04
	5.657339840064095e-05
	3.506029866031778e-01

 97	9.700000000000006e-01
	-2.221119640138189e-15
	-1.759774909176158e-18
	-1.597427178246333e-14
	1.652870965593499e-06
	2.266778489777159e-04
	5.881859320018395e-05
	3.506032410099742e-01

 98	9.800000000000006e-01
	-2.214444099887684e-15
	-1.800488780941870e-18
	-1.600743572424975e-14
	1.695020900081985e-06
	2.309434043939240e-04
	6.110650022268856e-05
	3.506035002479184e-01

 99	9.900000000000007e-01
	-2.207982831733569e-15
	-1.842012285875956e-18
	-1.603963777355845e-14
	1.737624640762243e-06
	2.351979226218571e-04
	6.343699708748604e-05
	3.506037642939522e-01

 100	1.000000000000001e+00
	-2.201726785945772e-15
	-1.884361445589945e-18
	-1.607090829775551e-14
	1.780694117593631e-06
	2.394437375390268e-04
	6.580998494913730e-05
	3.506040331280356e-01

 101	1.010000000000001e+00
	-2.195667248186701e-15
	-1.927552671924917e-18
	-1.610127688863279e-14
