Title: ** sch_path: /home/andylithia/openmpw/project-yatsuhashi-chip1/xschem/gmid_test/nmos_test.sch
Date: Tue Jul 19 23:15:45  2022
Plotname: DC transfer characteristic
Flags: real
No. Variables: 8
No. Points: 181
Variables:
	0	v(v-sweep)	voltage
	1	@m.xm1.msky130_fd_pr__nfet_01v8[cgb]	capacitance
	2	@m.xm1.msky130_fd_pr__nfet_01v8[cgd]	capacitance
	3	@m.xm1.msky130_fd_pr__nfet_01v8[cgs]	capacitance
	4	@m.xm1.msky130_fd_pr__nfet_01v8[gds]	admittance
	5	@m.xm1.msky130_fd_pr__nfet_01v8[gm]	admittance
	6	i(@m.xm1.msky130_fd_pr__nfet_01v8[id])	current
	7	v(@m.xm1.msky130_fd_pr__nfet_01v8[vth])	voltage
Values:
 0	0.000000000000000e+00
	-2.998262669186059e-15
	5.044548039441779e-19
	-1.901291829332301e-15
	1.081719032727308e-08
	4.686531930814990e-07
	3.906889519638691e-08
	4.296661778910003e-01

 1	1.000000000000000e-02
	-2.969420212530363e-15
	5.132312719040219e-19
	-1.959774568491773e-15
	1.218779784732458e-08
	5.276307706150140e-07
	4.404458241454038e-08
	4.296661782829584e-01

 2	2.000000000000000e-02
	-2.940551561607265e-15
	5.218730631798633e-19
	-2.019320122075701e-15
	1.372939770081240e-08
	5.938948396032361e-07
	4.964578647074882e-08
	4.296661787242108e-01

 3	3.000000000000000e-02
	-2.911665860846397e-15
	5.303644492189424e-19
	-2.079908002728318e-15
	1.546280833118071e-08
	6.683223463030155e-07
	5.594967648686014e-08
	4.296661792208418e-01

 4	4.000000000000000e-02
	-2.882772883192471e-15
	5.386895463955177e-19
	-2.141515538144075e-15
	1.741128520590177e-08
	7.518920885947885e-07
	6.304269132226664e-08
	4.296661797796706e-01

 5	5.000000000000000e-02
	-2.853883006737728e-15
	5.468323613900336e-19
	-2.204117876827627e-15
	1.960078780423731e-08
	8.456960427218608e-07
	7.102161375871511e-08
	4.296661804083333e-01

 6	6.000000000000000e-02
	-2.825007188495594e-15
	5.547768383349990e-19
	-2.267688002821049e-15
	2.206027247211028e-08
	9.509519044119782e-07
	7.999476391880554e-08
	4.296661811153788e-01

 7	7.000000000000001e-02
	-2.796156935370032e-15
	5.625069074922181e-19
	-2.332196759586135e-15
	2.482201302741459e-08
	1.069016977637000e-06
	9.008332471459135e-08
	4.296661819103717e-01

 8	8.000000000000000e-02
	-2.767344272397746e-15
	5.700065352067169e-19
	-2.397612883171200e-15
	2.792195101781298e-08
	1.201403561689758e-06
	1.014228135400310e-07
	4.296661828040129e-01

 9	9.000000000000000e-02
	-2.738581708363142e-15
	5.772597748649306e-19
	-2.463903044729953e-15
	3.140007752477254e-08
	1.349796007652651e-06
	1.141647160270386e-07
	4.296661838082702e-01

 10	9.999999999999999e-02
	-2.709882198908467e-15
	5.842508185689638e-19
	-2.531031902395592e-15
	3.530084836612638e-08
	1.516069639240903e-06
	1.284782995119070e-07
	4.296661849365158e-01

 11	1.100000000000000e-01
	-2.681259107283545e-15
	5.909640492256564e-19
	-2.598962162446436e-15
	3.967363446794390e-08
	1.702311761032256e-06
	1.445526259449660e-07
	4.296661862036969e-01

 12	1.200000000000000e-01
	-2.652726162900911e-15
	5.973840927378217e-19
	-2.667654649631905e-15
	4.457320904740145e-08
	1.910845009917283e-06
	1.625987863662173e-07
	4.296661876265091e-01

 13	1.300000000000000e-01
	-2.624297417882411e-15
	6.034958699772050e-19
	-2.737068386458395e-15
	5.006027306329752e-08
	2.144253343936489e-06
	1.828523818145043e-07
	4.296661892235955e-01

 14	1.400000000000000e-01
	-2.595987201802474e-15
	6.092846482131719e-19
	-2.807160681166059e-15
	5.620202014101810e-08
	2.405411007263400e-06
	2.055762786966908e-07
	4.296661910157679e-01

 15	1.500000000000000e-01
	-2.567810074850981e-15
	6.147360916688940e-19
	-2.877887224059171e-15
	6.307274185459752e-08
	2.697514861683499e-06
	2.310636702823987e-07
	4.296661930262566e-01

 16	1.600000000000000e-01
	-2.539780779654454e-15
	6.198363108774498e-19
	-2.949202191786364e-15
	7.075447384026233e-08
	3.024120534193304e-06
	2.596414801827634e-07
	4.296661952809816e-01

 17	1.700000000000000e-01
	-2.511914192008462e-15
	6.245719105144376e-19
	-3.021058359102214e-15
	7.933768271337548e-08
	3.389182897854968e-06
	2.916741484978705e-07
	4.296661978088624e-01

 18	1.800000000000000e-01
	-2.484225270785970e-15
	6.289300353906175e-19
	-3.093407217580561e-15
	8.892199315417495e-08
	3.797101479132121e-06
	3.275678468616780e-07
	4.296662006421567e-01

 19	1.900000000000000e-01
	-2.456729007296041e-15
	6.328984142986342e-19
	-3.166199100691942e-15
	9.961695380746030e-08
	4.252771469597675e-06
	3.677751749609474e-07
	4.296662038168436e-01

 20	2.000000000000000e-01
	-2.429440374374487e-15
	6.364654014212410e-19
	-3.239383314604413e-15
	1.115428397988477e-07
	4.761641112663617e-06
	4.128003983402618e-07
	4.296662073730563e-01

 21	2.100000000000000e-01
	-2.402374275492691e-15
	6.396200150247978e-19
	-3.312908274019002e-15
	1.248314886978954e-07
	5.329776335679493e-06
	4.632052955039882e-07
	4.296662113555579e-01

 22	2.200000000000001e-01
	-2.375545494172923e-15
	6.423519731812463e-19
	-3.386721642308403e-15
	1.396271656508442e-07
	5.963933602346439e-06
	5.196156915481591e-07
	4.296662158142799e-01

 23	2.300000000000001e-01
	-2.348968643997701e-15
	6.446517262836628e-19
	-3.460770475191687e-15
	1.560874521600067e-07
	6.671642066735874e-06
	5.827287658349833e-07
	4.296662208049245e-01

 24	2.400000000000001e-01
	-2.322658119497509e-15
	6.465104861448703e-19
	-3.535001367148253e-15
	1.743841516033026e-07
	7.461296213720513e-06
	6.533212325556688e-07
	4.296662263896496e-01

 25	2.500000000000001e-01
	-2.296628048195025e-15
	6.479202514948645e-19
	-3.609360599752520e-15
	1.947042030706571e-07
	8.342260265071250e-06
	7.322585053557558e-07
	4.296662326378290e-01

 26	2.600000000000001e-01
	-2.270892244075407e-15
	6.488738297214944e-19
	-3.683794291095691e-15
	2.172505934532701e-07
	9.324985707601057e-06
	8.205049703902709e-07
	4.296662396269131e-01

 27	2.700000000000001e-01
	-2.245464162741048e-15
	6.493648547283526e-19
	-3.758248545454268e-15
	2.422432559726505e-07
	1.042114334905933e-05
	9.191355060106021e-07
	4.296662474434025e-01

 28	2.800000000000001e-01
	-2.220356858495509e-15
	6.493878008149773e-19
	-3.832669602365684e-15
	2.699199415008829e-07
	1.164377131601218e-05
	1.029348401419772e-06
	4.296662561839392e-01

 29	2.900000000000001e-01
	-2.195582943585619e-15
	6.489379925160880e-19
	-3.907003984279795e-15
	3.005370471315415e-07
	1.300744036007643e-05
	1.152479840583464e-06
	4.296662659565419e-01

 30	3.000000000000001e-01
	-2.171154549812831e-15
	6.480116103687820e-19
	-3.981198641971304e-15
	3.343703845504132e-07
	1.452843771636861e-05
	1.290020130798163e-06
	4.296662768819902e-01

 31	3.100000000000001e-01
	-2.147083292705273e-15
	6.466056926089131e-19
	-4.055201096921426e-15
	3.717158688736538e-07
	1.622497054016290e-05
	1.443631866745650e-06
	4.296662890953953e-01

 32	3.200000000000001e-01
	-2.123380238420616e-15
	6.447181328292890e-19
	-4.128959579908068e-15
	4.128901068252045e-07
	1.811738961177557e-05
	1.615170229539908e-06
	4.296663027479572e-01

 33	3.300000000000001e-01
	-2.100055873527370e-15
	6.423476736636170e-19
	-4.202423165080865e-15
	4.582308614810001e-07
	2.022843352150536e-05
	1.806705624895559e-06
	4.296663180089350e-01

 34	3.400000000000001e-01
	-2.077120077788607e-15
	6.394938965902143e-19
	-4.275541898840663e-15
	5.080973693901436e-07
	2.258349290173506e-05
	2.020548863572210e-06
	4.296663350678692e-01

 35	3.500000000000001e-01
	-2.054582100047687e-15
	6.361572079773331e-19
	-4.348266922892613e-15
	5.628704847766988e-07
	2.521089343898905e-05
	2.259279078894537e-06
	4.296663541370418e-01

 36	3.600000000000002e-01
	-2.032450537290845e-15
	6.323388215195004e-19
	-4.420550590895234e-15
	6.229526248200135e-07
	2.814219535498990e-05
	2.525774558411657e-06
	4.296663754542343e-01

 37	3.700000000000002e-01
	-2.010733316936451e-15
	6.280407372383215e-19
	-4.492346578186476e-15
	6.887674898027442e-07
	3.141250577842014e-05
	2.823246637472892e-06
	4.296663992857783e-01

 38	3.800000000000002e-01
	-1.989437682375960e-15
	6.232657172437652e-19
	-4.563609984129233e-15
	7.607595323009279e-07
	3.506079893250530e-05
	3.155276759385141e-06
	4.296664259299175e-01

 39	3.900000000000002e-01
	-1.968570181767097e-15
	6.180172584721560e-19
	-4.634297426682883e-15
	8.393931506653427e-07
	3.913023734376193e-05
	3.525856747605589e-06
	4.296664557205143e-01

 40	4.000000000000002e-01
	-1.948136660056078e-15
	6.122995626336325e-19
	-4.704367128873971e-15
	9.251515838984198e-07
	4.366848535558844e-05
	3.939432257976028e-06
	4.296664890310732e-01

 41	4.100000000000002e-01
	-1.928142254182874e-15
	6.061175036172118e-19
	-4.773778996905849e-15
	1.018535487743166e-06
	4.872800414659174e-05
	4.400949281478496e-06
	4.296665262791198e-01

 42	4.200000000000002e-01
	-1.908591391401749e-15
	5.994765926123052e-19
	-4.842494689715217e-15
	1.120061175432748e-06
	5.436631526929328e-05
	4.915903449062771e-06
	4.296665679308996e-01

 43	4.300000000000002e-01
	-1.889487790629114e-15
	5.923829412147753e-19
	-4.910477679850071e-15
	1.230258511137285e-06
	6.064621752585777e-05
	5.490391749160291e-06
	4.296666145063873e-01

 44	4.400000000000002e-01
	-1.870834466711851e-15
	5.848432227910507e-19
	-4.977693305609752e-15
	1.349668449696386e-06
	6.763593989519276e-05
	6.131166105953647e-06
	4.296666665845634e-01

 45	4.500000000000002e-01
	-1.852633737492233e-15
	5.768646323770198e-19
	-5.044108814451444e-15
	1.478840222711394e-06
	7.540921135696207e-05
	6.845688083943497e-06
	4.296667248089228e-01

 46	4.600000000000002e-01
	-1.834887233530326e-15
	5.684548453883966e-19
	-5.109693397728932e-15
	1.618328178418490e-06
	8.404522698284807e-05
	7.642183784973348e-06
	4.296667898931379e-01

 47	4.700000000000003e-01
	-1.817595910331296e-15
	5.596219754163704e-19
	-5.174418216887895e-15
	1.768688290852513e-06
	9.362848876230695e-05
	8.529697792455517e-06
	4.296668626267717e-01

 48	4.800000000000003e-01
	-1.800760062913793e-15
	5.503745313783379e-19
	-5.238256421295996e-15
	1.930474362471085e-06
	1.042484994886047e-04
	9.518144800758495e-06
	4.296669438809654e-01

 49	4.900000000000003e-01
	-1.784379342546047e-15
	5.407213742849105e-19
	-5.301183157937186e-15
	2.104233953419618e-06
	1.159992888410779e-04
	1.061835735415585e-05
	4.296670346139292e-01

 50	5.000000000000002e-01
	-1.768452775469078e-15
	5.306716738760681e-19
	-5.363175573245109e-15
	2.290504079708665e-06
	1.289787527380613e-04
	1.184212791981548e-05
	4.296671358761052e-01

 51	5.100000000000002e-01
	-1.752978783420905e-15
	5.202348653672186e-19
	-5.424212807392056e-15
	2.489806731436022e-06
	1.432877902496124e-04
	1.320224334510646e-05
	4.296672488147989e-01

 52	5.200000000000002e-01
	-1.737955205772275e-15
	5.094206065339175e-19
	-5.484275981386017e-15
	2.702644270469403e-06
	1.590292269507097e-04
	1.471250961432547e-05
	4.296673746781161e-01

 53	5.300000000000002e-01
	-1.723379323082759e-15
	4.982387353485008e-19
	-5.543348177359826e-15
	2.929494774351398e-06
	1.763065195998704e-04
	1.638776473784633e-05
	4.296675148179266e-01

 54	5.400000000000003e-01
	-1.709247881886343e-15
	4.866992283682201e-19
	-5.601414412462096e-15
	3.170807399224782e-06
	1.952222443977031e-04
	1.824387759160857e-05
	4.296676706916996e-01

 55	5.500000000000003e-01
	-1.695557120517353e-15
	4.748121600568080e-19
	-5.658461606780999e-15
	3.426997838961526e-06
	2.158763796710688e-04
	2.029773058986161e-05
	4.296678438629112e-01

 56	5.600000000000003e-01
	-1.682302795791026e-15
	4.625876632057011e-19
	-5.714478545747629e-15
	3.698443960098840e-06
	2.383644033899159e-04
	2.256718423017736e-05
	4.296680359998268e-01

 57	5.700000000000003e-01
	-1.669480210357775e-15
	4.500358906040785e-19
	-5.769455837476873e-15
	3.985481692397735e-06
	2.627752360953512e-04
	2.507102180494621e-05
	4.296682488724318e-01

 58	5.800000000000003e-01
	-1.657084240556151e-15
	4.371669780894519e-19
	-5.823385865510225e-15
	4.288401252680307e-06
	2.891890701353646e-04
	2.782887293172274e-05
	4.296684843473061e-01

 59	5.900000000000003e-01
	-1.645109364596655e-15
	4.239910090945092e-19
	-5.876262737427155e-15
	4.607443775009472e-06
	3.176751360178243e-04
	3.086111501462409e-05
	4.296687443802941e-01

 60	6.000000000000003e-01
	-1.633549690916558e-15
	4.105179807885166e-19
	-5.928082229789721e-15
	4.942798413303884e-06
	3.482894655874640e-04
	3.418875230341729e-05
	4.296690310068376e-01

 61	6.100000000000003e-01
	-1.622398986554636e-15
	3.967577718965962e-19
	-5.978841729879638e-15
	5.294599973301805e-06
	3.810727189784296e-04
	3.783327285255149e-05
	4.296693463299366e-01

 62	6.200000000000003e-01
	-1.611650705404188e-15
	3.827201122643068e-19
	-6.028540174678188e-15
	5.662927119694822e-06
	4.160481472710999e-04
	4.181648437952615e-05
	4.296696925057409e-01

 63	6.300000000000003e-01
	-1.601298016212506e-15
	3.684145542202336e-19
	-6.077177987527840e-15
	6.047801191642499e-06
	4.532197649451717e-04
	4.616033075508262e-05
	4.296700717268535e-01

 64	6.400000000000003e-01
	-1.591333830205207e-15
	3.538504457760030e-19
	-6.124757012900022e-15
	6.449185646235295e-06
	4.925708051443221e-04
	5.088669159628481e-05
	4.296704862035229e-01

 65	6.500000000000004e-01
	-1.581750828224181e-15
	3.390369056900089e-19
	-6.171280449677323e-15
	6.866986135343872e-06
	5.340625261923122e-04
	5.601716814374667e-05
	4.296709381430032e-01

 66	6.600000000000004e-01
	-1.572541487278343e-15
	3.239828004081674e-19
	-6.216752783340582e-15
	7.301051207248770e-06
	5.776334296713351e-04
	6.157285925057497e-05
	4.296714297273720e-01

 67	6.700000000000004e-01
	-1.563698106416817e-15
	3.086967228846761e-19
	-6.261179717431570e-15
	7.751173611043028e-06
	6.231989388638258e-04
	6.757413185808259e-05
	4.296719630902548e-01

 68	6.800000000000004e-01
	-1.555212831844446e-15
	2.931869732741908e-19
	-6.304568104641741e-15
	8.217092169563446e-06
	6.706515718773417e-04
	7.404039075010804e-05
	4.296725402929209e-01

 69	6.900000000000004e-01
	-1.547077681209513e-15
	2.774615414771075e-19
	-6.346925877856266e-15
	8.698494175966595e-06
	7.198616269467901e-04
	8.098985263708354e-05
	4.296731633002664e-01

 70	7.000000000000004e-01
	-1.539284567003435e-15
	2.615280915101631e-19
	-6.388261981460557e-15
	9.195018260354697e-06
	7.706783790546142e-04
	8.843932970336689e-05
	4.296738339572416e-01

 71	7.100000000000004e-01
	-1.531825319021582e-15
	2.453939476660555e-19
	-6.428586303194464e-15
	9.706257666285462e-06
	8.229317680781427e-04
	9.640402764630787e-05
	4.296745539663022e-01

 72	7.200000000000004e-01
	-1.524691705843335e-15
	2.290660824169788e-19
	-6.467909606817098e-15
	1.023176387264659e-05
	8.764345401825097e-04
	1.048973629424212e-04
	4.296753248664084e-01

 73	7.300000000000004e-01
	-1.517875455298331e-15
	2.125511060099621e-19
	-6.506243465822614e-15
	1.077105049419351e-05
	9.309847871398771e-04
	1.139308036044980e-04
	4.296761480141001e-01

 74	7.400000000000004e-01
	-1.511368273893747e-15
	1.958552576948798e-19
	-6.543600198425456e-15
	1.132359739388058e-05
	9.863688136019528e-04
	1.235137370629333e-04
	4.296770245671258e-01

 75	7.500000000000004e-01
	-1.505161865185447e-15
	1.789843985189797e-19
	-6.579992804011269e-15
	1.188885494171740e-05
	1.042364250862759e-03
	1.336533680430125e-04
	4.296779554709739e-01

 76	7.600000000000005e-01
	-1.499247947082823e-15
	1.619440056169694e-19
	-6.615434901228280e-15
	1.246624835793903e-05
	1.098743327893472e-03
	1.443546484520872e-04
	4.296789414486438e-01

 77	7.700000000000005e-01
	-1.493618268083994e-15
	1.447391679200376e-19
	-6.649940667872673e-15
	1.305518208246010e-05
	1.155276206737752e-03
	1.556202403758636e-04
	4.296799829938293e-01

 78	7.800000000000005e-01
	-1.488264622444249e-15
	1.273745832032903e-19
	-6.683524782700691e-15
	1.365504411754062e-05
	1.211734289787410e-03
	1.674505123525335e-04
	4.296810803676291e-01

 79	7.900000000000005e-01
	-1.483178864286194e-15
	1.098545563875801e-19
	-6.716202369280384e-15
	1.426521029601104e-05
	1.267893410822400e-03
	1.798435681877416e-04
	4.296822335987557e-01

 80	8.000000000000005e-01
	-1.478352920665487e-15
	9.218299900939073e-20
	-6.747988941976217e-15
	1.488504843300838e-05
	1.323536829573625e-03
	1.927953067297354e-04
	4.296834424871738e-01

 81	8.100000000000005e-01
	-1.473778803610453e-15
	7.436342976996687e-20
	-6.778900354141487e-15
	1.551392232474779e-05
	1.378457960345206e-03
	2.062995102747084e-04
	4.296847066109102e-01

 82	8.200000000000005e-01
	-1.469448621158321e-15
	5.639897607542536e-20
	-6.808952748575545e-15
	1.615119556322576e-05
	1.432462778176262e-03
	2.203479586424743e-04
	4.296860253358271e-01

 83	8.300000000000005e-01
	-1.465354587414285e-15
	3.829237647811179e-20
	-6.838162510286185e-15
	1.679623514083412e-05
	1.485371860327477e-03
	2.349305654700535e-04
	4.296873978279568e-01

 84	8.400000000000005e-01
	-1.461489031662962e-15
	2.004598393163186e-20
	-6.866546221581783e-15
	1.744841482359043e-05
	1.537022035730703e-03
	2.500355329245716e-04
	4.296888230680672e-01

 85	8.500000000000005e-01
	-1.457844406564432e-15
	1.661769772420818e-21
	-6.894120619503149e-15
	1.810711827606949e-05
	1.587267629678633e-03
	2.656495208389633e-04
	4.296902998679795e-01

 86	8.600000000000005e-01
	-1.454413295469344e-15
	-1.685867165592370e-20
	-6.920902555591611e-15
	1.877174192515018e-05
	1.635981304784114e-03
	2.817578262181954e-04
	4.296918268882590e-01

 87	8.700000000000006e-01
	-1.451188418889462e-15
	-3.551411781724881e-20
	-6.946908957977401e-15
	1.944169755342518e-05
	1.683054511562690e-03
	2.983445691387312e-04
	4.296934026568146e-01

 88	8.800000000000006e-01
	-1.448162640161360e-15
	-5.430371231429168e-20
	-6.972156795761427e-15
	2.011641461658251e-05
	1.728397572487167e-03
	3.153928812529707e-04
	4.296950255880078e-01

 89	8.900000000000006e-01
	-1.445328970342032e-15
	-7.322695881113043e-20
	-6.996663045653633e-15
	2.079534228230002e-05
	1.771939431781306e-03
	3.328850933938389e-04
	4.296966940018710e-01

 90	9.000000000000006e-01
	-1.442680572375917e-15
	-9.228371461713941e-20
	-7.020444660822227e-15
	2.147795119121909e-05
	1.813627109456512e-03
	3.508029191311546e-04
	4.296984061430850e-01

 91	9.100000000000006e-01
	-1.440210764573085e-15
	-1.114741839977573e-19
	-7.043518541900782e-15
	2.216373494339641e-05
	1.853424902174460e-03
	3.691276315390289e-04
	4.297001601994120e-01

 92	9.200000000000006e-01
	-1.437913023438456e-15
	-1.307989112740178e-19
	-7.065901510093462e-15
	2.285221131627125e-05
	1.891313375570831e-03
	3.878402308714078e-04
	4.297019543193092e-01

 93	9.300000000000006e-01
	-1.435780985891632e-15
	-1.502587737678211e-19
	-7.087610282313545e-15
	2.354292322262069e-05
	1.927288192912137e-03
	4.069216012916992e-04
	4.297037866285011e-01

 94	9.400000000000006e-01
	-1.433808450916442e-15
	-1.698549746453118e-19
	-7.108661448285847e-15
	2.423543941918540e-05
	1.961358823645792e-03
	4.263526552453930e-04
	4.297056552453576e-01

 95	9.500000000000006e-01
	-1.431989380678801e-15
	-1.895890357068648e-19
	-7.129071449540146e-15
	2.492935497861398e-05
	1.993547172839547e-03
	4.461144644877807e-04
	4.297075582949532e-01

 96	9.600000000000006e-01
	-1.430317901150301e-15
	-2.094627901680399e-19
	-7.148856560220345e-15
	2.562429153906969e-05
	2.023886168994497e-03
	4.661883771713534e-04
	4.297094939217069e-01

 97	9.700000000000006e-01
	-1.428788302274214e-15
	-2.294783754712369e-19
	-7.168032869632167e-15
	2.631989734724476e-05
	2.052418343549461e-03
	4.865561207510982e-04
	4.297114603005838e-01

 98	9.800000000000006e-01
	-1.427395037709454e-15
	-2.496382261648081e-19
	-7.186616266450796e-15
	2.701584711162726e-05
	2.079194430844177e-03
	5.071998907758452e-04
	4.297134556468564e-01

 99	9.900000000000007e-01
	-1.426132724186511e-15
	-2.699450668820921e-19
	-7.204622424509960e-15
	2.771184168365240e-05
	2.104272012610397e-03
	5.281024258973177e-04
	4.297154782244271e-01

 100	1.000000000000001e+00
	-1.424996140508452e-15
	-2.904019054501947e-19
	-7.222066790093415e-15
	2.840760758484177e-05
	2.127714226410906e-03
	5.492470696450803e-04
	4.297175263527749e-01

 101	1.010000000000001e+00
	-1.423980226228416e-15
	-3.110120261542733e-19
	-7.238964570650616e-15
	2.910289639820687e-05
	2.149588553004112e-03
	5.706178196866859e-04
