Title: ** sch_path: /home/andylithia/openmpw/project-yatsuhashi-chip1/xschem/gmid_test/nmos_test.sch
Date: Sun Jul 17 22:51:45  2022
Plotname: DC transfer characteristic
Flags: real
No. Variables: 8
No. Points: 181
Variables:
	0	v(v-sweep)	voltage
	1	@m.xm1.msky130_fd_pr__nfet_01v8[cgb]	capacitance
	2	@m.xm1.msky130_fd_pr__nfet_01v8[cgd]	capacitance
	3	@m.xm1.msky130_fd_pr__nfet_01v8[cgs]	capacitance
	4	@m.xm1.msky130_fd_pr__nfet_01v8[gds]	admittance
	5	@m.xm1.msky130_fd_pr__nfet_01v8[gm]	admittance
	6	i(@m.xm1.msky130_fd_pr__nfet_01v8[id])	current
	7	v(@m.xm1.msky130_fd_pr__nfet_01v8[vth])	voltage
Values:
 0	0.000000000000000e+00
	-9.166959174147074e-15
	-3.247523228377987e-18
	-1.509102263410127e-14
	6.853885290604196e-08
	2.241583714634132e-06
	2.721083244362477e-07
	2.381539281565278e-01

 1	1.000000000000000e-02
	-9.067605841657436e-15
	-3.337605836539756e-18
	-1.532081180844845e-14
	7.422711651538193e-08
	2.432102113742750e-06
	2.954637661249393e-07
	2.381539308331566e-01

 2	2.000000000000000e-02
	-8.969374987104520e-15
	-3.430205629307704e-18
	-1.555069876184877e-14
	8.036668343338990e-08
	2.638850645339247e-06
	3.208044026108418e-07
	2.381539337373083e-01

 3	3.000000000000000e-02
	-8.872290202569237e-15
	-3.525393972956301e-18
	-1.578059672953989e-14
	8.699100017355558e-08
	2.863255506317816e-06
	3.482995586855705e-07
	2.381539368883925e-01

 4	4.000000000000000e-02
	-8.776374594635292e-15
	-3.623244363064096e-18
	-1.601041894139440e-14
	9.413573983743585e-08
	3.106877602242728e-06
	3.781334834864270e-07
	2.381539403075248e-01

 5	5.000000000000000e-02
	-8.681650737616015e-15
	-3.723832495007394e-18
	-1.624007874051295e-14
	1.018389254767029e-07
	3.371426513555229e-06
	4.105067661850684e-07
	2.381539440177036e-01

 6	6.000000000000000e-02
	-8.588140628382160e-15
	-3.827236337091953e-18
	-1.646948970146071e-14
	1.101410580933484e-07
	3.658775984131404e-06
	4.456378988213294e-07
	2.381539480439678e-01

 7	7.000000000000001e-02
	-8.495865642902129e-15
	-3.933536206429931e-18
	-1.669856574781939e-14
	1.190852492857555e-07
	3.970981087716586e-06
	4.837650022724704e-07
	2.381539524136164e-01

 8	8.000000000000000e-02
	-8.404846494599306e-15
	-4.042814847676875e-18
	-1.692722126873458e-14
	1.287173585376152e-07
	4.310297239631828e-06
	5.251477329630027e-07
	2.381539571564118e-01

 9	9.000000000000000e-02
	-8.315103194625463e-15
	-4.155157514746076e-18
	-1.715537123413838e-14
	1.390861351358035e-07
	4.679201233075730e-06
	5.700693896531586e-07
	2.381539623048276e-01

 10	9.999999999999999e-02
	-8.226655014142007e-15
	-4.270652055624929e-18
	-1.738293130833485e-14
	1.502433646929354e-07
	5.080414491156520e-06
	6.188392414966386e-07
	2.381539678943227e-01

 11	1.100000000000000e-01
	-8.139520448693217e-15
	-4.389389000422875e-18
	-1.760981796164339e-14
	1.622440202402411e-07
	5.516928737251332e-06
	6.717951005271042e-07
	2.381539739636162e-01

 12	1.200000000000000e-01
	-8.053717184748969e-15
	-4.511461652784789e-18
	-1.783594857979994e-14
	1.751464178468056e-07
	5.992034297132471e-06
	7.293061638129100e-07
	2.381539805550368e-01

 13	1.300000000000000e-01
	-7.969262068485029e-15
	-4.636966184813956e-18
	-1.806124157083108e-14
	1.890123767125414e-07
	6.509351256221766e-06
	7.917761527048854e-07
	2.381539877148629e-01

 14	1.400000000000000e-01
	-7.886171076861911e-15
	-4.766001735648688e-18
	-1.828561646912126e-14
	2.039073836741079e-07
	7.072863703949412e-06
	8.596467788785495e-07
	2.381539954937405e-01

 15	1.500000000000000e-01
	-7.804459291053756e-15
	-4.898670513852155e-18
	-1.850899403641121e-14
	2.199007620562005e-07
	7.686957304110156e-06
	9.334015692285025e-07
	2.381540039470991e-01

 16	1.600000000000000e-01
	-7.724140872270810e-15
	-5.035077903772072e-18
	-1.873129635947317e-14
	2.370658447945380e-07
	8.356460434826225e-06
	1.013570084085573e-06
	2.381540131356546e-01

 17	1.700000000000000e-01
	-7.645229040009234e-15
	-5.175332576043851e-18
	-1.895244694422868e-14
	2.554801517524817e-07
	9.086689143739393e-06
	1.100732565676202e-06
	2.381540231259315e-01

 18	1.800000000000000e-01
	-7.567736052754010e-15
	-5.319546602411449e-18
	-1.917237080608508e-14
	2.752255711498259e-07
	9.883496162743720e-06
	1.195525056194444e-06
	2.381540339908565e-01

 19	1.900000000000000e-01
	-7.491673191150798e-15
	-5.467835575053176e-18
	-1.939099455628647e-14
	2.963885450206734e-07
	1.075332422130514e-05
	1.298645027276789e-06
	2.381540458104006e-01

 20	2.000000000000000e-01
	-7.417050743654180e-15
	-5.620318730604808e-18
	-1.960824648409010e-14
	3.190602586171101e-07
	1.170326388746537e-05
	1.410857565013224e-06
	2.381540586722869e-01

 21	2.100000000000000e-01
	-7.343877994650771e-15
	-5.777119079085228e-18
	-1.982405663459694e-14
	3.433368336770243e-07
	1.274111615023390e-05
	1.533002156845345e-06
	2.381540726727761e-01

 22	2.200000000000001e-01
	-7.272163215046495e-15
	-5.938363537934687e-18
	-2.003835688208418e-14
	3.693195254777853e-07
	1.387545993540645e-05
	1.666000128734806e-06
	2.381540879175165e-01

 23	2.300000000000001e-01
	-7.201913655299206e-15
	-6.104183071391675e-18
	-2.025108099870499e-14
	3.971149236028006e-07
	1.511572471804143e-05
	1.810862782765780e-06
	2.381541045224690e-01

 24	2.400000000000001e-01
	-7.133135540869316e-15
	-6.274712835438208e-18
	-2.046216471843965e-14
	4.268351563551013e-07
	1.647226835796580e-05
	1.968700286797009e-06
	2.381541226149471e-01

 25	2.500000000000001e-01
	-7.065834070052686e-15
	-6.450092328561337e-18
	-2.067154579620276e-14
	4.585980987616310e-07
	1.795646023885568e-05
	2.140731368819537e-06
	2.381541423347128e-01

 26	2.600000000000001e-01
	-7.000013414152574e-15
	-6.630465548585181e-18
	-2.087916406202856e-14
	4.925275841230880e-07
	1.958076973567313e-05
	2.328293869206459e-06
	2.381541638351866e-01

 27	2.700000000000001e-01
	-6.935676719940165e-15
	-6.815981155841874e-18
	-2.108496147027569e-14
	5.287536190779297e-07
	2.135885996864185e-05
	2.532856203961399e-06
	2.381541872847789e-01

 28	2.800000000000001e-01
	-6.872826114345261e-15
	-7.006792642964375e-18
	-2.128888214381395e-14
	5.674126021651636e-07
	2.330568672361009e-05
	2.756029791268397e-06
	2.381542128682990e-01

 29	2.900000000000001e-01
	-6.811462711313212e-15
	-7.203058511594666e-18
	-2.149087241317088e-14
	6.086475458886928e-07
	2.543760232773025e-05
	2.999582491993141e-06
	2.381542407885113e-01

 30	3.000000000000001e-01
	-6.751586620757131e-15
	-7.404942456317710e-18
	-2.169088085063747e-14
	6.526083023070547e-07
	2.777246416519471e-05
	3.265453112159840e-06
	2.381542712677911e-01

 31	3.100000000000001e-01
	-6.693196959529006e-15
	-7.612613556145991e-18
	-2.188885829934849e-14
	6.994517921957117e-07
	3.032974739967186e-05
	3.555767011687641e-06
	2.381543045499186e-01

 32	3.200000000000001e-01
	-6.636291864328050e-15
	-7.826246473893815e-18
	-2.208475789737087e-14
	7.493422378554923e-07
	3.313066133770991e-05
	3.872852858678577e-06
	2.381543409020040e-01

 33	3.300000000000001e-01
	-6.580868506459954e-15
	-8.046021663799298e-18
	-2.227853509685082e-14
	8.024513996700078e-07
	3.619826872052308e-05
	4.219260562158953e-06
	2.381543806165490e-01

 34	3.400000000000001e-01
	-6.526923108356265e-15
	-8.272125587770066e-18
	-2.247014767828600e-14
	8.589588165474791e-07
	3.955760707035879e-05
	4.597780408244410e-06
	2.381544240136369e-01

 35	3.500000000000001e-01
	-6.474450961759709e-15
	-8.504750940642712e-18
	-2.265955576000443e-14
	9.190520504182101e-07
	4.323581104250508e-05
	5.011463415082366e-06
	2.381544714432721e-01

 36	3.600000000000002e-01
	-6.423446447477777e-15
	-8.744096884872137e-18
	-2.284672180294708e-14
	9.829269349988024e-07
	4.726223454580266e-05
	5.463642910491202e-06
	2.381545232878656e-01

 37	3.700000000000002e-01
	-6.373903056604708e-15
	-8.990369295082248e-18
	-2.303161061086410e-14
	1.050787829078060e-06
	5.166857119457929e-05
	5.957957322837428e-06
	2.381545799648382e-01

 38	3.800000000000002e-01
	-6.325813413109268e-15
	-9.243781012932493e-18
	-2.321418932604763e-14
	1.122847874627506e-06
	5.648897144505119e-05
	6.498374160258624e-06
	2.381546419293874e-01

 39	3.900000000000002e-01
	-6.279169297684855e-15
	-9.504552112778838e-18
	-2.339442742073620e-14
	1.199329260092908e-06
	6.176015455191160e-05
	7.089215135771183e-06
	2.381547096773644e-01

 40	4.000000000000002e-01
	-6.233961672756713e-15
	-9.772910178630250e-18
	-2.357229668433642e-14
	1.280463489281344e-06
	6.752151325906193e-05
	7.735182376028596e-06
	2.381547837482856e-01

 41	4.100000000000002e-01
	-6.190180708541106e-15
	-1.004909059292597e-17
	-2.374777120661709e-14
	1.366491656322627e-06
	7.381520891602616e-05
	8.441385629498973e-06
	2.381548647284641e-01

 42	4.200000000000002e-01
	-6.147815810050454e-15
	-1.033333683768843e-17
	-2.392082735704089e-14
	1.457664727254576e-06
	8.068625449301310e-05
	9.213370365624574e-06
	2.381549532542201e-01

 43	4.300000000000002e-01
	-6.106855644939800e-15
	-1.062590080862914e-17
	-2.409144376040425e-14
	1.554243828858420e-06
	8.818258275800557e-05
	1.005714663016752e-05
	2.381550500152153e-01

 44	4.400000000000002e-01
	-6.067288172089620e-15
	-1.092704314282138e-17
	-2.425960126896593e-14
	1.656500545455946e-06
	9.635509668475872e-05
	1.097921849357169e-05
	2.381551557578198e-01

 45	4.500000000000002e-01
	-6.029100670822422e-15
	-1.123703356057558e-17
	-2.442528293124708e-14
	1.764717224471715e-06
	1.052576989876842e-04
	1.198661389894046e-05
	2.381552712885482e-01

 46	4.600000000000002e-01
	-5.992279770651154e-15
	-1.155615122219379e-17
	-2.458847395769307e-14
	1.879187291664872e-06
	1.149472975358355e-04
	1.308691468442376e-05
	2.381553974774951e-01

 47	4.700000000000003e-01
	-5.956811481460428e-15
	-1.188468510030422e-17
	-2.474916168338857e-14
	2.000215577043841e-06
	1.254837832913240e-04
	1.428828652172985e-05
	2.381555352617918e-01

 48	4.800000000000003e-01
	-5.922681224023009e-15
	-1.222293436852404e-17
	-2.490733552802232e-14
	2.128118652596121e-06
	1.369299773561216e-04
	1.559950847857003e-05
	2.381556856489804e-01

 49	4.900000000000003e-01
	-5.889873860757399e-15
	-1.257120880722291e-17
	-2.506298695329768e-14
	2.263225183091769e-06
	1.493515437037700e-04
	1.703000187857070e-05
	2.381558497203384e-01

 50	5.000000000000002e-01
	-5.858373726634973e-15
	-1.292982922720851e-17
	-2.521610941798711e-14
	2.405876291355943e-06
	1.628168642280851e-04
	1.858985809816932e-05
	2.381560286340637e-01

 51	5.100000000000002e-01
	-5.828164660148348e-15
	-1.329912791219252e-17
	-2.536669833082781e-14
	2.556425939550499e-06
	1.773968728680019e-04
	2.028986490689725e-05
	2.381562236282944e-01

 52	5.200000000000002e-01
	-5.799230034256324e-15
	-1.367944908093677e-17
	-2.551475100145524e-14
	2.715241328157424e-06
	1.931648457745141e-04
	2.214153092601132e-05
	2.381564360239226e-01

 53	5.300000000000002e-01
	-5.771552787223938e-15
	-1.407114937002960e-17
	-2.566026658956952e-14
	2.882703314517316e-06
	2.101961447797330e-04
	2.415710775151111e-05
	2.381566672271121e-01

 54	5.400000000000003e-01
	-5.745115453280817e-15
	-1.447459833828255e-17
	-2.580324605252581e-14
	3.059206852941514e-06
	2.285679118156464e-04
	2.634960926205900e-05
	2.381569187315384e-01

 55	5.500000000000003e-01
	-5.719900193023622e-15
	-1.489017899379657e-17
	-2.594369209153957e-14
	3.245161458587566e-06
	2.483587124161760e-04
	2.873282761120019e-05
	2.381571921201829e-01

 56	5.600000000000003e-01
	-5.695888823494176e-15
	-1.531828834478742e-17
	-2.608160909668931e-14
	3.440991697458432e-06
	2.696481270232505e-04
	3.132134538751170e-05
	2.381574890667483e-01

 57	5.700000000000003e-01
	-5.673062847867386e-15
	-1.575933797532645e-17
	-2.621700309089931e-14
	3.647137705058752e-06
	2.925162895067721e-04
	3.413054341698133e-05
	2.381578113365335e-01

 58	5.800000000000003e-01
	-5.651403484688326e-15
	-1.621375464720277e-17
	-2.634988167307670e-14
	3.864055736407682e-06
	3.170433730969518e-04
	3.717660367996536e-05
	2.381581607867602e-01

 59	5.900000000000003e-01
	-5.630891696601698e-15
	-1.668198092917316e-17
	-2.648025396057309e-14
	4.092218750268500e-06
	3.433090248107058e-04
	4.047650682153705e-05
	2.381585393662739e-01

 60	6.000000000000003e-01
	-5.611508218521123e-15
	-1.716447585493764e-17
	-2.660813053113479e-14
	4.332117030602652e-06
	3.713917504226581e-04
	4.404802374977551e-05
	2.381589491145691e-01

 61	6.100000000000003e-01
	-5.593233585190146e-15
	-1.766171561123209e-17
	-2.673352336449885e-14
	4.584258848388248e-06
	4.013682530738094e-04
	4.790970084238864e-05
	2.381593921600816e-01

 62	6.200000000000003e-01
	-5.576048158090718e-15
	-1.817419425751414e-17
	-2.685644578378655e-14
	4.849171167052609e-06
	4.333127297108278e-04
	5.208083831864255e-05
	2.381598707176838e-01

 63	6.300000000000003e-01
	-5.559932151659358e-15
	-1.870242447878000e-17
	-2.697691239683767e-14
	5.127400394853024e-06
	4.672961306866465e-04
	5.658146138138929e-05
	2.381603870853631e-01

 64	6.400000000000003e-01
	-5.544865658775135e-15
	-1.924693837313469e-17
	-2.709493903762296e-14
	5.419513187591643e-06
	5.033853890050259e-04
	6.143228379328017e-05
	2.381609436400300e-01

 65	6.500000000000004e-01
	-5.530828675487607e-15
	-1.980828827582023e-17
	-2.721054270786416e-14
	5.726097305066387e-06
	5.416426268313048e-04
	6.665466362205250e-05
	2.381615428324263e-01

 66	6.600000000000004e-01
	-5.517801124956454e-15
	-2.038704762148875e-17
	-2.732374151898430e-14
	6.047762524633625e-06
	5.821243479890360e-04
	7.227055097178786e-05
	2.381621871811041e-01

 67	6.700000000000004e-01
	-5.505762880578954e-15
	-2.098381184660344e-17
	-2.743455463450273e-14
	6.385141615187325e-06
	6.248806261857383e-04
	7.830242760968847e-05
	2.381628792654968e-01

 68	6.800000000000004e-01
	-5.494693788284281e-15
	-2.159919933394241e-17
	-2.754300221298242e-14
	6.738891374739522e-06
	6.699542996273058e-04
	8.477323850028739e-05
	2.381636217180527e-01

 69	6.900000000000004e-01
	-5.484573687977450e-15
	-2.223385240128827e-17
	-2.764910535163026e-14
	7.109693734617442e-06
	7.173801834560775e-04
	9.170631536985612e-05
	2.381644172154508e-01

 70	7.000000000000004e-01
	-5.475382434119226e-15
	-2.288843833648804e-17
	-2.775288603064227e-14
	7.498256933070628e-06
	7.671843120488704e-04
	9.912529254148280e-05
	2.381652684689420e-01

 71	7.100000000000004e-01
	-5.467099915431018e-15
	-2.356365048118728e-17
	-2.785436705837997e-14
	7.905316760812726e-06
	8.193832236077821e-04
	1.070540154040229e-04
	2.381661782138405e-01

 72	7.200000000000004e-01
	-5.459706073717369e-15
	-2.426020936565596e-17
	-2.795357201745615e-14
	8.331637880705007e-06
	8.739832996397382e-04
	1.155164420035783e-04
	2.381671491982411e-01

 73	7.300000000000004e-01
	-5.453180921800603e-15
	-2.497886389726641e-17
	-2.805052521180228e-14
	8.778015223434143e-06
	9.309801718278659e-04
	1.245365383719836e-04
	2.381681841710061e-01

 74	7.400000000000004e-01
	-5.447504560565972e-15
	-2.572039260529718e-17
	-2.814525161478201e-14
	9.245275460647287e-06
	9.903582084304513e-04
	1.341381683301900e-04
	2.381692858691256e-01

 75	7.500000000000004e-01
	-5.442657195117277e-15
	-2.648560494489847e-17
	-2.823777681840976e-14
	9.734278556598776e-06
	1.052090091691388e-03
	1.443449786227312e-04
	2.381704570045625e-01

 76	7.600000000000005e-01
	-5.438619150045512e-15
	-2.727534266320223e-17
	-2.832812698372704e-14
	1.024591939894542e-05
	1.116136496806445e-03
	1.551802803497053e-04
	2.381717002506419e-01

 77	7.700000000000005e-01
	-5.435370883815484e-15
	-2.809048123070951e-17
	-2.841632879238243e-14
	1.078112950891445e-05
	1.182445881767977e-03
	1.666669277620111e-04
	2.381730182281776e-01

 78	7.800000000000005e-01
	-5.432893002276922e-15
	-2.893193134127895e-17
	-2.850240939945665e-14
	1.134087883068433e-05
	1.250954395922419e-03
	1.788271955713387e-04
	2.381744134913892e-01

 79	7.900000000000005e-01
	-5.431166271309038e-15
	-2.980064048419138e-17
	-2.858639638756762e-14
	1.192617759947065e-05
	1.321585913342793e-03
	1.916826559958141e-04
	2.381758885138357e-01

 80	8.000000000000005e-01
	-5.430171628608340e-15
	-3.069759459198433e-17
	-2.866831772228599e-14
	1.253807828753121e-05
	1.394252195176760e-03
	2.052540568132865e-04
	2.381774456744303e-01

 81	8.100000000000005e-01
	-5.429890194631880e-15
	-3.162381976793512e-17
	-2.874820170888641e-14
	1.317767762710377e-05
	1.468853183019317e-03
	2.195612017248447e-04
	2.381790872437269e-01

 82	8.200000000000005e-01
	-5.430303282708971e-15
	-3.258038409727706e-17
	-2.882607695045492e-14
	1.384611870919411e-05
	1.545277423126766e-03
	2.346228343399612e-04
	2.381808153706325e-01

 83	8.300000000000005e-01
	-5.431392408335840e-15
	-3.356839954647226e-17
	-2.890197230736897e-14
	1.454459315715803e-05
	1.623402618989082e-03
	2.504565270807465e-04
	2.381826320696768e-01

 84	8.400000000000005e-01
	-5.433139297668665e-15
	-3.458902395508899e-17
	-2.897591685816210e-14
	1.527434337418700e-05
	1.703096307469024e-03
	2.670785762657610e-04
	2.381845392089858e-01

 85	8.500000000000005e-01
	-5.435525895231450e-15
	-3.564346312508192e-17
	-2.904793986178128e-14
	1.603666486412330e-05
	1.784216651457986e-03
	2.845039045738462e-04
	2.381865384991011e-01

 86	8.600000000000005e-01
	-5.438534370856366e-15
	-3.673297301253078e-17
	-2.911807072124102e-14
	1.683290862551647e-05
	1.866613339851407e-03
	3.027459720064768e-04
	2.381886314827693e-01

 87	8.700000000000006e-01
	-5.442147125874153e-15
	-3.785886202716842e-17
	-2.918633894867582e-14
	1.766448361948724e-05
	1.950128583667280e-03
	3.218166963644425e-04
	2.381908195258375e-01

 88	8.800000000000006e-01
	-5.446346798573525e-15
	-3.902249344532146e-17
	-2.925277413178772e-14
	1.853285931280004e-05
	2.034598195374379e-03
	3.417263841333914e-04
	2.381931038093102e-01

 89	8.900000000000006e-01
	-5.451116268948575e-15
	-4.022528794217502e-17
	-2.931740590168367e-14
	1.943956829854851e-05
	2.119852737007917e-03
	3.624836725351786e-04
	2.381954853227122e-01

 90	9.000000000000006e-01
	-5.456438662753753e-15
	-4.146872624959865e-17
	-2.938026390209425e-14
	2.038620899803880e-05
	2.205718721470223e-03
	3.840954833512558e-04
	2.381979648587823e-01

 91	9.100000000000006e-01
	-5.462297354886174e-15
	-4.275435194609870e-17
	-2.944137775996170e-14
	2.137444844878405e-05
	2.292019850569965e-03
	4.065669889633828e-04
	2.382005430095812e-01

 92	9.200000000000006e-01
	-5.468675972115054e-15
	-4.408377438580414e-17
	-2.950077705738422e-14
	2.240602518500422e-05
	2.378578272866637e-03
	4.299015908896500e-04
	2.382032201640173e-01

 93	9.300000000000006e-01
	-5.475558395178492e-15
	-4.545867177375481e-17
	-2.955849130489867e-14
	2.348275221862196e-05
	2.465215844263302e-03
	4.541009109233919e-04
	2.382059965068284e-01

 94	9.400000000000006e-01
	-5.482928760267502e-15
	-4.688079439514420e-17
	-2.961454991608393e-14
	2.460652013044749e-05
	2.551755374528120e-03
	4.791647948129590e-04
	2.382088720189962e-01

 95	9.500000000000006e-01
	-5.490771459917126e-15
	-4.835196800654876e-17
	-2.966898218346302e-14
	2.577930028302329e-05
	2.638021843508980e-03
	5.050913282549399e-04
	2.382118464795734e-01

 96	9.600000000000006e-01
	-5.499071143324483e-15
	-4.987409739759695e-17
	-2.972181725568095e-14
	2.700314816842415e-05
	2.723843571711568e-03
	5.318768648155628e-04
	2.382149194688850e-01

 97	9.700000000000006e-01
	-5.507812716113108e-15
	-5.144917013196010e-17
	-2.977308411593327e-14
	2.828020690616041e-05
	2.809053331106794e-03
	5.595160652479076e-04
	2.382180903730315e-01

 98	9.800000000000006e-01
	-5.516981339562544e-15
	-5.307926047697309e-17
	-2.982281156161823e-14
	2.961271090817339e-05
	2.893489383477281e-03
	5.880019475386296e-04
	2.382213583896257e-01

 99	9.900000000000007e-01
	-5.526562429322203e-15
	-5.476653353167253e-17
	-2.987102818518410e-14
	3.100298972972951e-05
	2.976996435259856e-03
	6.173259468996908e-04
	2.382247225346766e-01

 100	1.000000000000001e+00
	-5.536541653627274e-15
	-5.651324956352261e-17
	-2.991776235614151e-14
	3.245347212678015e-05
	3.059426499640477e-03
	6.474779848196210e-04
	2.382281816505036e-01

 101	1.010000000000001e+00
	-5.546904931034688e-15
	-5.832176856456082e-17
	-2.996304220420932e-14
