Title: ** sch_path: /home/andylithia/openmpw/project-yatsuhashi-chip1/xschem/gmid_test/nmos_test.sch
Date: Sun Jul 17 22:51:45  2022
Plotname: DC transfer characteristic
Flags: real
No. Variables: 8
No. Points: 181
Variables:
	0	v(v-sweep)	voltage
	1	@m.xm1.msky130_fd_pr__nfet_01v8[cgb]	capacitance
	2	@m.xm1.msky130_fd_pr__nfet_01v8[cgd]	capacitance
	3	@m.xm1.msky130_fd_pr__nfet_01v8[cgs]	capacitance
	4	@m.xm1.msky130_fd_pr__nfet_01v8[gds]	admittance
	5	@m.xm1.msky130_fd_pr__nfet_01v8[gm]	admittance
	6	i(@m.xm1.msky130_fd_pr__nfet_01v8[id])	current
	7	v(@m.xm1.msky130_fd_pr__nfet_01v8[vth])	voltage
Values:
 0	0.000000000000000e+00
	-4.046263664720598e-15
	-6.736316941602740e-25
	-5.707085400098004e-18
	8.516184091736240e-26
	3.144822128848083e-23
	3.393729826647900e-25
	6.175984716471167e-01

 1	1.000000000000000e-02
	-4.029249621547087e-15
	-8.844247541175116e-25
	-5.694276306540934e-18
	2.150876239105463e-25
	7.943581485708688e-23
	8.571318759054829e-25
	6.175984716471167e-01

 2	2.000000000000000e-02
	-4.012445468228162e-15
	-1.161172202177582e-24
	-5.685784930705146e-18
	5.434146962847531e-25
	2.006816531458231e-22
	2.165527005015163e-24
	6.175984716471167e-01

 3	3.000000000000000e-02
	-3.995846684753412e-15
	-1.524505257631401e-24
	-5.682875867590802e-18
	1.372834623602655e-24
	5.069693550777649e-22
	5.470795087375058e-24
	6.175984716471167e-01

 4	4.000000000000000e-02
	-3.979448773454193e-15
	-2.001505170272978e-24
	-5.687215745487763e-18
	3.467943805894545e-24
	1.280663292260991e-21
	1.381988013010645e-23
	6.175984716471167e-01

 5	5.000000000000000e-02
	-3.963247225729966e-15
	-2.627717107129326e-24
	-5.700999725792631e-18
	8.759994113063974e-24
	3.234971309627441e-21
	3.490888992423773e-23
	6.175984716471167e-01

 6	6.000000000000000e-02
	-3.947237479598734e-15
	-3.449790950290763e-24
	-5.727117436040265e-18
	2.212877065393628e-23
	8.171580827278839e-21
	8.818394270010992e-23
	6.175984716471167e-01

 7	7.000000000000001e-02
	-3.931414865182714e-15
	-4.528942806635159e-24
	-5.769370354877961e-18
	5.589740289878341e-23
	2.064026359956458e-20
	2.227531502502214e-22
	6.175984716471167e-01

 8	8.000000000000000e-02
	-3.915774534394401e-15
	-5.945489973873193e-24
	-5.832756136876986e-18
	1.411859115881580e-22
	5.212910277506262e-20
	5.626309085284689e-22
	6.175984716471167e-01

 9	9.000000000000000e-02
	-3.900311370026240e-15
	-7.804788288645346e-24
	-5.923839696240435e-18
	3.565751594502302e-22
	1.316384187819891e-19
	1.420964766697840e-21
	6.175984716471167e-01

 10	9.999999999999999e-02
	-3.885019868139088e-15
	-1.024499875617678e-23
	-6.051236173125252e-18
	9.004139370534703e-22
	3.323404101854819e-19
	3.588181751005766e-21
	6.175984716471167e-01

 11	1.100000000000000e-01
	-3.869893986074536e-15
	-1.344723554062500e-23
	-6.226237226402914e-18
	2.273151240980871e-21
	8.387332234947322e-19
	9.058589016163817e-21
	6.175984716471167e-01

 12	1.200000000000000e-01
	-3.854926946603952e-15
	-1.764880595757742e-23
	-6.463619321998358e-18
	5.736440955143921e-21
	2.115477363735410e-18
	2.285992242465504e-20
	6.175984716471167e-01

 13	1.300000000000000e-01
	-3.840110986760530e-15
	-2.316045167996259e-23
	-6.782680416460177e-18
	1.446726380462104e-20
	5.330746714125274e-18
	5.765256382101483e-20
	6.175984716471167e-01

 14	1.400000000000000e-01
	-3.825437037986128e-15
	-3.038874531363000e-23
	-7.208558775306693e-18
	3.645046974089884e-20
	1.341304564790786e-17
	1.452564259165873e-19
	6.175984716471167e-01

 15	1.500000000000000e-01
	-3.810894322757952e-15
	-3.986509266770147e-23
	-7.773892938182468e-18
	9.169458238018527e-20
	3.367093693470531e-17
	3.654061911190399e-19
	6.175984716471167e-01

 16	1.600000000000000e-01
	-3.796469852507251e-15
	-5.228313981525502e-23
	-8.520882274006169e-18
	2.301012096372039e-19
	8.421545996173696e-17
	9.169615521809598e-19
	6.175984716471167e-01

 17	1.700000000000000e-01
	-3.782147813395790e-15
	-6.854678076361519e-23
	-9.503799089936891e-18
	5.752084340625221e-19
	2.094310153059269e-16
	2.292226187606983e-18
	6.175984716471167e-01

 18	1.800000000000000e-01
	-3.767908831632280e-15
	-8.983139321303482e-23
	-1.079198082811064e-17
	1.429343830418554e-18
	5.162230381923453e-16
	5.695986298559628e-18
	6.175984716471167e-01

 19	1.900000000000000e-01
	-3.753729119631757e-15
	-1.176613753049644e-22
	-1.247329014954454e-17
	3.519365762734077e-18
	1.255317266330890e-15
	1.402479846924167e-17
	6.175984716471167e-01

 20	2.000000000000000e-01
	-3.739579518441698e-15
	-1.540074940456651e-22
	-1.465797236441699e-17
	8.546552459470835e-18
	2.991536660213189e-15
	3.405831730527208e-17
	6.175984716471167e-01

 21	2.100000000000000e-01
	-3.725424467223339e-15
	-2.014079895062449e-22
	-1.748277822123850e-17
	2.033910463628453e-17
	6.924298147298038e-15
	8.105205962505981e-17
	6.175984716471167e-01

 22	2.200000000000001e-01
	-3.711220937302649e-15
	-2.631178901959317e-22
	-2.111519756137842e-17
	4.704694337433789e-17
	1.539849693483304e-14
	1.874837525687427e-16
	6.175984716471167e-01

 23	2.300000000000001e-01
	-3.696917346120113e-15
	-3.432918379070394e-22
	-2.575775018467338e-17
	1.048001550441844e-16
	3.253373892503748e-14
	4.176323677016004e-16
	6.175984716471167e-01

 24	2.400000000000001e-01
	-3.682452383776552e-15
	-4.472074364411446e-22
	-3.165263324713603e-17
	2.228700445780922e-16
	6.475241720270836e-14
	8.881451037203455e-16
	6.175984716471167e-01

 25	2.500000000000001e-01
	-3.667753507344901e-15
	-5.815396296821187e-22
	-3.908776603813150e-17
	4.499055047444351e-16
	1.211439721826861e-13
	1.792889543719818e-15
	6.175984716471167e-01

 26	2.600000000000001e-01
	-3.652734572160812e-15
	-7.547030295336806e-22
	-4.840644715275031e-17
	8.614738544733803e-16
	2.143224469768639e-13
	3.433004173282137e-15
	6.175984716471167e-01

 27	2.700000000000001e-01
	-3.637291717800507e-15
	-9.772893917767102e-22
	-6.002425313930960e-17
	1.571665855739992e-15
	3.630046360777773e-13
	6.263144808118552e-15
	6.175984716471167e-01

 28	2.800000000000001e-01
	-3.621296330722835e-15
	-1.262641503025164e-21
	-7.445794961866188e-17
	2.754209184099189e-15
	5.970596755930217e-13
	1.097562258119590e-14
	6.175984716471167e-01

 29	2.900000000000001e-01
	-3.604583835552674e-15
	-1.627620727124488e-21
	-9.237135995414441e-17
	4.679510735695304e-15
	9.651978015313891e-13
	1.864801899288741e-14
	6.175984716471179e-01

 30	3.000000000000001e-01
	-3.586937352739247e-15
	-2.093639591653086e-21
	-1.146418363081494e-16
	7.775070969327675e-15
	1.546180133652493e-12
	3.098393956000090e-14
	6.175984716471190e-01

 31	3.100000000000001e-01
	-3.568065911621939e-15
	-2.688038238367192e-21
	-1.424482092616610e-16
	1.272084992317614e-14
	2.466013629191027e-12
	5.069305165401483e-14
	6.175984716471214e-01

 32	3.200000000000001e-01
	-3.547577838181755e-15
	-3.445879509692024e-21
	-1.773772552053577e-16
	2.059941587550953e-14
	3.925253096390131e-12
	8.208943444023743e-14
	6.175984716471239e-01

 33	3.300000000000001e-01
	-3.524951088535261e-15
	-4.412217213015707e-21
	-2.215410795320531e-16
	3.313348850749187e-14
	6.242617745890029e-12
	1.320382023348811e-13
	6.175984716471287e-01

 34	3.400000000000001e-01
	-3.499503735840967e-15
	-5.644849907533718e-21
	-2.776921265547226e-16
	5.306295171759368e-14
	9.924517074113696e-12
	2.114579283578024e-13
	6.175984716471372e-01

 35	3.500000000000001e-01
	-3.470369671838017e-15
	-7.217500299493714e-21
	-3.493152756410430e-16
	8.474392902809418e-14
	1.577566519259334e-11
	3.377080159497181e-13
	6.175984716471493e-01

 36	3.600000000000002e-01
	-3.436486925585261e-15
	-9.223248203601949e-21
	-4.406674093585963e-16
	1.351009810999826e-13
	2.507493143974784e-11
	5.383833283207043e-13
	6.175984716471700e-01

 37	3.700000000000002e-01
	-3.396608756546545e-15
	-1.177788467256969e-20
	-5.567242767932932e-16
	2.151405918980602e-13
	3.985484052642725e-11
	8.573457078135827e-13
	6.175984716472016e-01

 38	3.800000000000002e-01
	-3.349350501924716e-15
	-1.502264567018138e-20
	-7.029838340560750e-16
	3.423567172255738e-13
	6.334579394160324e-11
	1.364310735948478e-12
	6.175984716472510e-01

 39	3.900000000000002e-01
	-3.293286952979781e-15
	-1.912554436711389e-20
	-8.850689176666991e-16
	5.445540343312021e-13
	1.006820798112985e-10
	2.170084942477952e-12
	6.175984716473312e-01

 40	4.000000000000002e-01
	-3.227113073916337e-15
	-2.428030982840544e-20
	-1.108080924882386e-15
	8.659241491184347e-13
	1.600239271924221e-10
	3.450783302398803e-12
	6.175984716474572e-01

 41	4.100000000000002e-01
	-3.149870462352596e-15
	-3.070187551442757e-20
	-1.375698571270106e-15
	1.376701834394236e-12
	2.543407134557173e-10
	5.486318769595758e-12
	6.175984716476582e-01

 42	4.200000000000002e-01
	-3.061218564507720e-15
	-3.861762042993216e-20
	-1.689109020963372e-15
	2.188509320501551e-12
	4.042447315951958e-10
	8.721572756915516e-12
	6.175984716479780e-01

 43	4.300000000000002e-01
	-2.961694834060388e-15
	-4.825431300697468e-20
	-2.045995512850047e-15
	3.478736012927413e-12
	6.424940136792745e-10
	1.386360710696763e-11
	6.175984716484870e-01

 44	4.400000000000002e-01
	-2.852876121034845e-15
	-5.982193902498661e-20
	-2.439928189022617e-15
	5.529266077656402e-12
	1.021146169712563e-09
	2.203614119220028e-11
	6.175984716492950e-01

 45	4.500000000000002e-01
	-2.737350745254974e-15
	-7.349697502979930e-20
	-2.860510217742435e-15
	8.787977594380135e-12
	1.622921243417330e-09
	3.502499762283618e-11
	6.175984716505798e-01

 46	4.600000000000002e-01
	-2.618457831240997e-15
	-8.940854547646454e-20
	-3.294439833136288e-15
	1.396635170126115e-11
	2.579242990961666e-09
	5.566801063195251e-11
	6.175984716526209e-01

 47	4.700000000000003e-01
	-2.499837825326889e-15
	-1.076306388150635e-19
	-3.727303112257723e-15
	2.219426522745960e-11
	4.098866078528786e-09
	8.847423306103976e-11
	6.175984716558648e-01

 48	4.800000000000003e-01
	-2.384919358419682e-15
	-1.281820354253006e-19
	-4.145596958444062e-15
	3.526514220369174e-11
	6.513255900029996e-09
	1.406068065094780e-10
	6.175984716610194e-01

 49	4.900000000000003e-01
	-2.276491301121082e-15
	-1.510334361762669e-19
	-4.538397230241012e-15
	5.602339176619123e-11
	1.034841165557852e-08
	2.234418579018089e-10
	6.175984716692108e-01

 50	5.000000000000002e-01
	-2.176462004609830e-15
	-1.761194718469652e-19
	-4.898278906870865e-15
	8.897465731542063e-11
	1.643825579102173e-08
	3.550379351783809e-10
	6.175984716822243e-01

 51	5.100000000000002e-01
	-2.085825179559548e-15
	-2.033525340582500e-19
	-5.221422345186375e-15
	1.412418520116115e-10
	2.610292313488352e-08
	5.640400479442253e-10
	6.175984717028904e-01

 52	5.200000000000002e-01
	-2.004783161239352e-15
	-2.326357419049765e-19
	-5.507107232803481e-15
	2.240500289484306e-10
	4.142726746045341e-08
	8.958321010801580e-10
	6.175984717356989e-01

 53	5.300000000000002e-01
	-1.932950365295814e-15
	-2.638733702276726e-19
	-5.756900888491209e-15
	3.550006629635913e-10
	6.569128877578312e-08
	1.422182997875235e-09
	6.175984717877466e-01

 54	5.400000000000003e-01
	-1.869568415708082e-15
	-2.969781440055137e-19
	-5.973809407665927e-15
	5.614766327651093e-10
	1.040236259049546e-07
	2.256245080727665e-09
	6.175984718702217e-01

 55	5.500000000000003e-01
	-1.813690257125098e-15
	-3.318755899030470e-19
	-6.161556630014537e-15
	8.855507903715193e-10
	1.643640445541096e-07
	3.575559293481962e-09
	6.175984720006812e-01

 56	5.600000000000003e-01
	-1.764316256140590e-15
	-3.685060406644592e-19
	-6.324054727778003e-15
	1.390615946650552e-09
	2.588062444477579e-07
	5.656550492506974e-09
	6.175984722064576e-01

 57	5.700000000000003e-01
	-1.720482705499705e-15
	-4.068249892136048e-19
	-6.465062527804934e-15
	2.169322746666301e-09
	4.052847102294825e-07
	8.924291715346993e-09
	6.175984725295840e-01

 58	5.800000000000003e-01
	-1.681311600747131e-15
	-4.468024145859465e-19
	-6.587995389558397e-15
	3.350852947609917e-09
	6.292366739673077e-07
	1.401955346854185e-08
	6.175984730334226e-01

 59	5.900000000000003e-01
	-1.646032712794914e-15
	-4.884215577798277e-19
	-6.695842757351223e-15
	5.102782263797428e-09
	9.641317510013551e-07
	2.187816817738231e-08
	6.175984738105132e-01

 60	6.000000000000003e-01
	-1.613987827333325e-15
	-5.316774772959903e-19
	-6.791154516324161e-15
	7.619820938992697e-09
	1.448667545403803e-06
	3.380127910993886e-08
	6.175984749895165e-01

 61	6.100000000000003e-01
	-1.584624692087307e-15
	-5.765755911056111e-19
	-6.876066681239314e-15
	1.109254866152311e-08
	2.118064774444340e-06
	5.146968575716657e-08
	6.175984767366386e-01

 62	6.200000000000003e-01
	-1.557485859404912e-15
	-6.231303215515860e-19
	-6.952346281400339e-15
	1.565943680443339e-08
	2.989819852685921e-06
	7.684061090268770e-08
	6.175984792454198e-01

 63	6.300000000000003e-01
	-1.532195701302121e-15
	-6.713638990634060e-19
	-7.021442811229262e-15
	2.136276338734722e-08
	4.051197042963329e-06
	1.119016571540364e-07
	6.175984827124026e-01

 64	6.400000000000003e-01
	-1.508447497608503e-15
	-7.213053428085321e-19
	-7.084538986363417e-15
	2.813576921557320e-08
	5.259415610286963e-06
	1.583555893975330e-07
	6.175984873059672e-01

 65	6.500000000000004e-01
	-1.485991584173466e-15
	-7.729896147603423e-19
	-7.142597086720315e-15
	3.582977201720523e-08
	6.556927754453487e-06
	2.173867359719165e-07
	6.175984931432276e-01

 66	6.600000000000004e-01
	-1.464624981346322e-15
	-8.264569326311923e-19
	-7.196399349480833e-15
	4.426215950783625e-08
	7.890939703296370e-06
	2.896135014128401e-07
	6.175985002853367e-01

 67	6.700000000000004e-01
	-1.444182594556248e-15
	-8.817522225920303e-19
	-7.246582128119852e-15
	5.325836279036621e-08
	9.225012636690665e-06
	3.752032295015922e-07
	6.175985087488455e-01

 68	6.800000000000004e-01
	-1.424529904192753e-15
	-9.389246918544639e-19
	-7.293664191766426e-15
	6.267456979517179e-08
	1.054019489154000e-05
	4.740486945207227e-07
	6.175985185231505e-01

 69	6.900000000000004e-01
	-1.405556981305002e-15
	-9.980275022757526e-19
	-7.338069836296816e-15
	7.240318537076957e-08
	1.183035479031658e-05
	5.859220732400490e-07
	6.175985295857261e-01

 70	7.000000000000004e-01
	-1.387173639232713e-15
	-1.059117528152182e-18
	-7.380147568796600e-15
	8.236874076139161e-08
	1.309663547828658e-05
	7.105747853774059e-07
	6.175985419119915e-01

 71	7.100000000000004e-01
	-1.369305534152723e-15
	-1.122255183703255e-18
	-7.420185106919009e-15
	9.252064271283132e-08
	1.434332606298232e-05
	8.477880940346159e-07
	6.175985554803169e-01

 72	7.200000000000004e-01
	-1.351891044603449e-15
	-1.187504308075092e-18
	-7.458421362055133e-15
	1.028261483467378e-07
	1.557544856278964e-05
	9.973912176231545e-07
	6.175985702738139e-01

 73	7.300000000000004e-01
	-1.334878782646404e-15
	-1.254932097830214e-18
	-7.495055983210277e-15
	1.132647673114555e-07
	1.679760357828717e-05
	1.159262071846260e-06
	6.175985862804095e-01

 74	7.400000000000004e-01
	-1.318225612695956e-15
	-1.324609078761775e-18
	-7.530256944926771e-15
	1.238242074640523e-07
	1.801355492170660e-05
	1.333320543054991e-06
	6.175986034921830e-01

 75	7.500000000000004e-01
	-1.301895075813038e-15
	-1.396609110465506e-18
	-7.564166576327670e-15
	1.344975910557703e-07
	1.922618407382801e-05
	1.519519694165288e-06
	6.175986219044894e-01

 76	7.600000000000005e-01
	-1.285856136395467e-15
	-1.471009418431583e-18
	-7.596906353014853e-15
	1.452816032914947e-07
	2.043759922984798e-05
	1.717837415840029e-06
	6.175986415151440e-01

 77	7.700000000000005e-01
	-1.270082184437339e-15
	-1.547890649515566e-18
	-7.628580709944633e-15
	1.561752855720315e-07
	2.164928874153081e-05
	1.928269451097822e-06
	6.175986623237238e-01

 78	7.800000000000005e-01
	-1.254550239992383e-15
	-1.627336947544450e-18
	-7.659280080893297e-15
	1.671792597695254e-07
	2.286226931566790e-05
	2.150823953081458e-06
	6.175986843310345e-01

 79	7.900000000000005e-01
	-1.239240317454842e-15
	-1.709436046541186e-18
	-7.689083327452971e-15
	1.782952350979428e-07
	2.407721070512011e-05
	2.385517414543145e-06
	6.175987075387077e-01

 80	8.000000000000005e-01
	-1.224134916122031e-15
	-1.794279379642303e-18
	-7.718059686205790e-15
	1.895256981667759e-07
	2.529453340082715e-05
	2.632371708710042e-06
	6.175987319489032e-01

 81	8.100000000000005e-01
	-1.209218610577316e-15
	-1.881962202259661e-18
	-7.746270335390595e-15
	2.008737210571402e-07
	2.651448194496383e-05
	2.891411981776806e-06
	6.175987575641086e-01

 82	8.200000000000005e-01
	-1.194477720051999e-15
	-1.972583728424429e-18
	-7.773769660719231e-15
	2.123428452672578e-07
	2.773717840123042e-05
	3.162665175339218e-06
	6.175987843869863e-01

 83	8.300000000000005e-01
	-1.179900040368889e-15
	-2.066247279563988e-18
	-7.800606282913869e-15
	2.239370144863569e-07
	2.896266057486862e-05
	3.446159003665189e-06
	6.175988124202767e-01

 84	8.400000000000005e-01
	-1.165474625572477e-15
	-2.163060445216979e-18
	-7.826823896102457e-15
	2.356605389514797e-07
	3.019090892739139e-05
	3.741921253687769e-06
	6.175988416667263e-01

 85	8.500000000000005e-01
	-1.151191609104350e-15
	-2.263135255401484e-18
	-7.852461955668199e-15
	2.475180804412102e-07
	3.142186531436538e-05
	4.049979310985818e-06
	6.175988721290435e-01

 86	8.600000000000005e-01
	-1.137042056543667e-15
	-2.366588364521266e-18
	-7.877556245891923e-15
	2.595146509936040e-07
	3.265544591331244e-05
	4.370359842403568e-06
	6.175989038098656e-01

 87	8.700000000000006e-01
	-1.123017843627123e-15
	-2.473541246840276e-18
	-7.902139351263007e-15
	2.716556210122184e-07
	3.389155007866964e-05
	4.703088586360435e-06
	6.175989367117347e-01

 88	8.800000000000006e-01
	-1.109111554590738e-15
	-2.584120403674518e-18
	-7.926241050278700e-15
	2.839467340697168e-07
	3.513006637116826e-05
	5.048190216711116e-06
	6.175989708370925e-01

 89	8.900000000000006e-01
	-1.095316396916143e-15
	-2.698457582555014e-18
	-7.949888646595989e-15
	2.963941267712305e-07
	3.637087664319339e-05
	5.405688256568941e-06
	6.175990061882629e-01

 90	9.000000000000006e-01
	-1.081626129379675e-15
	-2.816690008705200e-18
	-7.973107249303685e-15
	3.090043527157463e-07
	3.761385879548555e-05
	5.775605025914598e-06
	6.175990427674530e-01

 91	9.100000000000006e-01
	-1.068035000941899e-15
	-2.938960629255268e-18
	-7.995920011657520e-15
	3.217844100316305e-07
	3.885888863050258e-05
	6.157961611963683e-06
	6.175990805767493e-01

 92	9.200000000000006e-01
	-1.054537698517205e-15
	-3.065418370690017e-18
	-8.018348335718968e-15
	3.347417722497250e-07
	4.010584109400352e-05
	6.552777854809654e-06
	6.175991196181121e-01

 93	9.300000000000006e-01
	-1.041129302057854e-15
	-3.196218410091575e-18
	-8.040412048844476e-15
	3.478844224704983e-07
	4.135459110333871e-05
	6.960072343280622e-06
	6.175991598933788e-01

 94	9.400000000000006e-01
	-1.027805245697162e-15
	-3.331522460803493e-18
	-8.062129556797050e-15
	3.612208909162442e-07
	4.260501409674176e-05
	7.379862417592926e-06
	6.175992014042645e-01

 95	9.500000000000006e-01
	-1.014561283941824e-15
	-3.471499073202434e-18
	-8.083517977324966e-15
	3.747602960580692e-07
	4.385698639396778e-05
	7.812164176493026e-06
	6.175992441523609e-01

 96	9.600000000000006e-01
	-1.001393462096809e-15
	-3.616323951323950e-18
	-8.104593257320111e-15
	3.885123895852782e-07
	4.511038542875899e-05
	8.256992487324115e-06
	6.175992881391369e-01

 97	9.700000000000006e-01
	-9.882980902599638e-16
	-3.766180286147698e-18
	-8.125370276087780e-15
	4.024876055511417e-07
	4.636508989326324e-05
	8.714360997949680e-06
	6.175993333659430e-01

 98	9.800000000000006e-01
	-9.752717203452547e-16
	-3.921259106407894e-18
	-8.145862936798205e-15
	4.166971140904625e-07
	4.762097982107413e-05
	9.184282149796898e-06
	6.175993798340073e-01

 99	9.900000000000007e-01
	-9.623111256910448e-16
	-4.081759647855478e-18
	-8.166084247821437e-15
	4.311528801649454e-07
	4.887793662617857e-05
	9.666767191497785e-06
	6.175994275444435e-01

 100	1.000000000000001e+00
	-9.494132828875291e-16
	-4.247889741961292e-18
	-8.186046395352593e-15
	4.458677278554510e-07
	5.013584310906671e-05
	1.016182619274863e-05
	6.175994764982461e-01

 101	1.010000000000001e+00
	-9.365753555199863e-16
	-4.419866225114382e-18
	-8.205760808496706e-15
