Title: ** sch_path: /home/andylithia/openmpw/project-yatsuhashi-chip1/xschem/gmid_test/nmos_test.sch
Date: Sun Jul 17 22:51:45  2022
Plotname: DC transfer characteristic
Flags: real
No. Variables: 8
No. Points: 181
Variables:
	0	v(v-sweep)	voltage
	1	@m.xm1.msky130_fd_pr__nfet_01v8[cgb]	capacitance
	2	@m.xm1.msky130_fd_pr__nfet_01v8[cgd]	capacitance
	3	@m.xm1.msky130_fd_pr__nfet_01v8[cgs]	capacitance
	4	@m.xm1.msky130_fd_pr__nfet_01v8[gds]	admittance
	5	@m.xm1.msky130_fd_pr__nfet_01v8[gm]	admittance
	6	i(@m.xm1.msky130_fd_pr__nfet_01v8[id])	current
	7	v(@m.xm1.msky130_fd_pr__nfet_01v8[vth])	voltage
Values:
 0	0.000000000000000e+00
	-2.635627375167907e-15
	2.345666698445453e-19
	-1.721671038080812e-17
	3.512417873126688e-14
	8.120338938791958e-13
	2.491929443376553e-14
	7.494881069353018e-01

 1	1.000000000000000e-02
	-2.623053918501473e-15
	2.511839939817223e-19
	-1.837328948289511e-17
	4.829868260480003e-14
	1.124844827809217e-12
	3.451889700964561e-14
	7.494881069353020e-01

 2	2.000000000000000e-02
	-2.610637550708744e-15
	2.688243560556647e-19
	-1.962544632643679e-17
	6.641095408849205e-14
	1.558151462617707e-12
	4.781642739154354e-14
	7.494881069353028e-01

 3	3.000000000000000e-02
	-2.598373266122147e-15
	2.875564166314505e-19
	-2.098158010633875e-17
	9.131012923655869e-14
	2.158365977370005e-12
	6.623632465585382e-14
	7.494881069353038e-01

 4	4.000000000000000e-02
	-2.586256018649922e-15
	3.074570155104617e-19
	-2.245109868917310e-17
	1.255371997210343e-13
	2.989775508647706e-12
	9.175168058916227e-14
	7.494881069353052e-01

 5	5.000000000000000e-02
	-2.574280695350597e-15
	3.286121731333319e-19
	-2.404455764153650e-17
	1.725836114726783e-13
	4.141425202065719e-12
	1.270955397085384e-13
	7.494881069353074e-01

 6	6.000000000000000e-02
	-2.562442088056059e-15
	3.511181018131528e-19
	-2.577381272544158e-17
	2.372464107254808e-13
	5.736650932289306e-12
	1.760535605829099e-13
	7.494881069353103e-01

 7	7.000000000000001e-02
	-2.550734863017583e-15
	3.750822083834622e-19
	-2.765218614805882e-17
	3.261159347419563e-13
	7.946281212176095e-12
	2.438693567178536e-13
	7.494881069353142e-01

 8	8.000000000000000e-02
	-2.539153528554818e-15
	4.006240689759329e-19
	-2.969464682694570e-17
	4.482454440889525e-13
	1.100691979559907e-11
	3.378058845379575e-13
	7.494881069353196e-01

 9	9.000000000000000e-02
	-2.527692400690621e-15
	4.278763560801848e-19
	-3.191800491961024e-17
	6.160704700148159e-13
	1.524626297604818e-11
	4.679229268507337e-13
	7.494881069353275e-01

 10	9.999999999999999e-02
	-2.516345566755206e-15
	4.569856977180921e-19
	-3.434112086520280e-17
	8.466708481042049e-13
	2.111815627441014e-11
	6.481538108446298e-13
	7.494881069353378e-01

 11	1.100000000000000e-01
	-2.505106846941713e-15
	4.881134484239294e-19
	-3.698512919344921e-17
	1.163502951831874e-12
	2.925113379706044e-11
	8.977964592126448e-13
	7.494881069353525e-01

 12	1.200000000000000e-01
	-2.493969753792943e-15
	5.214363517049813e-19
	-3.987367736806984e-17
	1.598776980376854e-12
	4.051562011920722e-11
	1.243578101179686e-12
	7.494881069353727e-01

 13	1.300000000000000e-01
	-2.482927449595504e-15
	5.571470737216151e-19
	-4.303317994622616e-17
	2.196719017352334e-12
	5.611696109318294e-11
	1.722514165890608e-12
	7.494881069354006e-01

 14	1.400000000000000e-01
	-2.471972701654259e-15
	5.954545880349236e-19
	-4.649308834834213e-17
	3.018046418377114e-12
	7.772419621185890e-11
	2.385866536578887e-12
	7.494881069354397e-01

 15	1.500000000000000e-01
	-2.461097835416662e-15
	6.365843913857165e-19
	-5.028617653982155e-17
	4.146106725602589e-12
	1.076482801921218e-10
	3.304623424652519e-12
	7.494881069354935e-01

 16	1.600000000000000e-01
	-2.450294685414998e-15
	6.807785305357883e-19
	-5.444884292125620e-17
	5.695296788389923e-12
	1.490887035985590e-10
	4.577085002514126e-12
	7.494881069355678e-01

 17	1.700000000000000e-01
	-2.439554543996057e-15
	7.282954201355909e-19
	-5.902142869597906e-17
	7.822606515842437e-12
	2.064746997644175e-10
	6.339362679261314e-12
	7.494881069356709e-01

 18	1.800000000000000e-01
	-2.428868107815232e-15
	7.794094312508159e-19
	-6.404855291723582e-17
	1.074344307942251e-11
	2.859372114714062e-10
	8.779909034722598e-12
	7.494881069358136e-01

 19	1.900000000000000e-01
	-2.418225422089588e-15
	8.344102294026684e-19
	-6.957946428746211e-17
	1.475331688908432e-11
	3.959615601632228e-10
	1.215962233366118e-11
	7.494881069360114e-01

 20	2.000000000000000e-01
	-2.407615822637750e-15
	8.936018395206881e-19
	-7.566840955588925e-17
	2.025755169708299e-11
	5.482897302777289e-10
	1.683965876870183e-11
	7.494881069362853e-01

 21	2.100000000000000e-01
	-2.397027875791062e-15
	9.573014128064903e-19
	-8.237501799353355e-17
	2.781197395794952e-11
	7.591672902324159e-10
	2.331989832471226e-11
	7.494881069366647e-01

 22	2.200000000000001e-01
	-2.386449316349753e-15
	1.025837666885986e-18
	-8.976470086187082e-17
	3.817861726288477e-11
	1.051065864861781e-09
	3.229213035380740e-11
	7.494881069371894e-01

 23	2.300000000000001e-01
	-2.375866983890696e-15
	1.099548965542808e-18
	-9.790906396810389e-17
	5.240194927513041e-11
	1.455061350872805e-09
	4.471356751991927e-11
	7.494881069379165e-01

 24	2.400000000000001e-01
	-2.365266757922292e-15
	1.178780997615201e-18
	-1.068863302427880e-16
	7.191313007029207e-11
	2.014115607985815e-09
	6.190841872567784e-11
	7.494881069389232e-01

 25	2.500000000000001e-01
	-2.354633492639575e-15
	1.263884006280006e-18
	-1.167817677074294e-16
	9.867252904186013e-11
	2.787601755940058e-09
	8.570816693906378e-11
	7.494881069403158e-01

 26	2.600000000000001e-01
	-2.343950952371904e-15
	1.355209510118021e-18
	-1.276881161427584e-16
	1.353644131512594e-10
	3.857539321443006e-09
	1.186451971951476e-10
	7.494881069422429e-01

 27	2.700000000000001e-01
	-2.333201749247881e-15
	1.453106446487022e-18
	-1.397060031516338e-16
	1.856627069097368e-10
	5.337177147312799e-09
	1.642198969914052e-10
	7.494881069449101e-01

 28	2.800000000000001e-01
	-2.322367285136277e-15
	1.557916656560702e-18
	-1.529443370762311e-16
	2.545934588241815e-10
	7.382794901116883e-09
	2.272688362394447e-10
	7.494881069485994e-01

 29	2.900000000000001e-01
	-2.311427700562731e-15
	1.669969621004858e-18
	-1.675206603424973e-16
	3.490287179067855e-10
	1.020990884683991e-08
	3.144718380518282e-10
	7.494881069537027e-01

 30	3.000000000000001e-01
	-2.300361834048798e-15
	1.789576347105862e-18
	-1.835614422646969e-16
	4.783586988318790e-10
	1.411549111249919e-08
	4.350496224285781e-10
	7.494881069607586e-01

 31	3.100000000000001e-01
	-2.289147196163067e-15
	1.917022304065342e-18
	-2.012022851947695e-16
	6.554053999971154e-10
	1.950837841367725e-08
	6.017224949699017e-10
	7.494881069705123e-01

 32	3.200000000000001e-01
	-2.277759963494378e-15
	2.052559305314189e-18
	-2.205880122533877e-16
	8.976625299682349e-10
	2.695079941338700e-08
	8.320259023898151e-10
	7.494881069839896e-01

 33	3.300000000000001e-01
	-2.266174998720581e-15
	2.196396247581729e-18
	-2.418725989204041e-16
	1.228975342981441e-09
	3.721494289957901e-08
	1.150112708655746e-09
	7.494881070026040e-01

 34	3.400000000000001e-01
	-2.254365903903235e-15
	2.348688638818583e-18
	-2.652189047807316e-16
	1.681811849402299e-09
	5.135978516864014e-08
	1.589217466789119e-09
	7.494881070282997e-01

 35	3.500000000000001e-01
	-2.242305115018713e-15
	2.509526883744115e-18
	-2.907981561263528e-16
	2.300326390610738e-09
	7.083506644793195e-08
	2.195018158091419e-09
	7.494881070637508e-01

 36	3.600000000000002e-01
	-2.229964046446909e-15
	2.678923349474963e-18
	-3.187891254523174e-16
	3.144480787249925e-09
	9.762142886948751e-08
	3.030209974955858e-09
	7.494881071126257e-01

 37	3.700000000000002e-01
	-2.217313294563618e-15
	2.856798306653007e-18
	-3.493769508470235e-16
	4.295570691380640e-09
	1.344183725616498e-07
	4.180708609291535e-09
	7.494881071799521e-01

 38	3.800000000000002e-01
	-2.204322909582625e-15
	3.042964935123417e-18
	-3.827515377005031e-16
	5.863609237641090e-09
	1.848948982405391e-07
	5.764032651626857e-09
	7.494881072726068e-01

 39	3.900000000000002e-01
	-2.190962744211261e-15
	3.237113697505683e-18
	-4.191054879921899e-16
	7.997150465451039e-09
	2.540214771390401e-07
	7.940581808858412e-09
	7.494881073999771e-01

 40	4.000000000000002e-01
	-2.177202886353129e-15
	3.438796516910094e-18
	-4.586315096890569e-16
	1.089629460061227e-08
	3.485062157022854e-07
	1.092873489198180e-08
	7.494881075748409e-01

 41	4.100000000000002e-01
	-2.163014180855065e-15
	3.647411341852047e-18
	-5.015192714781013e-16
	1.482980796742392e-08
	4.773624914381231e-07
	1.502494226183281e-08
	7.494881078145480e-01

 42	4.200000000000002e-01
	-2.148368842022603e-15
	3.862187834111318e-18
	-5.479516870123899e-16
	2.015751089517606e-08
	6.526394035244533e-07
	2.063028110472143e-08
	7.494881081425681e-01

 43	4.300000000000002e-01
	-2.133241154245880e-15
	4.082175062232802e-18
	-5.981006385867796e-16
	2.735933119897004e-08
	8.903492278877389e-07
	2.828527106545514e-08
	7.494881085905324e-01

 44	4.400000000000002e-01
	-2.117608252601616e-15
	4.306232209297344e-18
	-6.521221826883023e-16
	3.707267434618467e-08
	1.211626356608619e-06
	3.871509391920806e-08
	7.494881092008777e-01

 45	4.500000000000002e-01
	-2.101450968861625e-15
	4.533023390168026e-18
	-7.101513184906595e-16
	5.013999836262781e-08
	1.644148087598593e-06
	5.288768974050664e-08
	7.494881100302474e-01

 46	4.600000000000002e-01
	-2.084754721227148e-15
	4.761017700525349e-18
	-7.722964435108927e-16
	6.766866047708777e-08
	2.223836806417764e-06
	7.208745816052494e-08
	7.494881111538032e-01

 47	4.700000000000003e-01
	-2.067510418764682e-15
	4.988495567820172e-18
	-8.386336657702577e-16
	9.110516311061116e-08
	2.996843075666538e-06
	9.800739718183527e-08
	7.494881126706175e-01

 48	4.800000000000003e-01
	-2.049715344543633e-15
	5.213562326048533e-18
	-9.092011853855045e-16
	1.223257883807193e-07
	4.021777853390858e-06
	1.328623605560224e-07
	7.494881147103039e-01

 49	4.900000000000003e-01
	-2.031373975595205e-15
	5.434169681582314e-18
	-9.839939962421724e-16
	1.637451745950647e-07
	5.372118915789402e-06
	1.795255905126568e-07
	7.494881174410007e-01

 50	5.000000000000002e-01
	-2.012498693817828e-15
	5.648145375398043e-18
	-1.062959185482747e-15
	2.184435496846997e-07
	7.138663931735920e-06
	2.416896758146115e-07
	7.494881210787963e-01

 51	5.100000000000002e-01
	-1.993110340617384e-15
	5.853230889517131e-18
	-1.145992120238662e-15
	2.903120027604250e-07
	9.431847469444228e-06
	3.240515311616175e-07
	7.494881258985500e-01

 52	5.200000000000002e-01
	-1.973238570031543e-15
	6.047126517720875e-18
	-1.232933803285742e-15
	3.842132992122526e-07
	1.238369410152748e-05
	4.325189255952615e-07
	7.494881322459803e-01

 53	5.300000000000002e-01
	-1.952921960743598e-15
	6.227542561468809e-18
	-1.323569649421262e-15
	5.061533682199689e-07
	1.614916239381726e-05
	5.744336903689614e-07
	7.494881405507268e-01

 54	5.400000000000003e-01
	-1.932207856794744e-15
	6.392254871021008e-18
	-1.417629881659421e-15
	6.634558864281152e-07
	2.090666423156445e-05
	7.588043856758351e-07
	7.494881513399635e-01

 55	5.500000000000003e-01
	-1.911151919594535e-15
	6.539162484431290e-18
	-1.514791672575709e-15
	8.649296769107760e-07
	2.685763460492544e-05
	9.965394491997657e-07
	7.494881652520451e-01

 56	5.600000000000003e-01
	-1.889817389220563e-15
	6.666344777761339e-18
	-1.614683065632780e-15
	1.121016407454690e-06
	3.422517768303388e-05
	1.300671309458802e-06
	7.494881830496226e-01

 57	5.700000000000003e-01
	-1.868274069824869e-15
	6.772115374403989e-18
	-1.716888610767807e-15
	1.443904832047228e-06
	4.325200128658948e-05
	1.686563123380724e-06
	7.494882056317378e-01

 58	5.800000000000003e-01
	-1.846597070796140e-15
	6.855070099831357e-18
	-1.820956546303269e-15
	1.847597999570291e-06
	5.419802366684862e-05
	2.172092815356993e-06
	7.494882340445985e-01

 59	5.900000000000003e-01
	-1.824865350632837e-15
	6.914126519184245e-18
	-1.926407264517711e-15
	2.347921581728313e-06
	6.733812768946307e-05
	2.777813484623233e-06
	7.494882694909645e-01

 60	6.000000000000003e-01
	-1.803160122824261e-15
	6.948553043919778e-18
	-2.032742719763908e-15
	2.962464418343509e-06
	8.296048766170579e-05
	3.527093884744571e-06
	7.494883133383672e-01

 61	6.100000000000003e-01
	-1.781563191255128e-15
	6.957986202523507e-18
	-2.139456383128135e-15
	3.710445738945042e-06
	1.013656755481051e-04
	4.446245976893693e-06
	7.494883671265768e-01

 62	6.200000000000003e-01
	-1.760155286017597e-15
	6.942435383187888e-18
	-2.246043321106615e-15
	4.612506225183400e-06
	1.228663912711706e-04
	5.564646908930332e-06
	7.494884325747428e-01

 63	6.300000000000003e-01
	-1.739014468826079e-15
	6.902275106665901e-18
	-2.352009979410373e-15
	5.690421209321978e-06
	1.477872343304940e-04
	6.914859092275901e-06
	7.494885115884208e-01

 64	6.400000000000003e-01
	-1.718214670811455e-15
	6.838225606523438e-18
	-2.456883285387015e-15
	6.966733578424583e-06
	1.764635504312643e-04
	8.532744218978153e-06
	7.494886062662466e-01

 65	6.500000000000004e-01
	-1.697824415116878e-15
	6.751323119813776e-18
	-2.560218739393391e-15
	8.464302067733284e-06
	2.092381533062003e-04
	1.045755607009592e-05
	7.494887189053695e-01

 66	6.600000000000004e-01
	-1.677905763563405e-15
	6.642881775869637e-18
	-2.661607240330657e-15
	1.020575924763291e-05
	2.464547112147477e-04
	1.273198471530423e-05
	7.494888520040408e-01

 67	6.700000000000004e-01
	-1.658513512014817e-15
	6.514449285184682e-18
	-2.760680475809544e-15
	1.221287486035025e-05
	2.884468263650153e-04
	1.540211359345159e-05
	7.494890082591020e-01

 68	6.800000000000004e-01
	-1.639694644268831e-15
	6.367758765163630e-18
	-2.857114795189924e-15
	1.450582630111315e-05
	3.355223098391585e-04
	1.851724344917212e-05
	7.494891905556827e-01

 69	6.900000000000004e-01
	-1.621488040515404e-15
	6.204679004573244e-18
	-2.950633566883743e-15
	1.710239003441189e-05
	3.879428235570151e-04
	2.212953535043956e-05
	7.494894019463102e-01

 70	7.000000000000004e-01
	-1.603924424556335e-15
	6.027165288600035e-18
	-3.041008094074274e-15
	2.001708500511212e-05
	4.458998642483077e-04
	2.629343068667855e-05
	7.494896456169632e-01

 71	7.100000000000004e-01
	-1.587026524683698e-15
	5.837212616249937e-18
	-3.128057221444462e-15
	2.326031909575894e-05
	5.094889185649666e-04
	3.106482009443169e-05
	7.494899248384351e-01

 72	7.200000000000004e-01
	-1.570809416650684e-15
	5.636812780594715e-18
	-3.211645807597401e-15
	2.683760808039706e-05
	5.786844042424812e-04
	3.649995561832137e-05
	7.494902429026646e-01

 73	7.300000000000004e-01
	-1.555281013525060e-15
	5.427916388739114e-18
	-3.291682263340645e-15
	3.074894805374704e-05
	6.533185707016621e-04
	4.265412963393252e-05
	7.494906030454197e-01

 74	7.400000000000004e-01
	-1.540442666143653e-15
	5.212400506522973e-18
	-3.368115366091891e-15
	3.498842208217029e-05
	7.330676838678139e-04
	4.958017695839945e-05
	7.494910083586283e-01

 75	7.500000000000004e-01
	-1.526289838975037e-15
	4.992042250083148e-18
	-3.440930557572050e-15
	3.954410694806891e-05
	8.174484126635779e-04
	5.732688826818973e-05
	7.494914616975169e-01

 76	7.600000000000005e-01
	-1.512812828949110e-15
	4.768498331540742e-18
	-3.510145918494753e-15
	4.439831683846314e-05
	9.058263134526136e-04
	6.593744745824398e-05
	7.494919655891553e-01

 77	7.700000000000005e-01
	-1.499997498708598e-15
	4.543290310263969e-18
	-3.575807993136594e-15
	4.952818202529920e-05
	9.974367731467315e-04
	7.544801713213959e-05
	7.494925221496662e-01

 78	7.800000000000005e-01
	-1.487826000292816e-15
	4.317795108305574e-18
	-3.637987611344472e-15
	5.490651942419069e-05
	1.091416988099649e-03
	8.588659108178754e-05
	7.494931330170616e-01

 79	7.900000000000005e-01
	-1.476277470059622e-15
	4.093240216985989e-18
	-3.696775828218601e-15
	6.050291688108336e-05
	1.186845902471732e-03
	9.727220977123813e-05
	7.494937993053277e-01

 80	8.000000000000005e-01
	-1.465328680353368e-15
	3.870702945435388e-18
	-3.752280074441866e-15
	6.628493114763532e-05
	1.282787884929500e-03
	1.096145977467620e-04
	7.494945215832055e-01

 81	8.100000000000005e-01
	-1.454954637790897e-15
	3.651113032996730e-18
	-3.804620584533815e-15
	7.221929430538323e-05
	1.378335540799535e-03
	1.229142370722682e-04
	7.494952998784895e-01

 82	8.200000000000005e-01
	-1.445129121904365e-15
	3.435257956361286e-18
	-3.853927147226122e-15
	7.827303418802627e-05
	1.472647486558754e-03
	1.371628463976342e-04
	7.494961337060717e-01

 83	8.300000000000005e-01
	-1.435825161161936e-15
	3.223790299662986e-18
	-3.900336202286660e-15
	8.441443690633282e-05
	1.564977993013691e-03
	1.523441985622988e-04
	7.494970221157965e-01

 84	8.400000000000005e-01
	-1.427015446057284e-15
	3.017236612633855e-18
	-3.943988291708517e-15
	9.061380786347364e-05
	1.654696830993501e-03
	1.684351857661472e-04
	7.494979637548081e-01

 85	8.500000000000005e-01
	-1.418672681032413e-15
	2.816007250522107e-18
	-3.985025860201544e-15
	9.684401572308189e-05
	1.741299094838515e-03
	1.854070320796034e-04
	7.494989569385204e-01

 86	8.600000000000005e-01
	-1.410769878522753e-15
	2.620406763347360e-18
	-4.023591390156789e-15
	1.030808272377246e-04
	1.824405965489495e-03
	2.032265571113686e-04
	7.494999997245789e-01

 87	8.700000000000006e-01
	-1.403280599454507e-15
	2.430644476176375e-18
	-4.059825849352255e-15
	1.093030573520030e-04
	1.903758157100950e-03
	2.218574085915873e-04
	7.495010899850063e-01

 88	8.800000000000006e-01
	-1.396179145157210e-15
	2.246844972766010e-18
	-4.093867425219033e-15
	1.154925682108888e-04
	1.979204143092494e-03
	2.412612011913089e-04
	7.495022254728541e-01

 89	8.900000000000006e-01
	-1.389440705956118e-15
	2.069058259686937e-18
	-4.125850517055299e-15
	1.216341536454959e-04
	2.050685245798869e-03
	2.613985200606651e-04
	7.495034038809406e-01

 90	9.000000000000006e-01
	-1.383041471752733e-15
	1.897269445471805e-18
	-4.155904956741505e-15
	1.277153440597328e-04
	2.118219411461029e-03
	2.822297672414787e-04
	7.495046228913900e-01

 91	9.100000000000006e-01
	-1.376958709753563e-15
	1.731407818811673e-18
	-4.184155428885898e-15
	1.337261621818702e-04
	2.181885098338432e-03
	3.037158453986769e-04
	7.495058802156476e-01

 92	9.200000000000006e-01
	-1.371170814223987e-15
	1.571355251328845e-18
	-4.210721062579068e-15
	1.396588543931766e-04
	2.241806278990701e-03
	3.258186854269456e-04
	7.495071736253595e-01

 93	9.300000000000006e-01
	-1.365657332773423e-15
	1.416953884381201e-18
	-4.235715168774887e-15
	1.455076164077016e-04
	2.298139165629747e-03
	3.485016324651496e-04
	7.495085009749648e-01

 94	9.400000000000006e-01
	-1.360398973257360e-15
	1.268013086359362e-18
	-4.259245099513843e-15
	1.512683266433133e-04
	2.351060946187561e-03
	3.717297092449489e-04
	7.495098602171056e-01

 95	9.500000000000006e-01
	-1.355377594940755e-15
	1.124315687823108e-18
	-4.281412207583404e-15
	1.569382960423151e-04
	2.400760580207563e-03
	3.954697772978168e-04
	7.495112494120629e-01

 96	9.600000000000006e-01
	-1.350576187127106e-15
	9.856235174268396e-19
	-4.302311887633362e-15
	1.625160394756030e-04
	2.447431543610986e-03
	4.196906161624966e-04
	7.495126667323889e-01

 97	9.700000000000006e-01
	-1.345978838033767e-15
	8.516822727552491e-19
	-4.322033682134347e-15
	1.680010711524822e-04
	2.491266317083734e-03
	4.443629390977553e-04
	7.495141104638268e-01

 98	9.800000000000006e-01
	-1.341570696296723e-15
	7.222257676995533e-19
	-4.340661437817310e-15
	1.733937245365323e-04
	2.532452368637082e-03
	4.694593614923840e-04
	7.495155790034588e-01

 99	9.900000000000007e-01
	-1.337337927123398e-15
	5.969796025725909e-19
	-4.358273500318722e-15
	1.786949959858947e-04
	2.571169371755436e-03
	4.949543355990875e-04
	7.495170708558870e-01

 100	1.000000000000001e+00
	-1.333267664783081e-15
	4.756643054056158e-19
	-4.374942936655554e-15
	1.839064105457122e-04
	2.607587413732119e-03
	5.208240626851722e-04
	7.495185846280893e-01

 101	1.010000000000001e+00
	-1.329347962832257e-15
	3.579979933296285e-19
	-4.390737776856976e-15
	1.890299078902267e-04
	2.641865974507249e-03
	5.470463913616400e-04
	7.495201190234705e-01

